!CETC41,AV3656A,ZGL00048,1.3.2
!Calibration ON (Full Solt 2-Port(Omit Isolation))
!Measurements: S11 S21 S12 S22
!2025-04-18 01:24
# Hz  S  dB  R 50.000
6.150000e+006	-3.080907e+001	8.520014e+001	-3.068596e+001	-1.705238e+001	-9.294853e+001	-1.353449e+002	-2.894164e+001	9.062969e+001
6.150039e+006	-3.080469e+001	8.524124e+001	-3.067521e+001	-1.700921e+001	-8.789335e+001	2.591976e+001	-2.894877e+001	9.072250e+001
6.150078e+006	-3.080154e+001	8.517969e+001	-3.067519e+001	-1.694371e+001	-9.585079e+001	1.417198e-003	-2.895103e+001	9.075000e+001
6.150117e+006	-3.080347e+001	8.522311e+001	-3.066893e+001	-1.709199e+001	-9.199401e+001	9.109858e+001	-2.895329e+001	9.066816e+001
6.150156e+006	-3.079868e+001	8.523113e+001	-3.066583e+001	-1.706746e+001	-1.016823e+002	1.114026e+002	-2.895052e+001	9.074391e+001
6.150195e+006	-3.080142e+001	8.522956e+001	-3.066957e+001	-1.701732e+001	-8.841083e+001	5.146150e+001	-2.895052e+001	9.073322e+001
6.150234e+006	-3.079700e+001	8.519372e+001	-3.067602e+001	-1.703068e+001	-9.286889e+001	2.112280e+001	-2.894631e+001	9.072367e+001
6.150273e+006	-3.080098e+001	8.522213e+001	-3.066707e+001	-1.706892e+001	-8.576902e+001	1.255125e+002	-2.894988e+001	9.072961e+001
6.150313e+006	-3.078865e+001	8.519271e+001	-3.067256e+001	-1.709455e+001	-9.246214e+001	9.911699e+001	-2.895015e+001	9.070551e+001
6.150352e+006	-3.079899e+001	8.523009e+001	-3.066892e+001	-1.705339e+001	-9.217862e+001	6.884193e+001	-2.895563e+001	9.073729e+001
6.150391e+006	-3.079917e+001	8.518193e+001	-3.067130e+001	-1.699684e+001	-1.107602e+002	-1.393358e+002	-2.894271e+001	9.064966e+001
6.150430e+006	-3.080160e+001	8.518991e+001	-3.066277e+001	-1.705768e+001	-9.406117e+001	7.842498e+001	-2.894864e+001	9.069303e+001
6.150469e+006	-3.079497e+001	8.520065e+001	-3.067632e+001	-1.700777e+001	-9.245464e+001	6.950623e+001	-2.894802e+001	9.074417e+001
6.150508e+006	-3.079415e+001	8.518325e+001	-3.067899e+001	-1.698017e+001	-8.789678e+001	3.746873e+001	-2.893693e+001	9.074100e+001
6.150547e+006	-3.079677e+001	8.521343e+001	-3.067190e+001	-1.702175e+001	-9.996407e+001	1.108212e+002	-2.895293e+001	9.073508e+001
6.150586e+006	-3.080294e+001	8.518858e+001	-3.067181e+001	-1.707826e+001	-9.090354e+001	-7.633995e+000	-2.894806e+001	9.064162e+001
6.150625e+006	-3.080155e+001	8.524889e+001	-3.067349e+001	-1.707123e+001	-1.001698e+002	-3.130170e+001	-2.894036e+001	9.071499e+001
6.150664e+006	-3.078491e+001	8.517081e+001	-3.067418e+001	-1.698322e+001	-9.137118e+001	-1.557539e+002	-2.894697e+001	9.074012e+001
6.150703e+006	-3.080306e+001	8.526906e+001	-3.067381e+001	-1.705280e+001	-9.644717e+001	-9.457946e+001	-2.894557e+001	9.071808e+001
6.150742e+006	-3.080004e+001	8.525947e+001	-3.066794e+001	-1.701563e+001	-1.022724e+002	-4.853832e+001	-2.893979e+001	9.075286e+001
6.150781e+006	-3.079441e+001	8.521524e+001	-3.066387e+001	-1.707613e+001	-8.394511e+001	1.136807e+002	-2.895231e+001	9.077327e+001
6.150820e+006	-3.080203e+001	8.525119e+001	-3.066636e+001	-1.708755e+001	-1.057702e+002	-9.932691e+001	-2.894560e+001	9.074863e+001
6.150859e+006	-3.080366e+001	8.523049e+001	-3.067595e+001	-1.706203e+001	-9.032061e+001	8.350542e+001	-2.893343e+001	9.072522e+001
6.150898e+006	-3.079026e+001	8.527687e+001	-3.066812e+001	-1.700051e+001	-1.038063e+002	-9.669791e+001	-2.895027e+001	9.071763e+001
6.150938e+006	-3.079724e+001	8.527033e+001	-3.067021e+001	-1.699885e+001	-9.108199e+001	6.078748e+001	-2.894793e+001	9.074281e+001
6.150977e+006	-3.081230e+001	8.523952e+001	-3.066789e+001	-1.705717e+001	-9.216871e+001	1.733462e+000	-2.894732e+001	9.070055e+001
6.151016e+006	-3.080023e+001	8.530260e+001	-3.067625e+001	-1.694682e+001	-9.087925e+001	-1.216583e+002	-2.894901e+001	9.075372e+001
6.151055e+006	-3.080383e+001	8.520539e+001	-3.067134e+001	-1.702115e+001	-8.357490e+001	9.169191e+001	-2.894220e+001	9.074743e+001
6.151094e+006	-3.080099e+001	8.522392e+001	-3.067320e+001	-1.700107e+001	-1.012512e+002	-3.037235e+001	-2.894938e+001	9.076928e+001
6.151133e+006	-3.079879e+001	8.527652e+001	-3.067514e+001	-1.705598e+001	-9.344032e+001	1.019914e+002	-2.894712e+001	9.070599e+001
6.151172e+006	-3.079677e+001	8.529531e+001	-3.067605e+001	-1.710126e+001	-9.536996e+001	-2.943746e+001	-2.894596e+001	9.074770e+001
6.151211e+006	-3.078803e+001	8.526240e+001	-3.067700e+001	-1.707180e+001	-1.031509e+002	1.521516e+001	-2.894728e+001	9.075920e+001
6.151250e+006	-3.079506e+001	8.521805e+001	-3.066832e+001	-1.700763e+001	-1.015839e+002	1.379407e+002	-2.894588e+001	9.077115e+001
6.151289e+006	-3.080264e+001	8.527330e+001	-3.067751e+001	-1.707015e+001	-9.586472e+001	5.085492e+001	-2.894542e+001	9.078452e+001
6.151328e+006	-3.080267e+001	8.524422e+001	-3.066849e+001	-1.701439e+001	-8.964812e+001	-9.528893e+000	-2.895463e+001	9.076125e+001
6.151367e+006	-3.079645e+001	8.530071e+001	-3.067165e+001	-1.700102e+001	-8.963277e+001	6.301099e+001	-2.895417e+001	9.076101e+001
6.151406e+006	-3.079875e+001	8.525297e+001	-3.068041e+001	-1.701418e+001	-9.336346e+001	-1.378324e+002	-2.893972e+001	9.075691e+001
6.151445e+006	-3.080449e+001	8.525191e+001	-3.066628e+001	-1.705351e+001	-9.902794e+001	-1.300596e+002	-2.895408e+001	9.073729e+001
6.151484e+006	-3.080053e+001	8.521542e+001	-3.066172e+001	-1.703014e+001	-8.948195e+001	6.775717e+001	-2.893554e+001	9.076836e+001
6.151523e+006	-3.079503e+001	8.523529e+001	-3.067000e+001	-1.701663e+001	-9.533777e+001	1.312742e+002	-2.894106e+001	9.078478e+001
6.151563e+006	-3.079642e+001	8.528006e+001	-3.067437e+001	-1.704811e+001	-1.005862e+002	9.190541e+001	-2.894834e+001	9.077286e+001
6.151602e+006	-3.080488e+001	8.527484e+001	-3.066397e+001	-1.707420e+001	-9.424013e+001	1.004849e+002	-2.895274e+001	9.071432e+001
6.151641e+006	-3.080169e+001	8.526436e+001	-3.067345e+001	-1.702338e+001	-9.286486e+001	-6.444536e+001	-2.895421e+001	9.078494e+001
6.151680e+006	-3.080301e+001	8.527119e+001	-3.067765e+001	-1.701330e+001	-8.996670e+001	-3.218003e+001	-2.894060e+001	9.069920e+001
6.151719e+006	-3.080790e+001	8.528465e+001	-3.066798e+001	-1.712583e+001	-8.949248e+001	7.248964e+001	-2.894094e+001	9.071827e+001
6.151758e+006	-3.080437e+001	8.518294e+001	-3.066814e+001	-1.703893e+001	-9.127852e+001	-7.239626e+000	-2.895468e+001	9.075601e+001
6.151797e+006	-3.079526e+001	8.521803e+001	-3.066766e+001	-1.702739e+001	-9.356952e+001	4.512326e+001	-2.895062e+001	9.081751e+001
6.151836e+006	-3.079805e+001	8.523916e+001	-3.067096e+001	-1.702101e+001	-1.003781e+002	7.968323e+001	-2.895001e+001	9.073884e+001
6.151875e+006	-3.080089e+001	8.528625e+001	-3.066579e+001	-1.698347e+001	-8.666782e+001	2.681830e+000	-2.894582e+001	9.075658e+001
6.151914e+006	-3.080664e+001	8.523951e+001	-3.067171e+001	-1.704618e+001	-1.014530e+002	-8.007054e+001	-2.894265e+001	9.076360e+001
6.151953e+006	-3.079936e+001	8.519656e+001	-3.066393e+001	-1.708357e+001	-9.114484e+001	1.946308e+000	-2.895026e+001	9.074357e+001
6.151992e+006	-3.079460e+001	8.521231e+001	-3.066817e+001	-1.702451e+001	-9.665510e+001	6.671761e+001	-2.895183e+001	9.073390e+001
6.152031e+006	-3.080184e+001	8.524146e+001	-3.066927e+001	-1.708407e+001	-9.124389e+001	6.528121e+001	-2.894338e+001	9.073786e+001
6.152070e+006	-3.079979e+001	8.525529e+001	-3.067460e+001	-1.699854e+001	-9.418940e+001	1.063466e+002	-2.894943e+001	9.073910e+001
6.152109e+006	-3.079729e+001	8.531622e+001	-3.066746e+001	-1.703118e+001	-9.330263e+001	9.997971e+001	-2.894534e+001	9.069704e+001
6.152148e+006	-3.080351e+001	8.529111e+001	-3.068159e+001	-1.703502e+001	-9.241865e+001	4.718704e+001	-2.894749e+001	9.074902e+001
6.152188e+006	-3.080466e+001	8.520543e+001	-3.066859e+001	-1.702828e+001	-9.355919e+001	-1.207135e+002	-2.894754e+001	9.077490e+001
6.152227e+006	-3.080629e+001	8.527948e+001	-3.067445e+001	-1.706727e+001	-1.038130e+002	8.397431e+000	-2.894628e+001	9.074523e+001
6.152266e+006	-3.079961e+001	8.528118e+001	-3.067801e+001	-1.703703e+001	-9.329408e+001	1.390601e+002	-2.894345e+001	9.075766e+001
6.152305e+006	-3.080715e+001	8.522834e+001	-3.067384e+001	-1.709543e+001	-8.997092e+001	1.199116e+002	-2.894613e+001	9.070886e+001
6.152344e+006	-3.079588e+001	8.522707e+001	-3.067059e+001	-1.709452e+001	-8.774549e+001	8.859782e+001	-2.894783e+001	9.079358e+001
6.152383e+006	-3.080151e+001	8.528039e+001	-3.067606e+001	-1.696543e+001	-9.378252e+001	6.709918e+001	-2.894263e+001	9.075000e+001
6.152422e+006	-3.079891e+001	8.529846e+001	-3.067911e+001	-1.702705e+001	-9.028349e+001	6.592718e+001	-2.894268e+001	9.077408e+001
6.152461e+006	-3.080818e+001	8.532713e+001	-3.066152e+001	-1.705041e+001	-8.887842e+001	-7.508564e+000	-2.895185e+001	9.073287e+001
6.152500e+006	-3.079003e+001	8.524871e+001	-3.067159e+001	-1.704164e+001	-9.275198e+001	-5.273785e+001	-2.894491e+001	9.075470e+001
6.152539e+006	-3.079930e+001	8.528899e+001	-3.067019e+001	-1.701680e+001	-9.335723e+001	1.500926e+002	-2.894744e+001	9.074448e+001
6.152578e+006	-3.079578e+001	8.527476e+001	-3.067027e+001	-1.700537e+001	-9.734944e+001	8.601851e+001	-2.894614e+001	9.072624e+001
6.152617e+006	-3.080619e+001	8.529840e+001	-3.066716e+001	-1.706581e+001	-9.348580e+001	7.271640e+001	-2.894780e+001	9.081937e+001
6.152656e+006	-3.080170e+001	8.531160e+001	-3.067597e+001	-1.699684e+001	-9.728633e+001	-4.293715e+001	-2.895031e+001	9.073680e+001
6.152695e+006	-3.081042e+001	8.527713e+001	-3.067119e+001	-1.707195e+001	-9.569321e+001	-2.397696e+001	-2.894779e+001	9.073114e+001
6.152734e+006	-3.079902e+001	8.528649e+001	-3.066809e+001	-1.702009e+001	-9.140106e+001	1.469939e+002	-2.893605e+001	9.076987e+001
6.152773e+006	-3.080186e+001	8.528733e+001	-3.065854e+001	-1.707127e+001	-9.379900e+001	9.634593e+001	-2.894682e+001	9.075844e+001
6.152813e+006	-3.081441e+001	8.528272e+001	-3.067161e+001	-1.708263e+001	-9.200323e+001	4.440486e+001	-2.894637e+001	9.076470e+001
6.152852e+006	-3.080479e+001	8.524871e+001	-3.066451e+001	-1.703425e+001	-9.327548e+001	9.946452e+001	-2.894624e+001	9.076745e+001
6.152891e+006	-3.079652e+001	8.528069e+001	-3.066319e+001	-1.707474e+001	-8.839245e+001	1.456193e+002	-2.894721e+001	9.076121e+001
6.152930e+006	-3.079376e+001	8.529781e+001	-3.066616e+001	-1.703467e+001	-1.005484e+002	-1.095700e+002	-2.894426e+001	9.080877e+001
6.152969e+006	-3.080384e+001	8.521863e+001	-3.066752e+001	-1.701412e+001	-9.971249e+001	-1.772619e+002	-2.894486e+001	9.075792e+001
6.153008e+006	-3.080243e+001	8.530180e+001	-3.068147e+001	-1.699899e+001	-8.928250e+001	-3.254098e+000	-2.894809e+001	9.075987e+001
6.153047e+006	-3.080149e+001	8.532170e+001	-3.066995e+001	-1.705330e+001	-8.874789e+001	9.870299e+001	-2.894557e+001	9.074914e+001
6.153086e+006	-3.080586e+001	8.528101e+001	-3.067068e+001	-1.702344e+001	-9.337693e+001	-1.470314e+002	-2.894649e+001	9.073677e+001
6.153125e+006	-3.080303e+001	8.529055e+001	-3.066657e+001	-1.703202e+001	-9.397133e+001	-2.546904e+001	-2.894882e+001	9.077725e+001
6.153164e+006	-3.080679e+001	8.534885e+001	-3.067105e+001	-1.695404e+001	-9.336957e+001	8.667531e+001	-2.894641e+001	9.078297e+001
6.153203e+006	-3.080162e+001	8.525487e+001	-3.067344e+001	-1.703865e+001	-9.333285e+001	1.621265e+002	-2.894808e+001	9.075386e+001
6.153242e+006	-3.080562e+001	8.525159e+001	-3.067201e+001	-1.707339e+001	-9.241589e+001	-1.336592e+002	-2.895576e+001	9.076819e+001
6.153281e+006	-3.080416e+001	8.530429e+001	-3.067808e+001	-1.701097e+001	-1.011336e+002	-8.848790e+001	-2.895279e+001	9.077088e+001
6.153320e+006	-3.080227e+001	8.523324e+001	-3.066772e+001	-1.703238e+001	-8.658085e+001	4.644097e+001	-2.895292e+001	9.080806e+001
6.153359e+006	-3.081246e+001	8.527140e+001	-3.066847e+001	-1.704106e+001	-9.136342e+001	2.312993e+001	-2.894790e+001	9.077848e+001
6.153398e+006	-3.079942e+001	8.530869e+001	-3.067220e+001	-1.706049e+001	-8.611720e+001	1.399158e+001	-2.894247e+001	9.078708e+001
6.153438e+006	-3.080009e+001	8.533190e+001	-3.066647e+001	-1.703774e+001	-9.140300e+001	-5.830040e+001	-2.894311e+001	9.073881e+001
6.153477e+006	-3.080356e+001	8.529038e+001	-3.066928e+001	-1.702479e+001	-9.259251e+001	1.195540e+002	-2.895129e+001	9.080685e+001
6.153516e+006	-3.079160e+001	8.531060e+001	-3.066280e+001	-1.704390e+001	-1.088635e+002	8.048264e+001	-2.894404e+001	9.081624e+001
6.153555e+006	-3.079697e+001	8.527135e+001	-3.066810e+001	-1.708522e+001	-9.295915e+001	1.539132e+002	-2.894273e+001	9.074825e+001
6.153594e+006	-3.079807e+001	8.532481e+001	-3.067974e+001	-1.694139e+001	-9.138637e+001	3.665966e+001	-2.895042e+001	9.073432e+001
6.153633e+006	-3.080740e+001	8.525288e+001	-3.066704e+001	-1.705402e+001	-9.114445e+001	-4.869980e+001	-2.894313e+001	9.077283e+001
6.153672e+006	-3.080817e+001	8.527868e+001	-3.066786e+001	-1.708949e+001	-9.780556e+001	1.196664e+002	-2.894643e+001	9.079987e+001
6.153711e+006	-3.079135e+001	8.524090e+001	-3.067158e+001	-1.710283e+001	-1.040206e+002	1.187891e+002	-2.894835e+001	9.075271e+001
6.153750e+006	-3.081602e+001	8.528790e+001	-3.066510e+001	-1.709648e+001	-9.433999e+001	6.418155e+001	-2.894903e+001	9.083845e+001
6.153789e+006	-3.079659e+001	8.534776e+001	-3.067109e+001	-1.700406e+001	-8.793160e+001	6.095676e+001	-2.894311e+001	9.079588e+001
6.153828e+006	-3.080485e+001	8.533906e+001	-3.066549e+001	-1.703867e+001	-9.162673e+001	-1.757215e+002	-2.894838e+001	9.079733e+001
6.153867e+006	-3.079883e+001	8.536149e+001	-3.067112e+001	-1.704410e+001	-9.579469e+001	-6.779955e+000	-2.894746e+001	9.076237e+001
6.153906e+006	-3.080638e+001	8.527384e+001	-3.065651e+001	-1.706128e+001	-8.900209e+001	1.693346e+002	-2.894817e+001	9.076159e+001
6.153945e+006	-3.080550e+001	8.529824e+001	-3.066977e+001	-1.704948e+001	-9.087814e+001	1.380305e+002	-2.895134e+001	9.079399e+001
6.153984e+006	-3.079306e+001	8.531981e+001	-3.066614e+001	-1.702774e+001	-1.063776e+002	8.137339e+000	-2.894846e+001	9.083431e+001
6.154023e+006	-3.080164e+001	8.532511e+001	-3.067286e+001	-1.705914e+001	-9.292384e+001	3.421278e+001	-2.894754e+001	9.081231e+001
6.154063e+006	-3.080635e+001	8.526365e+001	-3.066617e+001	-1.699976e+001	-8.807580e+001	1.810714e+001	-2.895179e+001	9.078276e+001
6.154102e+006	-3.079898e+001	8.528312e+001	-3.066867e+001	-1.703907e+001	-9.130033e+001	1.195060e+002	-2.895346e+001	9.076446e+001
6.154141e+006	-3.081436e+001	8.529527e+001	-3.068327e+001	-1.706491e+001	-9.816629e+001	1.079098e+002	-2.895208e+001	9.081651e+001
6.154180e+006	-3.079902e+001	8.533958e+001	-3.067801e+001	-1.701839e+001	-9.424259e+001	2.474008e+001	-2.895183e+001	9.082514e+001
6.154219e+006	-3.079916e+001	8.530022e+001	-3.066709e+001	-1.709333e+001	-9.793472e+001	-1.328868e+002	-2.894761e+001	9.077100e+001
6.154258e+006	-3.080116e+001	8.532380e+001	-3.066370e+001	-1.698024e+001	-9.173093e+001	3.201817e+001	-2.894875e+001	9.078435e+001
6.154297e+006	-3.080444e+001	8.537276e+001	-3.066530e+001	-1.703419e+001	-8.687277e+001	2.322717e+001	-2.895064e+001	9.081391e+001
6.154336e+006	-3.080252e+001	8.528016e+001	-3.066560e+001	-1.701703e+001	-9.068021e+001	-1.044184e+002	-2.895192e+001	9.080801e+001
6.154375e+006	-3.081031e+001	8.536583e+001	-3.066200e+001	-1.707603e+001	-9.669055e+001	-2.239985e+001	-2.894874e+001	9.076772e+001
6.154414e+006	-3.081526e+001	8.531000e+001	-3.067217e+001	-1.700217e+001	-8.817943e+001	1.473422e+002	-2.894831e+001	9.081591e+001
6.154453e+006	-3.079829e+001	8.532889e+001	-3.065208e+001	-1.704583e+001	-1.004072e+002	-1.073624e+002	-2.895005e+001	9.079658e+001
6.154492e+006	-3.080727e+001	8.528937e+001	-3.066918e+001	-1.703334e+001	-9.057883e+001	-7.781185e+001	-2.894637e+001	9.086356e+001
6.154531e+006	-3.080775e+001	8.535163e+001	-3.067045e+001	-1.703582e+001	-1.060858e+002	5.963561e+001	-2.894491e+001	9.069014e+001
6.154570e+006	-3.080693e+001	8.527726e+001	-3.066076e+001	-1.706826e+001	-9.227446e+001	1.043429e+002	-2.894077e+001	9.081204e+001
6.154609e+006	-3.080757e+001	8.530509e+001	-3.065834e+001	-1.699526e+001	-8.739679e+001	8.386623e+001	-2.894919e+001	9.080943e+001
6.154648e+006	-3.081277e+001	8.527900e+001	-3.066014e+001	-1.709532e+001	-9.446169e+001	-8.638267e-001	-2.894948e+001	9.079841e+001
6.154688e+006	-3.080000e+001	8.533645e+001	-3.065576e+001	-1.705169e+001	-8.793658e+001	5.179075e+001	-2.894561e+001	9.082259e+001
6.154727e+006	-3.081084e+001	8.533408e+001	-3.066282e+001	-1.705947e+001	-1.041547e+002	1.047292e+002	-2.894427e+001	9.076139e+001
6.154766e+006	-3.080404e+001	8.531709e+001	-3.066593e+001	-1.708298e+001	-9.031373e+001	4.351617e+001	-2.895102e+001	9.081067e+001
6.154805e+006	-3.080891e+001	8.527396e+001	-3.067485e+001	-1.700423e+001	-9.504756e+001	-1.319638e+002	-2.895431e+001	9.080704e+001
6.154844e+006	-3.080170e+001	8.525757e+001	-3.067394e+001	-1.707439e+001	-9.901307e+001	-1.506387e+002	-2.894491e+001	9.078108e+001
6.154883e+006	-3.080499e+001	8.533213e+001	-3.066816e+001	-1.708947e+001	-1.017610e+002	-1.204667e+002	-2.894988e+001	9.076522e+001
6.154922e+006	-3.080616e+001	8.535791e+001	-3.066557e+001	-1.699886e+001	-9.354768e+001	-5.780691e+001	-2.895216e+001	9.082408e+001
6.154961e+006	-3.081068e+001	8.535055e+001	-3.065643e+001	-1.706115e+001	-8.589812e+001	8.287778e+001	-2.896187e+001	9.081378e+001
6.155000e+006	-3.080457e+001	8.531316e+001	-3.066063e+001	-1.704460e+001	-8.899817e+001	5.566621e+001	-2.895666e+001	9.085704e+001
6.155039e+006	-3.081178e+001	8.532372e+001	-3.066632e+001	-1.704957e+001	-8.637700e+001	7.966792e+001	-2.894822e+001	9.075038e+001
6.155078e+006	-3.079404e+001	8.526895e+001	-3.065672e+001	-1.708543e+001	-1.000249e+002	1.136305e+002	-2.894991e+001	9.085087e+001
6.155117e+006	-3.079702e+001	8.530484e+001	-3.066191e+001	-1.709311e+001	-9.112281e+001	1.741614e+001	-2.894265e+001	9.085970e+001
6.155156e+006	-3.080787e+001	8.532858e+001	-3.067156e+001	-1.716013e+001	-8.679269e+001	1.055167e+002	-2.894174e+001	9.080523e+001
6.155195e+006	-3.079812e+001	8.533896e+001	-3.066820e+001	-1.710654e+001	-9.653137e+001	-2.751622e+001	-2.895005e+001	9.079363e+001
6.155234e+006	-3.080262e+001	8.536213e+001	-3.066803e+001	-1.711959e+001	-9.786388e+001	1.513322e+002	-2.895573e+001	9.080093e+001
6.155273e+006	-3.080340e+001	8.532295e+001	-3.068051e+001	-1.699644e+001	-8.634935e+001	1.189754e+002	-2.894906e+001	9.076537e+001
6.155313e+006	-3.079649e+001	8.536860e+001	-3.066981e+001	-1.696194e+001	-9.884382e+001	-9.885161e+001	-2.894706e+001	9.081514e+001
6.155352e+006	-3.080233e+001	8.534265e+001	-3.067041e+001	-1.710283e+001	-9.335723e+001	4.133715e+001	-2.895825e+001	9.077161e+001
6.155391e+006	-3.080529e+001	8.528797e+001	-3.067503e+001	-1.707052e+001	-1.066464e+002	-2.448689e+001	-2.894986e+001	9.082861e+001
6.155430e+006	-3.080935e+001	8.531824e+001	-3.066770e+001	-1.703865e+001	-8.925659e+001	1.043692e+002	-2.894941e+001	9.078580e+001
6.155469e+006	-3.081368e+001	8.535019e+001	-3.066721e+001	-1.703278e+001	-1.057666e+002	1.428323e+001	-2.894464e+001	9.084197e+001
6.155508e+006	-3.080740e+001	8.533281e+001	-3.067674e+001	-1.702948e+001	-9.940387e+001	8.552058e+001	-2.894863e+001	9.081494e+001
6.155547e+006	-3.079542e+001	8.533629e+001	-3.066218e+001	-1.704509e+001	-9.135490e+001	-1.425392e+002	-2.894750e+001	9.081919e+001
6.155586e+006	-3.080716e+001	8.536550e+001	-3.067749e+001	-1.709087e+001	-9.197721e+001	7.678357e+001	-2.894505e+001	9.079631e+001
6.155625e+006	-3.079971e+001	8.531574e+001	-3.065802e+001	-1.696861e+001	-1.064405e+002	1.265045e+002	-2.895054e+001	9.086840e+001
6.155664e+006	-3.081345e+001	8.534661e+001	-3.066580e+001	-1.708219e+001	-1.072690e+002	1.364496e+002	-2.895244e+001	9.078044e+001
6.155703e+006	-3.080421e+001	8.536990e+001	-3.067240e+001	-1.703335e+001	-8.547491e+001	-4.574987e+001	-2.894726e+001	9.080956e+001
6.155742e+006	-3.081576e+001	8.535587e+001	-3.067483e+001	-1.703878e+001	-8.694979e+001	9.086174e+001	-2.895252e+001	9.084806e+001
6.155781e+006	-3.079671e+001	8.537701e+001	-3.066467e+001	-1.708061e+001	-9.346323e+001	6.299012e+001	-2.894885e+001	9.078607e+001
