!CETC41,AV3656A,ZGL00048,1.3.2
!Calibration ON (Full Solt 2-Port(Omit Isolation))
!Measurements: S11 S21 S12 S22
!2025-04-29 17:46
# Hz  S  dB  R 50.000
6.150000e+006	-4.458614e+001	-9.487009e+001	-3.080776e+001	-1.196122e+001	-9.799121e+001	-1.717120e+002	-5.123726e+001	1.058384e+002
6.150039e+006	-4.458261e+001	-9.494853e+001	-3.080796e+001	-1.198806e+001	-9.024737e+001	1.721099e+002	-5.122694e+001	1.052311e+002
6.150078e+006	-4.456610e+001	-9.491924e+001	-3.081117e+001	-1.195992e+001	-9.045544e+001	8.225219e+001	-5.123690e+001	1.058453e+002
6.150117e+006	-4.457346e+001	-9.481538e+001	-3.081335e+001	-1.193793e+001	-9.528167e+001	-5.416010e+001	-5.121030e+001	1.055983e+002
6.150156e+006	-4.455871e+001	-9.504518e+001	-3.081558e+001	-1.196716e+001	-9.894357e+001	-1.660761e+002	-5.125220e+001	1.051987e+002
6.150195e+006	-4.462470e+001	-9.479055e+001	-3.080616e+001	-1.190580e+001	-9.047585e+001	4.378285e+001	-5.116448e+001	1.054235e+002
6.150234e+006	-4.455435e+001	-9.476105e+001	-3.080346e+001	-1.195682e+001	-8.695218e+001	1.167958e+002	-5.117674e+001	1.053155e+002
6.150273e+006	-4.458579e+001	-9.472993e+001	-3.080743e+001	-1.196056e+001	-9.085183e+001	8.392085e+001	-5.119852e+001	1.059899e+002
6.150313e+006	-4.459996e+001	-9.492266e+001	-3.081171e+001	-1.191943e+001	-9.566187e+001	1.057683e+002	-5.111195e+001	1.058092e+002
6.150352e+006	-4.455843e+001	-9.487370e+001	-3.079851e+001	-1.187930e+001	-8.407211e+001	7.215285e+001	-5.130964e+001	1.058937e+002
6.150391e+006	-4.460269e+001	-9.500569e+001	-3.080838e+001	-1.197545e+001	-9.835587e+001	1.035979e+002	-5.116684e+001	1.057560e+002
6.150430e+006	-4.455326e+001	-9.484989e+001	-3.080938e+001	-1.196687e+001	-9.660551e+001	-1.669710e+002	-5.131078e+001	1.053536e+002
6.150469e+006	-4.453284e+001	-9.490332e+001	-3.080775e+001	-1.190976e+001	-9.962100e+001	1.273256e+002	-5.129442e+001	1.054280e+002
6.150508e+006	-4.457089e+001	-9.491385e+001	-3.080061e+001	-1.194649e+001	-8.956693e+001	-6.923146e+001	-5.111242e+001	1.056908e+002
6.150547e+006	-4.453870e+001	-9.493993e+001	-3.080464e+001	-1.196059e+001	-9.948091e+001	-2.951273e+000	-5.122590e+001	1.061348e+002
6.150586e+006	-4.455928e+001	-9.500571e+001	-3.080822e+001	-1.194559e+001	-1.022150e+002	4.811477e+001	-5.114603e+001	1.058005e+002
6.150625e+006	-4.454704e+001	-9.525063e+001	-3.080616e+001	-1.202088e+001	-9.993159e+001	-4.982691e+001	-5.131314e+001	1.054184e+002
6.150664e+006	-4.457326e+001	-9.506692e+001	-3.080049e+001	-1.191958e+001	-9.125150e+001	1.160058e+002	-5.123986e+001	1.055923e+002
6.150703e+006	-4.455964e+001	-9.479272e+001	-3.080866e+001	-1.190579e+001	-1.043659e+002	-9.565042e+001	-5.130046e+001	1.058089e+002
6.150742e+006	-4.460796e+001	-9.511296e+001	-3.080599e+001	-1.193351e+001	-8.912512e+001	9.349748e+001	-5.129015e+001	1.059040e+002
6.150781e+006	-4.455056e+001	-9.498391e+001	-3.081300e+001	-1.199609e+001	-9.158068e+001	1.137772e+002	-5.120785e+001	1.060778e+002
6.150820e+006	-4.458726e+001	-9.472104e+001	-3.080315e+001	-1.198283e+001	-1.063992e+002	3.726057e+001	-5.116040e+001	1.055494e+002
6.150859e+006	-4.457642e+001	-9.485729e+001	-3.080865e+001	-1.192195e+001	-8.745994e+001	-2.539322e+001	-5.123395e+001	1.050280e+002
6.150898e+006	-4.454800e+001	-9.502372e+001	-3.081409e+001	-1.201053e+001	-1.058969e+002	6.278101e+001	-5.123162e+001	1.061878e+002
6.150938e+006	-4.461566e+001	-9.510079e+001	-3.081085e+001	-1.198926e+001	-9.268289e+001	7.934964e+000	-5.115576e+001	1.061512e+002
6.150977e+006	-4.459795e+001	-9.479341e+001	-3.081097e+001	-1.193847e+001	-1.032356e+002	5.233506e+001	-5.124053e+001	1.053276e+002
6.151016e+006	-4.462695e+001	-9.499649e+001	-3.081198e+001	-1.194817e+001	-9.075342e+001	9.657172e+001	-5.121442e+001	1.059041e+002
6.151055e+006	-4.455169e+001	-9.486984e+001	-3.081464e+001	-1.194046e+001	-8.959263e+001	1.499207e+002	-5.128715e+001	1.058930e+002
6.151094e+006	-4.460520e+001	-9.457365e+001	-3.080686e+001	-1.197126e+001	-9.226700e+001	1.397541e+002	-5.115349e+001	1.054992e+002
6.151133e+006	-4.459962e+001	-9.486281e+001	-3.081559e+001	-1.190857e+001	-9.329563e+001	1.709235e+002	-5.129010e+001	1.055990e+002
6.151172e+006	-4.457669e+001	-9.496757e+001	-3.081312e+001	-1.193669e+001	-9.945396e+001	1.298701e+002	-5.128636e+001	1.063201e+002
6.151211e+006	-4.457130e+001	-9.494695e+001	-3.080924e+001	-1.191129e+001	-1.011511e+002	-9.410641e+000	-5.114196e+001	1.060379e+002
6.151250e+006	-4.456623e+001	-9.490939e+001	-3.081406e+001	-1.193260e+001	-9.602748e+001	1.545248e+002	-5.115919e+001	1.060254e+002
6.151289e+006	-4.455929e+001	-9.464427e+001	-3.080855e+001	-1.195305e+001	-9.097559e+001	1.385623e+002	-5.121149e+001	1.054690e+002
6.151328e+006	-4.455986e+001	-9.468771e+001	-3.081277e+001	-1.199648e+001	-1.021049e+002	-1.005170e+002	-5.110748e+001	1.058899e+002
6.151367e+006	-4.460504e+001	-9.478012e+001	-3.081460e+001	-1.192267e+001	-9.130512e+001	9.162554e+001	-5.113192e+001	1.058753e+002
6.151406e+006	-4.456594e+001	-9.459423e+001	-3.081551e+001	-1.192266e+001	-8.891830e+001	8.437649e+001	-5.115160e+001	1.049633e+002
6.151445e+006	-4.454820e+001	-9.481957e+001	-3.080269e+001	-1.192120e+001	-9.951651e+001	-1.582213e+002	-5.105117e+001	1.054616e+002
6.151484e+006	-4.455295e+001	-9.465047e+001	-3.080244e+001	-1.187785e+001	-1.030838e+002	1.098964e+002	-5.114065e+001	1.056279e+002
6.151523e+006	-4.455418e+001	-9.463690e+001	-3.081163e+001	-1.197064e+001	-8.805755e+001	1.666990e+002	-5.117490e+001	1.054919e+002
6.151563e+006	-4.462579e+001	-9.488171e+001	-3.081116e+001	-1.200647e+001	-9.879610e+001	-1.137850e+002	-5.120614e+001	1.050789e+002
6.151602e+006	-4.456303e+001	-9.485147e+001	-3.081408e+001	-1.190463e+001	-1.041508e+002	9.370958e+001	-5.121128e+001	1.061242e+002
6.151641e+006	-4.458368e+001	-9.459025e+001	-3.079773e+001	-1.192460e+001	-9.254405e+001	-3.290625e+000	-5.113021e+001	1.062328e+002
6.151680e+006	-4.459027e+001	-9.499977e+001	-3.080468e+001	-1.198490e+001	-9.032505e+001	4.418620e+001	-5.128674e+001	1.055618e+002
6.151719e+006	-4.457925e+001	-9.506121e+001	-3.079772e+001	-1.204336e+001	-9.293088e+001	1.209887e+002	-5.126584e+001	1.059864e+002
6.151758e+006	-4.458260e+001	-9.481737e+001	-3.080434e+001	-1.190671e+001	-9.235724e+001	4.924888e+001	-5.124440e+001	1.063468e+002
6.151797e+006	-4.457961e+001	-9.472486e+001	-3.080954e+001	-1.190348e+001	-1.129330e+002	-1.725109e+002	-5.119347e+001	1.058945e+002
6.151836e+006	-4.461706e+001	-9.455622e+001	-3.081880e+001	-1.193777e+001	-9.155036e+001	1.669166e+002	-5.124398e+001	1.060240e+002
6.151875e+006	-4.458676e+001	-9.478849e+001	-3.080055e+001	-1.190727e+001	-1.012051e+002	-1.185350e+002	-5.117708e+001	1.061918e+002
6.151914e+006	-4.455566e+001	-9.512070e+001	-3.080272e+001	-1.192335e+001	-9.412948e+001	6.521567e-001	-5.124438e+001	1.055257e+002
6.151953e+006	-4.460168e+001	-9.478786e+001	-3.080947e+001	-1.197704e+001	-9.265665e+001	1.407740e+002	-5.130956e+001	1.054875e+002
6.151992e+006	-4.454529e+001	-9.496663e+001	-3.080566e+001	-1.187538e+001	-9.670554e+001	7.709228e+001	-5.127436e+001	1.063739e+002
6.152031e+006	-4.463184e+001	-9.495973e+001	-3.080400e+001	-1.191661e+001	-9.388180e+001	1.288424e+002	-5.124043e+001	1.070078e+002
6.152070e+006	-4.456585e+001	-9.472824e+001	-3.080004e+001	-1.188531e+001	-9.304852e+001	6.098048e+001	-5.119147e+001	1.054665e+002
6.152109e+006	-4.452523e+001	-9.480651e+001	-3.080145e+001	-1.194819e+001	-9.492481e+001	1.554397e+002	-5.125122e+001	1.053748e+002
6.152148e+006	-4.454951e+001	-9.483604e+001	-3.081104e+001	-1.190900e+001	-9.990428e+001	-1.024142e+002	-5.123838e+001	1.056506e+002
6.152188e+006	-4.462585e+001	-9.493268e+001	-3.080330e+001	-1.192564e+001	-9.238046e+001	1.713979e+002	-5.129893e+001	1.059469e+002
6.152227e+006	-4.459084e+001	-9.479074e+001	-3.080624e+001	-1.191971e+001	-8.857700e+001	1.081488e+002	-5.121296e+001	1.058171e+002
6.152266e+006	-4.454394e+001	-9.484567e+001	-3.081926e+001	-1.191371e+001	-8.690320e+001	8.438132e+001	-5.114971e+001	1.057872e+002
6.152305e+006	-4.457432e+001	-9.468612e+001	-3.079883e+001	-1.191545e+001	-9.538134e+001	1.220795e+002	-5.132084e+001	1.063210e+002
6.152344e+006	-4.454493e+001	-9.458392e+001	-3.079447e+001	-1.198673e+001	-9.790105e+001	1.252049e+002	-5.124736e+001	1.062625e+002
6.152383e+006	-4.456251e+001	-9.472690e+001	-3.079927e+001	-1.201061e+001	-9.373199e+001	-7.373763e-001	-5.120792e+001	1.054230e+002
6.152422e+006	-4.457522e+001	-9.482310e+001	-3.080887e+001	-1.197381e+001	-1.014374e+002	1.456865e+001	-5.122557e+001	1.057675e+002
6.152461e+006	-4.455424e+001	-9.462097e+001	-3.080463e+001	-1.188046e+001	-1.000592e+002	1.186266e+002	-5.128201e+001	1.051826e+002
6.152500e+006	-4.457570e+001	-9.463279e+001	-3.079009e+001	-1.197744e+001	-9.619877e+001	8.437934e+001	-5.104669e+001	1.057574e+002
6.152539e+006	-4.454886e+001	-9.472345e+001	-3.080889e+001	-1.193849e+001	-9.494255e+001	-2.207141e+001	-5.115952e+001	1.058389e+002
6.152578e+006	-4.456764e+001	-9.486328e+001	-3.080364e+001	-1.188754e+001	-9.350340e+001	7.783087e+001	-5.122476e+001	1.048700e+002
6.152617e+006	-4.457983e+001	-9.485104e+001	-3.080043e+001	-1.192681e+001	-1.057958e+002	-1.302683e+001	-5.113507e+001	1.050690e+002
6.152656e+006	-4.457299e+001	-9.470273e+001	-3.080741e+001	-1.198034e+001	-8.840306e+001	-1.123343e+000	-5.126623e+001	1.059152e+002
6.152695e+006	-4.455010e+001	-9.497769e+001	-3.080430e+001	-1.196418e+001	-8.581903e+001	1.390840e+002	-5.125843e+001	1.064676e+002
6.152734e+006	-4.455647e+001	-9.462391e+001	-3.079656e+001	-1.188345e+001	-8.926065e+001	1.147714e+002	-5.113139e+001	1.063402e+002
6.152773e+006	-4.454749e+001	-9.453313e+001	-3.081179e+001	-1.192661e+001	-8.670407e+001	7.883503e+000	-5.117609e+001	1.054113e+002
6.152813e+006	-4.459768e+001	-9.503689e+001	-3.079812e+001	-1.191217e+001	-8.984862e+001	1.059612e+002	-5.120889e+001	1.062024e+002
6.152852e+006	-4.458750e+001	-9.505860e+001	-3.080442e+001	-1.197374e+001	-9.288540e+001	5.304602e+001	-5.124647e+001	1.054533e+002
6.152891e+006	-4.459452e+001	-9.481387e+001	-3.080641e+001	-1.198402e+001	-9.928882e+001	1.038555e+002	-5.122077e+001	1.047876e+002
6.152930e+006	-4.457706e+001	-9.492464e+001	-3.081244e+001	-1.187416e+001	-9.781503e+001	-1.744141e+002	-5.122073e+001	1.056382e+002
6.152969e+006	-4.456116e+001	-9.505558e+001	-3.080224e+001	-1.200355e+001	-9.384494e+001	2.662351e+001	-5.117200e+001	1.063314e+002
6.153008e+006	-4.460294e+001	-9.494579e+001	-3.081033e+001	-1.197028e+001	-9.126992e+001	1.240951e+002	-5.132943e+001	1.057630e+002
6.153047e+006	-4.456884e+001	-9.481064e+001	-3.080418e+001	-1.194143e+001	-9.195935e+001	-7.580518e+001	-5.135219e+001	1.064003e+002
6.153086e+006	-4.457324e+001	-9.468803e+001	-3.080417e+001	-1.196073e+001	-1.029150e+002	1.591244e+002	-5.115111e+001	1.057834e+002
6.153125e+006	-4.457855e+001	-9.495245e+001	-3.079716e+001	-1.195219e+001	-9.125798e+001	-3.545737e+001	-5.126259e+001	1.060980e+002
6.153164e+006	-4.454785e+001	-9.452750e+001	-3.080721e+001	-1.196939e+001	-8.894744e+001	6.647280e+001	-5.126838e+001	1.058490e+002
6.153203e+006	-4.456673e+001	-9.487288e+001	-3.079325e+001	-1.191451e+001	-9.261821e+001	8.865044e+001	-5.107936e+001	1.057599e+002
6.153242e+006	-4.457389e+001	-9.495189e+001	-3.080359e+001	-1.200610e+001	-9.533955e+001	-2.426928e+001	-5.115418e+001	1.056783e+002
6.153281e+006	-4.458072e+001	-9.464023e+001	-3.080791e+001	-1.193505e+001	-9.732583e+001	6.253388e+001	-5.118024e+001	1.053797e+002
6.153320e+006	-4.459140e+001	-9.485802e+001	-3.081241e+001	-1.191737e+001	-9.163784e+001	1.878626e+001	-5.113714e+001	1.061109e+002
6.153359e+006	-4.457628e+001	-9.499178e+001	-3.081712e+001	-1.192909e+001	-9.839886e+001	5.911890e+001	-5.117484e+001	1.065845e+002
6.153398e+006	-4.461389e+001	-9.474040e+001	-3.080517e+001	-1.190860e+001	-1.006436e+002	-1.043437e+002	-5.127154e+001	1.062173e+002
6.153438e+006	-4.455766e+001	-9.458331e+001	-3.079937e+001	-1.203621e+001	-9.452906e+001	-1.547766e+002	-5.123121e+001	1.053640e+002
6.153477e+006	-4.459365e+001	-9.482768e+001	-3.079066e+001	-1.195187e+001	-1.002193e+002	2.182967e+000	-5.125534e+001	1.055133e+002
6.153516e+006	-4.454343e+001	-9.490826e+001	-3.079727e+001	-1.195224e+001	-9.296039e+001	2.684997e+001	-5.124408e+001	1.057750e+002
6.153555e+006	-4.458769e+001	-9.509023e+001	-3.080709e+001	-1.191544e+001	-9.208021e+001	1.528704e+002	-5.129571e+001	1.057051e+002
6.153594e+006	-4.456763e+001	-9.458454e+001	-3.080113e+001	-1.199415e+001	-8.759983e+001	-4.210894e+001	-5.113450e+001	1.059047e+002
6.153633e+006	-4.462908e+001	-9.477687e+001	-3.079067e+001	-1.193820e+001	-9.827769e+001	8.936511e+000	-5.122842e+001	1.050662e+002
6.153672e+006	-4.456282e+001	-9.492573e+001	-3.081049e+001	-1.198037e+001	-9.489835e+001	1.241411e+002	-5.129610e+001	1.061503e+002
6.153711e+006	-4.458532e+001	-9.473181e+001	-3.081490e+001	-1.198482e+001	-9.911437e+001	1.746614e+002	-5.115311e+001	1.059556e+002
6.153750e+006	-4.457518e+001	-9.468313e+001	-3.080007e+001	-1.193854e+001	-9.584499e+001	1.421782e+002	-5.126948e+001	1.060620e+002
6.153789e+006	-4.459836e+001	-9.488692e+001	-3.080491e+001	-1.195453e+001	-9.048552e+001	1.524155e+002	-5.126055e+001	1.057751e+002
6.153828e+006	-4.461088e+001	-9.460633e+001	-3.080571e+001	-1.203778e+001	-8.784449e+001	6.361157e+001	-5.110504e+001	1.057891e+002
6.153867e+006	-4.458182e+001	-9.479898e+001	-3.081221e+001	-1.195646e+001	-9.115850e+001	2.551260e-001	-5.122493e+001	1.054421e+002
6.153906e+006	-4.461031e+001	-9.437825e+001	-3.080276e+001	-1.195850e+001	-9.065072e+001	-9.381193e+001	-5.121864e+001	1.058517e+002
6.153945e+006	-4.457478e+001	-9.489693e+001	-3.079493e+001	-1.189012e+001	-9.322037e+001	5.859437e+001	-5.123864e+001	1.057530e+002
6.153984e+006	-4.453477e+001	-9.484157e+001	-3.079349e+001	-1.191497e+001	-9.153752e+001	1.407244e+002	-5.114125e+001	1.058986e+002
6.154023e+006	-4.454532e+001	-9.460701e+001	-3.078736e+001	-1.195866e+001	-9.317001e+001	1.253848e+002	-5.117118e+001	1.061425e+002
6.154063e+006	-4.459928e+001	-9.469694e+001	-3.079635e+001	-1.198964e+001	-9.054276e+001	2.700802e+001	-5.122694e+001	1.058014e+002
6.154102e+006	-4.457827e+001	-9.470388e+001	-3.080482e+001	-1.189701e+001	-9.247519e+001	3.284355e+001	-5.118253e+001	1.062740e+002
6.154141e+006	-4.457030e+001	-9.487811e+001	-3.080809e+001	-1.197507e+001	-9.607631e+001	-7.017316e+001	-5.121190e+001	1.053572e+002
6.154180e+006	-4.451345e+001	-9.461081e+001	-3.079522e+001	-1.195142e+001	-1.040157e+002	-1.178554e+002	-5.125212e+001	1.057848e+002
6.154219e+006	-4.458113e+001	-9.480659e+001	-3.080565e+001	-1.192246e+001	-1.005840e+002	8.747404e+001	-5.113273e+001	1.057220e+002
6.154258e+006	-4.455293e+001	-9.474099e+001	-3.080296e+001	-1.199259e+001	-9.520555e+001	5.724045e+001	-5.116878e+001	1.058254e+002
6.154297e+006	-4.460043e+001	-9.484569e+001	-3.080473e+001	-1.197717e+001	-1.112210e+002	1.444499e+002	-5.121169e+001	1.062452e+002
6.154336e+006	-4.462150e+001	-9.491798e+001	-3.079816e+001	-1.192125e+001	-1.102828e+002	4.889807e+001	-5.120103e+001	1.053922e+002
6.154375e+006	-4.455308e+001	-9.467653e+001	-3.080260e+001	-1.192010e+001	-9.939803e+001	-1.544425e+002	-5.119746e+001	1.066992e+002
6.154414e+006	-4.453431e+001	-9.477349e+001	-3.079609e+001	-1.189045e+001	-8.925908e+001	8.840242e+001	-5.121888e+001	1.058301e+002
6.154453e+006	-4.466149e+001	-9.475131e+001	-3.080140e+001	-1.189773e+001	-9.542868e+001	1.367902e+001	-5.118895e+001	1.059866e+002
6.154492e+006	-4.462310e+001	-9.455983e+001	-3.079367e+001	-1.186292e+001	-8.590067e+001	-1.279621e+002	-5.123299e+001	1.057561e+002
6.154531e+006	-4.454751e+001	-9.474554e+001	-3.080274e+001	-1.196325e+001	-9.601704e+001	4.434728e+001	-5.126539e+001	1.058088e+002
6.154570e+006	-4.455252e+001	-9.452142e+001	-3.079149e+001	-1.183903e+001	-1.058672e+002	-1.003433e+002	-5.124931e+001	1.059110e+002
6.154609e+006	-4.454112e+001	-9.470680e+001	-3.080040e+001	-1.198656e+001	-1.099510e+002	-1.478431e+002	-5.117222e+001	1.056847e+002
6.154648e+006	-4.461208e+001	-9.466636e+001	-3.080910e+001	-1.195197e+001	-9.707356e+001	2.473224e+001	-5.122511e+001	1.057896e+002
6.154688e+006	-4.457325e+001	-9.446092e+001	-3.080799e+001	-1.191191e+001	-9.345907e+001	8.909957e+001	-5.116122e+001	1.046971e+002
6.154727e+006	-4.451135e+001	-9.468680e+001	-3.080118e+001	-1.198215e+001	-9.972335e+001	-1.751275e+002	-5.118771e+001	1.063271e+002
6.154766e+006	-4.458137e+001	-9.489957e+001	-3.079591e+001	-1.193878e+001	-8.575147e+001	1.825751e+001	-5.111978e+001	1.063105e+002
6.154805e+006	-4.459254e+001	-9.476590e+001	-3.080756e+001	-1.198422e+001	-9.228078e+001	-1.460380e+002	-5.130178e+001	1.058867e+002
6.154844e+006	-4.459925e+001	-9.472509e+001	-3.080113e+001	-1.197069e+001	-9.462378e+001	3.087400e+000	-5.122895e+001	1.058207e+002
6.154883e+006	-4.455587e+001	-9.446375e+001	-3.079260e+001	-1.194510e+001	-9.367019e+001	1.034489e+002	-5.113236e+001	1.055755e+002
6.154922e+006	-4.457879e+001	-9.468538e+001	-3.080561e+001	-1.193005e+001	-9.866885e+001	-7.251964e+001	-5.116666e+001	1.057195e+002
6.154961e+006	-4.456857e+001	-9.477571e+001	-3.079740e+001	-1.199746e+001	-9.870581e+001	7.708756e+001	-5.130415e+001	1.063429e+002
6.155000e+006	-4.454808e+001	-9.459659e+001	-3.079711e+001	-1.199299e+001	-9.003307e+001	1.255877e+002	-5.127087e+001	1.049031e+002
6.155039e+006	-4.457243e+001	-9.475958e+001	-3.080819e+001	-1.196728e+001	-8.992401e+001	6.402821e+001	-5.110308e+001	1.062659e+002
6.155078e+006	-4.453271e+001	-9.450237e+001	-3.080465e+001	-1.189449e+001	-9.290706e+001	-1.609031e+002	-5.124867e+001	1.062524e+002
6.155117e+006	-4.463644e+001	-9.497079e+001	-3.080120e+001	-1.190393e+001	-9.482475e+001	9.889393e+001	-5.120046e+001	1.048788e+002
6.155156e+006	-4.457297e+001	-9.471137e+001	-3.080106e+001	-1.195566e+001	-1.014468e+002	-1.069026e+002	-5.123191e+001	1.056491e+002
6.155195e+006	-4.462272e+001	-9.477410e+001	-3.080073e+001	-1.188600e+001	-9.228324e+001	3.503157e+001	-5.115037e+001	1.056034e+002
6.155234e+006	-4.456140e+001	-9.467365e+001	-3.080950e+001	-1.202986e+001	-9.154932e+001	-4.361048e+001	-5.118458e+001	1.060108e+002
6.155273e+006	-4.461150e+001	-9.462611e+001	-3.080108e+001	-1.192908e+001	-9.941284e+001	1.007057e+002	-5.123484e+001	1.054830e+002
6.155313e+006	-4.461251e+001	-9.464048e+001	-3.080437e+001	-1.198555e+001	-9.306570e+001	-6.764700e+001	-5.111629e+001	1.049929e+002
6.155352e+006	-4.458370e+001	-9.454954e+001	-3.079988e+001	-1.192080e+001	-9.647120e+001	1.302149e+002	-5.119450e+001	1.050250e+002
6.155391e+006	-4.458593e+001	-9.432782e+001	-3.079914e+001	-1.193837e+001	-9.256212e+001	1.618102e+002	-5.132771e+001	1.055303e+002
6.155430e+006	-4.455905e+001	-9.488182e+001	-3.079880e+001	-1.188683e+001	-1.033639e+002	1.523821e+002	-5.130548e+001	1.055628e+002
6.155469e+006	-4.457408e+001	-9.499248e+001	-3.079941e+001	-1.185386e+001	-9.553444e+001	6.841845e+001	-5.133689e+001	1.062396e+002
6.155508e+006	-4.457549e+001	-9.440553e+001	-3.080540e+001	-1.195765e+001	-9.950632e+001	-2.110343e+001	-5.131167e+001	1.061708e+002
6.155547e+006	-4.458541e+001	-9.444185e+001	-3.080181e+001	-1.195556e+001	-9.084028e+001	-1.480450e+002	-5.113323e+001	1.055429e+002
6.155586e+006	-4.456805e+001	-9.448165e+001	-3.079899e+001	-1.192110e+001	-9.321089e+001	6.748873e+001	-5.115379e+001	1.059676e+002
6.155625e+006	-4.453175e+001	-9.458837e+001	-3.080162e+001	-1.194941e+001	-8.548205e+001	-2.048871e+001	-5.123277e+001	1.065054e+002
6.155664e+006	-4.459206e+001	-9.425030e+001	-3.079414e+001	-1.191324e+001	-9.250387e+001	6.702153e+001	-5.117439e+001	1.056839e+002
6.155703e+006	-4.457330e+001	-9.464908e+001	-3.079169e+001	-1.191954e+001	-9.111122e+001	6.302733e+001	-5.120611e+001	1.059977e+002
6.155742e+006	-4.460395e+001	-9.453046e+001	-3.080687e+001	-1.187132e+001	-8.855539e+001	-1.461852e+002	-5.124872e+001	1.057880e+002
