!CETC41,AV3656A,ZGL00048,1.3.2
!Calibration ON (Full Solt 2-Port(Omit Isolation))
!Measurements: S11 S21 S12 S22
!2025-04-18 01:46
# Hz  S  dB  R 50.000
6.150000e+006	-3.080829e+001	8.524927e+001	-3.067493e+001	-1.721449e+001	-9.015834e+001	5.496990e+001	-2.891952e+001	9.089270e+001
6.150039e+006	-3.082300e+001	8.521545e+001	-3.067375e+001	-1.719584e+001	-1.035361e+002	-5.090141e+001	-2.891493e+001	9.095130e+001
6.150078e+006	-3.081870e+001	8.515928e+001	-3.067174e+001	-1.722292e+001	-9.134604e+001	-6.288967e+001	-2.891151e+001	9.088225e+001
6.150117e+006	-3.082074e+001	8.516562e+001	-3.066148e+001	-1.725238e+001	-9.617911e+001	-4.165025e+001	-2.891632e+001	9.090025e+001
6.150156e+006	-3.080859e+001	8.525627e+001	-3.067763e+001	-1.721251e+001	-8.740473e+001	3.142390e+001	-2.891288e+001	9.088412e+001
6.150195e+006	-3.081906e+001	8.520570e+001	-3.067629e+001	-1.724197e+001	-1.028604e+002	7.062546e+000	-2.890984e+001	9.093560e+001
6.150234e+006	-3.081423e+001	8.518476e+001	-3.067700e+001	-1.725724e+001	-1.036572e+002	-1.519574e+002	-2.891096e+001	9.095420e+001
6.150273e+006	-3.081839e+001	8.521237e+001	-3.066536e+001	-1.718241e+001	-9.265586e+001	-1.744229e+002	-2.891273e+001	9.096967e+001
6.150313e+006	-3.081785e+001	8.521135e+001	-3.066472e+001	-1.720382e+001	-1.140896e+002	-1.254136e+002	-2.891032e+001	9.096002e+001
6.150352e+006	-3.081646e+001	8.524037e+001	-3.067131e+001	-1.727634e+001	-1.040041e+002	2.191784e+001	-2.892157e+001	9.090590e+001
6.150391e+006	-3.081145e+001	8.523093e+001	-3.067235e+001	-1.724694e+001	-8.817130e+001	1.293329e+002	-2.891142e+001	9.093984e+001
6.150430e+006	-3.080807e+001	8.519704e+001	-3.066628e+001	-1.710698e+001	-9.562655e+001	1.535815e+002	-2.891392e+001	9.089978e+001
6.150469e+006	-3.081333e+001	8.519323e+001	-3.066937e+001	-1.721340e+001	-9.500333e+001	-1.422415e+002	-2.892605e+001	9.094202e+001
6.150508e+006	-3.081267e+001	8.521586e+001	-3.067624e+001	-1.721533e+001	-1.030126e+002	-1.606783e+002	-2.891501e+001	9.096116e+001
6.150547e+006	-3.081767e+001	8.521913e+001	-3.067052e+001	-1.712609e+001	-9.421997e+001	5.778566e+001	-2.891720e+001	9.093107e+001
6.150586e+006	-3.081274e+001	8.517511e+001	-3.067241e+001	-1.724030e+001	-9.671092e+001	-1.460209e+002	-2.891082e+001	9.090505e+001
6.150625e+006	-3.082089e+001	8.525168e+001	-3.066929e+001	-1.719002e+001	-9.258318e+001	-1.244806e+002	-2.891612e+001	9.086452e+001
6.150664e+006	-3.082064e+001	8.522778e+001	-3.067763e+001	-1.722379e+001	-9.378793e+001	1.510077e+002	-2.890761e+001	9.095775e+001
6.150703e+006	-3.081319e+001	8.519149e+001	-3.067355e+001	-1.721035e+001	-9.129503e+001	-1.792026e+002	-2.890733e+001	9.088371e+001
6.150742e+006	-3.081404e+001	8.523201e+001	-3.067047e+001	-1.720422e+001	-8.845011e+001	-1.660353e+002	-2.890825e+001	9.092589e+001
6.150781e+006	-3.081708e+001	8.520595e+001	-3.067413e+001	-1.725409e+001	-1.046674e+002	1.777546e+002	-2.892335e+001	9.092143e+001
6.150820e+006	-3.080826e+001	8.522470e+001	-3.067039e+001	-1.719909e+001	-9.152396e+001	4.721717e+001	-2.891064e+001	9.091249e+001
6.150859e+006	-3.081222e+001	8.528091e+001	-3.067376e+001	-1.722251e+001	-1.008083e+002	1.262651e+002	-2.890916e+001	9.091862e+001
6.150898e+006	-3.082022e+001	8.520032e+001	-3.067219e+001	-1.718145e+001	-9.968890e+001	-8.109110e+001	-2.891418e+001	9.090752e+001
6.150938e+006	-3.080630e+001	8.522935e+001	-3.067344e+001	-1.725623e+001	-9.543419e+001	-1.265247e+002	-2.891364e+001	9.093047e+001
6.150977e+006	-3.081511e+001	8.528083e+001	-3.067989e+001	-1.720303e+001	-8.912230e+001	1.157108e+002	-2.891085e+001	9.091257e+001
6.151016e+006	-3.082065e+001	8.526230e+001	-3.066853e+001	-1.718733e+001	-9.270576e+001	8.996432e+001	-2.890797e+001	9.088331e+001
6.151055e+006	-3.081818e+001	8.517958e+001	-3.067000e+001	-1.722807e+001	-9.326220e+001	8.445216e+001	-2.891677e+001	9.089083e+001
6.151094e+006	-3.080949e+001	8.520833e+001	-3.067544e+001	-1.723979e+001	-9.514328e+001	-1.058885e+001	-2.891448e+001	9.095155e+001
6.151133e+006	-3.081823e+001	8.528193e+001	-3.067069e+001	-1.726542e+001	-9.089643e+001	1.296920e+002	-2.891982e+001	9.091400e+001
6.151172e+006	-3.081605e+001	8.522635e+001	-3.067028e+001	-1.721135e+001	-9.032231e+001	-1.615543e+002	-2.891265e+001	9.094383e+001
6.151211e+006	-3.081327e+001	8.519928e+001	-3.066557e+001	-1.718363e+001	-9.449514e+001	-8.305459e+000	-2.891410e+001	9.090760e+001
6.151250e+006	-3.081168e+001	8.524100e+001	-3.067262e+001	-1.724042e+001	-9.581978e+001	1.744047e+002	-2.891856e+001	9.095827e+001
6.151289e+006	-3.081635e+001	8.528174e+001	-3.066411e+001	-1.724717e+001	-9.315722e+001	-4.183759e+001	-2.890757e+001	9.089399e+001
6.151328e+006	-3.081623e+001	8.530305e+001	-3.066045e+001	-1.716004e+001	-8.852043e+001	2.075093e+000	-2.890791e+001	9.092038e+001
6.151367e+006	-3.080535e+001	8.530083e+001	-3.066444e+001	-1.718123e+001	-1.024714e+002	1.720131e+002	-2.891591e+001	9.095513e+001
6.151406e+006	-3.080481e+001	8.522117e+001	-3.066400e+001	-1.718364e+001	-9.411220e+001	8.704130e+001	-2.891179e+001	9.091135e+001
6.151445e+006	-3.081398e+001	8.525637e+001	-3.067807e+001	-1.718278e+001	-9.822231e+001	9.170324e+001	-2.892399e+001	9.099307e+001
6.151484e+006	-3.081250e+001	8.525204e+001	-3.067060e+001	-1.715277e+001	-1.168117e+002	5.475327e+001	-2.891265e+001	9.090031e+001
6.151523e+006	-3.081803e+001	8.524500e+001	-3.067156e+001	-1.720376e+001	-9.276539e+001	1.202299e+002	-2.891340e+001	9.095059e+001
6.151563e+006	-3.082037e+001	8.523151e+001	-3.066392e+001	-1.725396e+001	-9.591859e+001	1.063419e+002	-2.891466e+001	9.094991e+001
6.151602e+006	-3.081118e+001	8.524669e+001	-3.067772e+001	-1.725892e+001	-9.851843e+001	-8.365479e-001	-2.891519e+001	9.090926e+001
6.151641e+006	-3.081263e+001	8.525348e+001	-3.067772e+001	-1.721314e+001	-9.267634e+001	6.311515e+000	-2.891563e+001	9.097846e+001
6.151680e+006	-3.081556e+001	8.522996e+001	-3.066414e+001	-1.718914e+001	-9.363779e+001	-6.472282e+001	-2.891102e+001	9.095801e+001
6.151719e+006	-3.081440e+001	8.527249e+001	-3.066363e+001	-1.723774e+001	-1.068310e+002	-4.532633e+001	-2.891741e+001	9.097222e+001
6.151758e+006	-3.082431e+001	8.525921e+001	-3.067315e+001	-1.723729e+001	-1.086329e+002	1.447236e+000	-2.891546e+001	9.092365e+001
6.151797e+006	-3.081741e+001	8.529129e+001	-3.067922e+001	-1.724742e+001	-9.173364e+001	3.757774e+001	-2.891479e+001	9.095302e+001
6.151836e+006	-3.080608e+001	8.527904e+001	-3.066736e+001	-1.715273e+001	-9.658468e+001	3.048398e+001	-2.891247e+001	9.093674e+001
6.151875e+006	-3.080616e+001	8.528776e+001	-3.067706e+001	-1.723652e+001	-9.243203e+001	-3.617279e+001	-2.891374e+001	9.094158e+001
6.151914e+006	-3.081894e+001	8.524744e+001	-3.066446e+001	-1.723807e+001	-9.011205e+001	1.071891e+002	-2.891621e+001	9.097095e+001
6.151953e+006	-3.081678e+001	8.522862e+001	-3.067111e+001	-1.718855e+001	-9.346903e+001	-9.715515e+001	-2.891894e+001	9.096969e+001
6.151992e+006	-3.081393e+001	8.530150e+001	-3.067622e+001	-1.727224e+001	-9.626026e+001	4.006928e+001	-2.891403e+001	9.087878e+001
6.152031e+006	-3.081139e+001	8.522014e+001	-3.066900e+001	-1.725175e+001	-8.960216e+001	-2.891996e+001	-2.891692e+001	9.095140e+001
6.152070e+006	-3.081858e+001	8.531203e+001	-3.066180e+001	-1.715680e+001	-9.391843e+001	1.418575e+002	-2.891361e+001	9.096583e+001
6.152109e+006	-3.081069e+001	8.526183e+001	-3.065895e+001	-1.725304e+001	-1.040673e+002	3.388555e+001	-2.892280e+001	9.091554e+001
6.152148e+006	-3.082203e+001	8.521216e+001	-3.067646e+001	-1.719453e+001	-9.223048e+001	1.331224e+002	-2.892038e+001	9.090563e+001
6.152188e+006	-3.081877e+001	8.525793e+001	-3.066987e+001	-1.721149e+001	-9.439148e+001	-1.518755e+002	-2.891853e+001	9.098382e+001
6.152227e+006	-3.080925e+001	8.527920e+001	-3.066250e+001	-1.721525e+001	-9.158777e+001	-8.990149e+001	-2.891679e+001	9.094541e+001
6.152266e+006	-3.081262e+001	8.526367e+001	-3.066641e+001	-1.723334e+001	-9.424017e+001	-1.079135e+001	-2.891429e+001	9.091085e+001
6.152305e+006	-3.082442e+001	8.524619e+001	-3.067311e+001	-1.711462e+001	-9.016125e+001	2.457593e+001	-2.891071e+001	9.094172e+001
6.152344e+006	-3.081219e+001	8.532300e+001	-3.066725e+001	-1.721369e+001	-9.313872e+001	-1.536942e+002	-2.891953e+001	9.092654e+001
6.152383e+006	-3.082039e+001	8.532791e+001	-3.067982e+001	-1.723882e+001	-9.745264e+001	7.172636e+001	-2.891901e+001	9.094937e+001
6.152422e+006	-3.081735e+001	8.528298e+001	-3.067218e+001	-1.723401e+001	-9.360788e+001	6.778917e+001	-2.891156e+001	9.098840e+001
6.152461e+006	-3.082392e+001	8.531186e+001	-3.066527e+001	-1.719966e+001	-8.824244e+001	6.772470e+001	-2.891281e+001	9.093954e+001
6.152500e+006	-3.081345e+001	8.530118e+001	-3.067129e+001	-1.721948e+001	-1.002668e+002	1.121410e+001	-2.892021e+001	9.097463e+001
6.152539e+006	-3.080607e+001	8.526712e+001	-3.067048e+001	-1.719622e+001	-1.023366e+002	-1.558860e+002	-2.891706e+001	9.099442e+001
6.152578e+006	-3.081412e+001	8.528555e+001	-3.067575e+001	-1.725053e+001	-9.532379e+001	1.031033e+002	-2.892640e+001	9.098170e+001
6.152617e+006	-3.081722e+001	8.530626e+001	-3.067159e+001	-1.722270e+001	-9.988106e+001	-2.435598e+001	-2.891346e+001	9.095082e+001
6.152656e+006	-3.081485e+001	8.527489e+001	-3.066587e+001	-1.717927e+001	-1.095760e+002	-1.382795e+002	-2.891633e+001	9.093217e+001
6.152695e+006	-3.081603e+001	8.529600e+001	-3.066636e+001	-1.724465e+001	-9.620222e+001	1.237232e+002	-2.891423e+001	9.095888e+001
6.152734e+006	-3.081202e+001	8.531868e+001	-3.065757e+001	-1.719530e+001	-9.415727e+001	1.062139e+002	-2.891710e+001	9.095294e+001
6.152773e+006	-3.081530e+001	8.527915e+001	-3.066696e+001	-1.724108e+001	-9.827072e+001	-1.740691e+001	-2.891651e+001	9.092580e+001
6.152813e+006	-3.081691e+001	8.528622e+001	-3.066077e+001	-1.721917e+001	-9.375718e+001	5.111797e+001	-2.891154e+001	9.094526e+001
6.152852e+006	-3.081894e+001	8.533471e+001	-3.066172e+001	-1.721868e+001	-9.182661e+001	3.499926e+001	-2.891441e+001	9.093218e+001
6.152891e+006	-3.083074e+001	8.536013e+001	-3.068178e+001	-1.723152e+001	-8.886032e+001	-3.282945e+001	-2.891702e+001	9.093752e+001
6.152930e+006	-3.081234e+001	8.532506e+001	-3.067014e+001	-1.720866e+001	-1.149194e+002	1.309600e+002	-2.891665e+001	9.090365e+001
6.152969e+006	-3.081377e+001	8.528039e+001	-3.066990e+001	-1.727230e+001	-9.549144e+001	1.282100e+001	-2.892050e+001	9.091746e+001
6.153008e+006	-3.081939e+001	8.531045e+001	-3.066414e+001	-1.716903e+001	-9.893664e+001	-3.505943e+001	-2.891249e+001	9.091410e+001
6.153047e+006	-3.082299e+001	8.534911e+001	-3.067375e+001	-1.721110e+001	-9.062658e+001	1.220915e+002	-2.892150e+001	9.090862e+001
6.153086e+006	-3.081244e+001	8.518909e+001	-3.066469e+001	-1.719780e+001	-9.032588e+001	2.829729e+001	-2.891763e+001	9.098776e+001
6.153125e+006	-3.081859e+001	8.525312e+001	-3.067391e+001	-1.722285e+001	-9.811445e+001	4.916328e+001	-2.891508e+001	9.094139e+001
6.153164e+006	-3.081742e+001	8.533221e+001	-3.066233e+001	-1.726515e+001	-9.327853e+001	1.027152e+002	-2.890977e+001	9.089942e+001
6.153203e+006	-3.080732e+001	8.528960e+001	-3.066979e+001	-1.729186e+001	-9.046645e+001	8.774555e+001	-2.892366e+001	9.096448e+001
6.153242e+006	-3.082828e+001	8.531224e+001	-3.068130e+001	-1.725102e+001	-9.241015e+001	1.431865e+002	-2.891173e+001	9.096474e+001
6.153281e+006	-3.081769e+001	8.532143e+001	-3.067640e+001	-1.726586e+001	-9.949109e+001	1.635727e+002	-2.891781e+001	9.097913e+001
6.153320e+006	-3.081611e+001	8.523526e+001	-3.067278e+001	-1.728525e+001	-9.302389e+001	-1.473331e+002	-2.891902e+001	9.097955e+001
6.153359e+006	-3.081548e+001	8.527826e+001	-3.066243e+001	-1.729399e+001	-1.083386e+002	-1.294075e+000	-2.892325e+001	9.098704e+001
6.153398e+006	-3.081255e+001	8.530204e+001	-3.066011e+001	-1.728247e+001	-8.992370e+001	-1.617756e+002	-2.891193e+001	9.094059e+001
6.153438e+006	-3.081589e+001	8.523407e+001	-3.065629e+001	-1.727199e+001	-9.136832e+001	-1.518773e+002	-2.891099e+001	9.098533e+001
6.153477e+006	-3.080777e+001	8.529751e+001	-3.066217e+001	-1.723541e+001	-9.484623e+001	6.850511e+001	-2.892353e+001	9.100449e+001
6.153516e+006	-3.082937e+001	8.530473e+001	-3.066415e+001	-1.723857e+001	-9.104121e+001	1.537562e+002	-2.891509e+001	9.096502e+001
6.153555e+006	-3.082843e+001	8.525873e+001	-3.066648e+001	-1.718821e+001	-9.365766e+001	1.765572e+002	-2.891659e+001	9.095392e+001
6.153594e+006	-3.082295e+001	8.533288e+001	-3.067202e+001	-1.720813e+001	-8.988660e+001	7.190259e+001	-2.891772e+001	9.090588e+001
6.153633e+006	-3.081566e+001	8.528260e+001	-3.067007e+001	-1.725416e+001	-9.327030e+001	-1.041169e+002	-2.891889e+001	9.099246e+001
6.153672e+006	-3.081644e+001	8.532888e+001	-3.066188e+001	-1.730186e+001	-9.090014e+001	4.574385e+001	-2.891972e+001	9.095562e+001
6.153711e+006	-3.081978e+001	8.534081e+001	-3.066525e+001	-1.722426e+001	-9.261429e+001	-7.910861e+001	-2.891553e+001	9.094948e+001
6.153750e+006	-3.081647e+001	8.532911e+001	-3.066869e+001	-1.717124e+001	-9.013536e+001	1.558441e+002	-2.890821e+001	9.094373e+001
6.153789e+006	-3.081073e+001	8.529756e+001	-3.067154e+001	-1.723562e+001	-8.899153e+001	-1.357760e+001	-2.891906e+001	9.095994e+001
6.153828e+006	-3.080865e+001	8.535691e+001	-3.066566e+001	-1.719294e+001	-9.998155e+001	1.267751e+002	-2.891115e+001	9.095420e+001
6.153867e+006	-3.082366e+001	8.529670e+001	-3.065497e+001	-1.727159e+001	-1.030373e+002	-3.938512e+001	-2.891865e+001	9.092912e+001
6.153906e+006	-3.081537e+001	8.534733e+001	-3.066354e+001	-1.724814e+001	-1.029171e+002	2.006593e+001	-2.891438e+001	9.098037e+001
6.153945e+006	-3.081364e+001	8.527929e+001	-3.067435e+001	-1.728088e+001	-9.336523e+001	8.938741e+001	-2.891876e+001	9.101111e+001
6.153984e+006	-3.082403e+001	8.532625e+001	-3.068590e+001	-1.729746e+001	-9.340407e+001	-4.078249e+001	-2.890677e+001	9.099728e+001
6.154023e+006	-3.081472e+001	8.531652e+001	-3.068017e+001	-1.718152e+001	-9.471675e+001	1.187271e+002	-2.890644e+001	9.095748e+001
6.154063e+006	-3.081611e+001	8.534796e+001	-3.066720e+001	-1.719269e+001	-1.044275e+002	-3.006605e+001	-2.891408e+001	9.099215e+001
6.154102e+006	-3.081758e+001	8.529718e+001	-3.066338e+001	-1.720945e+001	-1.028720e+002	1.485431e+002	-2.892212e+001	9.097534e+001
6.154141e+006	-3.081961e+001	8.528252e+001	-3.066398e+001	-1.717917e+001	-8.902172e+001	4.784114e+001	-2.891921e+001	9.095869e+001
6.154180e+006	-3.081280e+001	8.526564e+001	-3.067308e+001	-1.724181e+001	-9.684140e+001	9.394649e+001	-2.891753e+001	9.103041e+001
6.154219e+006	-3.081415e+001	8.528379e+001	-3.067283e+001	-1.720911e+001	-9.526451e+001	3.950386e+001	-2.891040e+001	9.097367e+001
6.154258e+006	-3.082419e+001	8.528306e+001	-3.066611e+001	-1.723393e+001	-8.696376e+001	1.661541e+002	-2.891492e+001	9.102690e+001
6.154297e+006	-3.081565e+001	8.529650e+001	-3.066107e+001	-1.725040e+001	-9.571435e+001	-8.845815e+001	-2.890747e+001	9.095656e+001
6.154336e+006	-3.081870e+001	8.532654e+001	-3.067094e+001	-1.723643e+001	-9.131167e+001	3.661537e+001	-2.891622e+001	9.095088e+001
6.154375e+006	-3.081776e+001	8.539047e+001	-3.068017e+001	-1.714699e+001	-9.023798e+001	3.249508e+001	-2.891244e+001	9.091115e+001
6.154414e+006	-3.081953e+001	8.525775e+001	-3.066464e+001	-1.721648e+001	-8.792812e+001	-1.225709e+002	-2.892149e+001	9.100745e+001
6.154453e+006	-3.082376e+001	8.534236e+001	-3.066358e+001	-1.721300e+001	-8.853012e+001	-2.292729e+001	-2.891544e+001	9.095376e+001
6.154492e+006	-3.081406e+001	8.538461e+001	-3.068277e+001	-1.726669e+001	-9.459557e+001	1.613082e+002	-2.892711e+001	9.100910e+001
6.154531e+006	-3.081328e+001	8.531869e+001	-3.066637e+001	-1.722536e+001	-9.379382e+001	6.618460e+001	-2.891338e+001	9.100249e+001
6.154570e+006	-3.081873e+001	8.531765e+001	-3.066725e+001	-1.722879e+001	-9.671160e+001	-1.777936e+002	-2.891402e+001	9.099449e+001
6.154609e+006	-3.082248e+001	8.536050e+001	-3.066669e+001	-1.724437e+001	-9.255259e+001	1.170059e+002	-2.891451e+001	9.097442e+001
6.154648e+006	-3.082114e+001	8.534133e+001	-3.067166e+001	-1.720914e+001	-9.094948e+001	-1.320060e+002	-2.891391e+001	9.101162e+001
6.154688e+006	-3.082223e+001	8.526391e+001	-3.065428e+001	-1.722329e+001	-8.891524e+001	1.452920e+002	-2.891592e+001	9.097911e+001
6.154727e+006	-3.081694e+001	8.532963e+001	-3.066368e+001	-1.720808e+001	-9.096575e+001	1.464361e+002	-2.891436e+001	9.100607e+001
6.154766e+006	-3.081442e+001	8.530791e+001	-3.066205e+001	-1.722092e+001	-9.241889e+001	4.364331e+001	-2.891632e+001	9.094778e+001
6.154805e+006	-3.082343e+001	8.531058e+001	-3.067247e+001	-1.722195e+001	-9.909173e+001	-5.389596e+001	-2.892260e+001	9.098806e+001
6.154844e+006	-3.081787e+001	8.531047e+001	-3.066776e+001	-1.718298e+001	-1.049907e+002	-9.748654e+001	-2.892428e+001	9.100877e+001
6.154883e+006	-3.082369e+001	8.533125e+001	-3.066537e+001	-1.724447e+001	-8.941804e+001	9.295560e+001	-2.891189e+001	9.096723e+001
6.154922e+006	-3.082530e+001	8.538344e+001	-3.067053e+001	-1.726906e+001	-9.148828e+001	4.201939e+001	-2.891454e+001	9.097996e+001
6.154961e+006	-3.081462e+001	8.530509e+001	-3.066853e+001	-1.724033e+001	-9.356371e+001	5.007099e+001	-2.891687e+001	9.099814e+001
6.155000e+006	-3.081996e+001	8.529584e+001	-3.066211e+001	-1.723449e+001	-8.560371e+001	1.231247e+002	-2.891744e+001	9.100140e+001
6.155039e+006	-3.081494e+001	8.528248e+001	-3.067130e+001	-1.727630e+001	-9.964891e+001	3.517492e+001	-2.892157e+001	9.096788e+001
6.155078e+006	-3.082201e+001	8.534947e+001	-3.066092e+001	-1.721379e+001	-9.686043e+001	3.092018e+001	-2.891546e+001	9.097753e+001
6.155117e+006	-3.082336e+001	8.533982e+001	-3.066628e+001	-1.725679e+001	-8.951260e+001	8.928095e+001	-2.891098e+001	9.097372e+001
6.155156e+006	-3.081377e+001	8.532491e+001	-3.066893e+001	-1.720161e+001	-9.445507e+001	1.608790e+002	-2.891349e+001	9.093843e+001
6.155195e+006	-3.081835e+001	8.531917e+001	-3.065231e+001	-1.727367e+001	-9.847896e+001	1.578580e+001	-2.891715e+001	9.103612e+001
6.155234e+006	-3.081706e+001	8.537595e+001	-3.066192e+001	-1.716991e+001	-8.685103e+001	1.002590e+002	-2.891682e+001	9.105778e+001
6.155273e+006	-3.081597e+001	8.531368e+001	-3.067048e+001	-1.722172e+001	-1.027557e+002	1.710564e+001	-2.891430e+001	9.102457e+001
6.155313e+006	-3.081920e+001	8.533034e+001	-3.067026e+001	-1.728262e+001	-1.024255e+002	1.680389e+002	-2.891406e+001	9.101477e+001
6.155352e+006	-3.081117e+001	8.529899e+001	-3.066151e+001	-1.717256e+001	-1.016027e+002	1.758571e+002	-2.891333e+001	9.092750e+001
6.155391e+006	-3.080673e+001	8.530339e+001	-3.067169e+001	-1.716314e+001	-8.798163e+001	2.743516e+001	-2.891576e+001	9.098371e+001
6.155430e+006	-3.081306e+001	8.536396e+001	-3.066915e+001	-1.720212e+001	-9.106710e+001	3.945270e+001	-2.891871e+001	9.102007e+001
6.155469e+006	-3.081680e+001	8.535428e+001	-3.066768e+001	-1.714083e+001	-9.391728e+001	1.667120e+001	-2.891706e+001	9.097293e+001
6.155508e+006	-3.081703e+001	8.539354e+001	-3.067274e+001	-1.720739e+001	-1.051296e+002	-1.284782e+002	-2.892020e+001	9.098917e+001
6.155547e+006	-3.082190e+001	8.538777e+001	-3.067109e+001	-1.724651e+001	-8.913619e+001	-1.182012e+002	-2.891269e+001	9.101806e+001
6.155586e+006	-3.081434e+001	8.536619e+001	-3.067786e+001	-1.717378e+001	-9.376058e+001	-1.549257e+002	-2.891984e+001	9.104942e+001
6.155625e+006	-3.081238e+001	8.533106e+001	-3.067551e+001	-1.721148e+001	-9.875065e+001	-5.512686e+001	-2.892639e+001	9.100393e+001
6.155664e+006	-3.081548e+001	8.541270e+001	-3.065583e+001	-1.724211e+001	-9.436504e+001	3.102725e+001	-2.891771e+001	9.106122e+001
6.155703e+006	-3.082988e+001	8.536095e+001	-3.066676e+001	-1.719143e+001	-9.574759e+001	7.054002e+000	-2.891111e+001	9.104653e+001
6.155742e+006	-3.082175e+001	8.537442e+001	-3.067573e+001	-1.721580e+001	-9.215323e+001	-1.374501e+002	-2.892092e+001	9.102658e+001
6.155781e+006	-3.081557e+001	8.539218e+001	-3.066129e+001	-1.718002e+001	-8.574057e+001	-1.455221e+002	-2.892282e+001	9.098796e+001
