!CETC41,AV3656A,ZGL00048,1.3.2
!Calibration ON (Full Solt 2-Port(Omit Isolation))
!Measurements: S11 S21 S12 S22
!2025-04-18 00:19
# Hz  S  dB  R 50.000
6.200000e+006	-3.092451e+001	8.668711e+001	-3.048930e+001	-1.648736e+001	-1.073733e+002	1.051562e+002	-2.899264e+001	9.107617e+001
6.200031e+006	-3.092423e+001	8.667490e+001	-3.046622e+001	-1.650659e+001	-9.405751e+001	-2.670174e+001	-2.900269e+001	9.106735e+001
6.200063e+006	-3.092256e+001	8.673588e+001	-3.047073e+001	-1.649187e+001	-9.258600e+001	1.269278e+002	-2.899053e+001	9.108329e+001
6.200094e+006	-3.091101e+001	8.667731e+001	-3.048044e+001	-1.642151e+001	-9.356657e+001	1.021865e+002	-2.898905e+001	9.108773e+001
6.200125e+006	-3.091720e+001	8.673225e+001	-3.046636e+001	-1.642234e+001	-9.536178e+001	7.850542e+001	-2.899974e+001	9.109885e+001
6.200156e+006	-3.093021e+001	8.670243e+001	-3.046725e+001	-1.648308e+001	-1.050415e+002	1.775489e+001	-2.899573e+001	9.111739e+001
6.200188e+006	-3.091583e+001	8.663704e+001	-3.046487e+001	-1.652438e+001	-9.087000e+001	4.947183e+001	-2.899187e+001	9.108125e+001
6.200219e+006	-3.091932e+001	8.671306e+001	-3.047317e+001	-1.651428e+001	-9.113060e+001	-3.987410e+000	-2.898347e+001	9.109242e+001
6.200250e+006	-3.091792e+001	8.665233e+001	-3.046538e+001	-1.652757e+001	-8.852572e+001	1.779676e+002	-2.899691e+001	9.109481e+001
6.200281e+006	-3.092350e+001	8.663658e+001	-3.046846e+001	-1.649453e+001	-1.046468e+002	1.770252e+002	-2.899169e+001	9.112872e+001
6.200313e+006	-3.092315e+001	8.666231e+001	-3.046913e+001	-1.648653e+001	-1.024628e+002	1.940850e+001	-2.899927e+001	9.112647e+001
6.200344e+006	-3.092890e+001	8.671524e+001	-3.046402e+001	-1.646053e+001	-9.358463e+001	1.371977e+002	-2.899703e+001	9.109956e+001
6.200375e+006	-3.091963e+001	8.670872e+001	-3.046377e+001	-1.660335e+001	-9.859165e+001	-7.193393e+001	-2.899361e+001	9.103335e+001
6.200406e+006	-3.091622e+001	8.669970e+001	-3.046435e+001	-1.651093e+001	-9.569678e+001	-1.589538e+002	-2.898659e+001	9.107609e+001
6.200438e+006	-3.093005e+001	8.671166e+001	-3.046200e+001	-1.645619e+001	-9.199998e+001	-5.890033e+001	-2.899508e+001	9.111854e+001
6.200469e+006	-3.091045e+001	8.666223e+001	-3.046332e+001	-1.645819e+001	-8.802576e+001	3.800543e+001	-2.899786e+001	9.110180e+001
6.200500e+006	-3.091746e+001	8.676951e+001	-3.046582e+001	-1.650240e+001	-9.851443e+001	7.734478e+001	-2.900218e+001	9.112427e+001
6.200531e+006	-3.092960e+001	8.673652e+001	-3.044962e+001	-1.652761e+001	-8.854629e+001	-8.926978e+000	-2.899392e+001	9.109912e+001
6.200563e+006	-3.092194e+001	8.667737e+001	-3.045309e+001	-1.643492e+001	-9.096465e+001	8.284860e+001	-2.899503e+001	9.114301e+001
6.200594e+006	-3.092837e+001	8.668938e+001	-3.046220e+001	-1.651567e+001	-9.955857e+001	-1.481889e+002	-2.899422e+001	9.109820e+001
6.200625e+006	-3.091769e+001	8.672165e+001	-3.044697e+001	-1.651288e+001	-8.968162e+001	-1.225266e+002	-2.899421e+001	9.113938e+001
6.200656e+006	-3.092160e+001	8.667164e+001	-3.045149e+001	-1.644369e+001	-9.291730e+001	-4.216108e+001	-2.898519e+001	9.106754e+001
6.200688e+006	-3.092684e+001	8.670771e+001	-3.044266e+001	-1.649070e+001	-1.105221e+002	-1.598974e+001	-2.900215e+001	9.110606e+001
6.200719e+006	-3.091781e+001	8.674469e+001	-3.045444e+001	-1.653954e+001	-9.408396e+001	1.442777e+002	-2.898970e+001	9.107985e+001
6.200750e+006	-3.090990e+001	8.676080e+001	-3.045228e+001	-1.644205e+001	-9.680243e+001	-8.493201e+001	-2.898464e+001	9.106046e+001
6.200781e+006	-3.092465e+001	8.672384e+001	-3.044555e+001	-1.649044e+001	-1.030248e+002	5.165759e+001	-2.899328e+001	9.110280e+001
6.200813e+006	-3.091751e+001	8.664938e+001	-3.044031e+001	-1.651034e+001	-9.510485e+001	-4.135942e+001	-2.899383e+001	9.108759e+001
6.200844e+006	-3.093472e+001	8.664271e+001	-3.044364e+001	-1.654406e+001	-9.577923e+001	1.065355e+002	-2.899782e+001	9.111025e+001
6.200875e+006	-3.091619e+001	8.672283e+001	-3.044049e+001	-1.649730e+001	-9.060929e+001	1.639051e+002	-2.899724e+001	9.107251e+001
6.200906e+006	-3.091181e+001	8.663472e+001	-3.043251e+001	-1.647308e+001	-1.083131e+002	3.489072e+001	-2.899262e+001	9.105183e+001
6.200938e+006	-3.092614e+001	8.670482e+001	-3.044270e+001	-1.646334e+001	-9.295251e+001	1.427809e+002	-2.899557e+001	9.111883e+001
6.200969e+006	-3.092087e+001	8.675182e+001	-3.042827e+001	-1.647664e+001	-9.281630e+001	2.731443e+001	-2.899344e+001	9.107755e+001
6.201000e+006	-3.092341e+001	8.676835e+001	-3.042297e+001	-1.645607e+001	-8.685096e+001	5.886562e+001	-2.899159e+001	9.113544e+001
6.201031e+006	-3.092046e+001	8.673080e+001	-3.041343e+001	-1.650674e+001	-8.829976e+001	3.241056e+000	-2.898852e+001	9.112297e+001
6.201063e+006	-3.092659e+001	8.672959e+001	-3.042800e+001	-1.647979e+001	-8.630788e+001	1.666676e+001	-2.899241e+001	9.103433e+001
6.201094e+006	-3.091339e+001	8.670630e+001	-3.042415e+001	-1.649682e+001	-9.373285e+001	3.705966e+001	-2.899350e+001	9.109157e+001
6.201125e+006	-3.092108e+001	8.670228e+001	-3.042636e+001	-1.644346e+001	-1.026446e+002	8.293450e+001	-2.899335e+001	9.111067e+001
6.201156e+006	-3.091299e+001	8.671561e+001	-3.042854e+001	-1.645993e+001	-1.042348e+002	3.900316e+001	-2.898594e+001	9.108034e+001
6.201188e+006	-3.092134e+001	8.670342e+001	-3.042470e+001	-1.649338e+001	-1.039140e+002	1.229555e+002	-2.899729e+001	9.104099e+001
6.201219e+006	-3.093276e+001	8.670372e+001	-3.040838e+001	-1.644297e+001	-1.023331e+002	7.628279e+001	-2.899774e+001	9.110696e+001
6.201250e+006	-3.092254e+001	8.672406e+001	-3.042229e+001	-1.652156e+001	-8.985279e+001	1.090499e+002	-2.899145e+001	9.110394e+001
6.201281e+006	-3.092154e+001	8.672557e+001	-3.041375e+001	-1.650817e+001	-1.035040e+002	-1.586663e+002	-2.899326e+001	9.117049e+001
6.201313e+006	-3.092045e+001	8.668633e+001	-3.042215e+001	-1.651610e+001	-9.179810e+001	-5.082907e+001	-2.899542e+001	9.112667e+001
6.201344e+006	-3.091942e+001	8.672101e+001	-3.040690e+001	-1.647817e+001	-9.383199e+001	8.178141e+001	-2.899129e+001	9.112187e+001
6.201375e+006	-3.091617e+001	8.671370e+001	-3.041050e+001	-1.652144e+001	-1.001580e+002	4.661699e+001	-2.899106e+001	9.114600e+001
6.201406e+006	-3.092658e+001	8.673682e+001	-3.041298e+001	-1.654802e+001	-9.447843e+001	1.500287e+002	-2.898697e+001	9.108737e+001
6.201438e+006	-3.092116e+001	8.672009e+001	-3.040267e+001	-1.656588e+001	-9.236192e+001	-3.771554e+001	-2.899047e+001	9.103821e+001
6.201469e+006	-3.091760e+001	8.672360e+001	-3.040459e+001	-1.648531e+001	-1.009152e+002	-1.680407e+002	-2.899516e+001	9.112154e+001
6.201500e+006	-3.091416e+001	8.668839e+001	-3.039381e+001	-1.657749e+001	-9.357979e+001	5.330654e+001	-2.898970e+001	9.110553e+001
6.201531e+006	-3.091688e+001	8.670711e+001	-3.038971e+001	-1.656071e+001	-1.000201e+002	6.403441e+001	-2.899137e+001	9.116445e+001
6.201563e+006	-3.092163e+001	8.667892e+001	-3.040390e+001	-1.654753e+001	-1.070503e+002	-1.268128e+002	-2.898774e+001	9.106145e+001
6.201594e+006	-3.091585e+001	8.677673e+001	-3.039041e+001	-1.649970e+001	-9.252710e+001	6.736297e+001	-2.899454e+001	9.113847e+001
6.201625e+006	-3.091370e+001	8.670305e+001	-3.038319e+001	-1.651353e+001	-9.032058e+001	-1.459766e+001	-2.899118e+001	9.114739e+001
6.201656e+006	-3.092392e+001	8.674893e+001	-3.039604e+001	-1.654055e+001	-8.720040e+001	6.491966e+001	-2.899965e+001	9.108691e+001
6.201688e+006	-3.091480e+001	8.673785e+001	-3.038343e+001	-1.657574e+001	-9.417725e+001	-2.605832e+001	-2.899697e+001	9.110533e+001
6.201719e+006	-3.092727e+001	8.669714e+001	-3.038527e+001	-1.656724e+001	-9.145351e+001	1.227786e+002	-2.899853e+001	9.109450e+001
6.201750e+006	-3.091756e+001	8.670444e+001	-3.037603e+001	-1.652645e+001	-9.803043e+001	-1.167218e+002	-2.899469e+001	9.108716e+001
6.201781e+006	-3.092005e+001	8.678821e+001	-3.037723e+001	-1.654338e+001	-9.393048e+001	-3.442564e+001	-2.899449e+001	9.106451e+001
6.201813e+006	-3.092423e+001	8.677958e+001	-3.036504e+001	-1.651664e+001	-9.569672e+001	6.575080e+001	-2.899648e+001	9.110045e+001
6.201844e+006	-3.093288e+001	8.670768e+001	-3.036702e+001	-1.648586e+001	-9.985896e+001	-1.704996e+002	-2.899308e+001	9.105277e+001
6.201875e+006	-3.091921e+001	8.675155e+001	-3.036331e+001	-1.653098e+001	-8.833634e+001	1.186070e+002	-2.899246e+001	9.114997e+001
6.201906e+006	-3.091743e+001	8.674933e+001	-3.036417e+001	-1.653672e+001	-9.912276e+001	6.577506e+001	-2.899529e+001	9.108836e+001
6.201938e+006	-3.091449e+001	8.669676e+001	-3.034839e+001	-1.649095e+001	-9.790950e+001	-3.058843e+001	-2.899550e+001	9.110346e+001
6.201969e+006	-3.093304e+001	8.671654e+001	-3.035818e+001	-1.657004e+001	-1.031849e+002	7.687311e-001	-2.899472e+001	9.112072e+001
6.202000e+006	-3.092648e+001	8.675279e+001	-3.035806e+001	-1.656884e+001	-9.980007e+001	8.810893e+001	-2.899071e+001	9.110735e+001
6.202031e+006	-3.092589e+001	8.674811e+001	-3.035347e+001	-1.648088e+001	-9.472070e+001	1.071992e+002	-2.898944e+001	9.109915e+001
6.202063e+006	-3.091214e+001	8.671737e+001	-3.034663e+001	-1.656120e+001	-1.183179e+002	6.839178e+001	-2.898651e+001	9.118376e+001
6.202094e+006	-3.091866e+001	8.671166e+001	-3.033858e+001	-1.655822e+001	-1.028804e+002	9.864235e+001	-2.900135e+001	9.116412e+001
6.202125e+006	-3.092177e+001	8.673506e+001	-3.033771e+001	-1.653133e+001	-8.833736e+001	1.087197e+002	-2.899351e+001	9.112200e+001
6.202156e+006	-3.092376e+001	8.666365e+001	-3.033311e+001	-1.658557e+001	-8.910508e+001	9.876815e+001	-2.900032e+001	9.115096e+001
6.202188e+006	-3.092598e+001	8.672374e+001	-3.032882e+001	-1.648219e+001	-9.010778e+001	1.389005e+002	-2.899247e+001	9.111158e+001
6.202219e+006	-3.092145e+001	8.672118e+001	-3.032184e+001	-1.656549e+001	-8.792855e+001	7.159780e+001	-2.900803e+001	9.113485e+001
6.202250e+006	-3.092570e+001	8.673230e+001	-3.032239e+001	-1.657673e+001	-9.874080e+001	1.777157e+002	-2.899302e+001	9.111559e+001
6.202281e+006	-3.091786e+001	8.673262e+001	-3.030923e+001	-1.656859e+001	-8.969168e+001	3.608480e+001	-2.899097e+001	9.111362e+001
6.202313e+006	-3.092116e+001	8.675242e+001	-3.031167e+001	-1.653476e+001	-1.037249e+002	8.051878e+001	-2.898770e+001	9.108876e+001
6.202344e+006	-3.092420e+001	8.670970e+001	-3.031703e+001	-1.661142e+001	-9.365721e+001	8.872245e+001	-2.899357e+001	9.115142e+001
6.202375e+006	-3.092365e+001	8.670427e+001	-3.029336e+001	-1.659282e+001	-9.174792e+001	9.740279e+001	-2.899514e+001	9.115080e+001
6.202406e+006	-3.092896e+001	8.678633e+001	-3.029372e+001	-1.656931e+001	-9.509573e+001	6.362731e+001	-2.899581e+001	9.115265e+001
6.202438e+006	-3.092024e+001	8.675042e+001	-3.029454e+001	-1.654462e+001	-8.921666e+001	-6.065961e+001	-2.899336e+001	9.107954e+001
6.202469e+006	-3.092550e+001	8.673642e+001	-3.028586e+001	-1.659451e+001	-9.427349e+001	8.587380e+001	-2.898778e+001	9.109600e+001
6.202500e+006	-3.091646e+001	8.670831e+001	-3.027358e+001	-1.663788e+001	-9.676405e+001	1.545585e+002	-2.899297e+001	9.114471e+001
6.202531e+006	-3.092173e+001	8.674947e+001	-3.028237e+001	-1.663103e+001	-8.924632e+001	-1.341816e+002	-2.898628e+001	9.109992e+001
6.202563e+006	-3.091299e+001	8.669195e+001	-3.027396e+001	-1.659477e+001	-9.218079e+001	-1.127296e+002	-2.899433e+001	9.112124e+001
6.202594e+006	-3.092749e+001	8.672768e+001	-3.027621e+001	-1.659456e+001	-9.621417e+001	1.721748e+002	-2.899470e+001	9.114699e+001
6.202625e+006	-3.091587e+001	8.671867e+001	-3.026495e+001	-1.656848e+001	-9.776398e+001	1.429171e+002	-2.899243e+001	9.115891e+001
6.202656e+006	-3.092438e+001	8.676589e+001	-3.026272e+001	-1.667470e+001	-1.007511e+002	4.119768e+001	-2.899332e+001	9.106894e+001
6.202688e+006	-3.092389e+001	8.675215e+001	-3.024845e+001	-1.654862e+001	-1.010213e+002	1.456488e+002	-2.899330e+001	9.111656e+001
6.202719e+006	-3.093129e+001	8.673311e+001	-3.024016e+001	-1.665682e+001	-1.015470e+002	-6.279799e+001	-2.898929e+001	9.111010e+001
6.202750e+006	-3.092811e+001	8.670104e+001	-3.023456e+001	-1.663498e+001	-9.798821e+001	6.210673e+001	-2.898913e+001	9.113159e+001
6.202781e+006	-3.091709e+001	8.679205e+001	-3.023114e+001	-1.664176e+001	-9.634299e+001	6.254154e+001	-2.900237e+001	9.118463e+001
6.202813e+006	-3.092737e+001	8.676001e+001	-3.022365e+001	-1.659818e+001	-8.809967e+001	1.012135e+002	-2.899494e+001	9.107770e+001
6.202844e+006	-3.091904e+001	8.677747e+001	-3.021310e+001	-1.673177e+001	-9.392651e+001	7.978546e+001	-2.899408e+001	9.115438e+001
6.202875e+006	-3.092624e+001	8.673050e+001	-3.021528e+001	-1.664727e+001	-9.437738e+001	9.250446e+001	-2.900041e+001	9.110670e+001
6.202906e+006	-3.092492e+001	8.677060e+001	-3.019692e+001	-1.663568e+001	-9.025314e+001	-1.383612e+002	-2.899271e+001	9.115881e+001
6.202938e+006	-3.092151e+001	8.675302e+001	-3.019463e+001	-1.665244e+001	-9.932301e+001	9.369848e+001	-2.899029e+001	9.115516e+001
6.202969e+006	-3.092264e+001	8.671601e+001	-3.017377e+001	-1.655619e+001	-9.751489e+001	-7.240446e+001	-2.899385e+001	9.117065e+001
6.203000e+006	-3.092224e+001	8.670848e+001	-3.017070e+001	-1.673533e+001	-9.946691e+001	2.111233e+001	-2.899210e+001	9.113323e+001
6.203031e+006	-3.092012e+001	8.674630e+001	-3.017671e+001	-1.671827e+001	-9.215098e+001	1.590284e+002	-2.899358e+001	9.112981e+001
6.203063e+006	-3.092447e+001	8.679236e+001	-3.015359e+001	-1.670705e+001	-9.656249e+001	-1.177631e+002	-2.899302e+001	9.116300e+001
6.203094e+006	-3.092040e+001	8.678755e+001	-3.014855e+001	-1.673415e+001	-9.072541e+001	6.096496e+001	-2.898870e+001	9.110337e+001
6.203125e+006	-3.091791e+001	8.675492e+001	-3.012627e+001	-1.669428e+001	-9.444666e+001	-8.641567e+001	-2.899460e+001	9.113410e+001
6.203156e+006	-3.093547e+001	8.673916e+001	-3.012729e+001	-1.674953e+001	-8.880229e+001	1.132558e+002	-2.899978e+001	9.113759e+001
6.203188e+006	-3.091416e+001	8.682796e+001	-3.011525e+001	-1.669412e+001	-1.055537e+002	-8.032043e+001	-2.898921e+001	9.118144e+001
6.203219e+006	-3.092000e+001	8.672992e+001	-3.010718e+001	-1.679421e+001	-9.191047e+001	7.706545e+000	-2.899253e+001	9.114447e+001
6.203250e+006	-3.092693e+001	8.671851e+001	-3.009221e+001	-1.676028e+001	-9.614444e+001	-4.704925e+001	-2.899687e+001	9.111308e+001
6.203281e+006	-3.092119e+001	8.671937e+001	-3.008275e+001	-1.674030e+001	-9.135432e+001	1.139700e+002	-2.899778e+001	9.115553e+001
6.203313e+006	-3.092710e+001	8.675657e+001	-3.006850e+001	-1.676505e+001	-9.558673e+001	7.285662e+001	-2.899435e+001	9.114317e+001
6.203344e+006	-3.092521e+001	8.677300e+001	-3.005352e+001	-1.680433e+001	-9.407545e+001	1.793578e+002	-2.899539e+001	9.111741e+001
6.203375e+006	-3.092975e+001	8.671599e+001	-3.004637e+001	-1.687348e+001	-1.006687e+002	3.207339e+001	-2.899221e+001	9.115446e+001
6.203406e+006	-3.092528e+001	8.683010e+001	-3.001172e+001	-1.680091e+001	-1.014219e+002	-8.285899e+001	-2.899004e+001	9.114129e+001
6.203438e+006	-3.092260e+001	8.674993e+001	-3.000212e+001	-1.686787e+001	-9.428372e+001	8.260101e+001	-2.899961e+001	9.118105e+001
6.203469e+006	-3.091493e+001	8.672604e+001	-2.998634e+001	-1.688170e+001	-9.391775e+001	7.862232e+001	-2.899755e+001	9.115061e+001
6.203500e+006	-3.093000e+001	8.676069e+001	-2.997275e+001	-1.701546e+001	-9.102382e+001	1.260937e+002	-2.899311e+001	9.118678e+001
6.203531e+006	-3.092244e+001	8.675617e+001	-2.995291e+001	-1.692781e+001	-9.487779e+001	-1.653766e+002	-2.899415e+001	9.119421e+001
6.203563e+006	-3.092574e+001	8.675244e+001	-2.993834e+001	-1.697710e+001	-9.557723e+001	4.101647e+000	-2.900397e+001	9.112423e+001
6.203594e+006	-3.092720e+001	8.680855e+001	-2.990630e+001	-1.702130e+001	-9.115736e+001	1.030244e+002	-2.899111e+001	9.112382e+001
6.203625e+006	-3.092647e+001	8.675749e+001	-2.989047e+001	-1.708618e+001	-9.445646e+001	5.309659e+001	-2.899214e+001	9.119969e+001
6.203656e+006	-3.092714e+001	8.671370e+001	-2.989042e+001	-1.714082e+001	-9.529695e+001	-6.502533e+001	-2.900101e+001	9.115000e+001
6.203688e+006	-3.092280e+001	8.677228e+001	-2.984992e+001	-1.711147e+001	-9.478691e+001	1.002961e+002	-2.899031e+001	9.113601e+001
6.203719e+006	-3.092457e+001	8.680432e+001	-2.982554e+001	-1.714413e+001	-9.535668e+001	-1.779892e+002	-2.899712e+001	9.112726e+001
6.203750e+006	-3.091492e+001	8.676852e+001	-2.979382e+001	-1.720803e+001	-1.018123e+002	2.751796e+001	-2.899555e+001	9.116708e+001
6.203781e+006	-3.092362e+001	8.678165e+001	-2.975971e+001	-1.722901e+001	-8.900372e+001	1.743496e+001	-2.899534e+001	9.116707e+001
6.203813e+006	-3.091778e+001	8.678129e+001	-2.973010e+001	-1.735035e+001	-1.070395e+002	2.228919e+001	-2.898986e+001	9.117615e+001
6.203844e+006	-3.092160e+001	8.679355e+001	-2.970821e+001	-1.736111e+001	-1.165063e+002	1.553734e+002	-2.899103e+001	9.113465e+001
6.203875e+006	-3.092733e+001	8.676075e+001	-2.965667e+001	-1.748052e+001	-9.191626e+001	3.656052e+001	-2.899251e+001	9.113970e+001
6.203906e+006	-3.092015e+001	8.675381e+001	-2.961318e+001	-1.758220e+001	-9.035046e+001	-1.848213e+000	-2.899248e+001	9.110872e+001
6.203938e+006	-3.091370e+001	8.675394e+001	-2.958136e+001	-1.765683e+001	-9.060634e+001	1.065400e+002	-2.899293e+001	9.111613e+001
6.203969e+006	-3.092098e+001	8.679017e+001	-2.953303e+001	-1.786326e+001	-9.631258e+001	3.497586e+001	-2.899420e+001	9.116660e+001
6.204000e+006	-3.092890e+001	8.673665e+001	-2.947297e+001	-1.803082e+001	-9.090292e+001	2.826251e+001	-2.899719e+001	9.111958e+001
6.204031e+006	-3.092671e+001	8.676599e+001	-2.942109e+001	-1.819894e+001	-1.089164e+002	8.506980e+001	-2.898921e+001	9.115435e+001
6.204063e+006	-3.091302e+001	8.676960e+001	-2.935850e+001	-1.849337e+001	-1.095715e+002	1.298171e+002	-2.899494e+001	9.114183e+001
6.204094e+006	-3.091931e+001	8.681536e+001	-2.928513e+001	-1.879403e+001	-9.539787e+001	-9.067395e+001	-2.899125e+001	9.119103e+001
6.204125e+006	-3.092026e+001	8.677067e+001	-2.924459e+001	-1.913879e+001	-8.499264e+001	7.639686e+001	-2.899384e+001	9.117627e+001
6.204156e+006	-3.092861e+001	8.670608e+001	-2.921715e+001	-1.952473e+001	-9.317157e+001	1.560991e+002	-2.899678e+001	9.118965e+001
6.204188e+006	-3.091533e+001	8.685172e+001	-2.920116e+001	-2.000412e+001	-9.694728e+001	-3.637947e+001	-2.899227e+001	9.110338e+001
6.204219e+006	-3.092474e+001	8.678187e+001	-2.914281e+001	-2.002503e+001	-9.208046e+001	1.400563e+002	-2.900103e+001	9.115234e+001
6.204250e+006	-3.092453e+001	8.679835e+001	-2.907411e+001	-1.968129e+001	-9.924185e+001	3.922568e+001	-2.899243e+001	9.115026e+001
6.204281e+006	-3.093330e+001	8.680827e+001	-2.888697e+001	-1.971906e+001	-9.868639e+001	8.345277e+001	-2.899259e+001	9.116903e+001
6.204313e+006	-3.092949e+001	8.685430e+001	-2.861348e+001	-2.061020e+001	-9.190786e+001	-1.743484e+002	-2.900007e+001	9.116621e+001
6.204344e+006	-3.092721e+001	8.679372e+001	-2.846287e+001	-2.222882e+001	-9.741589e+001	8.324236e+001	-2.900462e+001	9.114666e+001
6.204375e+006	-3.092141e+001	8.676941e+001	-2.841643e+001	-2.381762e+001	-9.376602e+001	6.644091e+001	-2.899512e+001	9.114802e+001
6.204406e+006	-3.092783e+001	8.676436e+001	-2.828240e+001	-2.438922e+001	-9.686000e+001	8.219213e+001	-2.899456e+001	9.110606e+001
6.204438e+006	-3.092184e+001	8.676370e+001	-2.800749e+001	-2.594117e+001	-9.690877e+001	1.467167e+002	-2.899671e+001	9.122943e+001
6.204469e+006	-3.093361e+001	8.676594e+001	-2.786373e+001	-2.898275e+001	-1.046284e+002	1.385926e+002	-2.900239e+001	9.121681e+001
6.204500e+006	-3.092475e+001	8.681235e+001	-2.779959e+001	-3.146616e+001	-9.775083e+001	7.103532e+000	-2.899384e+001	9.120340e+001
6.204531e+006	-3.092821e+001	8.675128e+001	-2.761737e+001	-3.505456e+001	-9.098580e+001	1.375659e+002	-2.898943e+001	9.114320e+001
6.204563e+006	-3.092611e+001	8.683980e+001	-2.772798e+001	-4.004895e+001	-9.782755e+001	8.829914e+001	-2.900040e+001	9.117615e+001
6.204594e+006	-3.092589e+001	8.680600e+001	-2.791020e+001	-4.494971e+001	-9.047248e+001	-3.570863e+000	-2.899892e+001	9.116781e+001
6.204625e+006	-3.092986e+001	8.674800e+001	-2.838178e+001	-5.139641e+001	-8.417201e+001	1.146983e+002	-2.898955e+001	9.115087e+001
