!CETC41,AV3656A,ZGL00048,1.3.2
!Calibration ON (Full Solt 2-Port(Omit Isolation))
!Measurements: S11 S21 S12 S22
!2025-04-18 03:31
# Hz  S  dB  R 50.000
6.150000e+006	-3.078307e+001	8.526711e+001	-3.067510e+001	-1.757804e+001	-1.069947e+002	1.113659e+002	-2.886972e+001	9.101279e+001
6.150039e+006	-3.077459e+001	8.522832e+001	-3.067364e+001	-1.753995e+001	-1.094909e+002	3.487807e+001	-2.885842e+001	9.102183e+001
6.150078e+006	-3.077805e+001	8.527647e+001	-3.067310e+001	-1.757548e+001	-9.904037e+001	1.042015e+002	-2.886491e+001	9.106322e+001
6.150117e+006	-3.078055e+001	8.519913e+001	-3.066820e+001	-1.754657e+001	-1.008683e+002	-3.391478e+001	-2.886611e+001	9.104368e+001
6.150156e+006	-3.078045e+001	8.523344e+001	-3.066485e+001	-1.753628e+001	-9.528541e+001	9.759801e+001	-2.885876e+001	9.103993e+001
6.150195e+006	-3.078673e+001	8.519180e+001	-3.066516e+001	-1.745433e+001	-9.057247e+001	1.098879e+002	-2.885910e+001	9.107252e+001
6.150234e+006	-3.077932e+001	8.526279e+001	-3.067985e+001	-1.761049e+001	-9.119082e+001	1.321684e+001	-2.885515e+001	9.102654e+001
6.150273e+006	-3.077469e+001	8.522023e+001	-3.066301e+001	-1.750506e+001	-8.454929e+001	1.571018e+002	-2.886432e+001	9.102141e+001
6.150313e+006	-3.078291e+001	8.523926e+001	-3.066627e+001	-1.761884e+001	-9.675975e+001	7.653984e+001	-2.886171e+001	9.108365e+001
6.150352e+006	-3.078960e+001	8.524616e+001	-3.067359e+001	-1.754437e+001	-9.494056e+001	-1.699598e+002	-2.886354e+001	9.113494e+001
6.150391e+006	-3.079616e+001	8.522579e+001	-3.066819e+001	-1.753854e+001	-9.016370e+001	1.748623e+001	-2.886476e+001	9.102289e+001
6.150430e+006	-3.077777e+001	8.525703e+001	-3.067579e+001	-1.759485e+001	-8.673473e+001	1.026408e+002	-2.886655e+001	9.104473e+001
6.150469e+006	-3.077819e+001	8.521202e+001	-3.067224e+001	-1.748741e+001	-8.635251e+001	9.449290e+001	-2.887035e+001	9.103415e+001
6.150508e+006	-3.078470e+001	8.524879e+001	-3.067151e+001	-1.752020e+001	-1.150294e+002	-1.229441e+002	-2.886877e+001	9.108406e+001
6.150547e+006	-3.078280e+001	8.520086e+001	-3.066711e+001	-1.757929e+001	-1.008383e+002	-1.232695e+002	-2.886777e+001	9.106107e+001
6.150586e+006	-3.078234e+001	8.526883e+001	-3.067147e+001	-1.757336e+001	-9.497999e+001	1.332074e+002	-2.886027e+001	9.106020e+001
6.150625e+006	-3.078776e+001	8.526740e+001	-3.068338e+001	-1.752898e+001	-1.074263e+002	-7.594848e+001	-2.886245e+001	9.108113e+001
6.150664e+006	-3.078617e+001	8.528603e+001	-3.067278e+001	-1.752265e+001	-1.083076e+002	1.131602e+001	-2.886184e+001	9.102074e+001
6.150703e+006	-3.078131e+001	8.527604e+001	-3.067830e+001	-1.758396e+001	-9.037654e+001	-3.292074e+000	-2.886291e+001	9.103090e+001
6.150742e+006	-3.078182e+001	8.528393e+001	-3.066637e+001	-1.762221e+001	-8.795358e+001	1.022575e+002	-2.886090e+001	9.103605e+001
6.150781e+006	-3.077817e+001	8.527746e+001	-3.066716e+001	-1.748502e+001	-8.869027e+001	-1.522941e+002	-2.886552e+001	9.103815e+001
6.150820e+006	-3.078087e+001	8.528641e+001	-3.067042e+001	-1.757860e+001	-9.257471e+001	1.757563e+002	-2.886623e+001	9.100489e+001
6.150859e+006	-3.077804e+001	8.520624e+001	-3.066878e+001	-1.752957e+001	-8.635195e+001	-7.134245e+001	-2.885725e+001	9.102014e+001
6.150898e+006	-3.077590e+001	8.526523e+001	-3.067266e+001	-1.756551e+001	-1.030941e+002	1.109392e+002	-2.886119e+001	9.101714e+001
6.150938e+006	-3.077416e+001	8.525174e+001	-3.066794e+001	-1.747860e+001	-9.911601e+001	-5.777056e+001	-2.886642e+001	9.104859e+001
6.150977e+006	-3.079005e+001	8.522016e+001	-3.067301e+001	-1.750541e+001	-8.834262e+001	8.029875e+001	-2.885965e+001	9.104647e+001
6.151016e+006	-3.078901e+001	8.528647e+001	-3.067161e+001	-1.745979e+001	-1.079861e+002	-1.712555e+001	-2.886535e+001	9.107644e+001
6.151055e+006	-3.078224e+001	8.524120e+001	-3.067563e+001	-1.758785e+001	-9.254506e+001	5.327929e+001	-2.886945e+001	9.109367e+001
6.151094e+006	-3.078016e+001	8.524904e+001	-3.066949e+001	-1.755929e+001	-8.477087e+001	1.171212e+002	-2.885074e+001	9.109237e+001
6.151133e+006	-3.077710e+001	8.527039e+001	-3.067061e+001	-1.758318e+001	-1.001424e+002	8.637613e+001	-2.886090e+001	9.107437e+001
6.151172e+006	-3.077885e+001	8.527323e+001	-3.066520e+001	-1.752328e+001	-9.223721e+001	1.562233e+002	-2.886697e+001	9.105624e+001
6.151211e+006	-3.077523e+001	8.524376e+001	-3.066897e+001	-1.752510e+001	-8.987606e+001	-2.033921e+001	-2.885225e+001	9.107729e+001
6.151250e+006	-3.078626e+001	8.525167e+001	-3.067142e+001	-1.755845e+001	-1.008178e+002	5.690271e+001	-2.886003e+001	9.104718e+001
6.151289e+006	-3.078500e+001	8.527956e+001	-3.067383e+001	-1.757355e+001	-1.007654e+002	-1.650581e+002	-2.886505e+001	9.103311e+001
6.151328e+006	-3.079109e+001	8.527472e+001	-3.068096e+001	-1.753875e+001	-9.119560e+001	5.308528e+001	-2.886402e+001	9.102614e+001
6.151367e+006	-3.077934e+001	8.527704e+001	-3.066976e+001	-1.749187e+001	-9.414525e+001	-9.673598e+000	-2.886080e+001	9.100999e+001
6.151406e+006	-3.079124e+001	8.521805e+001	-3.066992e+001	-1.758261e+001	-1.030502e+002	9.274620e+001	-2.886242e+001	9.104211e+001
6.151445e+006	-3.078298e+001	8.527185e+001	-3.066468e+001	-1.759770e+001	-9.707925e+001	1.482853e+002	-2.886826e+001	9.107332e+001
6.151484e+006	-3.078043e+001	8.527964e+001	-3.067563e+001	-1.756444e+001	-8.789853e+001	5.988379e+001	-2.886582e+001	9.108116e+001
6.151523e+006	-3.078640e+001	8.527057e+001	-3.067825e+001	-1.751469e+001	-9.836666e+001	-6.735141e+001	-2.886674e+001	9.112235e+001
6.151563e+006	-3.079139e+001	8.527349e+001	-3.067689e+001	-1.751161e+001	-9.782050e+001	-1.567353e+002	-2.886399e+001	9.110699e+001
6.151602e+006	-3.077934e+001	8.527986e+001	-3.067102e+001	-1.760054e+001	-9.636612e+001	-1.774416e+002	-2.886600e+001	9.103979e+001
6.151641e+006	-3.077775e+001	8.525044e+001	-3.068082e+001	-1.750371e+001	-9.522972e+001	1.261390e+002	-2.886731e+001	9.111051e+001
6.151680e+006	-3.078697e+001	8.529690e+001	-3.067547e+001	-1.754275e+001	-9.700144e+001	6.521405e+001	-2.886211e+001	9.110623e+001
6.151719e+006	-3.078812e+001	8.525081e+001	-3.066227e+001	-1.756963e+001	-1.143954e+002	1.762445e+001	-2.886592e+001	9.106137e+001
6.151758e+006	-3.078835e+001	8.529925e+001	-3.067251e+001	-1.761052e+001	-9.175836e+001	-3.016496e+001	-2.885996e+001	9.106030e+001
6.151797e+006	-3.077661e+001	8.526333e+001	-3.066154e+001	-1.758833e+001	-1.027417e+002	4.054866e+001	-2.886155e+001	9.112674e+001
6.151836e+006	-3.078484e+001	8.536883e+001	-3.068297e+001	-1.760876e+001	-9.417840e+001	9.703234e+000	-2.886412e+001	9.109900e+001
6.151875e+006	-3.078175e+001	8.532860e+001	-3.067223e+001	-1.758519e+001	-8.881549e+001	1.373195e+002	-2.885884e+001	9.103233e+001
6.151914e+006	-3.078071e+001	8.529308e+001	-3.067753e+001	-1.751686e+001	-1.004211e+002	-1.755325e+002	-2.885734e+001	9.107103e+001
6.151953e+006	-3.078399e+001	8.533940e+001	-3.066285e+001	-1.751077e+001	-8.914653e+001	3.456944e+001	-2.886442e+001	9.107295e+001
6.151992e+006	-3.078545e+001	8.524120e+001	-3.067354e+001	-1.759349e+001	-1.007122e+002	5.940098e+001	-2.886161e+001	9.107188e+001
6.152031e+006	-3.078894e+001	8.524922e+001	-3.068285e+001	-1.756275e+001	-8.918272e+001	-1.069837e+002	-2.886460e+001	9.106319e+001
6.152070e+006	-3.078162e+001	8.524999e+001	-3.066786e+001	-1.749559e+001	-9.610413e+001	1.353230e+002	-2.885788e+001	9.107745e+001
6.152109e+006	-3.079498e+001	8.527878e+001	-3.067137e+001	-1.756333e+001	-8.791282e+001	3.179634e+001	-2.886650e+001	9.111363e+001
6.152148e+006	-3.078976e+001	8.531090e+001	-3.066721e+001	-1.755649e+001	-9.646558e+001	-1.351302e+002	-2.886064e+001	9.108111e+001
6.152188e+006	-3.078515e+001	8.528154e+001	-3.067717e+001	-1.756251e+001	-1.043444e+002	-2.153295e+001	-2.885570e+001	9.106119e+001
6.152227e+006	-3.078586e+001	8.523774e+001	-3.067325e+001	-1.760378e+001	-9.740355e+001	1.337502e+002	-2.885763e+001	9.106502e+001
6.152266e+006	-3.078902e+001	8.527000e+001	-3.066965e+001	-1.757786e+001	-1.104739e+002	3.952907e+001	-2.886919e+001	9.107241e+001
6.152305e+006	-3.078144e+001	8.526931e+001	-3.067301e+001	-1.751395e+001	-9.632180e+001	7.685714e+001	-2.886440e+001	9.105352e+001
6.152344e+006	-3.077837e+001	8.524666e+001	-3.067455e+001	-1.753328e+001	-8.781341e+001	1.432208e+002	-2.886308e+001	9.110497e+001
6.152383e+006	-3.079396e+001	8.530968e+001	-3.067138e+001	-1.753745e+001	-9.180401e+001	-1.688602e+002	-2.886465e+001	9.103784e+001
6.152422e+006	-3.078621e+001	8.527566e+001	-3.066218e+001	-1.751266e+001	-1.000458e+002	-3.132890e+001	-2.886632e+001	9.106745e+001
6.152461e+006	-3.078894e+001	8.530355e+001	-3.067259e+001	-1.757663e+001	-1.048908e+002	2.362678e+001	-2.886357e+001	9.113187e+001
6.152500e+006	-3.077653e+001	8.532380e+001	-3.066676e+001	-1.756824e+001	-9.179706e+001	1.631924e+002	-2.886694e+001	9.101782e+001
6.152539e+006	-3.078716e+001	8.532383e+001	-3.067382e+001	-1.757032e+001	-1.086987e+002	-5.493663e+001	-2.886798e+001	9.115244e+001
6.152578e+006	-3.078699e+001	8.529331e+001	-3.067958e+001	-1.755684e+001	-8.875220e+001	1.672822e+002	-2.886658e+001	9.109393e+001
6.152617e+006	-3.079095e+001	8.525720e+001	-3.067074e+001	-1.760004e+001	-9.034963e+001	1.059618e+002	-2.886888e+001	9.109691e+001
6.152656e+006	-3.078351e+001	8.530609e+001	-3.067681e+001	-1.758634e+001	-9.273571e+001	1.233205e+002	-2.886915e+001	9.108329e+001
6.152695e+006	-3.078625e+001	8.528345e+001	-3.067098e+001	-1.754881e+001	-1.018467e+002	1.457841e+002	-2.885872e+001	9.107731e+001
6.152734e+006	-3.078217e+001	8.527447e+001	-3.069023e+001	-1.760110e+001	-9.450891e+001	8.303084e+001	-2.886715e+001	9.109129e+001
6.152773e+006	-3.078596e+001	8.529502e+001	-3.066722e+001	-1.751944e+001	-9.126602e+001	1.618225e+002	-2.886239e+001	9.106919e+001
6.152813e+006	-3.078885e+001	8.530085e+001	-3.065857e+001	-1.756851e+001	-9.950260e+001	-1.680654e+002	-2.885298e+001	9.106183e+001
6.152852e+006	-3.078247e+001	8.524603e+001	-3.066055e+001	-1.760347e+001	-9.455250e+001	-9.666991e+001	-2.886397e+001	9.107912e+001
6.152891e+006	-3.078791e+001	8.534528e+001	-3.066954e+001	-1.754833e+001	-9.508002e+001	2.087419e+001	-2.886796e+001	9.103947e+001
6.152930e+006	-3.079023e+001	8.532218e+001	-3.066148e+001	-1.751670e+001	-9.309146e+001	6.597249e+001	-2.886786e+001	9.112130e+001
6.152969e+006	-3.079550e+001	8.530133e+001	-3.067693e+001	-1.751809e+001	-1.048725e+002	7.844587e+001	-2.886681e+001	9.110045e+001
6.153008e+006	-3.078752e+001	8.534017e+001	-3.066946e+001	-1.752203e+001	-9.097810e+001	-1.141576e+002	-2.886370e+001	9.108327e+001
6.153047e+006	-3.079038e+001	8.532830e+001	-3.066542e+001	-1.760118e+001	-9.525206e+001	-5.827905e+001	-2.885932e+001	9.116759e+001
6.153086e+006	-3.078164e+001	8.529808e+001	-3.066559e+001	-1.759059e+001	-9.324354e+001	1.326986e+002	-2.886196e+001	9.109100e+001
6.153125e+006	-3.078971e+001	8.529177e+001	-3.066791e+001	-1.757818e+001	-1.058970e+002	-3.751515e+000	-2.886058e+001	9.110562e+001
6.153164e+006	-3.078391e+001	8.532296e+001	-3.067527e+001	-1.751412e+001	-9.216021e+001	1.540352e+002	-2.885355e+001	9.113089e+001
6.153203e+006	-3.079168e+001	8.535604e+001	-3.066260e+001	-1.749887e+001	-9.373719e+001	1.155640e+002	-2.886253e+001	9.108617e+001
6.153242e+006	-3.078132e+001	8.530962e+001	-3.067368e+001	-1.761130e+001	-9.137921e+001	9.753402e+001	-2.886794e+001	9.110752e+001
6.153281e+006	-3.077409e+001	8.536374e+001	-3.067250e+001	-1.747723e+001	-9.820661e+001	-9.651267e+001	-2.886313e+001	9.110351e+001
6.153320e+006	-3.078539e+001	8.530448e+001	-3.067592e+001	-1.755731e+001	-9.537090e+001	-4.203741e+001	-2.886209e+001	9.111303e+001
6.153359e+006	-3.079529e+001	8.526599e+001	-3.066344e+001	-1.756506e+001	-8.908154e+001	4.562189e+001	-2.887268e+001	9.106841e+001
6.153398e+006	-3.078695e+001	8.530997e+001	-3.066575e+001	-1.757388e+001	-8.899296e+001	7.948824e+001	-2.886727e+001	9.112053e+001
6.153438e+006	-3.077887e+001	8.528653e+001	-3.066123e+001	-1.759211e+001	-9.392791e+001	-2.315102e+001	-2.886336e+001	9.105894e+001
6.153477e+006	-3.078563e+001	8.530323e+001	-3.067172e+001	-1.758053e+001	-8.780402e+001	1.699199e+002	-2.886424e+001	9.117423e+001
6.153516e+006	-3.078016e+001	8.531613e+001	-3.066422e+001	-1.758727e+001	-9.424617e+001	4.902814e+001	-2.886169e+001	9.112101e+001
6.153555e+006	-3.078769e+001	8.537686e+001	-3.066635e+001	-1.756106e+001	-9.351137e+001	7.292801e+001	-2.886014e+001	9.114114e+001
6.153594e+006	-3.077256e+001	8.534162e+001	-3.065902e+001	-1.745940e+001	-8.937477e+001	9.498187e+001	-2.886192e+001	9.111293e+001
6.153633e+006	-3.078041e+001	8.530558e+001	-3.066622e+001	-1.756977e+001	-1.010328e+002	3.900040e+001	-2.886856e+001	9.107959e+001
6.153672e+006	-3.078682e+001	8.527085e+001	-3.066382e+001	-1.751552e+001	-8.965891e+001	-1.302060e+002	-2.886183e+001	9.113148e+001
6.153711e+006	-3.079004e+001	8.530019e+001	-3.066523e+001	-1.753047e+001	-9.199959e+001	5.473898e+001	-2.886282e+001	9.115743e+001
6.153750e+006	-3.078164e+001	8.527608e+001	-3.067782e+001	-1.762804e+001	-8.909666e+001	2.322663e+001	-2.887270e+001	9.114849e+001
6.153789e+006	-3.079007e+001	8.532509e+001	-3.066252e+001	-1.756414e+001	-1.100766e+002	1.438533e+002	-2.885558e+001	9.111875e+001
6.153828e+006	-3.078491e+001	8.530168e+001	-3.066496e+001	-1.753659e+001	-9.828230e+001	1.550741e+002	-2.886514e+001	9.111512e+001
6.153867e+006	-3.079473e+001	8.532028e+001	-3.066754e+001	-1.760086e+001	-9.887231e+001	-9.471152e+001	-2.887384e+001	9.109076e+001
6.153906e+006	-3.078640e+001	8.530140e+001	-3.066611e+001	-1.759732e+001	-9.855661e+001	-1.060069e+002	-2.886271e+001	9.110628e+001
6.153945e+006	-3.079100e+001	8.537651e+001	-3.066179e+001	-1.754260e+001	-8.675950e+001	1.336804e+001	-2.886908e+001	9.105786e+001
6.153984e+006	-3.078032e+001	8.528195e+001	-3.067327e+001	-1.752632e+001	-9.030866e+001	5.299990e+001	-2.886637e+001	9.107423e+001
6.154023e+006	-3.078210e+001	8.531871e+001	-3.067255e+001	-1.757057e+001	-9.704138e+001	1.100116e+002	-2.885980e+001	9.107476e+001
6.154063e+006	-3.079848e+001	8.539924e+001	-3.067218e+001	-1.759377e+001	-9.544397e+001	3.085680e+001	-2.886820e+001	9.109941e+001
6.154102e+006	-3.078187e+001	8.532559e+001	-3.066647e+001	-1.751722e+001	-1.049108e+002	-4.011203e+001	-2.886868e+001	9.112597e+001
6.154141e+006	-3.078945e+001	8.526397e+001	-3.066142e+001	-1.757935e+001	-9.638000e+001	-8.600790e+001	-2.886623e+001	9.107212e+001
6.154180e+006	-3.078519e+001	8.528634e+001	-3.065982e+001	-1.754945e+001	-9.371388e+001	1.453598e+002	-2.886417e+001	9.109270e+001
6.154219e+006	-3.078481e+001	8.532074e+001	-3.067074e+001	-1.757027e+001	-9.360400e+001	-1.571785e+002	-2.886675e+001	9.110599e+001
6.154258e+006	-3.079013e+001	8.529658e+001	-3.066157e+001	-1.752028e+001	-1.065995e+002	-1.469575e+002	-2.885676e+001	9.109566e+001
6.154297e+006	-3.078323e+001	8.536974e+001	-3.066930e+001	-1.756114e+001	-9.049351e+001	4.226027e+001	-2.886432e+001	9.111883e+001
6.154336e+006	-3.078556e+001	8.530034e+001	-3.067050e+001	-1.756445e+001	-8.547259e+001	2.341869e+001	-2.885785e+001	9.105131e+001
6.154375e+006	-3.078821e+001	8.531706e+001	-3.066836e+001	-1.755323e+001	-1.043635e+002	-1.726234e+002	-2.886062e+001	9.108451e+001
6.154414e+006	-3.079278e+001	8.531118e+001	-3.067135e+001	-1.761474e+001	-9.185768e+001	-1.210743e+002	-2.886755e+001	9.112382e+001
6.154453e+006	-3.078329e+001	8.530827e+001	-3.066952e+001	-1.751766e+001	-8.661499e+001	1.177543e+002	-2.886480e+001	9.112413e+001
6.154492e+006	-3.078299e+001	8.539028e+001	-3.067570e+001	-1.757832e+001	-9.863283e+001	1.494510e+002	-2.886811e+001	9.115681e+001
6.154531e+006	-3.078347e+001	8.534556e+001	-3.066763e+001	-1.754156e+001	-1.027487e+002	1.402914e+002	-2.887378e+001	9.107405e+001
6.154570e+006	-3.078288e+001	8.531319e+001	-3.066769e+001	-1.751932e+001	-9.445598e+001	1.018145e+002	-2.886080e+001	9.112954e+001
6.154609e+006	-3.078345e+001	8.526694e+001	-3.065348e+001	-1.755041e+001	-9.404298e+001	-1.291044e+001	-2.887208e+001	9.115319e+001
6.154648e+006	-3.078332e+001	8.539925e+001	-3.067168e+001	-1.754015e+001	-8.904700e+001	8.302924e+001	-2.886089e+001	9.112577e+001
6.154688e+006	-3.078930e+001	8.531660e+001	-3.066317e+001	-1.754003e+001	-9.407741e+001	-1.339287e+002	-2.886735e+001	9.109279e+001
6.154727e+006	-3.078915e+001	8.536660e+001	-3.066963e+001	-1.758208e+001	-9.344972e+001	1.389954e+002	-2.887443e+001	9.108829e+001
6.154766e+006	-3.079341e+001	8.531168e+001	-3.066660e+001	-1.762231e+001	-9.605477e+001	1.589345e+002	-2.885949e+001	9.108077e+001
6.154805e+006	-3.079083e+001	8.532593e+001	-3.067478e+001	-1.757438e+001	-9.719588e+001	5.101761e+001	-2.885686e+001	9.106714e+001
6.154844e+006	-3.078898e+001	8.528760e+001	-3.066327e+001	-1.756167e+001	-8.697506e+001	1.023711e+002	-2.886768e+001	9.114213e+001
6.154883e+006	-3.078964e+001	8.537505e+001	-3.066850e+001	-1.758477e+001	-9.084265e+001	-7.025155e+000	-2.886324e+001	9.111988e+001
6.154922e+006	-3.078658e+001	8.535490e+001	-3.066363e+001	-1.746664e+001	-9.182686e+001	9.246703e+001	-2.886551e+001	9.109987e+001
6.154961e+006	-3.077792e+001	8.533109e+001	-3.065955e+001	-1.756199e+001	-8.901166e+001	4.468237e+001	-2.887600e+001	9.108912e+001
6.155000e+006	-3.079378e+001	8.536705e+001	-3.066943e+001	-1.750658e+001	-9.397983e+001	5.541932e+001	-2.886433e+001	9.108877e+001
6.155039e+006	-3.079710e+001	8.533633e+001	-3.066403e+001	-1.756877e+001	-1.006533e+002	-1.303903e+002	-2.885990e+001	9.115454e+001
6.155078e+006	-3.079131e+001	8.538788e+001	-3.065852e+001	-1.753922e+001	-9.169662e+001	1.362730e+002	-2.887114e+001	9.115783e+001
6.155117e+006	-3.078932e+001	8.536317e+001	-3.065987e+001	-1.759668e+001	-9.433044e+001	1.176936e+002	-2.886407e+001	9.110456e+001
6.155156e+006	-3.077942e+001	8.537658e+001	-3.066830e+001	-1.762465e+001	-9.696882e+001	-1.483526e+002	-2.886381e+001	9.111392e+001
6.155195e+006	-3.079201e+001	8.537685e+001	-3.066788e+001	-1.752493e+001	-8.890691e+001	1.574919e+002	-2.886185e+001	9.113925e+001
6.155234e+006	-3.079050e+001	8.533704e+001	-3.067410e+001	-1.755804e+001	-9.273871e+001	1.150461e+002	-2.885950e+001	9.111879e+001
6.155273e+006	-3.078627e+001	8.535936e+001	-3.066565e+001	-1.754633e+001	-9.522257e+001	-3.541115e+001	-2.886975e+001	9.112564e+001
6.155313e+006	-3.078945e+001	8.536238e+001	-3.066609e+001	-1.754341e+001	-9.575428e+001	-1.107998e+001	-2.885967e+001	9.116202e+001
6.155352e+006	-3.079047e+001	8.529415e+001	-3.066083e+001	-1.753321e+001	-9.617808e+001	-5.402829e+001	-2.886790e+001	9.115884e+001
6.155391e+006	-3.079110e+001	8.536035e+001	-3.067986e+001	-1.755900e+001	-8.815753e+001	1.664445e+002	-2.886167e+001	9.115555e+001
6.155430e+006	-3.078694e+001	8.535208e+001	-3.066088e+001	-1.750887e+001	-9.602177e+001	1.729516e+002	-2.886674e+001	9.110447e+001
6.155469e+006	-3.078749e+001	8.528564e+001	-3.066673e+001	-1.752428e+001	-9.711778e+001	1.431223e+001	-2.886186e+001	9.114905e+001
6.155508e+006	-3.079249e+001	8.535116e+001	-3.066321e+001	-1.749721e+001	-1.022365e+002	1.222970e+002	-2.886257e+001	9.113001e+001
6.155547e+006	-3.079215e+001	8.532727e+001	-3.067598e+001	-1.759866e+001	-1.009310e+002	1.026419e+002	-2.886695e+001	9.114783e+001
6.155586e+006	-3.078556e+001	8.538933e+001	-3.065760e+001	-1.757160e+001	-8.891464e+001	-1.837614e+001	-2.886099e+001	9.115323e+001
6.155625e+006	-3.078450e+001	8.535184e+001	-3.065451e+001	-1.750389e+001	-9.348060e+001	-1.707865e+002	-2.887090e+001	9.117555e+001
6.155664e+006	-3.078267e+001	8.534531e+001	-3.066888e+001	-1.755611e+001	-9.578740e+001	-2.583711e+001	-2.887367e+001	9.112024e+001
6.155703e+006	-3.078916e+001	8.536526e+001	-3.065403e+001	-1.754356e+001	-9.109236e+001	6.057561e+001	-2.887538e+001	9.116094e+001
6.155742e+006	-3.079213e+001	8.534326e+001	-3.065780e+001	-1.747614e+001	-9.817332e+001	-9.819235e+001	-2.886513e+001	9.120184e+001
6.155781e+006	-3.078815e+001	8.538199e+001	-3.066630e+001	-1.756973e+001	-9.990113e+001	-1.711903e+001	-2.887130e+001	9.118735e+001
