!CETC41,AV3656A,ZGL00048,1.3.2
!Calibration ON (Full Solt 2-Port(Omit Isolation))
!Measurements: S11 S21 S12 S22
!2025-04-18 02:43
# Hz  S  dB  R 50.000
6.150000e+006	-3.072475e+001	8.549935e+001	-3.067613e+001	-1.673170e+001	-9.433993e+001	-3.149444e+001	-2.894346e+001	9.062591e+001
6.150039e+006	-3.071489e+001	8.552268e+001	-3.067811e+001	-1.679487e+001	-8.771133e+001	1.040336e+002	-2.894788e+001	9.062097e+001
6.150078e+006	-3.073198e+001	8.550771e+001	-3.066586e+001	-1.681239e+001	-8.881185e+001	6.205343e+000	-2.894038e+001	9.057729e+001
6.150117e+006	-3.071809e+001	8.544950e+001	-3.067037e+001	-1.678051e+001	-8.961558e+001	7.704830e+001	-2.895242e+001	9.061068e+001
6.150156e+006	-3.072020e+001	8.546326e+001	-3.066464e+001	-1.678546e+001	-9.567632e+001	1.493755e+002	-2.894657e+001	9.060805e+001
6.150195e+006	-3.072162e+001	8.552313e+001	-3.067019e+001	-1.681738e+001	-8.771355e+001	5.483500e+001	-2.894754e+001	9.059922e+001
6.150234e+006	-3.071991e+001	8.550220e+001	-3.067304e+001	-1.679212e+001	-9.625310e+001	-3.211300e+001	-2.893919e+001	9.061798e+001
6.150273e+006	-3.071549e+001	8.545697e+001	-3.065760e+001	-1.682753e+001	-9.467780e+001	2.029219e+001	-2.894644e+001	9.063502e+001
6.150313e+006	-3.072981e+001	8.543627e+001	-3.066920e+001	-1.669409e+001	-8.826379e+001	3.842226e+001	-2.894007e+001	9.067865e+001
6.150352e+006	-3.071718e+001	8.546247e+001	-3.066148e+001	-1.679752e+001	-9.278181e+001	-1.490026e+002	-2.894365e+001	9.060167e+001
6.150391e+006	-3.071529e+001	8.545991e+001	-3.067627e+001	-1.676111e+001	-1.111051e+002	1.535498e+002	-2.894828e+001	9.065600e+001
6.150430e+006	-3.072141e+001	8.554267e+001	-3.067325e+001	-1.674740e+001	-8.695863e+001	1.462007e+002	-2.893823e+001	9.057143e+001
6.150469e+006	-3.071909e+001	8.559366e+001	-3.065877e+001	-1.678545e+001	-9.651405e+001	1.593112e+001	-2.894498e+001	9.069076e+001
6.150508e+006	-3.073286e+001	8.550443e+001	-3.066679e+001	-1.679583e+001	-9.624297e+001	-7.519775e+001	-2.894920e+001	9.056756e+001
6.150547e+006	-3.073154e+001	8.550658e+001	-3.066336e+001	-1.678714e+001	-1.021829e+002	7.769848e+001	-2.895021e+001	9.062222e+001
6.150586e+006	-3.071992e+001	8.545550e+001	-3.066673e+001	-1.674629e+001	-8.741479e+001	8.317034e+001	-2.895044e+001	9.057049e+001
6.150625e+006	-3.072489e+001	8.546033e+001	-3.066959e+001	-1.675443e+001	-9.332551e+001	2.350777e+001	-2.894314e+001	9.064402e+001
6.150664e+006	-3.072040e+001	8.551207e+001	-3.067376e+001	-1.687326e+001	-8.993102e+001	9.101764e+001	-2.894405e+001	9.066405e+001
6.150703e+006	-3.072372e+001	8.546691e+001	-3.066166e+001	-1.674253e+001	-8.851849e+001	1.391666e+002	-2.894780e+001	9.060323e+001
6.150742e+006	-3.073031e+001	8.549451e+001	-3.066499e+001	-1.678545e+001	-9.289442e+001	1.627771e+002	-2.895121e+001	9.059065e+001
6.150781e+006	-3.072133e+001	8.549497e+001	-3.066941e+001	-1.678213e+001	-9.599254e+001	1.600486e+002	-2.894473e+001	9.065672e+001
6.150820e+006	-3.071068e+001	8.552565e+001	-3.067002e+001	-1.677350e+001	-1.025040e+002	-1.020294e+002	-2.894820e+001	9.068533e+001
6.150859e+006	-3.072770e+001	8.547554e+001	-3.066552e+001	-1.674489e+001	-1.037333e+002	-1.463100e+002	-2.894544e+001	9.069843e+001
6.150898e+006	-3.072754e+001	8.554524e+001	-3.067460e+001	-1.679146e+001	-9.917246e+001	5.197775e+001	-2.894702e+001	9.066930e+001
6.150938e+006	-3.072533e+001	8.548710e+001	-3.067651e+001	-1.678487e+001	-9.559857e+001	-6.668485e+001	-2.894096e+001	9.063672e+001
6.150977e+006	-3.072813e+001	8.544372e+001	-3.067400e+001	-1.673520e+001	-9.311094e+001	3.917770e+001	-2.894001e+001	9.066200e+001
6.151016e+006	-3.072389e+001	8.550128e+001	-3.066318e+001	-1.678485e+001	-9.143187e+001	-4.423751e+001	-2.894804e+001	9.062499e+001
6.151055e+006	-3.072247e+001	8.549044e+001	-3.067678e+001	-1.676759e+001	-9.320594e+001	1.581194e+002	-2.893850e+001	9.063597e+001
6.151094e+006	-3.071710e+001	8.552068e+001	-3.066645e+001	-1.677303e+001	-1.055832e+002	-1.560001e+002	-2.893667e+001	9.067395e+001
6.151133e+006	-3.072452e+001	8.551294e+001	-3.066972e+001	-1.676209e+001	-1.014815e+002	1.409364e+002	-2.894782e+001	9.065575e+001
6.151172e+006	-3.072061e+001	8.545732e+001	-3.066874e+001	-1.679946e+001	-9.308178e+001	-1.521073e+002	-2.893844e+001	9.065056e+001
6.151211e+006	-3.071911e+001	8.554222e+001	-3.067436e+001	-1.669512e+001	-9.384091e+001	5.261139e+001	-2.894906e+001	9.064186e+001
6.151250e+006	-3.072214e+001	8.550964e+001	-3.067411e+001	-1.682623e+001	-9.856271e+001	-9.454357e+000	-2.894282e+001	9.064105e+001
6.151289e+006	-3.072357e+001	8.552015e+001	-3.066785e+001	-1.678490e+001	-9.514177e+001	1.758429e+002	-2.894730e+001	9.065021e+001
6.151328e+006	-3.073028e+001	8.554791e+001	-3.066296e+001	-1.679900e+001	-9.229654e+001	-5.785743e+001	-2.893848e+001	9.063745e+001
6.151367e+006	-3.072456e+001	8.551269e+001	-3.067047e+001	-1.678252e+001	-9.137886e+001	9.057844e+001	-2.893659e+001	9.057581e+001
6.151406e+006	-3.071651e+001	8.551614e+001	-3.066516e+001	-1.677546e+001	-9.242523e+001	-1.626371e+002	-2.895090e+001	9.063144e+001
6.151445e+006	-3.071923e+001	8.551167e+001	-3.067045e+001	-1.679817e+001	-9.654087e+001	-6.937494e-001	-2.894067e+001	9.063140e+001
6.151484e+006	-3.071923e+001	8.555841e+001	-3.066725e+001	-1.678034e+001	-1.013937e+002	4.498719e+001	-2.894591e+001	9.070795e+001
6.151523e+006	-3.072687e+001	8.551145e+001	-3.067509e+001	-1.673167e+001	-9.082784e+001	1.678229e+002	-2.894486e+001	9.063941e+001
6.151563e+006	-3.071608e+001	8.551196e+001	-3.066283e+001	-1.682409e+001	-1.000689e+002	-2.598021e+001	-2.895003e+001	9.063883e+001
6.151602e+006	-3.072303e+001	8.550791e+001	-3.065679e+001	-1.681774e+001	-9.018175e+001	1.060150e+002	-2.894370e+001	9.067192e+001
6.151641e+006	-3.073367e+001	8.549046e+001	-3.064949e+001	-1.676972e+001	-9.036143e+001	5.699258e+001	-2.894600e+001	9.072714e+001
6.151680e+006	-3.072687e+001	8.550719e+001	-3.066039e+001	-1.672419e+001	-9.297657e+001	1.087720e+002	-2.894419e+001	9.067996e+001
6.151719e+006	-3.072999e+001	8.558168e+001	-3.067091e+001	-1.680741e+001	-9.284091e+001	3.575050e+001	-2.894103e+001	9.068763e+001
6.151758e+006	-3.072639e+001	8.554445e+001	-3.067248e+001	-1.683228e+001	-9.214185e+001	3.611857e+001	-2.895837e+001	9.064822e+001
6.151797e+006	-3.072431e+001	8.551852e+001	-3.067365e+001	-1.671136e+001	-9.508946e+001	1.250473e+002	-2.894195e+001	9.066352e+001
6.151836e+006	-3.072929e+001	8.551870e+001	-3.066957e+001	-1.680290e+001	-8.935264e+001	4.028572e+001	-2.893892e+001	9.064161e+001
6.151875e+006	-3.072644e+001	8.556300e+001	-3.066839e+001	-1.680409e+001	-1.021244e+002	-4.033314e+001	-2.894723e+001	9.061991e+001
6.151914e+006	-3.071760e+001	8.551089e+001	-3.066251e+001	-1.678164e+001	-8.997384e+001	4.498678e+001	-2.894741e+001	9.069076e+001
6.151953e+006	-3.072680e+001	8.554376e+001	-3.066286e+001	-1.678735e+001	-9.480955e+001	-1.401412e+002	-2.894138e+001	9.068810e+001
6.151992e+006	-3.072654e+001	8.551386e+001	-3.065639e+001	-1.673986e+001	-9.452543e+001	6.406655e+001	-2.895211e+001	9.068467e+001
6.152031e+006	-3.073460e+001	8.551103e+001	-3.067148e+001	-1.676340e+001	-9.369997e+001	1.092647e+002	-2.894269e+001	9.066949e+001
6.152070e+006	-3.073076e+001	8.560040e+001	-3.066296e+001	-1.675784e+001	-9.543407e+001	-1.489569e+002	-2.894457e+001	9.068707e+001
6.152109e+006	-3.071521e+001	8.548930e+001	-3.066889e+001	-1.676569e+001	-8.721110e+001	1.259105e+002	-2.893744e+001	9.067730e+001
6.152148e+006	-3.073780e+001	8.549102e+001	-3.066919e+001	-1.683098e+001	-8.977507e+001	1.170492e+002	-2.894431e+001	9.064896e+001
6.152188e+006	-3.072416e+001	8.557859e+001	-3.066477e+001	-1.677411e+001	-9.590912e+001	1.441921e+002	-2.894482e+001	9.064728e+001
6.152227e+006	-3.072574e+001	8.550735e+001	-3.066150e+001	-1.673222e+001	-9.080691e+001	1.081645e+002	-2.893866e+001	9.066044e+001
6.152266e+006	-3.072349e+001	8.555447e+001	-3.065842e+001	-1.682353e+001	-9.400844e+001	-1.218435e+002	-2.894594e+001	9.067398e+001
6.152305e+006	-3.072760e+001	8.555387e+001	-3.067051e+001	-1.675286e+001	-9.490960e+001	1.324564e+002	-2.894859e+001	9.068818e+001
6.152344e+006	-3.073033e+001	8.552868e+001	-3.067054e+001	-1.680494e+001	-1.050678e+002	1.026612e+002	-2.893411e+001	9.064314e+001
6.152383e+006	-3.072428e+001	8.549142e+001	-3.066409e+001	-1.675125e+001	-8.570980e+001	-1.297985e+002	-2.894557e+001	9.069361e+001
6.152422e+006	-3.072493e+001	8.553358e+001	-3.066755e+001	-1.677700e+001	-8.948492e+001	1.772803e+002	-2.895031e+001	9.064541e+001
6.152461e+006	-3.072562e+001	8.551961e+001	-3.066759e+001	-1.680029e+001	-1.041777e+002	7.997976e+001	-2.894283e+001	9.062984e+001
6.152500e+006	-3.073045e+001	8.555268e+001	-3.065890e+001	-1.679240e+001	-9.973344e+001	8.730597e+001	-2.894474e+001	9.071766e+001
6.152539e+006	-3.072150e+001	8.558342e+001	-3.065292e+001	-1.679729e+001	-9.286003e+001	7.304439e+001	-2.894449e+001	9.070934e+001
6.152578e+006	-3.073309e+001	8.560003e+001	-3.066650e+001	-1.680836e+001	-9.510948e+001	-4.268693e+001	-2.894548e+001	9.067592e+001
6.152617e+006	-3.072994e+001	8.553237e+001	-3.066948e+001	-1.678987e+001	-9.405894e+001	-8.660298e+001	-2.894955e+001	9.070107e+001
6.152656e+006	-3.072498e+001	8.554200e+001	-3.066605e+001	-1.675319e+001	-8.757782e+001	6.090704e+001	-2.894267e+001	9.063855e+001
6.152695e+006	-3.072147e+001	8.557562e+001	-3.066288e+001	-1.677782e+001	-9.551523e+001	1.041469e+002	-2.894042e+001	9.069837e+001
6.152734e+006	-3.073383e+001	8.550530e+001	-3.066596e+001	-1.677723e+001	-9.822171e+001	1.080394e+002	-2.895242e+001	9.065705e+001
6.152773e+006	-3.073075e+001	8.554393e+001	-3.066355e+001	-1.680948e+001	-8.833286e+001	1.606439e+002	-2.893854e+001	9.073051e+001
6.152813e+006	-3.072409e+001	8.557227e+001	-3.065945e+001	-1.685196e+001	-9.312067e+001	1.695025e+002	-2.894545e+001	9.065134e+001
6.152852e+006	-3.072747e+001	8.552506e+001	-3.067162e+001	-1.679961e+001	-8.844667e+001	8.979563e+001	-2.894948e+001	9.068703e+001
6.152891e+006	-3.072545e+001	8.553143e+001	-3.066593e+001	-1.677265e+001	-9.090203e+001	-1.783405e+002	-2.894231e+001	9.066628e+001
6.152930e+006	-3.072190e+001	8.555735e+001	-3.066901e+001	-1.674891e+001	-8.913257e+001	8.903011e+001	-2.894252e+001	9.067581e+001
6.152969e+006	-3.072555e+001	8.551914e+001	-3.066123e+001	-1.680669e+001	-1.029848e+002	4.330123e+001	-2.895089e+001	9.067414e+001
6.153008e+006	-3.073254e+001	8.566293e+001	-3.065958e+001	-1.678688e+001	-9.180881e+001	6.345976e+001	-2.894491e+001	9.068072e+001
6.153047e+006	-3.073160e+001	8.554287e+001	-3.066862e+001	-1.679495e+001	-8.986608e+001	9.340605e+001	-2.893879e+001	9.072063e+001
6.153086e+006	-3.072619e+001	8.554859e+001	-3.066530e+001	-1.679318e+001	-9.257632e+001	2.921553e+001	-2.894407e+001	9.067034e+001
6.153125e+006	-3.073215e+001	8.561001e+001	-3.066733e+001	-1.678572e+001	-8.616081e+001	1.214789e+002	-2.894683e+001	9.067673e+001
6.153164e+006	-3.072300e+001	8.553992e+001	-3.066184e+001	-1.685677e+001	-9.183656e+001	1.224540e+002	-2.894981e+001	9.065509e+001
6.153203e+006	-3.072241e+001	8.552035e+001	-3.065215e+001	-1.678919e+001	-9.177924e+001	3.098126e+001	-2.894647e+001	9.068459e+001
6.153242e+006	-3.072543e+001	8.558284e+001	-3.067164e+001	-1.675894e+001	-1.001307e+002	4.222713e+001	-2.894270e+001	9.070548e+001
6.153281e+006	-3.073532e+001	8.563791e+001	-3.066133e+001	-1.676974e+001	-8.959845e+001	-1.190818e+002	-2.894548e+001	9.073785e+001
6.153320e+006	-3.072162e+001	8.552890e+001	-3.066447e+001	-1.670979e+001	-9.452480e+001	4.381979e+001	-2.894211e+001	9.064213e+001
6.153359e+006	-3.072599e+001	8.559817e+001	-3.066617e+001	-1.671967e+001	-1.155093e+002	7.870660e+001	-2.895119e+001	9.068508e+001
6.153398e+006	-3.072453e+001	8.552565e+001	-3.065920e+001	-1.675355e+001	-9.292681e+001	1.306370e+002	-2.894881e+001	9.070391e+001
6.153438e+006	-3.073354e+001	8.567982e+001	-3.067129e+001	-1.682237e+001	-9.184197e+001	2.783470e+001	-2.894367e+001	9.067805e+001
6.153477e+006	-3.071759e+001	8.553171e+001	-3.066898e+001	-1.677794e+001	-8.968774e+001	-1.229975e+001	-2.894722e+001	9.071873e+001
6.153516e+006	-3.073026e+001	8.556443e+001	-3.066312e+001	-1.675946e+001	-1.067136e+002	1.713091e+002	-2.894233e+001	9.073404e+001
6.153555e+006	-3.071750e+001	8.553049e+001	-3.065903e+001	-1.682980e+001	-9.426714e+001	-1.412696e+002	-2.895078e+001	9.065144e+001
6.153594e+006	-3.072416e+001	8.563172e+001	-3.065685e+001	-1.674621e+001	-8.893501e+001	-3.198179e+001	-2.894288e+001	9.066124e+001
6.153633e+006	-3.072512e+001	8.563137e+001	-3.065960e+001	-1.672966e+001	-8.726500e+001	4.313839e+001	-2.894189e+001	9.067892e+001
6.153672e+006	-3.071731e+001	8.556016e+001	-3.064881e+001	-1.682002e+001	-9.288787e+001	6.101005e+001	-2.894352e+001	9.062048e+001
6.153711e+006	-3.071814e+001	8.561268e+001	-3.065603e+001	-1.685420e+001	-9.153893e+001	-3.924140e+001	-2.893723e+001	9.070523e+001
6.153750e+006	-3.072859e+001	8.553960e+001	-3.066506e+001	-1.678802e+001	-9.324998e+001	1.225865e+002	-2.894808e+001	9.071733e+001
6.153789e+006	-3.071843e+001	8.554458e+001	-3.066815e+001	-1.682483e+001	-8.934465e+001	1.667556e+002	-2.894499e+001	9.066886e+001
6.153828e+006	-3.072375e+001	8.554767e+001	-3.065766e+001	-1.674005e+001	-9.379745e+001	1.340260e+002	-2.895358e+001	9.064291e+001
6.153867e+006	-3.071888e+001	8.554991e+001	-3.066368e+001	-1.680305e+001	-9.831588e+001	9.367715e+001	-2.894321e+001	9.074443e+001
6.153906e+006	-3.072184e+001	8.555283e+001	-3.065951e+001	-1.679890e+001	-1.053854e+002	1.458991e+002	-2.893447e+001	9.065849e+001
6.153945e+006	-3.071818e+001	8.556367e+001	-3.066213e+001	-1.681299e+001	-9.065282e+001	7.232806e+001	-2.894979e+001	9.072734e+001
6.153984e+006	-3.072043e+001	8.554065e+001	-3.066670e+001	-1.680570e+001	-9.941536e+001	1.265288e+002	-2.894778e+001	9.073053e+001
6.154023e+006	-3.072129e+001	8.556397e+001	-3.066317e+001	-1.681839e+001	-9.948693e+001	3.214931e+001	-2.894669e+001	9.065875e+001
6.154063e+006	-3.071448e+001	8.558904e+001	-3.066717e+001	-1.680395e+001	-9.332763e+001	-2.211939e-001	-2.893890e+001	9.068831e+001
6.154102e+006	-3.071654e+001	8.556004e+001	-3.066461e+001	-1.685051e+001	-1.157091e+002	5.273214e+001	-2.894235e+001	9.067063e+001
6.154141e+006	-3.071549e+001	8.555106e+001	-3.066726e+001	-1.679031e+001	-9.194798e+001	-3.222073e+001	-2.894789e+001	9.062663e+001
6.154180e+006	-3.072160e+001	8.560875e+001	-3.066681e+001	-1.680076e+001	-9.343255e+001	-1.363893e+002	-2.894376e+001	9.068286e+001
6.154219e+006	-3.072151e+001	8.561186e+001	-3.066455e+001	-1.678922e+001	-9.451633e+001	-5.611876e+001	-2.894043e+001	9.070148e+001
6.154258e+006	-3.071674e+001	8.558362e+001	-3.066661e+001	-1.679361e+001	-9.447117e+001	1.305312e+002	-2.894447e+001	9.072395e+001
6.154297e+006	-3.071897e+001	8.561920e+001	-3.066051e+001	-1.684515e+001	-9.000923e+001	6.735556e+001	-2.894518e+001	9.065783e+001
6.154336e+006	-3.072366e+001	8.555069e+001	-3.066082e+001	-1.676253e+001	-9.045337e+001	4.566807e+001	-2.893998e+001	9.068863e+001
6.154375e+006	-3.072147e+001	8.562912e+001	-3.066694e+001	-1.682601e+001	-9.460140e+001	-1.970691e+001	-2.893886e+001	9.069196e+001
6.154414e+006	-3.072352e+001	8.559872e+001	-3.066040e+001	-1.677922e+001	-8.975347e+001	1.722958e+002	-2.893769e+001	9.070464e+001
6.154453e+006	-3.071369e+001	8.558624e+001	-3.065945e+001	-1.676575e+001	-9.383846e+001	-3.961035e+001	-2.894616e+001	9.075786e+001
6.154492e+006	-3.072296e+001	8.555711e+001	-3.066451e+001	-1.675983e+001	-9.285885e+001	3.788018e+001	-2.894776e+001	9.070396e+001
6.154531e+006	-3.073398e+001	8.558589e+001	-3.066712e+001	-1.685376e+001	-1.029647e+002	1.298253e+002	-2.894213e+001	9.072160e+001
6.154570e+006	-3.072447e+001	8.553269e+001	-3.067073e+001	-1.680526e+001	-1.011648e+002	-1.156150e+002	-2.894465e+001	9.067352e+001
6.154609e+006	-3.072416e+001	8.559773e+001	-3.066263e+001	-1.682090e+001	-9.339336e+001	1.770678e+002	-2.894758e+001	9.070469e+001
6.154648e+006	-3.073010e+001	8.559349e+001	-3.066765e+001	-1.679659e+001	-9.224932e+001	2.714262e+001	-2.894643e+001	9.073387e+001
6.154688e+006	-3.072346e+001	8.553960e+001	-3.066759e+001	-1.677943e+001	-9.346292e+001	2.448620e+001	-2.893094e+001	9.069583e+001
6.154727e+006	-3.071769e+001	8.561699e+001	-3.065769e+001	-1.679566e+001	-9.555902e+001	-6.958013e+000	-2.894490e+001	9.073838e+001
6.154766e+006	-3.072115e+001	8.552517e+001	-3.066935e+001	-1.681661e+001	-9.062764e+001	-1.507207e+001	-2.894273e+001	9.068779e+001
6.154805e+006	-3.073306e+001	8.562445e+001	-3.066425e+001	-1.676286e+001	-9.287910e+001	2.491637e+001	-2.894699e+001	9.072976e+001
6.154844e+006	-3.072834e+001	8.557740e+001	-3.066653e+001	-1.684297e+001	-9.669542e+001	6.833755e+001	-2.893502e+001	9.070474e+001
6.154883e+006	-3.072338e+001	8.561949e+001	-3.065750e+001	-1.675799e+001	-9.084011e+001	3.730002e+001	-2.894503e+001	9.074790e+001
6.154922e+006	-3.071670e+001	8.558096e+001	-3.066497e+001	-1.677588e+001	-9.620130e+001	-1.433340e+002	-2.895139e+001	9.072129e+001
6.154961e+006	-3.071877e+001	8.560259e+001	-3.067056e+001	-1.688594e+001	-9.393303e+001	6.946527e+001	-2.895024e+001	9.076487e+001
6.155000e+006	-3.072702e+001	8.559653e+001	-3.066049e+001	-1.683450e+001	-9.150641e+001	7.980986e+001	-2.895401e+001	9.069761e+001
6.155039e+006	-3.071637e+001	8.560445e+001	-3.066562e+001	-1.678840e+001	-1.023546e+002	-3.992670e+001	-2.895071e+001	9.071880e+001
6.155078e+006	-3.071930e+001	8.562952e+001	-3.066493e+001	-1.688212e+001	-9.610945e+001	-5.290035e+001	-2.894476e+001	9.066893e+001
6.155117e+006	-3.071743e+001	8.561199e+001	-3.066508e+001	-1.681564e+001	-1.042659e+002	8.265367e+000	-2.895624e+001	9.068672e+001
6.155156e+006	-3.072299e+001	8.561853e+001	-3.065957e+001	-1.679151e+001	-9.663049e+001	-7.288978e+001	-2.894276e+001	9.069830e+001
6.155195e+006	-3.071978e+001	8.564304e+001	-3.066335e+001	-1.680706e+001	-8.860512e+001	9.437438e+001	-2.895037e+001	9.068301e+001
6.155234e+006	-3.073518e+001	8.560202e+001	-3.066082e+001	-1.682782e+001	-1.013684e+002	-1.415282e+002	-2.894796e+001	9.071766e+001
6.155273e+006	-3.072445e+001	8.564559e+001	-3.065731e+001	-1.679080e+001	-9.155244e+001	6.481674e+001	-2.894681e+001	9.077616e+001
6.155313e+006	-3.072080e+001	8.562136e+001	-3.065802e+001	-1.682556e+001	-9.773725e+001	1.632351e+001	-2.894898e+001	9.075715e+001
6.155352e+006	-3.072073e+001	8.559529e+001	-3.066388e+001	-1.683869e+001	-9.119384e+001	1.085090e+002	-2.894242e+001	9.077985e+001
6.155391e+006	-3.072068e+001	8.559444e+001	-3.065363e+001	-1.683688e+001	-9.865016e+001	-1.368938e+002	-2.893992e+001	9.074930e+001
6.155430e+006	-3.072007e+001	8.559370e+001	-3.066174e+001	-1.682516e+001	-9.152341e+001	1.456477e+002	-2.893892e+001	9.072099e+001
6.155469e+006	-3.072592e+001	8.556874e+001	-3.066267e+001	-1.676793e+001	-9.507710e+001	3.351223e+001	-2.895232e+001	9.073989e+001
6.155508e+006	-3.072696e+001	8.562312e+001	-3.066577e+001	-1.678475e+001	-1.046295e+002	6.021592e+001	-2.894666e+001	9.070891e+001
6.155547e+006	-3.072187e+001	8.563471e+001	-3.065917e+001	-1.676709e+001	-9.577855e+001	1.370560e+002	-2.894449e+001	9.074315e+001
6.155586e+006	-3.072193e+001	8.559818e+001	-3.066038e+001	-1.685027e+001	-9.293126e+001	6.854001e+001	-2.894943e+001	9.073369e+001
6.155625e+006	-3.073567e+001	8.561764e+001	-3.065967e+001	-1.683642e+001	-9.069552e+001	-1.500881e+002	-2.894593e+001	9.072849e+001
6.155664e+006	-3.072097e+001	8.559885e+001	-3.066255e+001	-1.685151e+001	-9.074291e+001	1.177492e+002	-2.894155e+001	9.072321e+001
6.155703e+006	-3.072053e+001	8.566474e+001	-3.065619e+001	-1.668436e+001	-9.888463e+001	3.472655e+001	-2.894585e+001	9.071381e+001
6.155742e+006	-3.071820e+001	8.556887e+001	-3.065133e+001	-1.677024e+001	-9.248468e+001	-8.436503e+001	-2.893855e+001	9.072460e+001
6.155781e+006	-3.072580e+001	8.568432e+001	-3.066441e+001	-1.676373e+001	-9.374295e+001	-5.728013e+001	-2.894084e+001	9.073269e+001
