!CETC41,AV3656A,ZGL00048,1.3.2
!Calibration ON (Full Solt 2-Port(Omit Isolation))
!Measurements: S11 S21 S12 S22
!2025-04-18 01:01
# Hz  S  dB  R 50.000
6.200000e+006	-3.087163e+001	8.646951e+001	-2.997681e+001	-1.730488e+001	-9.199266e+001	9.984285e+001	-2.894561e+001	9.144883e+001
6.200031e+006	-3.087303e+001	8.646114e+001	-2.996385e+001	-1.735412e+001	-8.916475e+001	1.393508e+002	-2.894402e+001	9.141046e+001
6.200063e+006	-3.086704e+001	8.644545e+001	-2.994342e+001	-1.736237e+001	-8.950316e+001	3.608444e+001	-2.893878e+001	9.151413e+001
6.200094e+006	-3.087856e+001	8.648637e+001	-2.992651e+001	-1.738841e+001	-1.016299e+002	5.300132e+001	-2.894691e+001	9.143244e+001
6.200125e+006	-3.087445e+001	8.646215e+001	-2.990846e+001	-1.745038e+001	-9.469675e+001	6.950201e+001	-2.894457e+001	9.146833e+001
6.200156e+006	-3.087620e+001	8.650546e+001	-2.989993e+001	-1.756257e+001	-9.309601e+001	8.213348e+001	-2.894649e+001	9.148888e+001
6.200188e+006	-3.087306e+001	8.650523e+001	-2.987638e+001	-1.751417e+001	-9.229809e+001	-1.650976e+002	-2.894229e+001	9.144323e+001
6.200219e+006	-3.087612e+001	8.648343e+001	-2.985430e+001	-1.751944e+001	-9.977306e+001	-1.715527e+002	-2.894473e+001	9.146886e+001
6.200250e+006	-3.086340e+001	8.645567e+001	-2.983252e+001	-1.756275e+001	-9.400714e+001	3.915540e+001	-2.894615e+001	9.138712e+001
6.200281e+006	-3.087307e+001	8.652395e+001	-2.979737e+001	-1.755154e+001	-9.102130e+001	-1.780374e+002	-2.893567e+001	9.147894e+001
6.200313e+006	-3.087336e+001	8.645937e+001	-2.976253e+001	-1.753706e+001	-1.032743e+002	2.403845e+001	-2.894815e+001	9.148751e+001
6.200344e+006	-3.087336e+001	8.647987e+001	-2.971941e+001	-1.769564e+001	-9.143032e+001	8.577864e+001	-2.894570e+001	9.149852e+001
6.200375e+006	-3.087406e+001	8.635761e+001	-2.970995e+001	-1.779215e+001	-8.753064e+001	5.030735e+001	-2.894017e+001	9.153131e+001
6.200406e+006	-3.086762e+001	8.648626e+001	-2.966057e+001	-1.780203e+001	-9.276320e+001	1.226650e+002	-2.894423e+001	9.147665e+001
6.200438e+006	-3.086750e+001	8.641615e+001	-2.959264e+001	-1.782181e+001	-9.075855e+001	8.581619e+001	-2.894155e+001	9.153128e+001
6.200469e+006	-3.086907e+001	8.641888e+001	-2.956008e+001	-1.810554e+001	-9.857215e+001	-4.493621e+000	-2.894962e+001	9.147663e+001
6.200500e+006	-3.087283e+001	8.642147e+001	-2.952078e+001	-1.806232e+001	-1.022629e+002	1.695695e+002	-2.894425e+001	9.148338e+001
6.200531e+006	-3.087183e+001	8.647800e+001	-2.945179e+001	-1.825379e+001	-9.018720e+001	4.102244e+001	-2.893490e+001	9.148454e+001
6.200563e+006	-3.087819e+001	8.644915e+001	-2.939500e+001	-1.841395e+001	-9.676393e+001	7.068523e+001	-2.894876e+001	9.151152e+001
6.200594e+006	-3.087493e+001	8.637309e+001	-2.933872e+001	-1.872346e+001	-9.378369e+001	1.485803e+002	-2.894303e+001	9.153556e+001
6.200625e+006	-3.085877e+001	8.644279e+001	-2.928696e+001	-1.882338e+001	-9.706611e+001	7.548392e+001	-2.894122e+001	9.149176e+001
6.200656e+006	-3.087527e+001	8.646321e+001	-2.920484e+001	-1.942039e+001	-9.450250e+001	4.986158e+001	-2.894470e+001	9.146753e+001
6.200688e+006	-3.087513e+001	8.645344e+001	-2.916216e+001	-1.955644e+001	-9.055068e+001	8.404316e+001	-2.894854e+001	9.144174e+001
6.200719e+006	-3.087679e+001	8.646757e+001	-2.914381e+001	-1.996025e+001	-9.547695e+001	-1.357169e+002	-2.893673e+001	9.150517e+001
6.200750e+006	-3.088621e+001	8.648304e+001	-2.907010e+001	-2.002619e+001	-8.469393e+001	-3.047007e+001	-2.894156e+001	9.150070e+001
6.200781e+006	-3.086976e+001	8.650371e+001	-2.900397e+001	-1.975734e+001	-9.667954e+001	-8.513531e+001	-2.894061e+001	9.147581e+001
6.200813e+006	-3.086693e+001	8.635691e+001	-2.879993e+001	-2.017598e+001	-9.212818e+001	7.680419e+001	-2.894399e+001	9.145734e+001
6.200844e+006	-3.086217e+001	8.645139e+001	-2.858273e+001	-2.082838e+001	-8.851597e+001	7.860021e+001	-2.894453e+001	9.143629e+001
6.200875e+006	-3.087679e+001	8.647442e+001	-2.846121e+001	-2.225932e+001	-8.971147e+001	4.265782e+001	-2.894983e+001	9.146266e+001
6.200906e+006	-3.087459e+001	8.647621e+001	-2.835787e+001	-2.329742e+001	-9.332836e+001	-1.543394e+002	-2.894270e+001	9.149358e+001
6.200938e+006	-3.088055e+001	8.649067e+001	-2.813464e+001	-2.404227e+001	-8.853823e+001	2.743291e+001	-2.894001e+001	9.151515e+001
6.200969e+006	-3.086687e+001	8.650204e+001	-2.789203e+001	-2.578178e+001	-9.053447e+001	1.346673e+002	-2.894263e+001	9.141995e+001
6.201000e+006	-3.086405e+001	8.656001e+001	-2.776462e+001	-2.834882e+001	-9.663742e+001	-1.656565e+002	-2.894187e+001	9.150407e+001
6.201031e+006	-3.088586e+001	8.644179e+001	-2.756945e+001	-3.078862e+001	-9.535886e+001	8.062197e+001	-2.894526e+001	9.146407e+001
6.201063e+006	-3.086769e+001	8.652609e+001	-2.738263e+001	-3.469998e+001	-9.369870e+001	1.377894e+002	-2.894239e+001	9.144422e+001
6.201094e+006	-3.087519e+001	8.645034e+001	-2.734499e+001	-3.909957e+001	-8.950988e+001	9.124913e+001	-2.895084e+001	9.146759e+001
6.201125e+006	-3.086851e+001	8.645811e+001	-2.737619e+001	-4.485079e+001	-8.811655e+001	7.733260e+001	-2.894347e+001	9.151414e+001
6.201156e+006	-3.087003e+001	8.649543e+001	-2.774814e+001	-5.166014e+001	-1.056327e+002	1.523126e+002	-2.894370e+001	9.150310e+001
6.201188e+006	-3.087908e+001	8.645161e+001	-2.838833e+001	-5.901970e+001	-9.039038e+001	1.479726e+002	-2.894886e+001	9.150618e+001
6.201219e+006	-3.086418e+001	8.652743e+001	-2.973826e+001	-6.661992e+001	-9.233368e+001	1.271286e+002	-2.894866e+001	9.149851e+001
6.201250e+006	-3.086778e+001	8.640787e+001	-3.186233e+001	-7.188408e+001	-8.781065e+001	7.816391e+001	-2.894091e+001	9.144744e+001
6.201281e+006	-3.087670e+001	8.649995e+001	-3.510362e+001	-6.838127e+001	-9.631690e+001	-7.597531e+001	-2.893942e+001	9.151366e+001
6.201313e+006	-3.087676e+001	8.644067e+001	-3.747546e+001	-4.541841e+001	-8.837479e+001	8.242867e+001	-2.893728e+001	9.148145e+001
6.201344e+006	-3.087682e+001	8.645114e+001	-3.582150e+001	-2.444748e+001	-9.088052e+001	8.191701e+001	-2.893791e+001	9.144686e+001
6.201375e+006	-3.087450e+001	8.651609e+001	-3.400070e+001	-2.223885e+001	-8.839328e+001	1.404047e+002	-2.893583e+001	9.146532e+001
6.201406e+006	-3.087744e+001	8.646306e+001	-3.350521e+001	-2.492142e+001	-9.467765e+001	-1.477646e+002	-2.893715e+001	9.150669e+001
6.201438e+006	-3.086916e+001	8.645422e+001	-3.355134e+001	-2.351404e+001	-9.115520e+001	1.276686e+002	-2.894320e+001	9.148837e+001
6.201469e+006	-3.088367e+001	8.652220e+001	-3.321893e+001	-2.118514e+001	-1.000951e+002	1.171485e+002	-2.893805e+001	9.146818e+001
6.201500e+006	-3.088047e+001	8.649680e+001	-3.288264e+001	-2.051067e+001	-9.469557e+001	6.120912e+001	-2.895298e+001	9.156636e+001
6.201531e+006	-3.087411e+001	8.646766e+001	-3.273439e+001	-2.030164e+001	-9.191025e+001	5.662123e+001	-2.894027e+001	9.151263e+001
6.201563e+006	-3.087330e+001	8.645228e+001	-3.260151e+001	-1.976463e+001	-8.878664e+001	3.872794e+001	-2.894249e+001	9.150012e+001
6.201594e+006	-3.086427e+001	8.652893e+001	-3.243552e+001	-1.929203e+001	-9.119189e+001	-1.171492e+002	-2.893802e+001	9.148947e+001
6.201625e+006	-3.087239e+001	8.647003e+001	-3.232811e+001	-1.897325e+001	-9.531185e+001	-5.652067e+001	-2.893871e+001	9.150460e+001
6.201656e+006	-3.087069e+001	8.651752e+001	-3.220289e+001	-1.883716e+001	-9.722124e+001	-1.715983e+002	-2.894357e+001	9.149217e+001
6.201688e+006	-3.088353e+001	8.653098e+001	-3.209387e+001	-1.845008e+001	-8.765962e+001	4.625757e+001	-2.894284e+001	9.150406e+001
6.201719e+006	-3.086454e+001	8.652171e+001	-3.204312e+001	-1.843812e+001	-9.289921e+001	-1.677148e+002	-2.894293e+001	9.149072e+001
6.201750e+006	-3.087723e+001	8.651102e+001	-3.194819e+001	-1.830061e+001	-8.923461e+001	3.029921e+001	-2.894285e+001	9.149339e+001
6.201781e+006	-3.087893e+001	8.647612e+001	-3.188316e+001	-1.806231e+001	-1.093649e+002	8.284225e+001	-2.894853e+001	9.147596e+001
6.201813e+006	-3.088021e+001	8.648553e+001	-3.185638e+001	-1.805722e+001	-9.469736e+001	5.407368e+001	-2.895030e+001	9.152872e+001
6.201844e+006	-3.087456e+001	8.646094e+001	-3.177700e+001	-1.797811e+001	-9.709912e+001	2.322978e+000	-2.894145e+001	9.143956e+001
6.201875e+006	-3.087645e+001	8.649372e+001	-3.171672e+001	-1.790332e+001	-9.567553e+001	3.343190e+000	-2.893554e+001	9.152466e+001
6.201906e+006	-3.087577e+001	8.649218e+001	-3.167017e+001	-1.772720e+001	-9.178175e+001	1.113486e+002	-2.894391e+001	9.150486e+001
6.201938e+006	-3.087913e+001	8.648462e+001	-3.163168e+001	-1.769192e+001	-9.193477e+001	1.136246e+002	-2.894430e+001	9.154377e+001
6.201969e+006	-3.087917e+001	8.645741e+001	-3.160278e+001	-1.757058e+001	-9.034801e+001	-3.681847e+001	-2.894686e+001	9.151769e+001
6.202000e+006	-3.088044e+001	8.649374e+001	-3.155684e+001	-1.746045e+001	-9.091491e+001	-1.173221e+002	-2.894879e+001	9.148364e+001
6.202031e+006	-3.087159e+001	8.649165e+001	-3.152640e+001	-1.764983e+001	-8.995147e+001	7.373557e+001	-2.894596e+001	9.145163e+001
6.202063e+006	-3.086900e+001	8.652694e+001	-3.149604e+001	-1.754024e+001	-9.015115e+001	1.174926e+002	-2.894633e+001	9.151410e+001
6.202094e+006	-3.087677e+001	8.653751e+001	-3.145955e+001	-1.751745e+001	-9.777478e+001	-1.767877e+002	-2.894886e+001	9.150047e+001
6.202125e+006	-3.085926e+001	8.650729e+001	-3.144108e+001	-1.742907e+001	-9.133763e+001	1.429576e+002	-2.894261e+001	9.148181e+001
6.202156e+006	-3.087711e+001	8.651028e+001	-3.141313e+001	-1.741352e+001	-9.207975e+001	3.338731e+001	-2.894534e+001	9.150439e+001
6.202188e+006	-3.087651e+001	8.653423e+001	-3.139328e+001	-1.744143e+001	-9.261154e+001	3.262697e+001	-2.894139e+001	9.152430e+001
6.202219e+006	-3.087086e+001	8.651510e+001	-3.136148e+001	-1.737596e+001	-9.595427e+001	3.859140e+001	-2.894054e+001	9.149358e+001
6.202250e+006	-3.088287e+001	8.652834e+001	-3.135827e+001	-1.742110e+001	-9.071137e+001	1.623371e+001	-2.894093e+001	9.152383e+001
6.202281e+006	-3.087547e+001	8.652079e+001	-3.132387e+001	-1.736394e+001	-8.802650e+001	5.189583e+001	-2.894204e+001	9.148765e+001
6.202313e+006	-3.087031e+001	8.647414e+001	-3.131422e+001	-1.734839e+001	-8.951184e+001	1.174921e+002	-2.894570e+001	9.150989e+001
6.202344e+006	-3.087552e+001	8.649656e+001	-3.129012e+001	-1.734646e+001	-8.971467e+001	-7.772405e+000	-2.894841e+001	9.149614e+001
6.202375e+006	-3.087114e+001	8.650295e+001	-3.127759e+001	-1.731703e+001	-8.854647e+001	-7.950724e+001	-2.895639e+001	9.149451e+001
6.202406e+006	-3.087915e+001	8.651984e+001	-3.125707e+001	-1.731068e+001	-9.259646e+001	1.607100e+001	-2.894615e+001	9.146172e+001
6.202438e+006	-3.087117e+001	8.649299e+001	-3.123571e+001	-1.727961e+001	-9.818459e+001	2.992229e+001	-2.894612e+001	9.153104e+001
6.202469e+006	-3.088069e+001	8.652755e+001	-3.122795e+001	-1.727256e+001	-8.948371e+001	1.075027e+002	-2.894854e+001	9.151219e+001
6.202500e+006	-3.086758e+001	8.657926e+001	-3.121398e+001	-1.719849e+001	-9.319310e+001	1.382385e+002	-2.894898e+001	9.151875e+001
6.202531e+006	-3.087562e+001	8.651986e+001	-3.120793e+001	-1.716611e+001	-9.664700e+001	1.187329e+002	-2.894510e+001	9.149736e+001
6.202563e+006	-3.087948e+001	8.643463e+001	-3.118374e+001	-1.719794e+001	-9.613416e+001	1.414241e+002	-2.894265e+001	9.152366e+001
6.202594e+006	-3.087701e+001	8.651508e+001	-3.116521e+001	-1.727942e+001	-1.188045e+002	-1.300755e+002	-2.894832e+001	9.150875e+001
6.202625e+006	-3.088798e+001	8.651651e+001	-3.117573e+001	-1.719059e+001	-9.159167e+001	-8.555835e+001	-2.894015e+001	9.153448e+001
6.202656e+006	-3.087627e+001	8.653294e+001	-3.115144e+001	-1.719049e+001	-9.157159e+001	8.610330e+000	-2.894237e+001	9.154830e+001
6.202688e+006	-3.088381e+001	8.654433e+001	-3.114805e+001	-1.708122e+001	-1.179407e+002	1.641807e+002	-2.894396e+001	9.151879e+001
6.202719e+006	-3.087595e+001	8.650068e+001	-3.112469e+001	-1.719332e+001	-9.695557e+001	6.061588e+001	-2.895023e+001	9.150261e+001
6.202750e+006	-3.086646e+001	8.655705e+001	-3.112595e+001	-1.721739e+001	-1.018037e+002	-1.745993e+002	-2.894586e+001	9.150444e+001
6.202781e+006	-3.087408e+001	8.650104e+001	-3.110120e+001	-1.713409e+001	-1.032534e+002	-5.940576e+001	-2.894720e+001	9.147003e+001
6.202813e+006	-3.087727e+001	8.655400e+001	-3.110333e+001	-1.708648e+001	-9.213228e+001	-8.188116e+001	-2.894862e+001	9.152251e+001
6.202844e+006	-3.087898e+001	8.645329e+001	-3.109720e+001	-1.710851e+001	-9.672823e+001	1.469204e+002	-2.895072e+001	9.154103e+001
6.202875e+006	-3.087786e+001	8.654837e+001	-3.108653e+001	-1.713518e+001	-1.066645e+002	3.751143e+001	-2.894719e+001	9.152444e+001
6.202906e+006	-3.087111e+001	8.657678e+001	-3.107294e+001	-1.712454e+001	-9.733188e+001	1.014048e+002	-2.894781e+001	9.155956e+001
6.202938e+006	-3.087247e+001	8.650773e+001	-3.105869e+001	-1.712539e+001	-9.801523e+001	8.320113e+001	-2.893827e+001	9.148220e+001
6.202969e+006	-3.087131e+001	8.653329e+001	-3.106328e+001	-1.710530e+001	-9.214632e+001	3.072759e+001	-2.893962e+001	9.153618e+001
6.203000e+006	-3.087484e+001	8.656691e+001	-3.104820e+001	-1.711263e+001	-9.266797e+001	-1.498664e+002	-2.894187e+001	9.148664e+001
6.203031e+006	-3.087075e+001	8.649214e+001	-3.104229e+001	-1.714727e+001	-9.331351e+001	1.171266e+002	-2.894375e+001	9.150740e+001
6.203063e+006	-3.086365e+001	8.648647e+001	-3.105091e+001	-1.707543e+001	-8.911412e+001	-1.755129e+002	-2.894755e+001	9.157209e+001
6.203094e+006	-3.087971e+001	8.654402e+001	-3.102486e+001	-1.712744e+001	-9.009136e+001	1.023763e+002	-2.894447e+001	9.154571e+001
6.203125e+006	-3.088162e+001	8.651053e+001	-3.102370e+001	-1.696587e+001	-9.574501e+001	1.671712e+002	-2.895236e+001	9.150483e+001
6.203156e+006	-3.087340e+001	8.653267e+001	-3.101619e+001	-1.698760e+001	-8.897090e+001	-4.641806e+001	-2.894360e+001	9.153712e+001
6.203188e+006	-3.087610e+001	8.650196e+001	-3.101030e+001	-1.709064e+001	-8.850383e+001	7.108968e+001	-2.894564e+001	9.149243e+001
6.203219e+006	-3.087132e+001	8.648503e+001	-3.100091e+001	-1.711253e+001	-1.036980e+002	-4.906498e+001	-2.895197e+001	9.151356e+001
6.203250e+006	-3.086992e+001	8.653202e+001	-3.099770e+001	-1.715082e+001	-9.001507e+001	3.781159e+001	-2.894486e+001	9.154231e+001
6.203281e+006	-3.087687e+001	8.655696e+001	-3.099659e+001	-1.709312e+001	-9.281080e+001	-2.347297e+001	-2.895029e+001	9.147995e+001
6.203313e+006	-3.087396e+001	8.653935e+001	-3.099251e+001	-1.704980e+001	-1.063363e+002	-7.049056e+001	-2.895034e+001	9.151319e+001
6.203344e+006	-3.088684e+001	8.651836e+001	-3.097774e+001	-1.712106e+001	-1.012740e+002	-3.100494e+001	-2.894142e+001	9.152864e+001
6.203375e+006	-3.086743e+001	8.654249e+001	-3.098989e+001	-1.705253e+001	-9.198226e+001	-1.394269e+002	-2.894466e+001	9.149624e+001
6.203406e+006	-3.087435e+001	8.651001e+001	-3.096501e+001	-1.707896e+001	-8.660449e+001	-7.320029e+000	-2.894265e+001	9.152618e+001
6.203438e+006	-3.087797e+001	8.653687e+001	-3.097649e+001	-1.708097e+001	-9.334936e+001	6.770427e+001	-2.894522e+001	9.150240e+001
6.203469e+006	-3.087913e+001	8.653653e+001	-3.097517e+001	-1.706783e+001	-9.918961e+001	-1.548895e+002	-2.894757e+001	9.156485e+001
6.203500e+006	-3.087081e+001	8.653845e+001	-3.096994e+001	-1.702733e+001	-9.038396e+001	4.143421e+001	-2.894372e+001	9.152186e+001
6.203531e+006	-3.087913e+001	8.655513e+001	-3.095261e+001	-1.699520e+001	-8.923681e+001	6.547847e+001	-2.894348e+001	9.154885e+001
6.203563e+006	-3.087362e+001	8.652321e+001	-3.095554e+001	-1.705180e+001	-9.397091e+001	8.149054e+000	-2.893813e+001	9.155439e+001
6.203594e+006	-3.087379e+001	8.650034e+001	-3.094883e+001	-1.701315e+001	-9.830910e+001	1.765208e+002	-2.894966e+001	9.155083e+001
6.203625e+006	-3.088588e+001	8.654198e+001	-3.093857e+001	-1.703904e+001	-1.037645e+002	-1.559734e+002	-2.894995e+001	9.156991e+001
6.203656e+006	-3.087962e+001	8.653932e+001	-3.093896e+001	-1.706462e+001	-9.772649e+001	-3.201750e+000	-2.894663e+001	9.155046e+001
6.203688e+006	-3.088916e+001	8.655914e+001	-3.093345e+001	-1.706766e+001	-8.783163e+001	-2.887733e+001	-2.894372e+001	9.149996e+001
6.203719e+006	-3.088145e+001	8.652320e+001	-3.092940e+001	-1.706754e+001	-8.871633e+001	2.425107e+001	-2.894086e+001	9.150873e+001
6.203750e+006	-3.088210e+001	8.643772e+001	-3.093124e+001	-1.707083e+001	-9.245408e+001	-1.580171e+002	-2.894776e+001	9.150009e+001
6.203781e+006	-3.087406e+001	8.646858e+001	-3.092573e+001	-1.706945e+001	-9.487175e+001	5.276209e+001	-2.894521e+001	9.157298e+001
6.203813e+006	-3.087787e+001	8.659199e+001	-3.091527e+001	-1.698275e+001	-9.571833e+001	-3.013191e+001	-2.894718e+001	9.150954e+001
6.203844e+006	-3.088119e+001	8.651665e+001	-3.091343e+001	-1.704184e+001	-1.088160e+002	-5.587610e+001	-2.894170e+001	9.156137e+001
6.203875e+006	-3.088476e+001	8.653675e+001	-3.091179e+001	-1.701383e+001	-9.233212e+001	-6.382948e+001	-2.893548e+001	9.152638e+001
6.203906e+006	-3.087126e+001	8.658519e+001	-3.091355e+001	-1.708572e+001	-9.006121e+001	4.350962e+001	-2.894628e+001	9.154228e+001
6.203938e+006	-3.087133e+001	8.651934e+001	-3.090904e+001	-1.703843e+001	-9.768517e+001	-1.298010e+002	-2.894628e+001	9.153970e+001
6.203969e+006	-3.088029e+001	8.660480e+001	-3.090236e+001	-1.700431e+001	-9.085627e+001	-9.352489e+000	-2.895208e+001	9.156631e+001
6.204000e+006	-3.087815e+001	8.659982e+001	-3.091067e+001	-1.695474e+001	-9.296448e+001	6.753218e+001	-2.894328e+001	9.160954e+001
6.204031e+006	-3.087854e+001	8.658075e+001	-3.090110e+001	-1.703414e+001	-9.035921e+001	-1.237286e+002	-2.894693e+001	9.152389e+001
6.204063e+006	-3.087318e+001	8.650435e+001	-3.089990e+001	-1.705139e+001	-8.865303e+001	-1.683753e+002	-2.894587e+001	9.155472e+001
6.204094e+006	-3.087960e+001	8.659754e+001	-3.089212e+001	-1.696357e+001	-9.101534e+001	-8.640869e+001	-2.894606e+001	9.152723e+001
6.204125e+006	-3.087187e+001	8.656197e+001	-3.088598e+001	-1.700644e+001	-9.014931e+001	-1.685544e+002	-2.895760e+001	9.159841e+001
6.204156e+006	-3.087870e+001	8.653554e+001	-3.088296e+001	-1.696223e+001	-9.643976e+001	-1.352396e+002	-2.894326e+001	9.154195e+001
6.204188e+006	-3.087573e+001	8.655430e+001	-3.087535e+001	-1.697153e+001	-8.887558e+001	9.243392e+001	-2.894350e+001	9.155735e+001
6.204219e+006	-3.086639e+001	8.656081e+001	-3.088212e+001	-1.704790e+001	-8.596435e+001	1.223142e+002	-2.894723e+001	9.152432e+001
6.204250e+006	-3.087743e+001	8.650231e+001	-3.086839e+001	-1.702407e+001	-9.549857e+001	-1.098218e+002	-2.895584e+001	9.155316e+001
6.204281e+006	-3.087481e+001	8.652102e+001	-3.087272e+001	-1.706259e+001	-8.742383e+001	1.340026e+002	-2.894006e+001	9.152640e+001
6.204313e+006	-3.087338e+001	8.655265e+001	-3.087333e+001	-1.703877e+001	-9.793514e+001	-1.084378e+002	-2.894916e+001	9.151109e+001
6.204344e+006	-3.087522e+001	8.661112e+001	-3.087442e+001	-1.706844e+001	-9.744899e+001	-1.747357e+002	-2.894234e+001	9.151504e+001
6.204375e+006	-3.088730e+001	8.658777e+001	-3.086981e+001	-1.707697e+001	-9.502191e+001	5.808707e+001	-2.894348e+001	9.150703e+001
6.204406e+006	-3.088568e+001	8.654256e+001	-3.087424e+001	-1.703783e+001	-8.699913e+001	7.437315e+001	-2.894174e+001	9.153232e+001
6.204438e+006	-3.087755e+001	8.655851e+001	-3.086162e+001	-1.703861e+001	-9.908695e+001	7.279094e+001	-2.894685e+001	9.160317e+001
6.204469e+006	-3.087338e+001	8.652577e+001	-3.086597e+001	-1.699455e+001	-9.437968e+001	5.387412e+001	-2.895150e+001	9.160100e+001
6.204500e+006	-3.087065e+001	8.658189e+001	-3.085699e+001	-1.702071e+001	-1.070834e+002	8.894717e+001	-2.894615e+001	9.153954e+001
6.204531e+006	-3.087593e+001	8.652391e+001	-3.086192e+001	-1.700020e+001	-9.382267e+001	-1.008324e+002	-2.895042e+001	9.150089e+001
6.204563e+006	-3.087304e+001	8.659151e+001	-3.086568e+001	-1.699910e+001	-8.713854e+001	-1.786417e+002	-2.894384e+001	9.155846e+001
6.204594e+006	-3.087297e+001	8.653924e+001	-3.085142e+001	-1.697195e+001	-1.018138e+002	1.295990e+002	-2.894379e+001	9.160456e+001
6.204625e+006	-3.087825e+001	8.651553e+001	-3.084661e+001	-1.699275e+001	-8.986299e+001	-4.899572e+000	-2.893747e+001	9.155365e+001
