!CETC41,AV3656A,ZGL00048,1.3.2
!Calibration ON (Full Solt 2-Port(Omit Isolation))
!Measurements: S11 S21 S12 S22
!2025-04-18 00:05
# Hz  S  dB  R 50.000
6.200000e+006	-3.091441e+001	8.657672e+001	-3.050018e+001	-1.639062e+001	-1.016250e+002	5.874294e+001	-2.904092e+001	9.082026e+001
6.200031e+006	-3.091530e+001	8.645848e+001	-3.049513e+001	-1.632785e+001	-9.231758e+001	-4.223786e+001	-2.903243e+001	9.081218e+001
6.200063e+006	-3.090608e+001	8.655034e+001	-3.050304e+001	-1.636025e+001	-9.981879e+001	-1.215595e+002	-2.904898e+001	9.085785e+001
6.200094e+006	-3.090872e+001	8.651434e+001	-3.049362e+001	-1.635427e+001	-9.864948e+001	-8.676804e+001	-2.903325e+001	9.076954e+001
6.200125e+006	-3.091216e+001	8.649459e+001	-3.049351e+001	-1.643752e+001	-1.155960e+002	-8.451216e+001	-2.903476e+001	9.085046e+001
6.200156e+006	-3.090946e+001	8.645182e+001	-3.049793e+001	-1.646909e+001	-8.829831e+001	8.050484e+001	-2.903629e+001	9.082176e+001
6.200188e+006	-3.091650e+001	8.655432e+001	-3.048757e+001	-1.640820e+001	-1.019358e+002	3.937027e+001	-2.903072e+001	9.080900e+001
6.200219e+006	-3.090808e+001	8.656355e+001	-3.049244e+001	-1.638453e+001	-9.724999e+001	1.046378e+002	-2.903421e+001	9.074654e+001
6.200250e+006	-3.090453e+001	8.654767e+001	-3.048389e+001	-1.644689e+001	-1.035704e+002	-1.394863e+002	-2.903609e+001	9.082198e+001
6.200281e+006	-3.090631e+001	8.649519e+001	-3.049672e+001	-1.643085e+001	-9.786415e+001	-9.180862e+001	-2.902301e+001	9.081904e+001
6.200313e+006	-3.091639e+001	8.658800e+001	-3.048074e+001	-1.644628e+001	-9.502133e+001	7.282989e+001	-2.904106e+001	9.077878e+001
6.200344e+006	-3.091531e+001	8.647063e+001	-3.048383e+001	-1.639806e+001	-8.951406e+001	9.413315e+001	-2.904060e+001	9.082140e+001
6.200375e+006	-3.090528e+001	8.650873e+001	-3.048653e+001	-1.636622e+001	-9.637976e+001	-4.570683e+001	-2.902908e+001	9.077901e+001
6.200406e+006	-3.091639e+001	8.654732e+001	-3.048120e+001	-1.640349e+001	-9.402375e+001	-1.264308e+002	-2.903240e+001	9.079078e+001
6.200438e+006	-3.091175e+001	8.652083e+001	-3.048280e+001	-1.640903e+001	-9.122638e+001	1.763930e+002	-2.903582e+001	9.080669e+001
6.200469e+006	-3.091392e+001	8.654848e+001	-3.048547e+001	-1.646727e+001	-9.378913e+001	1.393342e+002	-2.903601e+001	9.076782e+001
6.200500e+006	-3.090238e+001	8.658848e+001	-3.047962e+001	-1.642941e+001	-9.662752e+001	-6.853578e+001	-2.903307e+001	9.082722e+001
6.200531e+006	-3.091344e+001	8.652911e+001	-3.048178e+001	-1.640784e+001	-1.007194e+002	-4.314535e+001	-2.904138e+001	9.076538e+001
6.200563e+006	-3.090371e+001	8.653499e+001	-3.048247e+001	-1.640747e+001	-1.001641e+002	-5.743037e+001	-2.903594e+001	9.081759e+001
6.200594e+006	-3.091138e+001	8.660370e+001	-3.048073e+001	-1.638032e+001	-9.101693e+001	-1.010750e+002	-2.903274e+001	9.080272e+001
6.200625e+006	-3.091309e+001	8.659704e+001	-3.048006e+001	-1.642514e+001	-9.652580e+001	1.468238e+002	-2.903539e+001	9.079963e+001
6.200656e+006	-3.090379e+001	8.650360e+001	-3.047581e+001	-1.640040e+001	-9.432098e+001	5.363519e+000	-2.903591e+001	9.080542e+001
6.200688e+006	-3.091330e+001	8.651083e+001	-3.047281e+001	-1.638627e+001	-9.502729e+001	2.762885e+001	-2.903499e+001	9.078364e+001
6.200719e+006	-3.089956e+001	8.653169e+001	-3.047983e+001	-1.639510e+001	-8.419135e+001	9.635244e+001	-2.903148e+001	9.079958e+001
6.200750e+006	-3.091406e+001	8.659705e+001	-3.046249e+001	-1.638900e+001	-9.312747e+001	1.463149e+002	-2.902806e+001	9.091383e+001
6.200781e+006	-3.090506e+001	8.651266e+001	-3.046556e+001	-1.642225e+001	-1.003502e+002	9.205811e+001	-2.902860e+001	9.078484e+001
6.200813e+006	-3.090719e+001	8.656281e+001	-3.046462e+001	-1.645771e+001	-9.331034e+001	9.017501e+001	-2.903872e+001	9.084415e+001
6.200844e+006	-3.091449e+001	8.659006e+001	-3.047070e+001	-1.639821e+001	-1.049403e+002	6.916432e+001	-2.903397e+001	9.082962e+001
6.200875e+006	-3.091303e+001	8.650646e+001	-3.045520e+001	-1.650957e+001	-9.625542e+001	6.592943e+001	-2.903657e+001	9.083230e+001
6.200906e+006	-3.090927e+001	8.659242e+001	-3.047023e+001	-1.647308e+001	-8.553824e+001	4.103408e+001	-2.903992e+001	9.079566e+001
6.200938e+006	-3.090625e+001	8.659391e+001	-3.046240e+001	-1.643092e+001	-9.787912e+001	1.766197e+002	-2.902810e+001	9.076750e+001
6.200969e+006	-3.091357e+001	8.648945e+001	-3.045698e+001	-1.647002e+001	-9.528485e+001	4.485912e+001	-2.904632e+001	9.081424e+001
6.201000e+006	-3.090861e+001	8.656194e+001	-3.046796e+001	-1.640709e+001	-9.515148e+001	-6.469718e+001	-2.904188e+001	9.079199e+001
6.201031e+006	-3.091011e+001	8.651009e+001	-3.046386e+001	-1.640894e+001	-9.735435e+001	1.626923e+002	-2.903737e+001	9.084133e+001
6.201063e+006	-3.091188e+001	8.651927e+001	-3.046180e+001	-1.641141e+001	-9.627971e+001	7.038442e+001	-2.904073e+001	9.084049e+001
6.201094e+006	-3.091306e+001	8.651077e+001	-3.045930e+001	-1.641174e+001	-9.204812e+001	5.277274e+000	-2.904340e+001	9.081977e+001
6.201125e+006	-3.090901e+001	8.651872e+001	-3.046223e+001	-1.647121e+001	-1.014669e+002	3.344980e+001	-2.903588e+001	9.085721e+001
6.201156e+006	-3.090746e+001	8.656162e+001	-3.045867e+001	-1.644534e+001	-9.262299e+001	3.856713e+001	-2.903946e+001	9.083322e+001
6.201188e+006	-3.091209e+001	8.662354e+001	-3.045154e+001	-1.637090e+001	-9.297596e+001	4.138185e+001	-2.903635e+001	9.082693e+001
6.201219e+006	-3.092235e+001	8.647202e+001	-3.044805e+001	-1.636277e+001	-9.822563e+001	1.714350e+002	-2.903721e+001	9.083806e+001
6.201250e+006	-3.090689e+001	8.655626e+001	-3.045500e+001	-1.651846e+001	-8.998415e+001	-8.570424e+001	-2.903669e+001	9.083124e+001
6.201281e+006	-3.091529e+001	8.653520e+001	-3.044539e+001	-1.638485e+001	-8.811907e+001	1.066379e+002	-2.903959e+001	9.077115e+001
6.201313e+006	-3.091034e+001	8.652617e+001	-3.044784e+001	-1.639514e+001	-9.709470e+001	9.388196e+001	-2.903345e+001	9.081716e+001
6.201344e+006	-3.091421e+001	8.656320e+001	-3.044564e+001	-1.638019e+001	-1.091651e+002	1.638469e+002	-2.903912e+001	9.080464e+001
6.201375e+006	-3.091790e+001	8.651792e+001	-3.044416e+001	-1.641311e+001	-1.042734e+002	-1.358819e+002	-2.904026e+001	9.087072e+001
6.201406e+006	-3.091145e+001	8.656462e+001	-3.044910e+001	-1.640059e+001	-9.712668e+001	-1.755512e+001	-2.904371e+001	9.085836e+001
6.201438e+006	-3.091135e+001	8.657937e+001	-3.043445e+001	-1.641172e+001	-1.000567e+002	-1.038258e+002	-2.903007e+001	9.083832e+001
6.201469e+006	-3.091082e+001	8.658069e+001	-3.043560e+001	-1.643305e+001	-9.638502e+001	-2.853855e+001	-2.903719e+001	9.087090e+001
6.201500e+006	-3.090603e+001	8.659149e+001	-3.043411e+001	-1.642685e+001	-1.017217e+002	1.700182e+001	-2.903144e+001	9.081939e+001
6.201531e+006	-3.089900e+001	8.656221e+001	-3.042703e+001	-1.639367e+001	-9.308620e+001	-6.828677e+001	-2.904199e+001	9.080073e+001
6.201563e+006	-3.091105e+001	8.652480e+001	-3.043102e+001	-1.641252e+001	-1.049493e+002	9.939210e+001	-2.903063e+001	9.080412e+001
6.201594e+006	-3.091290e+001	8.659435e+001	-3.042785e+001	-1.644924e+001	-9.390236e+001	1.102832e+002	-2.903605e+001	9.085386e+001
6.201625e+006	-3.090787e+001	8.651554e+001	-3.042694e+001	-1.638921e+001	-9.159772e+001	2.722475e+001	-2.904129e+001	9.082763e+001
6.201656e+006	-3.091023e+001	8.650621e+001	-3.042296e+001	-1.641038e+001	-9.447715e+001	1.648006e+001	-2.903477e+001	9.085068e+001
6.201688e+006	-3.091343e+001	8.657109e+001	-3.041744e+001	-1.647472e+001	-1.050581e+002	6.321726e+001	-2.903368e+001	9.084938e+001
6.201719e+006	-3.090891e+001	8.660431e+001	-3.042385e+001	-1.637422e+001	-1.026637e+002	-1.604372e+002	-2.903404e+001	9.083155e+001
6.201750e+006	-3.090313e+001	8.653136e+001	-3.042062e+001	-1.645669e+001	-1.005015e+002	-7.661129e+000	-2.903423e+001	9.084373e+001
6.201781e+006	-3.091440e+001	8.659997e+001	-3.041544e+001	-1.640085e+001	-9.212332e+001	5.623917e+001	-2.903254e+001	9.084509e+001
6.201813e+006	-3.091850e+001	8.646921e+001	-3.041760e+001	-1.640720e+001	-9.468872e+001	6.999192e+001	-2.903463e+001	9.081504e+001
6.201844e+006	-3.090575e+001	8.659580e+001	-3.041381e+001	-1.637859e+001	-1.019120e+002	4.618084e+001	-2.904233e+001	9.086491e+001
6.201875e+006	-3.091068e+001	8.655661e+001	-3.040863e+001	-1.646536e+001	-9.324476e+001	8.407584e+001	-2.902684e+001	9.079424e+001
6.201906e+006	-3.091895e+001	8.657771e+001	-3.040922e+001	-1.641669e+001	-8.962041e+001	6.149403e+001	-2.903442e+001	9.088538e+001
6.201938e+006	-3.090974e+001	8.653848e+001	-3.039692e+001	-1.647713e+001	-9.181502e+001	4.583798e+001	-2.903713e+001	9.083965e+001
6.201969e+006	-3.091989e+001	8.660054e+001	-3.039846e+001	-1.646901e+001	-9.626961e+001	-1.770518e+002	-2.903443e+001	9.084024e+001
6.202000e+006	-3.090562e+001	8.654475e+001	-3.040450e+001	-1.645317e+001	-9.525413e+001	-1.779026e+002	-2.903732e+001	9.086662e+001
6.202031e+006	-3.090175e+001	8.656454e+001	-3.040509e+001	-1.648249e+001	-9.239881e+001	8.848008e+001	-2.903162e+001	9.086338e+001
6.202063e+006	-3.090765e+001	8.654580e+001	-3.038912e+001	-1.644171e+001	-9.236778e+001	1.658185e+002	-2.903556e+001	9.084298e+001
6.202094e+006	-3.090798e+001	8.654043e+001	-3.040627e+001	-1.647762e+001	-9.053286e+001	1.224239e+002	-2.903331e+001	9.094255e+001
6.202125e+006	-3.090437e+001	8.654391e+001	-3.039451e+001	-1.648016e+001	-9.755069e+001	1.524989e+002	-2.903741e+001	9.087785e+001
6.202156e+006	-3.091275e+001	8.665994e+001	-3.039596e+001	-1.641372e+001	-9.156545e+001	-7.490710e+001	-2.903838e+001	9.087862e+001
6.202188e+006	-3.090757e+001	8.657255e+001	-3.040245e+001	-1.644666e+001	-9.896228e+001	-1.079074e+002	-2.903744e+001	9.087844e+001
6.202219e+006	-3.092168e+001	8.659800e+001	-3.038494e+001	-1.644244e+001	-9.447028e+001	1.791215e+002	-2.903566e+001	9.083511e+001
6.202250e+006	-3.091396e+001	8.655057e+001	-3.038097e+001	-1.647120e+001	-1.026170e+002	-1.637736e+002	-2.903630e+001	9.084037e+001
6.202281e+006	-3.091445e+001	8.658268e+001	-3.038384e+001	-1.646856e+001	-9.645806e+001	1.622324e+002	-2.902530e+001	9.082393e+001
6.202313e+006	-3.090140e+001	8.654797e+001	-3.037998e+001	-1.643524e+001	-9.647613e+001	1.056622e+002	-2.903864e+001	9.083045e+001
6.202344e+006	-3.090759e+001	8.663340e+001	-3.037207e+001	-1.643562e+001	-9.110046e+001	1.075277e+001	-2.903254e+001	9.084182e+001
6.202375e+006	-3.090951e+001	8.659951e+001	-3.037239e+001	-1.642632e+001	-9.672648e+001	-9.716846e+001	-2.903539e+001	9.086249e+001
6.202406e+006	-3.090446e+001	8.655158e+001	-3.037742e+001	-1.644335e+001	-9.296885e+001	1.190672e+002	-2.903775e+001	9.082445e+001
6.202438e+006	-3.090935e+001	8.655936e+001	-3.036189e+001	-1.654122e+001	-9.228243e+001	1.053697e+002	-2.903522e+001	9.087074e+001
6.202469e+006	-3.091670e+001	8.655595e+001	-3.036759e+001	-1.646360e+001	-1.129647e+002	-7.548377e+001	-2.903140e+001	9.079696e+001
6.202500e+006	-3.090737e+001	8.659148e+001	-3.036044e+001	-1.643261e+001	-9.501957e+001	9.301887e+001	-2.903451e+001	9.085986e+001
6.202531e+006	-3.091362e+001	8.660079e+001	-3.036510e+001	-1.643235e+001	-8.926797e+001	1.063897e+002	-2.903520e+001	9.084787e+001
6.202563e+006	-3.091569e+001	8.663861e+001	-3.036220e+001	-1.642538e+001	-9.871622e+001	7.702261e+000	-2.903896e+001	9.089463e+001
6.202594e+006	-3.091444e+001	8.659001e+001	-3.034261e+001	-1.651569e+001	-9.300897e+001	6.963584e+001	-2.903253e+001	9.084473e+001
6.202625e+006	-3.090596e+001	8.659804e+001	-3.033942e+001	-1.654132e+001	-1.046782e+002	-1.644768e+002	-2.904002e+001	9.087997e+001
6.202656e+006	-3.091246e+001	8.658533e+001	-3.033520e+001	-1.647490e+001	-9.178303e+001	-1.158741e+002	-2.903726e+001	9.088113e+001
6.202688e+006	-3.090682e+001	8.658170e+001	-3.034026e+001	-1.646437e+001	-8.980834e+001	1.115806e+002	-2.903039e+001	9.088533e+001
6.202719e+006	-3.090142e+001	8.658694e+001	-3.033693e+001	-1.648647e+001	-8.798662e+001	1.478106e+002	-2.903516e+001	9.088289e+001
6.202750e+006	-3.091310e+001	8.653960e+001	-3.033213e+001	-1.649571e+001	-1.023623e+002	1.305424e+002	-2.903137e+001	9.095151e+001
6.202781e+006	-3.091476e+001	8.654473e+001	-3.032025e+001	-1.654219e+001	-9.527487e+001	2.822729e+001	-2.903544e+001	9.084350e+001
6.202813e+006	-3.091532e+001	8.656390e+001	-3.032650e+001	-1.648867e+001	-9.097827e+001	1.371301e+002	-2.903724e+001	9.087764e+001
6.202844e+006	-3.091164e+001	8.654257e+001	-3.032060e+001	-1.649047e+001	-9.460769e+001	3.296786e+001	-2.903904e+001	9.081417e+001
6.202875e+006	-3.090379e+001	8.656295e+001	-3.030497e+001	-1.654077e+001	-9.803419e+001	3.332623e+001	-2.903686e+001	9.087367e+001
6.202906e+006	-3.090519e+001	8.664493e+001	-3.031269e+001	-1.652199e+001	-8.814101e+001	1.113114e+002	-2.904236e+001	9.083811e+001
6.202938e+006	-3.090740e+001	8.658854e+001	-3.029440e+001	-1.647819e+001	-9.342921e+001	-1.232479e+002	-2.903749e+001	9.089344e+001
6.202969e+006	-3.091310e+001	8.657714e+001	-3.029092e+001	-1.649452e+001	-9.740829e+001	4.163725e+001	-2.904034e+001	9.083793e+001
6.203000e+006	-3.091884e+001	8.658100e+001	-3.029785e+001	-1.647736e+001	-9.323322e+001	3.404515e+001	-2.903862e+001	9.090970e+001
6.203031e+006	-3.090570e+001	8.656299e+001	-3.027713e+001	-1.653238e+001	-1.096662e+002	1.379996e+002	-2.904353e+001	9.083343e+001
6.203063e+006	-3.090855e+001	8.661142e+001	-3.028357e+001	-1.655217e+001	-8.639850e+001	1.007371e+002	-2.903343e+001	9.086566e+001
6.203094e+006	-3.091056e+001	8.663253e+001	-3.027929e+001	-1.655674e+001	-1.056393e+002	2.338978e+001	-2.903439e+001	9.086432e+001
6.203125e+006	-3.091545e+001	8.657517e+001	-3.027547e+001	-1.653244e+001	-9.127717e+001	1.689961e+002	-2.904146e+001	9.085632e+001
6.203156e+006	-3.091070e+001	8.659510e+001	-3.027202e+001	-1.651701e+001	-8.990250e+001	6.019154e+001	-2.904195e+001	9.087884e+001
6.203188e+006	-3.090320e+001	8.655911e+001	-3.026310e+001	-1.655114e+001	-9.095696e+001	-2.989897e+001	-2.902909e+001	9.081761e+001
6.203219e+006	-3.091849e+001	8.662803e+001	-3.026244e+001	-1.656337e+001	-1.023454e+002	1.451633e+002	-2.903509e+001	9.088060e+001
6.203250e+006	-3.091598e+001	8.665836e+001	-3.025197e+001	-1.654362e+001	-9.163984e+001	-1.063707e+002	-2.903448e+001	9.090519e+001
6.203281e+006	-3.090989e+001	8.665802e+001	-3.024108e+001	-1.655905e+001	-9.621951e+001	1.171791e+002	-2.903864e+001	9.084469e+001
6.203313e+006	-3.091621e+001	8.659126e+001	-3.023927e+001	-1.658473e+001	-9.687077e+001	1.327844e+002	-2.903589e+001	9.089459e+001
6.203344e+006	-3.091154e+001	8.662460e+001	-3.023498e+001	-1.658313e+001	-1.076833e+002	6.872975e+001	-2.903890e+001	9.079570e+001
6.203375e+006	-3.091454e+001	8.657478e+001	-3.022183e+001	-1.652704e+001	-9.742066e+001	2.011090e+001	-2.904237e+001	9.085623e+001
6.203406e+006	-3.090858e+001	8.662395e+001	-3.022550e+001	-1.657415e+001	-9.501247e+001	9.280457e+001	-2.902536e+001	9.085777e+001
6.203438e+006	-3.090870e+001	8.663615e+001	-3.021007e+001	-1.661289e+001	-9.615257e+001	-1.619142e+002	-2.904387e+001	9.090969e+001
6.203469e+006	-3.090899e+001	8.659493e+001	-3.020355e+001	-1.648204e+001	-9.211266e+001	6.723034e+001	-2.903696e+001	9.082573e+001
6.203500e+006	-3.091522e+001	8.659162e+001	-3.019723e+001	-1.652139e+001	-8.959352e+001	5.517944e+001	-2.903892e+001	9.089250e+001
6.203531e+006	-3.091700e+001	8.657236e+001	-3.020269e+001	-1.663001e+001	-9.928861e+001	9.214799e+001	-2.903289e+001	9.085415e+001
6.203563e+006	-3.091140e+001	8.664750e+001	-3.018290e+001	-1.660482e+001	-9.438489e+001	-3.931397e+001	-2.904313e+001	9.090293e+001
6.203594e+006	-3.091100e+001	8.657713e+001	-3.016294e+001	-1.663987e+001	-9.810517e+001	1.337849e+002	-2.903675e+001	9.086844e+001
6.203625e+006	-3.091812e+001	8.654170e+001	-3.015971e+001	-1.658405e+001	-9.175251e+001	7.685993e+001	-2.903091e+001	9.087720e+001
6.203656e+006	-3.091475e+001	8.661572e+001	-3.015004e+001	-1.663907e+001	-9.709541e+001	7.795651e+001	-2.904525e+001	9.089520e+001
6.203688e+006	-3.092436e+001	8.660855e+001	-3.014016e+001	-1.659893e+001	-8.677277e+001	1.034801e+002	-2.903193e+001	9.084466e+001
6.203719e+006	-3.091349e+001	8.664014e+001	-3.012235e+001	-1.660735e+001	-9.494126e+001	-1.018099e+002	-2.903996e+001	9.087200e+001
6.203750e+006	-3.090800e+001	8.661408e+001	-3.011891e+001	-1.667324e+001	-9.320569e+001	1.038230e+002	-2.903627e+001	9.091958e+001
6.203781e+006	-3.090611e+001	8.662368e+001	-3.010328e+001	-1.666452e+001	-1.042202e+002	3.777203e+001	-2.903834e+001	9.087476e+001
6.203813e+006	-3.090471e+001	8.661184e+001	-3.009197e+001	-1.668346e+001	-9.407784e+001	1.161425e+002	-2.902327e+001	9.085919e+001
6.203844e+006	-3.091648e+001	8.662719e+001	-3.008047e+001	-1.670970e+001	-8.942937e+001	1.425829e+002	-2.903295e+001	9.085119e+001
6.203875e+006	-3.092026e+001	8.663675e+001	-3.005550e+001	-1.667873e+001	-1.062763e+002	7.888412e-001	-2.902871e+001	9.085831e+001
6.203906e+006	-3.090756e+001	8.665199e+001	-3.005022e+001	-1.682187e+001	-9.242116e+001	-2.293658e+001	-2.903556e+001	9.081622e+001
6.203938e+006	-3.091615e+001	8.656900e+001	-3.003366e+001	-1.673299e+001	-9.266695e+001	1.593955e+002	-2.903697e+001	9.088368e+001
6.203969e+006	-3.091482e+001	8.657509e+001	-3.001894e+001	-1.679129e+001	-9.839480e+001	-8.923622e+001	-2.903864e+001	9.086909e+001
6.204000e+006	-3.090612e+001	8.666155e+001	-3.000630e+001	-1.679320e+001	-9.444189e+001	1.293671e+002	-2.903793e+001	9.091234e+001
6.204031e+006	-3.090627e+001	8.657560e+001	-2.998719e+001	-1.687939e+001	-9.484035e+001	-1.325589e+002	-2.904339e+001	9.086905e+001
6.204063e+006	-3.090318e+001	8.659263e+001	-2.996778e+001	-1.689854e+001	-1.002231e+002	-1.612598e+002	-2.904242e+001	9.086977e+001
6.204094e+006	-3.091375e+001	8.659316e+001	-2.996211e+001	-1.690617e+001	-9.587074e+001	1.682127e+002	-2.903748e+001	9.086640e+001
6.204125e+006	-3.091139e+001	8.652663e+001	-2.992607e+001	-1.690531e+001	-8.985183e+001	1.591956e+001	-2.903903e+001	9.089293e+001
6.204156e+006	-3.090080e+001	8.662721e+001	-2.990800e+001	-1.697637e+001	-9.029866e+001	-9.683196e+001	-2.903691e+001	9.092360e+001
6.204188e+006	-3.091213e+001	8.669954e+001	-2.988796e+001	-1.709109e+001	-9.815462e+001	1.013460e+001	-2.903878e+001	9.095754e+001
6.204219e+006	-3.091021e+001	8.662932e+001	-2.987901e+001	-1.701556e+001	-1.009980e+002	-2.872883e+001	-2.904374e+001	9.089914e+001
6.204250e+006	-3.091482e+001	8.662069e+001	-2.985236e+001	-1.710279e+001	-9.640751e+001	1.630956e+002	-2.903549e+001	9.092913e+001
6.204281e+006	-3.091756e+001	8.660506e+001	-2.981663e+001	-1.714213e+001	-9.698043e+001	7.745847e+001	-2.903689e+001	9.092583e+001
6.204313e+006	-3.091733e+001	8.661877e+001	-2.979524e+001	-1.708567e+001	-1.027168e+002	-2.368256e+001	-2.903978e+001	9.092944e+001
6.204344e+006	-3.091899e+001	8.661183e+001	-2.976308e+001	-1.718546e+001	-9.335871e+001	-7.648595e+001	-2.903445e+001	9.089050e+001
6.204375e+006	-3.091486e+001	8.663841e+001	-2.973819e+001	-1.728233e+001	-8.965057e+001	-7.333939e+001	-2.903619e+001	9.087200e+001
6.204406e+006	-3.091992e+001	8.664395e+001	-2.969632e+001	-1.729521e+001	-1.040114e+002	-2.406626e+001	-2.903274e+001	9.086039e+001
6.204438e+006	-3.090405e+001	8.666915e+001	-2.965321e+001	-1.738265e+001	-1.068908e+002	-2.457707e+001	-2.904278e+001	9.086598e+001
6.204469e+006	-3.091363e+001	8.659839e+001	-2.960659e+001	-1.747950e+001	-9.363897e+001	-7.809739e+001	-2.903837e+001	9.088962e+001
6.204500e+006	-3.090862e+001	8.668468e+001	-2.953827e+001	-1.760700e+001	-9.272658e+001	2.330898e+001	-2.903004e+001	9.097014e+001
6.204531e+006	-3.091757e+001	8.660546e+001	-2.951506e+001	-1.780749e+001	-9.679320e+001	1.499483e+002	-2.903727e+001	9.090627e+001
6.204563e+006	-3.092385e+001	8.664597e+001	-2.945972e+001	-1.795679e+001	-8.818327e+001	1.161873e+002	-2.904484e+001	9.086353e+001
6.204594e+006	-3.092488e+001	8.663746e+001	-2.939648e+001	-1.816690e+001	-8.829486e+001	1.198001e+002	-2.903120e+001	9.094025e+001
6.204625e+006	-3.091970e+001	8.665655e+001	-2.934786e+001	-1.839571e+001	-8.979476e+001	2.782731e+001	-2.904004e+001	9.090739e+001
