!CETC41,AV3656A,ZGL00048,1.3.2
!Calibration ON (Full Solt 2-Port(Omit Isolation))
!Measurements: S11 S21 S12 S22
!2025-04-18 02:59
# Hz  S  dB  R 50.000
6.150000e+006	-3.073806e+001	8.549264e+001	-3.067159e+001	-1.662919e+001	-8.723335e+001	7.629050e+001	-2.894293e+001	9.039771e+001
6.150039e+006	-3.073730e+001	8.537006e+001	-3.067670e+001	-1.657403e+001	-9.570302e+001	4.870277e+001	-2.894028e+001	9.043530e+001
6.150078e+006	-3.072996e+001	8.543153e+001	-3.066220e+001	-1.666263e+001	-9.595183e+001	1.298386e+002	-2.893991e+001	9.041917e+001
6.150117e+006	-3.073706e+001	8.547324e+001	-3.067371e+001	-1.665635e+001	-8.856482e+001	-5.458250e+001	-2.894187e+001	9.037740e+001
6.150156e+006	-3.072742e+001	8.545065e+001	-3.066967e+001	-1.662159e+001	-9.098549e+001	-1.277082e+002	-2.893634e+001	9.046021e+001
6.150195e+006	-3.072720e+001	8.545326e+001	-3.066955e+001	-1.654449e+001	-9.268763e+001	6.315716e+001	-2.893741e+001	9.043556e+001
6.150234e+006	-3.073400e+001	8.549516e+001	-3.067452e+001	-1.663693e+001	-9.831773e+001	-1.718473e+002	-2.894553e+001	9.039869e+001
6.150273e+006	-3.073035e+001	8.546906e+001	-3.067288e+001	-1.666998e+001	-9.156317e+001	-9.029879e+001	-2.894193e+001	9.046350e+001
6.150313e+006	-3.073648e+001	8.544589e+001	-3.066946e+001	-1.662436e+001	-9.474670e+001	-4.694446e+001	-2.893845e+001	9.044220e+001
6.150352e+006	-3.073090e+001	8.545079e+001	-3.067563e+001	-1.665743e+001	-9.059391e+001	8.953166e+001	-2.895008e+001	9.050875e+001
6.150391e+006	-3.072732e+001	8.545150e+001	-3.067218e+001	-1.657402e+001	-9.316654e+001	1.015639e+001	-2.895226e+001	9.048205e+001
6.150430e+006	-3.072818e+001	8.547044e+001	-3.066856e+001	-1.655631e+001	-9.462982e+001	-1.608534e+002	-2.894676e+001	9.043359e+001
6.150469e+006	-3.072709e+001	8.544860e+001	-3.066867e+001	-1.664635e+001	-8.502740e+001	1.438848e+002	-2.894553e+001	9.044884e+001
6.150508e+006	-3.072439e+001	8.544993e+001	-3.067242e+001	-1.661777e+001	-9.145362e+001	5.437854e+001	-2.894170e+001	9.040748e+001
6.150547e+006	-3.072625e+001	8.542792e+001	-3.066919e+001	-1.663035e+001	-1.015296e+002	1.484081e+002	-2.894550e+001	9.045812e+001
6.150586e+006	-3.072172e+001	8.544797e+001	-3.065908e+001	-1.661651e+001	-9.814044e+001	-1.790069e+002	-2.893960e+001	9.044676e+001
6.150625e+006	-3.072815e+001	8.541810e+001	-3.066668e+001	-1.658272e+001	-9.363925e+001	8.689216e+001	-2.895043e+001	9.042503e+001
6.150664e+006	-3.072793e+001	8.543039e+001	-3.066402e+001	-1.662039e+001	-1.073372e+002	-1.059944e+000	-2.894604e+001	9.044640e+001
6.150703e+006	-3.072752e+001	8.543214e+001	-3.066340e+001	-1.663221e+001	-9.382783e+001	5.415402e+001	-2.894234e+001	9.040365e+001
6.150742e+006	-3.073531e+001	8.550718e+001	-3.067025e+001	-1.662344e+001	-9.267292e+001	1.640879e+001	-2.894068e+001	9.039509e+001
6.150781e+006	-3.072807e+001	8.544978e+001	-3.066853e+001	-1.663914e+001	-9.036902e+001	-9.558736e+001	-2.894455e+001	9.045073e+001
6.150820e+006	-3.072469e+001	8.545757e+001	-3.067604e+001	-1.659642e+001	-9.896731e+001	-1.120896e+002	-2.894099e+001	9.043245e+001
6.150859e+006	-3.073444e+001	8.545729e+001	-3.066000e+001	-1.666748e+001	-8.825084e+001	1.691982e+002	-2.894247e+001	9.047164e+001
6.150898e+006	-3.073085e+001	8.546467e+001	-3.067533e+001	-1.651665e+001	-8.607230e+001	7.600906e+001	-2.895129e+001	9.044813e+001
6.150938e+006	-3.073122e+001	8.545303e+001	-3.067111e+001	-1.660194e+001	-8.947985e+001	-2.736465e+001	-2.894809e+001	9.042841e+001
6.150977e+006	-3.073076e+001	8.547084e+001	-3.067361e+001	-1.661669e+001	-9.907186e+001	3.289597e+001	-2.894456e+001	9.050533e+001
6.151016e+006	-3.073332e+001	8.547725e+001	-3.066564e+001	-1.662691e+001	-8.860593e+001	5.573407e+001	-2.894583e+001	9.045069e+001
6.151055e+006	-3.074411e+001	8.541454e+001	-3.066070e+001	-1.662749e+001	-8.923411e+001	5.108482e+001	-2.894168e+001	9.041676e+001
6.151094e+006	-3.072721e+001	8.546652e+001	-3.067060e+001	-1.664599e+001	-9.574632e+001	1.088119e+002	-2.894455e+001	9.041116e+001
6.151133e+006	-3.073481e+001	8.543419e+001	-3.066409e+001	-1.656910e+001	-9.372711e+001	1.633071e+002	-2.894428e+001	9.046970e+001
6.151172e+006	-3.073745e+001	8.549381e+001	-3.067169e+001	-1.667523e+001	-9.293176e+001	-1.702158e+002	-2.894863e+001	9.044680e+001
6.151211e+006	-3.072653e+001	8.542038e+001	-3.066593e+001	-1.662273e+001	-9.193564e+001	3.151988e+001	-2.894632e+001	9.042834e+001
6.151250e+006	-3.072514e+001	8.555402e+001	-3.066400e+001	-1.661255e+001	-1.010927e+002	8.431362e+000	-2.894565e+001	9.047926e+001
6.151289e+006	-3.073578e+001	8.546765e+001	-3.067514e+001	-1.663475e+001	-9.848885e+001	-1.692058e+002	-2.894966e+001	9.042879e+001
6.151328e+006	-3.074617e+001	8.551165e+001	-3.067666e+001	-1.658426e+001	-9.832737e+001	-5.282296e+001	-2.894349e+001	9.045040e+001
6.151367e+006	-3.073471e+001	8.540344e+001	-3.066552e+001	-1.661019e+001	-9.572610e+001	-7.549241e+001	-2.895471e+001	9.042281e+001
6.151406e+006	-3.072217e+001	8.539979e+001	-3.065785e+001	-1.659792e+001	-8.637561e+001	1.096653e+002	-2.894622e+001	9.039945e+001
6.151445e+006	-3.073688e+001	8.554828e+001	-3.068028e+001	-1.656204e+001	-9.281143e+001	-1.118923e+001	-2.894407e+001	9.046809e+001
6.151484e+006	-3.073217e+001	8.550804e+001	-3.067059e+001	-1.663626e+001	-9.753008e+001	-1.251570e+002	-2.895072e+001	9.042716e+001
6.151523e+006	-3.073646e+001	8.548762e+001	-3.066680e+001	-1.663589e+001	-9.497516e+001	-1.427812e+002	-2.894892e+001	9.044491e+001
6.151563e+006	-3.073644e+001	8.543617e+001	-3.066440e+001	-1.664327e+001	-1.065234e+002	-7.249807e+001	-2.894949e+001	9.042860e+001
6.151602e+006	-3.073036e+001	8.546742e+001	-3.067733e+001	-1.662968e+001	-9.310321e+001	1.116220e+002	-2.894052e+001	9.041535e+001
6.151641e+006	-3.073936e+001	8.546188e+001	-3.066840e+001	-1.657495e+001	-9.957686e+001	1.148985e+002	-2.894634e+001	9.049486e+001
6.151680e+006	-3.073428e+001	8.544379e+001	-3.066527e+001	-1.661426e+001	-8.936707e+001	3.481971e+001	-2.893831e+001	9.050388e+001
6.151719e+006	-3.073725e+001	8.546204e+001	-3.066924e+001	-1.659768e+001	-8.778325e+001	-2.142790e+001	-2.893964e+001	9.050099e+001
6.151758e+006	-3.072648e+001	8.544524e+001	-3.066812e+001	-1.654216e+001	-9.591832e+001	1.418483e+002	-2.894958e+001	9.052200e+001
6.151797e+006	-3.073349e+001	8.545716e+001	-3.066345e+001	-1.658075e+001	-1.027073e+002	1.886612e+001	-2.894671e+001	9.045540e+001
6.151836e+006	-3.073773e+001	8.546427e+001	-3.067778e+001	-1.660287e+001	-9.489956e+001	-9.380899e+001	-2.894481e+001	9.041196e+001
6.151875e+006	-3.074037e+001	8.548585e+001	-3.066120e+001	-1.665141e+001	-9.771834e+001	-1.531874e+002	-2.894462e+001	9.050608e+001
6.151914e+006	-3.073160e+001	8.548268e+001	-3.066691e+001	-1.661574e+001	-1.016088e+002	1.241435e+001	-2.894598e+001	9.044641e+001
6.151953e+006	-3.073266e+001	8.547534e+001	-3.065892e+001	-1.656321e+001	-9.687035e+001	-1.395457e+002	-2.895281e+001	9.044386e+001
6.151992e+006	-3.073669e+001	8.540964e+001	-3.066256e+001	-1.664030e+001	-9.458578e+001	-1.139185e+002	-2.894524e+001	9.046324e+001
6.152031e+006	-3.073407e+001	8.547768e+001	-3.066922e+001	-1.663223e+001	-9.072358e+001	5.536648e+001	-2.895018e+001	9.047786e+001
6.152070e+006	-3.073260e+001	8.549965e+001	-3.066138e+001	-1.658998e+001	-1.037929e+002	7.240604e+001	-2.894308e+001	9.047690e+001
6.152109e+006	-3.073415e+001	8.546921e+001	-3.067358e+001	-1.657724e+001	-8.798034e+001	-1.400890e+002	-2.895750e+001	9.046840e+001
6.152148e+006	-3.073872e+001	8.549191e+001	-3.067504e+001	-1.659802e+001	-9.438961e+001	1.250520e+002	-2.894914e+001	9.047936e+001
6.152188e+006	-3.072991e+001	8.544219e+001	-3.066570e+001	-1.659660e+001	-8.615995e+001	1.464513e+002	-2.894908e+001	9.049408e+001
6.152227e+006	-3.073596e+001	8.547954e+001	-3.067665e+001	-1.656161e+001	-9.018022e+001	-1.555417e+002	-2.895428e+001	9.053072e+001
6.152266e+006	-3.072337e+001	8.546749e+001	-3.065699e+001	-1.663915e+001	-9.274938e+001	-2.286328e+001	-2.894764e+001	9.047463e+001
6.152305e+006	-3.073368e+001	8.550379e+001	-3.067471e+001	-1.659115e+001	-9.074481e+001	1.709048e+002	-2.894105e+001	9.048830e+001
6.152344e+006	-3.073476e+001	8.544102e+001	-3.066395e+001	-1.659720e+001	-8.993378e+001	1.189465e+000	-2.895060e+001	9.047938e+001
6.152383e+006	-3.072723e+001	8.549046e+001	-3.066530e+001	-1.651058e+001	-1.015940e+002	1.205492e+002	-2.894054e+001	9.049128e+001
6.152422e+006	-3.072793e+001	8.548794e+001	-3.066437e+001	-1.662995e+001	-1.018578e+002	1.191093e+002	-2.894510e+001	9.048429e+001
6.152461e+006	-3.073197e+001	8.542516e+001	-3.066445e+001	-1.662217e+001	-1.050263e+002	1.293801e+002	-2.894171e+001	9.046935e+001
6.152500e+006	-3.073165e+001	8.552433e+001	-3.066455e+001	-1.661798e+001	-9.136519e+001	1.406831e+001	-2.894126e+001	9.043184e+001
6.152539e+006	-3.073260e+001	8.548888e+001	-3.066983e+001	-1.662576e+001	-8.574246e+001	9.884992e+001	-2.894672e+001	9.045698e+001
6.152578e+006	-3.072475e+001	8.557342e+001	-3.066531e+001	-1.656565e+001	-9.440484e+001	1.434063e+002	-2.894544e+001	9.051218e+001
6.152617e+006	-3.072530e+001	8.544867e+001	-3.066474e+001	-1.658754e+001	-9.548028e+001	-1.062610e+002	-2.894457e+001	9.051416e+001
6.152656e+006	-3.072531e+001	8.542964e+001	-3.067372e+001	-1.661828e+001	-1.082245e+002	-6.780286e+001	-2.894499e+001	9.045824e+001
6.152695e+006	-3.073521e+001	8.544332e+001	-3.067489e+001	-1.661296e+001	-8.997182e+001	-1.436879e+002	-2.894659e+001	9.053247e+001
6.152734e+006	-3.073272e+001	8.551754e+001	-3.066693e+001	-1.659743e+001	-9.406906e+001	1.685903e+001	-2.894617e+001	9.050063e+001
6.152773e+006	-3.073342e+001	8.545556e+001	-3.065974e+001	-1.657817e+001	-1.064416e+002	-4.793177e+001	-2.893701e+001	9.050475e+001
6.152813e+006	-3.073149e+001	8.545939e+001	-3.066219e+001	-1.665723e+001	-9.333762e+001	1.798874e+002	-2.896022e+001	9.053291e+001
6.152852e+006	-3.073896e+001	8.554058e+001	-3.066493e+001	-1.659443e+001	-9.296612e+001	1.668835e+002	-2.894332e+001	9.045553e+001
6.152891e+006	-3.072582e+001	8.548895e+001	-3.066447e+001	-1.668199e+001	-9.348198e+001	1.011609e+002	-2.894844e+001	9.049280e+001
6.152930e+006	-3.073154e+001	8.550138e+001	-3.066812e+001	-1.659182e+001	-9.744459e+001	-1.431473e+002	-2.894419e+001	9.054327e+001
6.152969e+006	-3.073042e+001	8.550535e+001	-3.066913e+001	-1.657011e+001	-9.549462e+001	6.700608e+001	-2.894910e+001	9.051483e+001
6.153008e+006	-3.073116e+001	8.547758e+001	-3.067030e+001	-1.660628e+001	-9.043706e+001	8.586387e+000	-2.894655e+001	9.047478e+001
6.153047e+006	-3.073289e+001	8.544057e+001	-3.066675e+001	-1.660446e+001	-9.142747e+001	-8.678405e+001	-2.894699e+001	9.057458e+001
6.153086e+006	-3.073608e+001	8.549481e+001	-3.066425e+001	-1.664850e+001	-9.309564e+001	6.632134e+001	-2.895038e+001	9.050104e+001
6.153125e+006	-3.073415e+001	8.554693e+001	-3.065759e+001	-1.660276e+001	-9.236482e+001	1.097585e+002	-2.894619e+001	9.042642e+001
6.153164e+006	-3.073761e+001	8.554480e+001	-3.066872e+001	-1.658252e+001	-8.889123e+001	1.018040e+002	-2.894343e+001	9.053728e+001
6.153203e+006	-3.072539e+001	8.553240e+001	-3.067572e+001	-1.663606e+001	-8.932080e+001	3.145888e+001	-2.894723e+001	9.051794e+001
6.153242e+006	-3.073681e+001	8.554090e+001	-3.066980e+001	-1.659255e+001	-1.020517e+002	1.106904e+002	-2.895079e+001	9.049697e+001
6.153281e+006	-3.073708e+001	8.550134e+001	-3.065205e+001	-1.658268e+001	-1.067843e+002	-1.443880e+002	-2.895454e+001	9.050737e+001
6.153320e+006	-3.074198e+001	8.551246e+001	-3.067254e+001	-1.663697e+001	-9.299746e+001	4.528956e+001	-2.894903e+001	9.051921e+001
6.153359e+006	-3.072746e+001	8.559760e+001	-3.066387e+001	-1.661775e+001	-1.041043e+002	5.156333e+001	-2.894681e+001	9.050144e+001
6.153398e+006	-3.073929e+001	8.552679e+001	-3.066788e+001	-1.662140e+001	-9.202381e+001	1.720846e+002	-2.894413e+001	9.047012e+001
6.153438e+006	-3.072918e+001	8.545132e+001	-3.067146e+001	-1.661854e+001	-9.549710e+001	-1.413039e+002	-2.894452e+001	9.051271e+001
6.153477e+006	-3.073180e+001	8.553299e+001	-3.066523e+001	-1.660167e+001	-9.408017e+001	3.619486e+001	-2.894756e+001	9.047881e+001
6.153516e+006	-3.073044e+001	8.553646e+001	-3.066361e+001	-1.664736e+001	-9.641108e+001	6.323091e+001	-2.893783e+001	9.050620e+001
6.153555e+006	-3.072683e+001	8.555324e+001	-3.066163e+001	-1.656257e+001	-9.917586e+001	-1.220698e+002	-2.893754e+001	9.050786e+001
6.153594e+006	-3.073534e+001	8.549520e+001	-3.066200e+001	-1.661080e+001	-9.360064e+001	6.587439e+001	-2.894781e+001	9.055721e+001
6.153633e+006	-3.073214e+001	8.556890e+001	-3.066730e+001	-1.656842e+001	-9.082639e+001	5.413292e+001	-2.894585e+001	9.052631e+001
6.153672e+006	-3.072948e+001	8.549181e+001	-3.066112e+001	-1.664488e+001	-8.836392e+001	-2.360308e-001	-2.894656e+001	9.047608e+001
6.153711e+006	-3.073627e+001	8.553431e+001	-3.066501e+001	-1.664634e+001	-8.794460e+001	1.316092e+002	-2.895571e+001	9.046401e+001
6.153750e+006	-3.073023e+001	8.552518e+001	-3.065536e+001	-1.659247e+001	-9.485160e+001	6.677430e+001	-2.894014e+001	9.054125e+001
6.153789e+006	-3.073393e+001	8.556686e+001	-3.066255e+001	-1.655636e+001	-1.048217e+002	1.047818e+002	-2.894674e+001	9.049122e+001
6.153828e+006	-3.073183e+001	8.550966e+001	-3.066039e+001	-1.654502e+001	-8.923797e+001	9.940668e+001	-2.894759e+001	9.048817e+001
6.153867e+006	-3.073217e+001	8.552303e+001	-3.066083e+001	-1.661768e+001	-9.351594e+001	2.139379e+001	-2.894167e+001	9.047928e+001
6.153906e+006	-3.073239e+001	8.554543e+001	-3.066835e+001	-1.656651e+001	-9.253207e+001	1.578782e+001	-2.894131e+001	9.054271e+001
6.153945e+006	-3.073732e+001	8.553162e+001	-3.066099e+001	-1.658823e+001	-9.651096e+001	1.793733e+001	-2.895040e+001	9.051004e+001
6.153984e+006	-3.073831e+001	8.547663e+001	-3.066578e+001	-1.662258e+001	-9.652102e+001	7.884338e+001	-2.894733e+001	9.052903e+001
6.154023e+006	-3.073517e+001	8.557948e+001	-3.066420e+001	-1.663407e+001	-9.311977e+001	9.681787e+001	-2.894245e+001	9.050601e+001
6.154063e+006	-3.073812e+001	8.547529e+001	-3.067605e+001	-1.656278e+001	-1.168251e+002	1.216802e+002	-2.894967e+001	9.052481e+001
6.154102e+006	-3.073688e+001	8.554672e+001	-3.066810e+001	-1.663625e+001	-9.791439e+001	-1.546343e+002	-2.894549e+001	9.049160e+001
6.154141e+006	-3.074029e+001	8.552751e+001	-3.065531e+001	-1.658036e+001	-9.153853e+001	-2.698478e+001	-2.894418e+001	9.047218e+001
6.154180e+006	-3.073206e+001	8.555299e+001	-3.065925e+001	-1.664740e+001	-8.628153e+001	6.703607e+000	-2.894759e+001	9.049653e+001
6.154219e+006	-3.073143e+001	8.554052e+001	-3.066520e+001	-1.656369e+001	-9.770045e+001	4.890787e+001	-2.894888e+001	9.056201e+001
6.154258e+006	-3.074108e+001	8.560292e+001	-3.066044e+001	-1.664501e+001	-9.361980e+001	1.499848e+002	-2.894274e+001	9.056108e+001
6.154297e+006	-3.073006e+001	8.556237e+001	-3.064493e+001	-1.660172e+001	-8.807897e+001	9.989268e+001	-2.893326e+001	9.054845e+001
6.154336e+006	-3.074192e+001	8.552535e+001	-3.067039e+001	-1.659663e+001	-8.991986e+001	7.522891e+001	-2.894190e+001	9.050074e+001
6.154375e+006	-3.073815e+001	8.554889e+001	-3.065729e+001	-1.656573e+001	-8.618655e+001	1.260441e+002	-2.895328e+001	9.050056e+001
6.154414e+006	-3.073695e+001	8.554343e+001	-3.066525e+001	-1.663346e+001	-9.999611e+001	5.627112e+001	-2.894787e+001	9.048654e+001
6.154453e+006	-3.073599e+001	8.550242e+001	-3.066606e+001	-1.663151e+001	-9.652174e+001	9.217998e+001	-2.894664e+001	9.051166e+001
6.154492e+006	-3.073305e+001	8.557178e+001	-3.066396e+001	-1.660743e+001	-9.518067e+001	-7.560310e+001	-2.894558e+001	9.050667e+001
6.154531e+006	-3.073567e+001	8.559916e+001	-3.065749e+001	-1.664180e+001	-9.024917e+001	8.774844e+001	-2.894618e+001	9.053906e+001
6.154570e+006	-3.073298e+001	8.556302e+001	-3.064998e+001	-1.664753e+001	-9.811161e+001	-4.761131e+001	-2.894027e+001	9.051512e+001
6.154609e+006	-3.072560e+001	8.560821e+001	-3.066272e+001	-1.665667e+001	-9.208582e+001	6.373188e+001	-2.894402e+001	9.049868e+001
6.154648e+006	-3.073377e+001	8.550925e+001	-3.066342e+001	-1.660985e+001	-1.003311e+002	-7.100220e+001	-2.895477e+001	9.054747e+001
6.154688e+006	-3.073081e+001	8.556597e+001	-3.067065e+001	-1.662447e+001	-9.835072e+001	5.883981e+001	-2.895540e+001	9.053910e+001
6.154727e+006	-3.073637e+001	8.560391e+001	-3.066824e+001	-1.668551e+001	-9.572800e+001	9.094870e+000	-2.895145e+001	9.047651e+001
6.154766e+006	-3.073562e+001	8.555471e+001	-3.066432e+001	-1.662514e+001	-9.038108e+001	6.260370e+001	-2.894207e+001	9.054411e+001
6.154805e+006	-3.073021e+001	8.561018e+001	-3.066816e+001	-1.658739e+001	-9.131879e+001	-8.251778e+001	-2.895023e+001	9.055535e+001
6.154844e+006	-3.072250e+001	8.553384e+001	-3.066016e+001	-1.653677e+001	-8.789714e+001	5.461074e+001	-2.895141e+001	9.056116e+001
6.154883e+006	-3.073402e+001	8.557869e+001	-3.066035e+001	-1.661485e+001	-9.422304e+001	1.479499e+002	-2.894755e+001	9.052311e+001
6.154922e+006	-3.073878e+001	8.548510e+001	-3.066555e+001	-1.666007e+001	-9.609843e+001	1.692973e+002	-2.895064e+001	9.049173e+001
6.154961e+006	-3.073555e+001	8.555102e+001	-3.066183e+001	-1.660044e+001	-9.354640e+001	2.296902e+001	-2.895114e+001	9.057131e+001
6.155000e+006	-3.073336e+001	8.551242e+001	-3.066152e+001	-1.661141e+001	-1.008753e+002	8.880880e+001	-2.894793e+001	9.047280e+001
6.155039e+006	-3.074004e+001	8.559203e+001	-3.066634e+001	-1.657862e+001	-9.936552e+001	1.091721e+002	-2.894554e+001	9.054536e+001
6.155078e+006	-3.074014e+001	8.552628e+001	-3.066650e+001	-1.661281e+001	-9.618284e+001	2.013873e+001	-2.894300e+001	9.049798e+001
6.155117e+006	-3.073849e+001	8.557201e+001	-3.067159e+001	-1.665405e+001	-9.216204e+001	-1.707747e+002	-2.895295e+001	9.048793e+001
6.155156e+006	-3.073688e+001	8.556496e+001	-3.066821e+001	-1.660516e+001	-8.957211e+001	-7.074211e+000	-2.894174e+001	9.054172e+001
6.155195e+006	-3.073504e+001	8.555214e+001	-3.066333e+001	-1.660352e+001	-9.019513e+001	-2.810054e+001	-2.894677e+001	9.052022e+001
6.155234e+006	-3.073415e+001	8.553520e+001	-3.065517e+001	-1.659841e+001	-8.870247e+001	6.338510e+001	-2.894845e+001	9.052841e+001
6.155273e+006	-3.072690e+001	8.554747e+001	-3.065680e+001	-1.660349e+001	-9.400604e+001	1.231592e+002	-2.894023e+001	9.055205e+001
6.155313e+006	-3.074302e+001	8.553598e+001	-3.065915e+001	-1.664676e+001	-9.458387e+001	4.316303e+001	-2.894245e+001	9.054937e+001
6.155352e+006	-3.073452e+001	8.555930e+001	-3.065506e+001	-1.665072e+001	-9.867739e+001	-1.161583e+002	-2.895087e+001	9.053776e+001
6.155391e+006	-3.072945e+001	8.554901e+001	-3.066035e+001	-1.665717e+001	-8.977121e+001	8.228464e+001	-2.895341e+001	9.051760e+001
6.155430e+006	-3.073292e+001	8.555941e+001	-3.066585e+001	-1.663710e+001	-8.543660e+001	7.091499e+001	-2.895228e+001	9.055598e+001
6.155469e+006	-3.072370e+001	8.555832e+001	-3.066631e+001	-1.669407e+001	-8.814450e+001	1.295663e+002	-2.894485e+001	9.056646e+001
6.155508e+006	-3.074362e+001	8.561608e+001	-3.066418e+001	-1.665423e+001	-9.673246e+001	5.006353e+001	-2.894402e+001	9.052218e+001
6.155547e+006	-3.073207e+001	8.552539e+001	-3.065799e+001	-1.659219e+001	-8.668705e+001	9.522473e+001	-2.894369e+001	9.056070e+001
6.155586e+006	-3.073612e+001	8.555740e+001	-3.066033e+001	-1.661400e+001	-1.076422e+002	-1.106643e+002	-2.894951e+001	9.056665e+001
6.155625e+006	-3.073932e+001	8.557272e+001	-3.067419e+001	-1.659829e+001	-1.108754e+002	1.358838e+001	-2.895400e+001	9.057207e+001
6.155664e+006	-3.073998e+001	8.554178e+001	-3.065767e+001	-1.663519e+001	-9.223705e+001	-3.783423e+001	-2.895296e+001	9.052427e+001
6.155703e+006	-3.073419e+001	8.551925e+001	-3.065667e+001	-1.663684e+001	-8.817516e+001	-1.096870e+002	-2.894666e+001	9.052524e+001
6.155742e+006	-3.073417e+001	8.554790e+001	-3.065789e+001	-1.661444e+001	-8.782782e+001	7.613780e+001	-2.895218e+001	9.050306e+001
6.155781e+006	-3.073633e+001	8.554422e+001	-3.066741e+001	-1.665595e+001	-9.001539e+001	1.394587e+002	-2.894161e+001	9.056349e+001
