!CETC41,AV3656A,ZGL00048,1.3.2
!Calibration ON (Full Solt 2-Port(Omit Isolation))
!Measurements: S11 S21 S12 S22
!2025-04-18 02:01
# Hz  S  dB  R 50.000
6.150000e+006	-3.081470e+001	8.513057e+001	-3.067201e+001	-1.733672e+001	-1.051118e+002	1.060813e+002	-2.890696e+001	9.109102e+001
6.150039e+006	-3.082124e+001	8.513795e+001	-3.066973e+001	-1.741241e+001	-9.077360e+001	1.549510e+002	-2.889999e+001	9.110151e+001
6.150078e+006	-3.082204e+001	8.516697e+001	-3.067440e+001	-1.735634e+001	-9.422205e+001	1.660787e+002	-2.889551e+001	9.106151e+001
6.150117e+006	-3.081758e+001	8.516101e+001	-3.067233e+001	-1.740869e+001	-8.781071e+001	7.299489e+001	-2.889796e+001	9.108093e+001
6.150156e+006	-3.082755e+001	8.513455e+001	-3.067041e+001	-1.736182e+001	-9.331653e+001	1.212909e+002	-2.889740e+001	9.106047e+001
6.150195e+006	-3.081552e+001	8.518442e+001	-3.067114e+001	-1.732474e+001	-9.562021e+001	1.392382e+001	-2.890236e+001	9.107013e+001
6.150234e+006	-3.081828e+001	8.520870e+001	-3.068261e+001	-1.732198e+001	-8.804099e+001	-3.751685e+001	-2.890009e+001	9.105927e+001
6.150273e+006	-3.082144e+001	8.516053e+001	-3.068451e+001	-1.736473e+001	-9.774772e+001	1.172884e+002	-2.890321e+001	9.110398e+001
6.150313e+006	-3.081923e+001	8.519481e+001	-3.066512e+001	-1.735338e+001	-9.424953e+001	-1.464143e+002	-2.889815e+001	9.114536e+001
6.150352e+006	-3.082333e+001	8.520488e+001	-3.066660e+001	-1.736099e+001	-1.023443e+002	1.046759e+002	-2.890626e+001	9.113822e+001
6.150391e+006	-3.081575e+001	8.516399e+001	-3.068103e+001	-1.729134e+001	-9.192229e+001	1.211496e+002	-2.890165e+001	9.112034e+001
6.150430e+006	-3.080978e+001	8.518197e+001	-3.067422e+001	-1.738686e+001	-8.956715e+001	1.523456e+002	-2.890068e+001	9.110759e+001
6.150469e+006	-3.082009e+001	8.521351e+001	-3.067152e+001	-1.742128e+001	-8.853501e+001	6.672157e+001	-2.890199e+001	9.112407e+001
6.150508e+006	-3.081696e+001	8.517377e+001	-3.066308e+001	-1.736837e+001	-8.949863e+001	-5.592662e+001	-2.890092e+001	9.111378e+001
6.150547e+006	-3.081953e+001	8.521468e+001	-3.067192e+001	-1.735587e+001	-9.372422e+001	1.499219e+002	-2.890329e+001	9.111531e+001
6.150586e+006	-3.082276e+001	8.518090e+001	-3.068026e+001	-1.736617e+001	-8.860468e+001	3.978328e+001	-2.889776e+001	9.107702e+001
6.150625e+006	-3.081733e+001	8.510863e+001	-3.067541e+001	-1.735746e+001	-9.221881e+001	-7.133729e+001	-2.889934e+001	9.115574e+001
6.150664e+006	-3.081747e+001	8.516274e+001	-3.066652e+001	-1.731091e+001	-8.886068e+001	7.308977e+001	-2.890530e+001	9.107798e+001
6.150703e+006	-3.082140e+001	8.522507e+001	-3.067594e+001	-1.737508e+001	-9.184259e+001	-1.715672e+002	-2.889938e+001	9.113708e+001
6.150742e+006	-3.082720e+001	8.518509e+001	-3.066607e+001	-1.734585e+001	-9.276692e+001	3.998766e+000	-2.890347e+001	9.111862e+001
6.150781e+006	-3.082273e+001	8.521536e+001	-3.067373e+001	-1.738853e+001	-9.250128e+001	7.760843e+001	-2.890444e+001	9.109677e+001
6.150820e+006	-3.081347e+001	8.517187e+001	-3.067386e+001	-1.740477e+001	-9.657540e+001	1.146202e+002	-2.889646e+001	9.116235e+001
6.150859e+006	-3.082134e+001	8.522878e+001	-3.067112e+001	-1.738147e+001	-9.155180e+001	7.609052e+001	-2.890501e+001	9.114423e+001
6.150898e+006	-3.082214e+001	8.520420e+001	-3.066993e+001	-1.732131e+001	-1.066902e+002	1.256840e+002	-2.889678e+001	9.112323e+001
6.150938e+006	-3.081958e+001	8.520300e+001	-3.067655e+001	-1.743433e+001	-9.322676e+001	1.070147e+002	-2.889984e+001	9.110203e+001
6.150977e+006	-3.081620e+001	8.512346e+001	-3.066989e+001	-1.736203e+001	-9.325180e+001	5.393485e+001	-2.889927e+001	9.114912e+001
6.151016e+006	-3.081449e+001	8.518558e+001	-3.068134e+001	-1.736868e+001	-9.279410e+001	8.315612e+001	-2.889259e+001	9.108937e+001
6.151055e+006	-3.082427e+001	8.524139e+001	-3.067933e+001	-1.732675e+001	-9.406378e+001	9.657937e+001	-2.889800e+001	9.110475e+001
6.151094e+006	-3.082116e+001	8.513833e+001	-3.068392e+001	-1.737428e+001	-9.102207e+001	1.042077e+002	-2.889826e+001	9.107471e+001
6.151133e+006	-3.081973e+001	8.516108e+001	-3.067876e+001	-1.737975e+001	-9.722880e+001	2.402429e+001	-2.890416e+001	9.110721e+001
6.151172e+006	-3.081763e+001	8.521798e+001	-3.067778e+001	-1.740610e+001	-9.541716e+001	-7.654789e+001	-2.889923e+001	9.113223e+001
6.151211e+006	-3.081875e+001	8.525781e+001	-3.067219e+001	-1.739731e+001	-9.355879e+001	5.582624e+001	-2.890236e+001	9.115337e+001
6.151250e+006	-3.082873e+001	8.521459e+001	-3.067112e+001	-1.739293e+001	-9.694223e+001	-1.413688e+002	-2.890248e+001	9.114487e+001
6.151289e+006	-3.082135e+001	8.518466e+001	-3.065972e+001	-1.729577e+001	-1.061533e+002	7.129189e+001	-2.890239e+001	9.111599e+001
6.151328e+006	-3.082482e+001	8.521062e+001	-3.067666e+001	-1.739404e+001	-8.499460e+001	2.155603e+001	-2.889869e+001	9.111173e+001
6.151367e+006	-3.082173e+001	8.522186e+001	-3.067017e+001	-1.735637e+001	-8.700073e+001	-9.703889e+001	-2.890859e+001	9.110699e+001
6.151406e+006	-3.082104e+001	8.515988e+001	-3.066852e+001	-1.733595e+001	-9.555159e+001	-1.760637e+002	-2.888916e+001	9.112193e+001
6.151445e+006	-3.081162e+001	8.520364e+001	-3.066552e+001	-1.734172e+001	-9.406600e+001	-1.685566e+002	-2.890073e+001	9.112638e+001
6.151484e+006	-3.081741e+001	8.529122e+001	-3.069024e+001	-1.736328e+001	-9.385447e+001	-1.268876e+002	-2.889977e+001	9.115258e+001
6.151523e+006	-3.081985e+001	8.517475e+001	-3.066005e+001	-1.739326e+001	-9.377579e+001	8.866238e+001	-2.890200e+001	9.115070e+001
6.151563e+006	-3.081376e+001	8.516959e+001	-3.066615e+001	-1.736403e+001	-9.262016e+001	9.050527e+001	-2.889789e+001	9.114547e+001
6.151602e+006	-3.082848e+001	8.520903e+001	-3.067011e+001	-1.742554e+001	-9.410915e+001	6.062949e+000	-2.890270e+001	9.116395e+001
6.151641e+006	-3.081935e+001	8.517777e+001	-3.066728e+001	-1.736122e+001	-9.714568e+001	-2.407247e+001	-2.889831e+001	9.114747e+001
6.151680e+006	-3.082123e+001	8.521990e+001	-3.066106e+001	-1.733795e+001	-9.863186e+001	1.563652e+001	-2.890437e+001	9.111304e+001
6.151719e+006	-3.081732e+001	8.519133e+001	-3.066201e+001	-1.738351e+001	-9.841183e+001	-1.685424e+002	-2.889419e+001	9.109579e+001
6.151758e+006	-3.082365e+001	8.526916e+001	-3.066554e+001	-1.731853e+001	-1.137442e+002	1.797676e+002	-2.890109e+001	9.111295e+001
6.151797e+006	-3.081276e+001	8.523401e+001	-3.067782e+001	-1.738134e+001	-9.395592e+001	1.673499e+002	-2.889233e+001	9.117181e+001
6.151836e+006	-3.082421e+001	8.525891e+001	-3.066531e+001	-1.737342e+001	-1.022590e+002	-1.669522e+002	-2.889623e+001	9.112754e+001
6.151875e+006	-3.081467e+001	8.523756e+001	-3.066947e+001	-1.740427e+001	-9.179327e+001	-1.660202e+002	-2.891268e+001	9.115657e+001
6.151914e+006	-3.081529e+001	8.521555e+001	-3.066039e+001	-1.737278e+001	-9.508264e+001	3.359726e+001	-2.890532e+001	9.117046e+001
6.151953e+006	-3.082299e+001	8.524909e+001	-3.066059e+001	-1.736436e+001	-9.000544e+001	-3.930909e+001	-2.889818e+001	9.116106e+001
6.151992e+006	-3.082048e+001	8.519736e+001	-3.066325e+001	-1.744239e+001	-1.173595e+002	6.740149e+001	-2.890210e+001	9.110961e+001
6.152031e+006	-3.081625e+001	8.518729e+001	-3.067083e+001	-1.734061e+001	-9.272668e+001	1.015375e+002	-2.890498e+001	9.111729e+001
6.152070e+006	-3.082193e+001	8.518851e+001	-3.066478e+001	-1.740636e+001	-9.538283e+001	9.230003e+001	-2.890611e+001	9.112432e+001
6.152109e+006	-3.081973e+001	8.522067e+001	-3.067059e+001	-1.742003e+001	-9.446359e+001	-7.177266e+001	-2.890714e+001	9.113118e+001
6.152148e+006	-3.082217e+001	8.524618e+001	-3.066568e+001	-1.729521e+001	-9.689783e+001	1.168042e+002	-2.889712e+001	9.107875e+001
6.152188e+006	-3.081652e+001	8.519702e+001	-3.067753e+001	-1.737157e+001	-9.246863e+001	4.746519e+001	-2.890191e+001	9.113098e+001
6.152227e+006	-3.081792e+001	8.515989e+001	-3.067132e+001	-1.741036e+001	-9.079044e+001	1.331807e+002	-2.890503e+001	9.114141e+001
6.152266e+006	-3.081680e+001	8.522790e+001	-3.067263e+001	-1.740075e+001	-9.917337e+001	1.246050e+002	-2.889751e+001	9.109676e+001
6.152305e+006	-3.082608e+001	8.526704e+001	-3.067011e+001	-1.746875e+001	-8.949872e+001	4.893747e+001	-2.890692e+001	9.116500e+001
6.152344e+006	-3.082491e+001	8.525304e+001	-3.067101e+001	-1.740704e+001	-9.123380e+001	-9.826471e+000	-2.890232e+001	9.113946e+001
6.152383e+006	-3.082081e+001	8.519597e+001	-3.066729e+001	-1.732599e+001	-9.202155e+001	1.494530e+002	-2.889995e+001	9.114968e+001
6.152422e+006	-3.082054e+001	8.527497e+001	-3.067860e+001	-1.738418e+001	-9.291420e+001	7.884017e+001	-2.889989e+001	9.113714e+001
6.152461e+006	-3.081952e+001	8.520763e+001	-3.066910e+001	-1.735761e+001	-8.439787e+001	7.769857e+001	-2.890388e+001	9.112957e+001
6.152500e+006	-3.081754e+001	8.521522e+001	-3.065818e+001	-1.740252e+001	-9.053423e+001	3.551271e+001	-2.890322e+001	9.117583e+001
6.152539e+006	-3.082083e+001	8.525542e+001	-3.067127e+001	-1.735559e+001	-1.045311e+002	-5.382917e+001	-2.890280e+001	9.112226e+001
6.152578e+006	-3.081195e+001	8.520135e+001	-3.066803e+001	-1.733028e+001	-1.039390e+002	-1.312545e+001	-2.889642e+001	9.109236e+001
6.152617e+006	-3.082488e+001	8.527214e+001	-3.066913e+001	-1.736992e+001	-9.692586e+001	1.786371e+002	-2.890250e+001	9.112821e+001
6.152656e+006	-3.083049e+001	8.523659e+001	-3.067048e+001	-1.740798e+001	-9.745610e+001	-1.108281e+002	-2.891050e+001	9.118635e+001
6.152695e+006	-3.081635e+001	8.527549e+001	-3.065994e+001	-1.738540e+001	-9.366411e+001	-9.835713e+001	-2.889623e+001	9.116504e+001
6.152734e+006	-3.081297e+001	8.515529e+001	-3.065351e+001	-1.742811e+001	-9.494285e+001	-1.606472e+002	-2.890410e+001	9.118162e+001
6.152773e+006	-3.082663e+001	8.524086e+001	-3.065876e+001	-1.737512e+001	-1.008781e+002	-2.016553e+001	-2.890273e+001	9.114820e+001
6.152813e+006	-3.082028e+001	8.525952e+001	-3.066978e+001	-1.740056e+001	-1.028608e+002	-4.192539e+001	-2.890340e+001	9.120535e+001
6.152852e+006	-3.082406e+001	8.519935e+001	-3.067433e+001	-1.743067e+001	-1.004403e+002	-1.420515e+002	-2.889970e+001	9.118814e+001
6.152891e+006	-3.081387e+001	8.527408e+001	-3.067542e+001	-1.748338e+001	-9.423230e+001	2.639031e+001	-2.890661e+001	9.116830e+001
6.152930e+006	-3.082023e+001	8.524686e+001	-3.067452e+001	-1.733062e+001	-8.590966e+001	1.082688e+002	-2.890995e+001	9.112392e+001
6.152969e+006	-3.081793e+001	8.519749e+001	-3.066562e+001	-1.735665e+001	-9.095599e+001	6.984415e+001	-2.890027e+001	9.114680e+001
6.153008e+006	-3.082918e+001	8.522998e+001	-3.067065e+001	-1.731690e+001	-9.121654e+001	1.455593e+002	-2.889480e+001	9.114169e+001
6.153047e+006	-3.082392e+001	8.522914e+001	-3.066246e+001	-1.743074e+001	-9.540544e+001	-8.077719e+001	-2.890222e+001	9.117503e+001
6.153086e+006	-3.082076e+001	8.529684e+001	-3.067343e+001	-1.743099e+001	-9.505547e+001	-6.504516e+001	-2.890882e+001	9.118184e+001
6.153125e+006	-3.081192e+001	8.527018e+001	-3.066538e+001	-1.734008e+001	-9.630351e+001	9.184980e+001	-2.890358e+001	9.114053e+001
6.153164e+006	-3.082258e+001	8.527173e+001	-3.066787e+001	-1.738947e+001	-8.865763e+001	3.173196e+001	-2.890416e+001	9.121834e+001
6.153203e+006	-3.081242e+001	8.520190e+001	-3.067452e+001	-1.740237e+001	-1.152199e+002	-4.965310e+001	-2.890878e+001	9.113199e+001
6.153242e+006	-3.081983e+001	8.528490e+001	-3.067462e+001	-1.738139e+001	-9.613102e+001	4.278690e+001	-2.890390e+001	9.115583e+001
6.153281e+006	-3.082224e+001	8.526776e+001	-3.067883e+001	-1.735356e+001	-9.669341e+001	1.316685e+002	-2.889754e+001	9.107640e+001
6.153320e+006	-3.082064e+001	8.525987e+001	-3.067224e+001	-1.730531e+001	-9.570041e+001	-2.426228e+000	-2.890011e+001	9.119629e+001
6.153359e+006	-3.082496e+001	8.524911e+001	-3.067644e+001	-1.738248e+001	-9.464367e+001	1.350531e+002	-2.890145e+001	9.118201e+001
6.153398e+006	-3.081000e+001	8.524493e+001	-3.066642e+001	-1.742095e+001	-9.783642e+001	1.427137e+002	-2.890687e+001	9.111656e+001
6.153438e+006	-3.082404e+001	8.516088e+001	-3.067008e+001	-1.735598e+001	-9.555913e+001	-1.092109e+002	-2.890485e+001	9.114806e+001
6.153477e+006	-3.080832e+001	8.529096e+001	-3.066892e+001	-1.739509e+001	-1.038845e+002	7.666125e+001	-2.890116e+001	9.118147e+001
6.153516e+006	-3.081924e+001	8.521891e+001	-3.065764e+001	-1.740846e+001	-9.920608e+001	7.398064e+001	-2.890393e+001	9.113061e+001
6.153555e+006	-3.081831e+001	8.520182e+001	-3.065758e+001	-1.735522e+001	-8.580734e+001	1.512957e+001	-2.889744e+001	9.112899e+001
6.153594e+006	-3.082416e+001	8.532013e+001	-3.066818e+001	-1.736436e+001	-9.030498e+001	1.323477e+001	-2.890837e+001	9.120342e+001
6.153633e+006	-3.083084e+001	8.529686e+001	-3.066998e+001	-1.740824e+001	-9.775883e+001	6.884313e+001	-2.889966e+001	9.118755e+001
6.153672e+006	-3.082609e+001	8.528481e+001	-3.067401e+001	-1.738275e+001	-9.386129e+001	1.226995e+002	-2.889746e+001	9.116752e+001
6.153711e+006	-3.082731e+001	8.523810e+001	-3.066366e+001	-1.737155e+001	-9.090162e+001	-7.698794e+001	-2.890634e+001	9.117203e+001
6.153750e+006	-3.082677e+001	8.522126e+001	-3.067317e+001	-1.738020e+001	-9.321804e+001	-6.273756e+001	-2.890900e+001	9.110599e+001
6.153789e+006	-3.081828e+001	8.521911e+001	-3.065859e+001	-1.737070e+001	-8.942504e+001	6.969864e+001	-2.890329e+001	9.115163e+001
6.153828e+006	-3.081728e+001	8.529917e+001	-3.064882e+001	-1.736203e+001	-8.941144e+001	8.349900e+001	-2.891004e+001	9.117262e+001
6.153867e+006	-3.081893e+001	8.523496e+001	-3.066969e+001	-1.741016e+001	-1.009815e+002	7.405662e+001	-2.890716e+001	9.116932e+001
6.153906e+006	-3.082595e+001	8.523757e+001	-3.067289e+001	-1.737768e+001	-1.040844e+002	8.453294e+001	-2.890156e+001	9.113278e+001
6.153945e+006	-3.082305e+001	8.527364e+001	-3.066982e+001	-1.734685e+001	-9.205740e+001	1.279055e+002	-2.890132e+001	9.116654e+001
6.153984e+006	-3.081466e+001	8.524346e+001	-3.065596e+001	-1.739608e+001	-8.684470e+001	9.429432e+001	-2.889917e+001	9.113455e+001
6.154023e+006	-3.082634e+001	8.528643e+001	-3.067352e+001	-1.732529e+001	-8.675428e+001	7.812326e+001	-2.890946e+001	9.116231e+001
6.154063e+006	-3.082147e+001	8.525784e+001	-3.066471e+001	-1.742225e+001	-9.618758e+001	-1.501824e+002	-2.889946e+001	9.122122e+001
6.154102e+006	-3.082216e+001	8.525871e+001	-3.065839e+001	-1.740883e+001	-9.194655e+001	-5.733985e+001	-2.889559e+001	9.121085e+001
6.154141e+006	-3.082453e+001	8.524852e+001	-3.066171e+001	-1.745625e+001	-9.490709e+001	-1.754894e+002	-2.890393e+001	9.113371e+001
6.154180e+006	-3.082097e+001	8.529733e+001	-3.067353e+001	-1.740728e+001	-1.016998e+002	-1.837473e-001	-2.890840e+001	9.116957e+001
6.154219e+006	-3.082069e+001	8.529639e+001	-3.066956e+001	-1.736542e+001	-9.083134e+001	1.730124e+002	-2.890484e+001	9.111135e+001
6.154258e+006	-3.081963e+001	8.527436e+001	-3.066835e+001	-1.735932e+001	-8.931462e+001	-9.663387e+001	-2.890746e+001	9.114486e+001
6.154297e+006	-3.081738e+001	8.527031e+001	-3.066729e+001	-1.736196e+001	-8.828963e+001	1.297991e+002	-2.890705e+001	9.117670e+001
6.154336e+006	-3.083068e+001	8.521229e+001	-3.067321e+001	-1.735989e+001	-9.911277e+001	6.186644e+001	-2.890179e+001	9.122753e+001
6.154375e+006	-3.082139e+001	8.526595e+001	-3.065536e+001	-1.737418e+001	-8.958446e+001	1.613294e+002	-2.890097e+001	9.118094e+001
6.154414e+006	-3.082170e+001	8.524817e+001	-3.066192e+001	-1.737629e+001	-1.035974e+002	-1.515660e+002	-2.889671e+001	9.117133e+001
6.154453e+006	-3.082611e+001	8.526315e+001	-3.067474e+001	-1.739838e+001	-9.645307e+001	-1.797416e+002	-2.889687e+001	9.120468e+001
6.154492e+006	-3.081952e+001	8.519212e+001	-3.066775e+001	-1.741160e+001	-1.054294e+002	1.455790e+002	-2.890192e+001	9.121462e+001
6.154531e+006	-3.083231e+001	8.526731e+001	-3.066294e+001	-1.737078e+001	-9.760988e+001	-4.259223e+001	-2.890093e+001	9.116087e+001
6.154570e+006	-3.083263e+001	8.528522e+001	-3.066982e+001	-1.734840e+001	-9.459674e+001	-8.840722e+001	-2.891283e+001	9.118308e+001
6.154609e+006	-3.082111e+001	8.525405e+001	-3.066511e+001	-1.736612e+001	-1.002093e+002	-8.914529e+001	-2.890697e+001	9.128379e+001
6.154648e+006	-3.082159e+001	8.520489e+001	-3.067286e+001	-1.730859e+001	-8.881430e+001	1.726896e+002	-2.890482e+001	9.120040e+001
6.154688e+006	-3.081808e+001	8.533316e+001	-3.067129e+001	-1.738514e+001	-1.249313e+002	-7.562474e+001	-2.890304e+001	9.116090e+001
6.154727e+006	-3.082435e+001	8.527553e+001	-3.067026e+001	-1.734825e+001	-8.874931e+001	1.294483e+002	-2.890455e+001	9.118173e+001
6.154766e+006	-3.081421e+001	8.531639e+001	-3.066756e+001	-1.738420e+001	-9.458397e+001	1.310720e+002	-2.890546e+001	9.116486e+001
6.154805e+006	-3.082945e+001	8.530245e+001	-3.066344e+001	-1.739545e+001	-9.064157e+001	1.586716e+002	-2.890524e+001	9.117880e+001
6.154844e+006	-3.082476e+001	8.531808e+001	-3.067838e+001	-1.736382e+001	-9.714647e+001	-9.178827e+001	-2.890778e+001	9.115791e+001
6.154883e+006	-3.081308e+001	8.532181e+001	-3.066582e+001	-1.737098e+001	-1.003149e+002	-2.490614e+001	-2.890125e+001	9.118382e+001
6.154922e+006	-3.082475e+001	8.526102e+001	-3.066847e+001	-1.735668e+001	-1.018600e+002	-1.618399e+002	-2.889823e+001	9.119442e+001
6.154961e+006	-3.082524e+001	8.530247e+001	-3.066027e+001	-1.736648e+001	-9.308929e+001	1.430567e+002	-2.890732e+001	9.115550e+001
6.155000e+006	-3.081490e+001	8.529465e+001	-3.067274e+001	-1.743223e+001	-9.158041e+001	2.808530e+001	-2.890421e+001	9.117738e+001
6.155039e+006	-3.081823e+001	8.536320e+001	-3.065943e+001	-1.739263e+001	-9.375949e+001	1.538716e+002	-2.889440e+001	9.116064e+001
6.155078e+006	-3.082785e+001	8.524720e+001	-3.067367e+001	-1.736065e+001	-9.503204e+001	-9.959488e+001	-2.889781e+001	9.126877e+001
6.155117e+006	-3.082529e+001	8.532206e+001	-3.066425e+001	-1.737628e+001	-1.045091e+002	-9.049756e+001	-2.889204e+001	9.121431e+001
6.155156e+006	-3.082498e+001	8.534554e+001	-3.066882e+001	-1.742570e+001	-1.054943e+002	-4.902431e+001	-2.890007e+001	9.122256e+001
6.155195e+006	-3.082062e+001	8.531272e+001	-3.065875e+001	-1.737646e+001	-9.627457e+001	1.394931e+002	-2.889978e+001	9.121324e+001
6.155234e+006	-3.082335e+001	8.530658e+001	-3.066587e+001	-1.747515e+001	-9.160568e+001	-1.789716e+002	-2.890198e+001	9.124961e+001
6.155273e+006	-3.081822e+001	8.527997e+001	-3.066047e+001	-1.736787e+001	-9.081291e+001	6.418599e+001	-2.889843e+001	9.118013e+001
6.155313e+006	-3.082837e+001	8.537321e+001	-3.066754e+001	-1.741403e+001	-9.102868e+001	-1.727826e+002	-2.890654e+001	9.113972e+001
6.155352e+006	-3.082880e+001	8.528439e+001	-3.067271e+001	-1.737229e+001	-9.513749e+001	-1.200655e+001	-2.890548e+001	9.121489e+001
6.155391e+006	-3.083361e+001	8.532559e+001	-3.066206e+001	-1.742604e+001	-9.986996e+001	5.628347e+001	-2.890717e+001	9.120530e+001
6.155430e+006	-3.082495e+001	8.535118e+001	-3.065667e+001	-1.731899e+001	-9.485925e+001	-1.029755e+002	-2.890928e+001	9.122955e+001
6.155469e+006	-3.082589e+001	8.535272e+001	-3.066545e+001	-1.736013e+001	-9.009988e+001	9.731679e+001	-2.891013e+001	9.123155e+001
6.155508e+006	-3.082420e+001	8.528213e+001	-3.066444e+001	-1.734828e+001	-9.561054e+001	-4.449370e+001	-2.890481e+001	9.118777e+001
6.155547e+006	-3.082591e+001	8.530079e+001	-3.065896e+001	-1.739994e+001	-1.002732e+002	-9.990838e+001	-2.890070e+001	9.119813e+001
6.155586e+006	-3.082718e+001	8.528786e+001	-3.064475e+001	-1.740021e+001	-8.782367e+001	5.227421e+001	-2.890482e+001	9.119275e+001
6.155625e+006	-3.082283e+001	8.531089e+001	-3.065999e+001	-1.738333e+001	-9.737112e+001	-1.710457e+002	-2.890958e+001	9.124581e+001
6.155664e+006	-3.082124e+001	8.530494e+001	-3.066427e+001	-1.734177e+001	-9.283749e+001	-4.946936e+001	-2.890910e+001	9.122645e+001
6.155703e+006	-3.082291e+001	8.530167e+001	-3.066190e+001	-1.746699e+001	-1.101756e+002	-1.370724e+002	-2.890487e+001	9.120896e+001
6.155742e+006	-3.082193e+001	8.529018e+001	-3.066534e+001	-1.735298e+001	-9.646010e+001	1.223691e+002	-2.890769e+001	9.119988e+001
6.155781e+006	-3.081593e+001	8.530937e+001	-3.066655e+001	-1.743872e+001	-9.337529e+001	-4.035622e+001	-2.890411e+001	9.123198e+001
