!CETC41,AV3656A,ZGL00048,1.3.2
!Calibration ON (Full Solt 2-Port(Omit Isolation))
!Measurements: S11 S21 S12 S22
!2025-04-22 21:57
# Hz  S  dB  R 50.000
9.990000e+006	-4.450829e+001	-8.646845e+001	-3.062635e+001	-2.076805e+001	-1.009479e+002	-7.849276e+001	-4.487511e+001	1.133271e+002
9.990005e+006	-4.448891e+001	-8.646407e+001	-3.062046e+001	-2.071347e+001	-9.063251e+001	1.410275e+002	-4.489478e+001	1.137972e+002
9.990009e+006	-4.445967e+001	-8.626163e+001	-3.062576e+001	-2.070854e+001	-9.163650e+001	-1.750522e+002	-4.493520e+001	1.137610e+002
9.990014e+006	-4.452727e+001	-8.645672e+001	-3.063885e+001	-2.068387e+001	-9.052596e+001	-7.631575e+001	-4.483789e+001	1.140274e+002
9.990019e+006	-4.451386e+001	-8.657652e+001	-3.063784e+001	-2.071365e+001	-1.006977e+002	-6.035742e+001	-4.487538e+001	1.141930e+002
9.990023e+006	-4.450971e+001	-8.671601e+001	-3.063482e+001	-2.074943e+001	-9.305221e+001	2.123935e+001	-4.490843e+001	1.142469e+002
9.990028e+006	-4.451062e+001	-8.654686e+001	-3.062954e+001	-2.077444e+001	-9.678811e+001	1.772099e+002	-4.493017e+001	1.142708e+002
9.990033e+006	-4.447904e+001	-8.664009e+001	-3.063565e+001	-2.072490e+001	-9.931232e+001	-1.344471e+002	-4.489510e+001	1.144981e+002
9.990038e+006	-4.452659e+001	-8.629578e+001	-3.063353e+001	-2.076341e+001	-8.657502e+001	6.393811e+001	-4.489737e+001	1.145466e+002
9.990042e+006	-4.446974e+001	-8.654947e+001	-3.063090e+001	-2.075383e+001	-9.091996e+001	-1.090722e+002	-4.492407e+001	1.141615e+002
9.990047e+006	-4.445173e+001	-8.635289e+001	-3.063320e+001	-2.075327e+001	-1.027764e+002	5.568898e+001	-4.491318e+001	1.144021e+002
9.990052e+006	-4.450802e+001	-8.671131e+001	-3.064073e+001	-2.073998e+001	-1.008332e+002	-1.213226e+002	-4.493999e+001	1.146050e+002
9.990056e+006	-4.449210e+001	-8.662192e+001	-3.063934e+001	-2.081172e+001	-9.362410e+001	1.333102e+002	-4.490764e+001	1.143287e+002
9.990061e+006	-4.446143e+001	-8.655967e+001	-3.062961e+001	-2.074300e+001	-8.821907e+001	7.328397e+000	-4.493547e+001	1.142735e+002
9.990066e+006	-4.451097e+001	-8.643844e+001	-3.062941e+001	-2.079204e+001	-8.860984e+001	1.327021e+002	-4.492585e+001	1.142774e+002
9.990070e+006	-4.451625e+001	-8.643959e+001	-3.062764e+001	-2.080726e+001	-9.009187e+001	1.230730e+002	-4.488194e+001	1.143398e+002
9.990075e+006	-4.445139e+001	-8.644679e+001	-3.063298e+001	-2.083761e+001	-8.769714e+001	7.511246e+001	-4.499640e+001	1.141639e+002
9.990080e+006	-4.449015e+001	-8.621257e+001	-3.063033e+001	-2.080409e+001	-8.894546e+001	1.244540e+002	-4.490849e+001	1.139874e+002
9.990084e+006	-4.450095e+001	-8.660209e+001	-3.063816e+001	-2.084489e+001	-9.367167e+001	1.063408e+002	-4.492290e+001	1.142748e+002
9.990089e+006	-4.448394e+001	-8.649115e+001	-3.062279e+001	-2.090122e+001	-8.694347e+001	1.690533e+002	-4.486476e+001	1.140855e+002
9.990094e+006	-4.446519e+001	-8.654369e+001	-3.062733e+001	-2.093704e+001	-9.283217e+001	1.511252e+002	-4.492061e+001	1.139707e+002
9.990098e+006	-4.447662e+001	-8.642268e+001	-3.062030e+001	-2.081514e+001	-9.271413e+001	1.525692e+002	-4.492382e+001	1.137171e+002
9.990103e+006	-4.445913e+001	-8.623541e+001	-3.062224e+001	-2.083804e+001	-9.722587e+001	-1.253734e+002	-4.494021e+001	1.137306e+002
9.990108e+006	-4.446306e+001	-8.636627e+001	-3.061918e+001	-2.091076e+001	-8.725804e+001	1.297385e+002	-4.488466e+001	1.139095e+002
9.990113e+006	-4.446969e+001	-8.631028e+001	-3.063782e+001	-2.089755e+001	-8.950394e+001	8.235800e+001	-4.495801e+001	1.137131e+002
9.990117e+006	-4.448638e+001	-8.659756e+001	-3.064354e+001	-2.083747e+001	-9.293104e+001	-1.162003e+002	-4.496889e+001	1.140529e+002
9.990122e+006	-4.449419e+001	-8.622644e+001	-3.065881e+001	-2.083700e+001	-9.440291e+001	1.137762e+002	-4.499179e+001	1.138664e+002
9.990127e+006	-4.444861e+001	-8.638280e+001	-3.066475e+001	-2.080298e+001	-8.934913e+001	1.421654e+002	-4.502783e+001	1.139995e+002
9.990131e+006	-4.450974e+001	-8.642479e+001	-3.064621e+001	-2.068403e+001	-8.808723e+001	1.243534e+002	-4.496918e+001	1.140517e+002
9.990136e+006	-4.448303e+001	-8.645511e+001	-3.065453e+001	-2.077797e+001	-8.543808e+001	1.348798e+002	-4.499034e+001	1.145331e+002
9.990141e+006	-4.448966e+001	-8.669193e+001	-3.064928e+001	-2.071834e+001	-8.952678e+001	9.372756e+001	-4.496492e+001	1.140598e+002
9.990145e+006	-4.449049e+001	-8.628747e+001	-3.064871e+001	-2.069645e+001	-9.417003e+001	6.505776e+001	-4.491345e+001	1.142587e+002
9.990150e+006	-4.447375e+001	-8.642044e+001	-3.063065e+001	-2.071040e+001	-9.170034e+001	1.047234e+002	-4.492451e+001	1.140069e+002
9.990155e+006	-4.450795e+001	-8.667235e+001	-3.063271e+001	-2.077279e+001	-8.924200e+001	6.211622e+001	-4.495235e+001	1.139500e+002
9.990159e+006	-4.446972e+001	-8.648450e+001	-3.062503e+001	-2.078713e+001	-8.632938e+001	1.089703e+002	-4.493679e+001	1.142363e+002
9.990164e+006	-4.448712e+001	-8.665808e+001	-3.063046e+001	-2.081718e+001	-9.123517e+001	7.538364e+001	-4.496812e+001	1.139732e+002
9.990169e+006	-4.450858e+001	-8.659004e+001	-3.063178e+001	-2.085591e+001	-1.155158e+002	8.251126e+001	-4.496549e+001	1.140476e+002
9.990173e+006	-4.447711e+001	-8.665986e+001	-3.064017e+001	-2.086380e+001	-1.119705e+002	9.820856e+001	-4.501283e+001	1.141682e+002
9.990178e+006	-4.449387e+001	-8.666816e+001	-3.063903e+001	-2.069470e+001	-9.400963e+001	1.159045e+002	-4.490967e+001	1.140727e+002
9.990183e+006	-4.450241e+001	-8.623622e+001	-3.064809e+001	-2.070450e+001	-9.424432e+001	1.196241e+002	-4.499046e+001	1.142372e+002
9.990188e+006	-4.447646e+001	-8.649295e+001	-3.064951e+001	-2.073113e+001	-9.396670e+001	3.457300e+001	-4.492413e+001	1.137928e+002
9.990192e+006	-4.451914e+001	-8.650833e+001	-3.064254e+001	-2.071945e+001	-9.729592e+001	-1.177157e+002	-4.493550e+001	1.141056e+002
9.990197e+006	-4.448485e+001	-8.637629e+001	-3.063277e+001	-2.068499e+001	-8.839313e+001	1.587273e+002	-4.496533e+001	1.139650e+002
9.990202e+006	-4.448543e+001	-8.659708e+001	-3.063768e+001	-2.080231e+001	-9.214415e+001	3.757649e+001	-4.493847e+001	1.143932e+002
9.990206e+006	-4.449950e+001	-8.657280e+001	-3.063531e+001	-2.073632e+001	-9.603318e+001	-1.783847e+002	-4.497190e+001	1.136869e+002
9.990211e+006	-4.445901e+001	-8.650057e+001	-3.062764e+001	-2.077791e+001	-9.810367e+001	-9.471264e+001	-4.494901e+001	1.138481e+002
9.990216e+006	-4.449956e+001	-8.650808e+001	-3.062806e+001	-2.080489e+001	-9.393444e+001	8.580511e+001	-4.496670e+001	1.139494e+002
9.990220e+006	-4.446617e+001	-8.617742e+001	-3.062336e+001	-2.072489e+001	-8.783286e+001	1.154232e+002	-4.497099e+001	1.144309e+002
9.990225e+006	-4.445378e+001	-8.624508e+001	-3.063074e+001	-2.080323e+001	-9.045709e+001	-1.577653e+002	-4.493192e+001	1.139962e+002
9.990230e+006	-4.449142e+001	-8.635648e+001	-3.064934e+001	-2.079221e+001	-9.752176e+001	-1.212808e+002	-4.496376e+001	1.139555e+002
9.990234e+006	-4.447732e+001	-8.665213e+001	-3.063787e+001	-2.076077e+001	-8.991322e+001	1.587828e+002	-4.494737e+001	1.141163e+002
9.990239e+006	-4.447417e+001	-8.657949e+001	-3.063446e+001	-2.073330e+001	-9.041483e+001	3.267154e+001	-4.494164e+001	1.141889e+002
9.990244e+006	-4.448470e+001	-8.662876e+001	-3.062915e+001	-2.077986e+001	-9.046818e+001	-3.395013e+001	-4.490494e+001	1.139569e+002
9.990248e+006	-4.449557e+001	-8.630006e+001	-3.063747e+001	-2.072242e+001	-9.110643e+001	3.088125e+001	-4.493353e+001	1.141085e+002
9.990253e+006	-4.448551e+001	-8.633437e+001	-3.063303e+001	-2.078974e+001	-9.520901e+001	1.476336e+002	-4.497155e+001	1.138447e+002
9.990258e+006	-4.447723e+001	-8.657736e+001	-3.063594e+001	-2.074237e+001	-8.889322e+001	9.616476e+001	-4.493335e+001	1.141345e+002
9.990263e+006	-4.444694e+001	-8.654929e+001	-3.063060e+001	-2.075007e+001	-9.538256e+001	-5.768338e+001	-4.495199e+001	1.141236e+002
9.990267e+006	-4.445219e+001	-8.629068e+001	-3.063476e+001	-2.073804e+001	-8.923261e+001	9.023750e+001	-4.491493e+001	1.137612e+002
9.990272e+006	-4.447999e+001	-8.635656e+001	-3.062962e+001	-2.072610e+001	-9.243572e+001	-3.319623e+000	-4.489796e+001	1.141525e+002
9.990277e+006	-4.446045e+001	-8.643894e+001	-3.062950e+001	-2.071241e+001	-1.098375e+002	1.573768e-001	-4.496273e+001	1.141993e+002
9.990281e+006	-4.446519e+001	-8.620351e+001	-3.063643e+001	-2.080204e+001	-8.901679e+001	1.062534e+002	-4.496050e+001	1.141630e+002
9.990286e+006	-4.447490e+001	-8.638546e+001	-3.062782e+001	-2.082784e+001	-9.527815e+001	6.141792e+001	-4.493964e+001	1.141108e+002
9.990291e+006	-4.452967e+001	-8.638928e+001	-3.062835e+001	-2.074051e+001	-9.296558e+001	9.840870e+001	-4.496925e+001	1.139963e+002
9.990295e+006	-4.449052e+001	-8.627550e+001	-3.063502e+001	-2.076276e+001	-9.287280e+001	7.915127e+001	-4.496992e+001	1.141408e+002
9.990300e+006	-4.448272e+001	-8.620495e+001	-3.062476e+001	-2.077937e+001	-9.012254e+001	1.152402e+002	-4.496442e+001	1.140200e+002
9.990305e+006	-4.454485e+001	-8.636157e+001	-3.063831e+001	-2.088034e+001	-9.224007e+001	8.668793e+001	-4.491727e+001	1.141793e+002
9.990309e+006	-4.447349e+001	-8.647968e+001	-3.064384e+001	-2.079110e+001	-8.575839e+001	1.380627e+002	-4.498432e+001	1.141427e+002
9.990314e+006	-4.453375e+001	-8.640577e+001	-3.062278e+001	-2.075283e+001	-9.172283e+001	1.193359e+002	-4.492653e+001	1.134618e+002
9.990319e+006	-4.449675e+001	-8.631617e+001	-3.063418e+001	-2.079920e+001	-9.557931e+001	7.201241e+001	-4.500531e+001	1.144776e+002
9.990323e+006	-4.446454e+001	-8.624010e+001	-3.062556e+001	-2.072608e+001	-1.034629e+002	7.554345e-001	-4.496664e+001	1.138518e+002
9.990328e+006	-4.446590e+001	-8.609099e+001	-3.063133e+001	-2.082910e+001	-8.954499e+001	1.211552e+002	-4.497114e+001	1.138587e+002
9.990333e+006	-4.452671e+001	-8.630916e+001	-3.063026e+001	-2.078249e+001	-9.210648e+001	9.862686e+001	-4.494417e+001	1.144773e+002
9.990338e+006	-4.447965e+001	-8.649019e+001	-3.063638e+001	-2.083403e+001	-1.026327e+002	8.801348e+001	-4.499762e+001	1.140020e+002
9.990342e+006	-4.448916e+001	-8.637136e+001	-3.063407e+001	-2.077386e+001	-8.548586e+001	9.446319e+001	-4.496874e+001	1.137222e+002
9.990347e+006	-4.449200e+001	-8.654625e+001	-3.062977e+001	-2.075091e+001	-9.162060e+001	1.423421e+002	-4.497344e+001	1.140208e+002
9.990352e+006	-4.451419e+001	-8.619065e+001	-3.062366e+001	-2.076133e+001	-9.044674e+001	9.688349e+001	-4.496813e+001	1.141896e+002
9.990356e+006	-4.452634e+001	-8.629028e+001	-3.063527e+001	-2.075295e+001	-8.963506e+001	9.215098e+001	-4.503011e+001	1.141206e+002
9.990361e+006	-4.449310e+001	-8.642421e+001	-3.063641e+001	-2.078776e+001	-9.173965e+001	-1.720319e+002	-4.497589e+001	1.141265e+002
9.990366e+006	-4.454081e+001	-8.622449e+001	-3.063301e+001	-2.078463e+001	-9.764962e+001	1.187726e+002	-4.494904e+001	1.140937e+002
9.990370e+006	-4.448655e+001	-8.625466e+001	-3.063184e+001	-2.076262e+001	-8.901320e+001	6.406174e+001	-4.490236e+001	1.141029e+002
9.990375e+006	-4.454058e+001	-8.659043e+001	-3.064156e+001	-2.074222e+001	-1.018913e+002	1.775344e+002	-4.493927e+001	1.141918e+002
9.990380e+006	-4.455999e+001	-8.664798e+001	-3.063618e+001	-2.077923e+001	-8.825250e+001	1.305292e+002	-4.492864e+001	1.139888e+002
9.990384e+006	-4.451242e+001	-8.640444e+001	-3.063169e+001	-2.075528e+001	-8.739565e+001	3.928940e+001	-4.495780e+001	1.138374e+002
9.990389e+006	-4.449734e+001	-8.661589e+001	-3.063833e+001	-2.078302e+001	-8.837472e+001	1.515677e+002	-4.491284e+001	1.142218e+002
9.990394e+006	-4.447662e+001	-8.652529e+001	-3.062790e+001	-2.064086e+001	-9.469430e+001	-1.284225e+002	-4.493471e+001	1.139683e+002
9.990398e+006	-4.449428e+001	-8.649398e+001	-3.063404e+001	-2.082907e+001	-9.340513e+001	1.672871e+002	-4.498030e+001	1.143156e+002
9.990403e+006	-4.447564e+001	-8.679634e+001	-3.063907e+001	-2.074144e+001	-9.024603e+001	1.124568e+002	-4.493936e+001	1.141851e+002
9.990408e+006	-4.451870e+001	-8.669685e+001	-3.063150e+001	-2.069531e+001	-9.519243e+001	1.430273e+002	-4.490491e+001	1.142342e+002
9.990413e+006	-4.449103e+001	-8.618457e+001	-3.061759e+001	-2.077575e+001	-1.003042e+002	4.792486e+001	-4.492106e+001	1.143586e+002
9.990417e+006	-4.447616e+001	-8.607663e+001	-3.063488e+001	-2.072387e+001	-8.765913e+001	1.647946e+002	-4.493475e+001	1.143499e+002
9.990422e+006	-4.445142e+001	-8.613648e+001	-3.062666e+001	-2.077002e+001	-1.098549e+002	1.584655e+002	-4.496596e+001	1.139811e+002
9.990427e+006	-4.453656e+001	-8.643847e+001	-3.063225e+001	-2.087909e+001	-9.282447e+001	6.591598e+001	-4.491387e+001	1.138021e+002
9.990431e+006	-4.447256e+001	-8.644107e+001	-3.062223e+001	-2.072903e+001	-9.376842e+001	1.694346e+002	-4.495655e+001	1.139193e+002
9.990436e+006	-4.446332e+001	-8.631839e+001	-3.062673e+001	-2.072088e+001	-8.966294e+001	8.970329e+001	-4.496742e+001	1.139960e+002
9.990441e+006	-4.452961e+001	-8.616422e+001	-3.062667e+001	-2.082327e+001	-1.043550e+002	2.842513e+001	-4.495999e+001	1.139504e+002
9.990445e+006	-4.449185e+001	-8.674122e+001	-3.062565e+001	-2.076954e+001	-9.290604e+001	1.508474e+002	-4.495787e+001	1.138098e+002
9.990450e+006	-4.446383e+001	-8.643216e+001	-3.062975e+001	-2.080267e+001	-8.957103e+001	1.757047e+002	-4.494149e+001	1.138650e+002
9.990455e+006	-4.446445e+001	-8.652722e+001	-3.062661e+001	-2.074905e+001	-8.760922e+001	-1.522182e+001	-4.492494e+001	1.139120e+002
9.990459e+006	-4.452247e+001	-8.645412e+001	-3.062396e+001	-2.074025e+001	-9.352025e+001	1.700233e+002	-4.493034e+001	1.143446e+002
9.990464e+006	-4.450141e+001	-8.652695e+001	-3.063952e+001	-2.071089e+001	-9.107941e+001	8.757824e+001	-4.493639e+001	1.142655e+002
9.990469e+006	-4.446866e+001	-8.650155e+001	-3.062546e+001	-2.081558e+001	-9.104643e+001	6.711674e+001	-4.490954e+001	1.141011e+002
9.990473e+006	-4.444020e+001	-8.624982e+001	-3.063315e+001	-2.074331e+001	-8.800854e+001	1.059492e+002	-4.495418e+001	1.138645e+002
9.990478e+006	-4.451738e+001	-8.643254e+001	-3.063350e+001	-2.073679e+001	-8.800419e+001	1.109619e+002	-4.492295e+001	1.142571e+002
9.990483e+006	-4.448512e+001	-8.640968e+001	-3.063232e+001	-2.073523e+001	-9.346751e+001	9.605990e+001	-4.492711e+001	1.140243e+002
9.990488e+006	-4.448250e+001	-8.637764e+001	-3.062792e+001	-2.071161e+001	-9.651815e+001	8.124704e+001	-4.495193e+001	1.144463e+002
9.990492e+006	-4.448903e+001	-8.648961e+001	-3.063166e+001	-2.071177e+001	-9.494572e+001	1.043841e+002	-4.493334e+001	1.140480e+002
9.990497e+006	-4.449389e+001	-8.669408e+001	-3.063830e+001	-2.078790e+001	-1.018684e+002	1.713435e+002	-4.497082e+001	1.140942e+002
9.990502e+006	-4.451431e+001	-8.627187e+001	-3.062245e+001	-2.072413e+001	-1.003569e+002	1.448639e+002	-4.496272e+001	1.144265e+002
9.990506e+006	-4.454506e+001	-8.630305e+001	-3.063734e+001	-2.073086e+001	-8.922854e+001	1.706319e+002	-4.492831e+001	1.140629e+002
9.990511e+006	-4.450261e+001	-8.597408e+001	-3.062736e+001	-2.080450e+001	-8.407137e+001	1.052596e+002	-4.494311e+001	1.141233e+002
9.990516e+006	-4.447876e+001	-8.639884e+001	-3.063794e+001	-2.082096e+001	-9.421775e+001	1.347594e+002	-4.497770e+001	1.144410e+002
9.990520e+006	-4.445061e+001	-8.642023e+001	-3.062509e+001	-2.071854e+001	-8.908716e+001	1.133246e+002	-4.495022e+001	1.142664e+002
9.990525e+006	-4.448037e+001	-8.603628e+001	-3.062903e+001	-2.071176e+001	-9.690824e+001	3.210108e+001	-4.497206e+001	1.140688e+002
9.990530e+006	-4.454349e+001	-8.658179e+001	-3.061800e+001	-2.074743e+001	-9.104242e+001	1.078501e+002	-4.494406e+001	1.143665e+002
9.990534e+006	-4.449628e+001	-8.638563e+001	-3.062092e+001	-2.075493e+001	-9.842498e+001	-1.707733e+002	-4.493192e+001	1.138213e+002
9.990539e+006	-4.449539e+001	-8.644268e+001	-3.062681e+001	-2.076747e+001	-8.733844e+001	1.213493e+002	-4.496198e+001	1.139048e+002
9.990544e+006	-4.447864e+001	-8.623550e+001	-3.062512e+001	-2.078986e+001	-9.162518e+001	-1.426132e+002	-4.491773e+001	1.140336e+002
9.990548e+006	-4.450059e+001	-8.654902e+001	-3.062901e+001	-2.079800e+001	-9.875006e+001	1.626127e+002	-4.499005e+001	1.142861e+002
9.990553e+006	-4.443173e+001	-8.643578e+001	-3.062930e+001	-2.071134e+001	-9.767030e+001	-6.018790e+001	-4.494926e+001	1.140412e+002
9.990558e+006	-4.447391e+001	-8.636947e+001	-3.063443e+001	-2.082602e+001	-8.741936e+001	6.808610e+001	-4.496111e+001	1.141208e+002
9.990563e+006	-4.450234e+001	-8.638347e+001	-3.062728e+001	-2.080657e+001	-9.069785e+001	6.219354e+001	-4.496977e+001	1.140235e+002
9.990567e+006	-4.450625e+001	-8.655034e+001	-3.063977e+001	-2.078778e+001	-8.874794e+001	8.780405e+001	-4.493232e+001	1.141984e+002
9.990572e+006	-4.448813e+001	-8.658036e+001	-3.062607e+001	-2.079250e+001	-1.031880e+002	4.117733e+001	-4.494160e+001	1.139796e+002
9.990577e+006	-4.451726e+001	-8.640210e+001	-3.062537e+001	-2.076233e+001	-8.874511e+001	8.309074e+001	-4.492902e+001	1.140931e+002
9.990581e+006	-4.449363e+001	-8.635354e+001	-3.062059e+001	-2.083029e+001	-8.814066e+001	1.294856e+002	-4.491798e+001	1.141661e+002
9.990586e+006	-4.449329e+001	-8.652221e+001	-3.061646e+001	-2.074148e+001	-8.843564e+001	1.423355e+002	-4.496671e+001	1.141348e+002
9.990591e+006	-4.449701e+001	-8.627469e+001	-3.062952e+001	-2.072732e+001	-9.109260e+001	-1.560142e+002	-4.490615e+001	1.142322e+002
9.990595e+006	-4.447452e+001	-8.632986e+001	-3.062940e+001	-2.073913e+001	-9.340384e+001	-1.626205e+002	-4.496565e+001	1.141555e+002
9.990600e+006	-4.446830e+001	-8.657743e+001	-3.062919e+001	-2.075123e+001	-8.772855e+001	9.946983e+001	-4.494548e+001	1.144855e+002
9.990605e+006	-4.448315e+001	-8.654733e+001	-3.061918e+001	-2.079063e+001	-8.877156e+001	9.874440e+001	-4.498936e+001	1.138367e+002
9.990609e+006	-4.452428e+001	-8.625072e+001	-3.062920e+001	-2.069065e+001	-9.564033e+001	5.913092e+001	-4.495561e+001	1.141870e+002
9.990614e+006	-4.450763e+001	-8.630289e+001	-3.064167e+001	-2.075587e+001	-1.057296e+002	6.149387e+001	-4.498959e+001	1.141015e+002
9.990619e+006	-4.454350e+001	-8.636915e+001	-3.062199e+001	-2.077256e+001	-8.987527e+001	-1.096775e+002	-4.493745e+001	1.137815e+002
9.990623e+006	-4.449233e+001	-8.626173e+001	-3.062483e+001	-2.073173e+001	-9.609797e+001	-1.486008e+002	-4.496453e+001	1.140058e+002
9.990628e+006	-4.446742e+001	-8.647318e+001	-3.062580e+001	-2.079607e+001	-8.535623e+001	5.889032e+001	-4.492422e+001	1.143075e+002
9.990633e+006	-4.449011e+001	-8.642877e+001	-3.061882e+001	-2.068938e+001	-8.585444e+001	8.565523e+001	-4.495999e+001	1.141613e+002
9.990638e+006	-4.446614e+001	-8.610744e+001	-3.063956e+001	-2.080907e+001	-9.882625e+001	1.553857e+002	-4.498045e+001	1.140743e+002
9.990642e+006	-4.447142e+001	-8.644554e+001	-3.062024e+001	-2.066044e+001	-9.414340e+001	-4.729510e+001	-4.495522e+001	1.140413e+002
9.990647e+006	-4.448519e+001	-8.647125e+001	-3.063982e+001	-2.075932e+001	-9.923641e+001	1.798683e+002	-4.494137e+001	1.140255e+002
9.990652e+006	-4.449535e+001	-8.623994e+001	-3.062661e+001	-2.086931e+001	-9.456323e+001	1.078747e+002	-4.496864e+001	1.141222e+002
9.990656e+006	-4.447240e+001	-8.646616e+001	-3.062598e+001	-2.076499e+001	-9.176222e+001	5.975210e+001	-4.491419e+001	1.142388e+002
9.990661e+006	-4.448661e+001	-8.653179e+001	-3.063446e+001	-2.077985e+001	-8.718481e+001	1.219400e+002	-4.499851e+001	1.137496e+002
9.990666e+006	-4.447478e+001	-8.652396e+001	-3.061545e+001	-2.074414e+001	-1.015933e+002	1.569662e+002	-4.496441e+001	1.143204e+002
9.990670e+006	-4.447605e+001	-8.627391e+001	-3.062194e+001	-2.074208e+001	-1.006618e+002	6.993106e+001	-4.491775e+001	1.141198e+002
9.990675e+006	-4.448687e+001	-8.612321e+001	-3.062550e+001	-2.073384e+001	-9.386146e+001	3.955422e+001	-4.494356e+001	1.142777e+002
9.990680e+006	-4.448910e+001	-8.642481e+001	-3.063666e+001	-2.079686e+001	-1.023114e+002	-2.879756e+001	-4.492003e+001	1.139550e+002
9.990684e+006	-4.450805e+001	-8.646281e+001	-3.060953e+001	-2.070982e+001	-9.163440e+001	1.042444e+002	-4.489900e+001	1.140566e+002
9.990689e+006	-4.450122e+001	-8.642962e+001	-3.063471e+001	-2.072949e+001	-9.473441e+001	9.733163e+001	-4.497100e+001	1.141769e+002
