!CETC41,AV3656A,ZGL00048,1.3.2
!Calibration ON (Full Solt 2-Port(Omit Isolation))
!Measurements: S11 S21 S12 S22
!2025-04-23 00:24
# Hz  S  dB  R 50.000
9.990000e+006	-4.389575e+001	-8.152410e+001	-3.066210e+001	-2.210128e+001	-9.293671e+001	8.580345e+001	-4.328509e+001	1.180549e+002
9.990005e+006	-4.393437e+001	-8.156135e+001	-3.066326e+001	-2.211847e+001	-9.091300e+001	6.782901e+001	-4.328676e+001	1.183549e+002
9.990009e+006	-4.385916e+001	-8.145037e+001	-3.065918e+001	-2.214502e+001	-1.086139e+002	-1.453445e+002	-4.327859e+001	1.182190e+002
9.990014e+006	-4.389000e+001	-8.166225e+001	-3.065479e+001	-2.209715e+001	-9.759979e+001	4.204257e+001	-4.331711e+001	1.179535e+002
9.990019e+006	-4.388057e+001	-8.160921e+001	-3.065335e+001	-2.217901e+001	-9.384449e+001	1.628943e+002	-4.326174e+001	1.182746e+002
9.990023e+006	-4.393544e+001	-8.178022e+001	-3.065100e+001	-2.218214e+001	-8.972448e+001	1.628733e+002	-4.324781e+001	1.181594e+002
9.990028e+006	-4.391086e+001	-8.142403e+001	-3.064720e+001	-2.211189e+001	-9.407637e+001	-1.440785e+002	-4.329321e+001	1.180069e+002
9.990033e+006	-4.389557e+001	-8.167508e+001	-3.065738e+001	-2.210712e+001	-9.905812e+001	-1.621800e+002	-4.327695e+001	1.179765e+002
9.990038e+006	-4.393351e+001	-8.170882e+001	-3.064288e+001	-2.221182e+001	-9.810943e+001	3.800765e+001	-4.322550e+001	1.179440e+002
9.990042e+006	-4.388325e+001	-8.156790e+001	-3.065235e+001	-2.208793e+001	-9.464035e+001	1.780080e+002	-4.330956e+001	1.180117e+002
9.990047e+006	-4.391121e+001	-8.179403e+001	-3.065057e+001	-2.210838e+001	-9.237633e+001	1.585605e+002	-4.327946e+001	1.180252e+002
9.990052e+006	-4.390610e+001	-8.179498e+001	-3.065708e+001	-2.212900e+001	-9.161262e+001	-1.833211e+001	-4.327320e+001	1.183052e+002
9.990056e+006	-4.393488e+001	-8.160989e+001	-3.064806e+001	-2.215476e+001	-8.808808e+001	1.639319e+002	-4.329704e+001	1.181687e+002
9.990061e+006	-4.389356e+001	-8.160001e+001	-3.066234e+001	-2.206000e+001	-1.077175e+002	-1.023667e+002	-4.327693e+001	1.181854e+002
9.990066e+006	-4.393876e+001	-8.142016e+001	-3.065819e+001	-2.208455e+001	-9.575617e+001	-1.466581e+002	-4.328129e+001	1.180994e+002
9.990070e+006	-4.390730e+001	-8.165217e+001	-3.065095e+001	-2.204235e+001	-9.868271e+001	-1.606635e+002	-4.332692e+001	1.180878e+002
9.990075e+006	-4.390013e+001	-8.148086e+001	-3.064157e+001	-2.215517e+001	-1.039964e+002	-1.085480e+002	-4.327123e+001	1.181882e+002
9.990080e+006	-4.388960e+001	-8.175339e+001	-3.064536e+001	-2.218532e+001	-9.267445e+001	1.198001e+002	-4.332094e+001	1.183011e+002
9.990084e+006	-4.389279e+001	-8.151969e+001	-3.065297e+001	-2.207974e+001	-1.023236e+002	-1.653141e+002	-4.330821e+001	1.183058e+002
9.990089e+006	-4.394067e+001	-8.171410e+001	-3.066085e+001	-2.213884e+001	-9.077162e+001	1.171462e+002	-4.332476e+001	1.182175e+002
9.990094e+006	-4.386518e+001	-8.162514e+001	-3.063768e+001	-2.217726e+001	-9.192269e+001	1.135301e+001	-4.329438e+001	1.180930e+002
9.990098e+006	-4.392290e+001	-8.156750e+001	-3.065449e+001	-2.216063e+001	-1.000350e+002	-9.545566e+001	-4.328845e+001	1.181187e+002
9.990103e+006	-4.387865e+001	-8.157856e+001	-3.065220e+001	-2.211127e+001	-9.407238e+001	9.597511e+001	-4.327311e+001	1.184084e+002
9.990108e+006	-4.390919e+001	-8.183599e+001	-3.064945e+001	-2.211421e+001	-9.206094e+001	1.635985e+002	-4.329853e+001	1.180774e+002
9.990113e+006	-4.389457e+001	-8.167923e+001	-3.064142e+001	-2.214622e+001	-9.843635e+001	1.704925e+002	-4.327966e+001	1.182984e+002
9.990117e+006	-4.389248e+001	-8.159713e+001	-3.065653e+001	-2.211478e+001	-9.530251e+001	-5.192253e+000	-4.328146e+001	1.179524e+002
9.990122e+006	-4.393427e+001	-8.189119e+001	-3.064364e+001	-2.218923e+001	-9.008591e+001	8.939656e+001	-4.329126e+001	1.181053e+002
9.990127e+006	-4.388853e+001	-8.147386e+001	-3.064051e+001	-2.209015e+001	-1.012993e+002	7.867017e+001	-4.327029e+001	1.180765e+002
9.990131e+006	-4.393257e+001	-8.180047e+001	-3.065079e+001	-2.210884e+001	-1.019474e+002	1.482897e+002	-4.327534e+001	1.181148e+002
9.990136e+006	-4.387888e+001	-8.186896e+001	-3.065630e+001	-2.211256e+001	-1.047269e+002	6.276113e+000	-4.328802e+001	1.179176e+002
9.990141e+006	-4.389886e+001	-8.172918e+001	-3.064890e+001	-2.217353e+001	-1.010350e+002	2.090018e+001	-4.331570e+001	1.180211e+002
9.990145e+006	-4.387151e+001	-8.176662e+001	-3.063233e+001	-2.206369e+001	-9.308758e+001	6.192285e+001	-4.329459e+001	1.183133e+002
9.990150e+006	-4.389960e+001	-8.156560e+001	-3.064520e+001	-2.209371e+001	-9.409165e+001	-4.027190e+001	-4.328926e+001	1.181805e+002
9.990155e+006	-4.390409e+001	-8.179917e+001	-3.064718e+001	-2.212225e+001	-8.915128e+001	8.866798e+001	-4.330609e+001	1.179818e+002
9.990159e+006	-4.392096e+001	-8.155003e+001	-3.064640e+001	-2.215975e+001	-1.033569e+002	1.133528e+002	-4.333451e+001	1.180947e+002
9.990164e+006	-4.384493e+001	-8.175370e+001	-3.064617e+001	-2.210562e+001	-9.095531e+001	-1.194803e+002	-4.330478e+001	1.180334e+002
9.990169e+006	-4.391768e+001	-8.162280e+001	-3.065657e+001	-2.212913e+001	-9.236517e+001	6.375541e+001	-4.328213e+001	1.180677e+002
9.990173e+006	-4.394406e+001	-8.166053e+001	-3.065407e+001	-2.211569e+001	-8.948371e+001	9.430669e+001	-4.332346e+001	1.179819e+002
9.990178e+006	-4.394170e+001	-8.161526e+001	-3.065757e+001	-2.213712e+001	-9.092174e+001	7.630397e+001	-4.328934e+001	1.181409e+002
9.990183e+006	-4.388469e+001	-8.172789e+001	-3.064328e+001	-2.213621e+001	-9.762987e+001	7.885554e+001	-4.330140e+001	1.181425e+002
9.990188e+006	-4.389667e+001	-8.158703e+001	-3.064786e+001	-2.217102e+001	-8.884672e+001	8.032918e+001	-4.328892e+001	1.182030e+002
9.990192e+006	-4.393291e+001	-8.161217e+001	-3.064568e+001	-2.210082e+001	-9.558141e+001	-3.400335e+001	-4.330252e+001	1.182317e+002
9.990197e+006	-4.392577e+001	-8.181461e+001	-3.065587e+001	-2.214541e+001	-1.057362e+002	1.158419e+002	-4.334131e+001	1.181758e+002
9.990202e+006	-4.385455e+001	-8.165059e+001	-3.064577e+001	-2.208333e+001	-9.394603e+001	-1.642025e+002	-4.326564e+001	1.183646e+002
9.990206e+006	-4.390997e+001	-8.167418e+001	-3.064463e+001	-2.218095e+001	-9.400036e+001	9.505824e+001	-4.332915e+001	1.181469e+002
9.990211e+006	-4.389779e+001	-8.157705e+001	-3.064815e+001	-2.210783e+001	-1.027432e+002	-7.634906e+001	-4.334928e+001	1.182564e+002
9.990216e+006	-4.392864e+001	-8.172217e+001	-3.064545e+001	-2.215361e+001	-1.005865e+002	9.857908e+001	-4.328950e+001	1.180188e+002
9.990220e+006	-4.388888e+001	-8.147685e+001	-3.063984e+001	-2.210834e+001	-9.875970e+001	1.454815e+002	-4.327680e+001	1.179453e+002
9.990225e+006	-4.387877e+001	-8.148835e+001	-3.065107e+001	-2.204994e+001	-1.035599e+002	-7.170530e+001	-4.329677e+001	1.180718e+002
9.990230e+006	-4.386565e+001	-8.167714e+001	-3.064298e+001	-2.207195e+001	-8.935065e+001	1.449926e+002	-4.329221e+001	1.180468e+002
9.990234e+006	-4.389319e+001	-8.181431e+001	-3.063725e+001	-2.212905e+001	-9.033291e+001	1.726589e+002	-4.329569e+001	1.181182e+002
9.990239e+006	-4.392941e+001	-8.146206e+001	-3.064546e+001	-2.220452e+001	-8.978308e+001	9.860301e+001	-4.331299e+001	1.179594e+002
9.990244e+006	-4.389067e+001	-8.170565e+001	-3.064502e+001	-2.209286e+001	-8.737434e+001	-8.882265e+001	-4.331481e+001	1.182030e+002
9.990248e+006	-4.386148e+001	-8.171297e+001	-3.065216e+001	-2.207033e+001	-9.612519e+001	-1.222603e+002	-4.326187e+001	1.180080e+002
9.990253e+006	-4.389622e+001	-8.154834e+001	-3.064639e+001	-2.210244e+001	-9.213282e+001	1.662435e+002	-4.329161e+001	1.180538e+002
9.990258e+006	-4.393295e+001	-8.187696e+001	-3.064949e+001	-2.211616e+001	-9.926622e+001	-1.621185e+002	-4.325717e+001	1.181182e+002
9.990263e+006	-4.388706e+001	-8.175845e+001	-3.065536e+001	-2.213884e+001	-9.314493e+001	8.375605e+001	-4.328796e+001	1.179925e+002
9.990267e+006	-4.392116e+001	-8.175733e+001	-3.065247e+001	-2.207057e+001	-9.698613e+001	7.755476e+001	-4.328402e+001	1.183128e+002
9.990272e+006	-4.390309e+001	-8.158488e+001	-3.065063e+001	-2.211454e+001	-9.513442e+001	-1.154156e+002	-4.328381e+001	1.180837e+002
9.990277e+006	-4.391748e+001	-8.161588e+001	-3.064945e+001	-2.212669e+001	-9.011009e+001	5.614198e+001	-4.333640e+001	1.180868e+002
9.990281e+006	-4.385778e+001	-8.155573e+001	-3.064631e+001	-2.206839e+001	-9.340961e+001	7.575263e+001	-4.327473e+001	1.184641e+002
9.990286e+006	-4.390385e+001	-8.165854e+001	-3.064809e+001	-2.213605e+001	-9.881656e+001	5.431292e+001	-4.329031e+001	1.183419e+002
9.990291e+006	-4.390208e+001	-8.150477e+001	-3.064508e+001	-2.206960e+001	-9.930344e+001	1.109914e+000	-4.326903e+001	1.183997e+002
9.990295e+006	-4.389514e+001	-8.171085e+001	-3.065144e+001	-2.212576e+001	-9.450700e+001	9.413654e+001	-4.330375e+001	1.181035e+002
9.990300e+006	-4.390800e+001	-8.182446e+001	-3.064754e+001	-2.203482e+001	-1.021248e+002	1.441358e+002	-4.333384e+001	1.181650e+002
9.990305e+006	-4.388322e+001	-8.161136e+001	-3.064479e+001	-2.215999e+001	-9.497789e+001	3.358317e+001	-4.325026e+001	1.181467e+002
9.990309e+006	-4.392142e+001	-8.150951e+001	-3.064887e+001	-2.213239e+001	-9.716881e+001	2.189544e+001	-4.326973e+001	1.183550e+002
9.990314e+006	-4.388803e+001	-8.184855e+001	-3.064704e+001	-2.208723e+001	-9.023455e+001	1.259231e+002	-4.327513e+001	1.180816e+002
9.990319e+006	-4.389413e+001	-8.153679e+001	-3.064364e+001	-2.211009e+001	-8.752523e+001	-1.625702e+002	-4.328527e+001	1.181409e+002
9.990323e+006	-4.386738e+001	-8.165563e+001	-3.065014e+001	-2.205681e+001	-1.045961e+002	-9.336089e+001	-4.328264e+001	1.182012e+002
9.990328e+006	-4.387876e+001	-8.164797e+001	-3.064089e+001	-2.214338e+001	-9.184291e+001	1.024931e+002	-4.333431e+001	1.181704e+002
9.990333e+006	-4.390325e+001	-8.157734e+001	-3.064028e+001	-2.206753e+001	-8.821542e+001	3.219701e+001	-4.329017e+001	1.179846e+002
9.990338e+006	-4.392361e+001	-8.165227e+001	-3.063387e+001	-2.210748e+001	-9.098220e+001	1.463623e+002	-4.326344e+001	1.183356e+002
9.990342e+006	-4.391727e+001	-8.188671e+001	-3.063117e+001	-2.208847e+001	-9.305073e+001	4.909394e+001	-4.327758e+001	1.184075e+002
9.990347e+006	-4.392561e+001	-8.171480e+001	-3.063752e+001	-2.212533e+001	-9.117862e+001	1.454510e+002	-4.329139e+001	1.180896e+002
9.990352e+006	-4.388531e+001	-8.162723e+001	-3.064178e+001	-2.212069e+001	-9.709246e+001	-3.420932e+001	-4.326903e+001	1.180757e+002
9.990356e+006	-4.390422e+001	-8.188805e+001	-3.064421e+001	-2.204745e+001	-1.068192e+002	1.134042e+002	-4.326440e+001	1.182683e+002
9.990361e+006	-4.391640e+001	-8.159949e+001	-3.064815e+001	-2.205012e+001	-9.529396e+001	4.048618e+001	-4.327378e+001	1.183165e+002
9.990366e+006	-4.390158e+001	-8.157973e+001	-3.064606e+001	-2.216711e+001	-9.085494e+001	7.040884e+001	-4.330521e+001	1.181440e+002
9.990370e+006	-4.391494e+001	-8.192667e+001	-3.065396e+001	-2.205253e+001	-8.993113e+001	6.947149e+000	-4.329916e+001	1.179874e+002
9.990375e+006	-4.390874e+001	-8.161894e+001	-3.063430e+001	-2.215267e+001	-1.038273e+002	1.093566e+002	-4.334006e+001	1.179892e+002
9.990380e+006	-4.389857e+001	-8.155759e+001	-3.064308e+001	-2.213861e+001	-9.627269e+001	-1.219340e+001	-4.329357e+001	1.181385e+002
9.990384e+006	-4.394448e+001	-8.149075e+001	-3.063529e+001	-2.207704e+001	-9.027428e+001	1.155231e+002	-4.329503e+001	1.179826e+002
9.990389e+006	-4.389185e+001	-8.179244e+001	-3.064715e+001	-2.208222e+001	-9.685752e+001	-1.551469e+002	-4.326778e+001	1.180991e+002
9.990394e+006	-4.388338e+001	-8.175607e+001	-3.064497e+001	-2.203627e+001	-9.015293e+001	1.362977e+002	-4.328086e+001	1.183956e+002
9.990398e+006	-4.386252e+001	-8.143297e+001	-3.064776e+001	-2.206310e+001	-9.177196e+001	1.447022e+002	-4.330475e+001	1.180810e+002
9.990403e+006	-4.388825e+001	-8.179518e+001	-3.065968e+001	-2.216630e+001	-1.003163e+002	9.274246e+001	-4.332131e+001	1.182389e+002
9.990408e+006	-4.392294e+001	-8.172752e+001	-3.065674e+001	-2.212928e+001	-9.419439e+001	-1.764851e+002	-4.327331e+001	1.183286e+002
9.990413e+006	-4.391081e+001	-8.161882e+001	-3.065052e+001	-2.214773e+001	-1.010265e+002	8.592945e+001	-4.328735e+001	1.183353e+002
9.990417e+006	-4.388784e+001	-8.176926e+001	-3.063677e+001	-2.211949e+001	-9.450792e+001	-1.325745e+002	-4.328253e+001	1.181183e+002
9.990422e+006	-4.389934e+001	-8.154522e+001	-3.065476e+001	-2.212491e+001	-9.197712e+001	1.291209e+002	-4.327349e+001	1.183979e+002
9.990427e+006	-4.388078e+001	-8.142329e+001	-3.064995e+001	-2.207413e+001	-9.653278e+001	5.840773e+001	-4.330468e+001	1.181364e+002
9.990431e+006	-4.393059e+001	-8.179310e+001	-3.063920e+001	-2.215600e+001	-8.730770e+001	-1.648737e+002	-4.329837e+001	1.181195e+002
9.990436e+006	-4.388229e+001	-8.166255e+001	-3.065023e+001	-2.211745e+001	-1.005250e+002	1.528304e+002	-4.328541e+001	1.183983e+002
9.990441e+006	-4.388596e+001	-8.183481e+001	-3.064529e+001	-2.213713e+001	-8.925741e+001	6.808364e+001	-4.331367e+001	1.181706e+002
9.990445e+006	-4.390299e+001	-8.139489e+001	-3.064390e+001	-2.212055e+001	-9.427649e+001	1.537134e+002	-4.330707e+001	1.180318e+002
9.990450e+006	-4.390141e+001	-8.153290e+001	-3.063930e+001	-2.213012e+001	-9.685294e+001	-1.807646e+001	-4.329914e+001	1.181463e+002
9.990455e+006	-4.388799e+001	-8.145383e+001	-3.063191e+001	-2.211588e+001	-1.003150e+002	3.114800e+001	-4.329026e+001	1.179872e+002
9.990459e+006	-4.390004e+001	-8.170453e+001	-3.065077e+001	-2.213922e+001	-9.894048e+001	8.243284e+001	-4.326827e+001	1.182279e+002
9.990464e+006	-4.389262e+001	-8.149929e+001	-3.064929e+001	-2.214022e+001	-9.004781e+001	1.257609e+002	-4.324659e+001	1.179904e+002
9.990469e+006	-4.389006e+001	-8.159890e+001	-3.064432e+001	-2.207361e+001	-9.492894e+001	7.897425e+001	-4.330170e+001	1.183018e+002
9.990473e+006	-4.390705e+001	-8.163657e+001	-3.064612e+001	-2.208478e+001	-1.103530e+002	1.517688e+002	-4.325943e+001	1.182996e+002
9.990478e+006	-4.389597e+001	-8.167273e+001	-3.063283e+001	-2.207257e+001	-9.021494e+001	1.291852e+002	-4.334208e+001	1.180189e+002
9.990483e+006	-4.387527e+001	-8.161087e+001	-3.064524e+001	-2.206416e+001	-9.731611e+001	2.856601e+001	-4.327884e+001	1.181806e+002
9.990488e+006	-4.389275e+001	-8.178007e+001	-3.064717e+001	-2.216989e+001	-9.797769e+001	-5.824681e+001	-4.332716e+001	1.183444e+002
9.990492e+006	-4.390718e+001	-8.155891e+001	-3.064354e+001	-2.215580e+001	-9.613753e+001	1.334312e+002	-4.330561e+001	1.183015e+002
9.990497e+006	-4.390199e+001	-8.158732e+001	-3.065196e+001	-2.211736e+001	-9.185364e+001	1.133188e+002	-4.328356e+001	1.181394e+002
9.990502e+006	-4.390062e+001	-8.166254e+001	-3.063439e+001	-2.216943e+001	-9.400246e+001	-1.458219e+002	-4.327672e+001	1.182638e+002
9.990506e+006	-4.389993e+001	-8.141000e+001	-3.063981e+001	-2.199779e+001	-9.586314e+001	-3.382001e+001	-4.328599e+001	1.184794e+002
9.990511e+006	-4.388883e+001	-8.179914e+001	-3.064753e+001	-2.210565e+001	-9.601989e+001	-6.353719e+001	-4.330002e+001	1.181010e+002
9.990516e+006	-4.391581e+001	-8.187006e+001	-3.062672e+001	-2.208683e+001	-1.020764e+002	-2.025344e+001	-4.327496e+001	1.181304e+002
9.990520e+006	-4.387519e+001	-8.150592e+001	-3.064459e+001	-2.199748e+001	-9.372352e+001	-1.660289e+002	-4.328770e+001	1.179083e+002
9.990525e+006	-4.389466e+001	-8.152922e+001	-3.065171e+001	-2.212661e+001	-8.901521e+001	8.043575e+001	-4.325249e+001	1.179571e+002
9.990530e+006	-4.391153e+001	-8.162235e+001	-3.064700e+001	-2.217089e+001	-8.796267e+001	6.413041e+001	-4.328336e+001	1.181264e+002
9.990534e+006	-4.391082e+001	-8.170434e+001	-3.064018e+001	-2.214383e+001	-1.038177e+002	9.872112e+001	-4.326680e+001	1.179358e+002
9.990539e+006	-4.387161e+001	-8.162545e+001	-3.064392e+001	-2.213599e+001	-8.946742e+001	1.351082e+002	-4.327491e+001	1.181358e+002
9.990544e+006	-4.390365e+001	-8.169262e+001	-3.063205e+001	-2.217779e+001	-9.304857e+001	9.512317e+001	-4.329166e+001	1.180637e+002
9.990548e+006	-4.389919e+001	-8.164382e+001	-3.066329e+001	-2.204435e+001	-9.614019e+001	7.073807e+001	-4.327166e+001	1.180761e+002
9.990553e+006	-4.391357e+001	-8.171849e+001	-3.064788e+001	-2.216056e+001	-1.052870e+002	3.807367e+001	-4.329076e+001	1.181739e+002
9.990558e+006	-4.388959e+001	-8.146653e+001	-3.064197e+001	-2.228563e+001	-9.243180e+001	-3.405514e+001	-4.325625e+001	1.180018e+002
9.990563e+006	-4.388643e+001	-8.178238e+001	-3.063222e+001	-2.202908e+001	-9.038927e+001	9.193421e+001	-4.325767e+001	1.180119e+002
9.990567e+006	-4.391898e+001	-8.142202e+001	-3.065189e+001	-2.199360e+001	-1.082578e+002	1.650559e+001	-4.328104e+001	1.180317e+002
9.990572e+006	-4.389652e+001	-8.154158e+001	-3.064889e+001	-2.215226e+001	-9.448557e+001	6.605091e+001	-4.328690e+001	1.179698e+002
9.990577e+006	-4.391639e+001	-8.127273e+001	-3.062893e+001	-2.214051e+001	-9.505371e+001	-5.248337e+001	-4.323685e+001	1.183937e+002
9.990581e+006	-4.389017e+001	-8.177589e+001	-3.065609e+001	-2.206304e+001	-1.020677e+002	-4.607121e+000	-4.330924e+001	1.179966e+002
9.990586e+006	-4.391171e+001	-8.160441e+001	-3.063030e+001	-2.211140e+001	-8.954054e+001	1.683159e+002	-4.330762e+001	1.183502e+002
9.990591e+006	-4.391800e+001	-8.165879e+001	-3.063442e+001	-2.207799e+001	-9.585729e+001	1.517725e+002	-4.326652e+001	1.181396e+002
9.990595e+006	-4.392358e+001	-8.159704e+001	-3.064286e+001	-2.207373e+001	-8.997920e+001	1.333665e+002	-4.329988e+001	1.182215e+002
9.990600e+006	-4.393327e+001	-8.190260e+001	-3.064478e+001	-2.225000e+001	-1.036579e+002	-4.240279e+001	-4.331332e+001	1.181987e+002
9.990605e+006	-4.387140e+001	-8.171049e+001	-3.063785e+001	-2.223801e+001	-8.609220e+001	3.036727e+001	-4.332513e+001	1.181321e+002
9.990609e+006	-4.389636e+001	-8.175351e+001	-3.062844e+001	-2.209111e+001	-9.286749e+001	1.147030e+002	-4.326819e+001	1.182530e+002
9.990614e+006	-4.388325e+001	-8.148005e+001	-3.064887e+001	-2.212901e+001	-9.096960e+001	1.147552e+002	-4.331258e+001	1.181817e+002
9.990619e+006	-4.392113e+001	-8.173010e+001	-3.065218e+001	-2.211576e+001	-9.123541e+001	1.464906e+002	-4.328048e+001	1.184207e+002
9.990623e+006	-4.389775e+001	-8.149340e+001	-3.065028e+001	-2.214462e+001	-9.958100e+001	-1.576634e+002	-4.332506e+001	1.181536e+002
9.990628e+006	-4.388947e+001	-8.149227e+001	-3.063906e+001	-2.224056e+001	-8.974093e+001	-1.141376e+002	-4.329559e+001	1.182368e+002
9.990633e+006	-4.387727e+001	-8.171569e+001	-3.063615e+001	-2.204526e+001	-9.439212e+001	9.357683e+001	-4.329486e+001	1.184030e+002
9.990638e+006	-4.386351e+001	-8.156286e+001	-3.063950e+001	-2.207822e+001	-9.346179e+001	1.108609e+002	-4.328291e+001	1.178056e+002
9.990642e+006	-4.391757e+001	-8.166892e+001	-3.065571e+001	-2.214797e+001	-9.662091e+001	9.150425e+001	-4.325914e+001	1.180730e+002
9.990647e+006	-4.387093e+001	-8.163315e+001	-3.063015e+001	-2.218836e+001	-9.681865e+001	-1.237029e+002	-4.328702e+001	1.183016e+002
9.990652e+006	-4.389947e+001	-8.172969e+001	-3.063524e+001	-2.216705e+001	-8.995742e+001	9.032425e+001	-4.329060e+001	1.180742e+002
9.990656e+006	-4.394464e+001	-8.161190e+001	-3.063796e+001	-2.202250e+001	-9.151880e+001	1.285606e+002	-4.328152e+001	1.181003e+002
9.990661e+006	-4.389332e+001	-8.168882e+001	-3.064468e+001	-2.206513e+001	-8.608977e+001	-1.749986e+002	-4.324756e+001	1.182430e+002
9.990666e+006	-4.392282e+001	-8.131337e+001	-3.063432e+001	-2.215176e+001	-8.896187e+001	1.366548e+002	-4.330572e+001	1.179013e+002
9.990670e+006	-4.387948e+001	-8.175717e+001	-3.064974e+001	-2.212631e+001	-9.565681e+001	-1.425594e+002	-4.330828e+001	1.179055e+002
9.990675e+006	-4.391403e+001	-8.154973e+001	-3.062474e+001	-2.218205e+001	-9.160399e+001	1.525037e+002	-4.327200e+001	1.182618e+002
9.990680e+006	-4.392122e+001	-8.187737e+001	-3.063113e+001	-2.207694e+001	-9.631409e+001	-1.114316e+002	-4.329293e+001	1.186149e+002
9.990684e+006	-4.390614e+001	-8.173434e+001	-3.064204e+001	-2.209204e+001	-9.030238e+001	1.453999e+002	-4.327518e+001	1.180864e+002
9.990689e+006	-4.391051e+001	-8.175376e+001	-3.065882e+001	-2.213069e+001	-9.809873e+001	1.328959e+002	-4.329351e+001	1.181938e+002
