!CETC41,AV3656A,ZGL00048,1.3.2
!Calibration ON (Full Solt 2-Port(Omit Isolation))
!Measurements: S11 S21 S12 S22
!2025-04-29 18:03
# Hz  S  dB  R 50.000
9.990000e+006	-4.360495e+001	-8.713800e+001	-3.065386e+001	-1.956346e+001	-8.857986e+001	9.270586e+001	-4.660158e+001	1.093494e+002
9.990005e+006	-4.362877e+001	-8.677701e+001	-3.065928e+001	-1.958823e+001	-1.029509e+002	-1.744670e+002	-4.656581e+001	1.089176e+002
9.990009e+006	-4.364233e+001	-8.677710e+001	-3.066662e+001	-1.952007e+001	-8.908551e+001	1.210770e+002	-4.656541e+001	1.090101e+002
9.990014e+006	-4.362887e+001	-8.676810e+001	-3.067291e+001	-1.961372e+001	-8.566037e+001	1.778727e+002	-4.657651e+001	1.090762e+002
9.990019e+006	-4.364602e+001	-8.691986e+001	-3.066567e+001	-1.958860e+001	-9.834277e+001	2.948198e+001	-4.649514e+001	1.094062e+002
9.990023e+006	-4.365070e+001	-8.685087e+001	-3.066452e+001	-1.959698e+001	-9.133766e+001	9.537737e+001	-4.647251e+001	1.097654e+002
9.990028e+006	-4.364852e+001	-8.702111e+001	-3.065274e+001	-1.956679e+001	-9.375685e+001	5.815519e+001	-4.646040e+001	1.097575e+002
9.990033e+006	-4.363231e+001	-8.664506e+001	-3.065143e+001	-1.963043e+001	-8.944067e+001	9.449900e+001	-4.655534e+001	1.098833e+002
9.990038e+006	-4.364682e+001	-8.683059e+001	-3.065394e+001	-1.953509e+001	-9.833536e+001	-3.565831e+001	-4.648614e+001	1.097631e+002
9.990042e+006	-4.362366e+001	-8.690946e+001	-3.066629e+001	-1.947304e+001	-9.695766e+001	2.852738e+000	-4.648256e+001	1.099360e+002
9.990047e+006	-4.371518e+001	-8.682277e+001	-3.066415e+001	-1.952250e+001	-9.131521e+001	4.786858e+001	-4.651855e+001	1.098827e+002
9.990052e+006	-4.363899e+001	-8.662026e+001	-3.065726e+001	-1.953566e+001	-9.722139e+001	1.405448e+001	-4.656473e+001	1.098544e+002
9.990056e+006	-4.363333e+001	-8.687592e+001	-3.066409e+001	-1.946654e+001	-9.759200e+001	6.819681e+001	-4.657193e+001	1.094122e+002
9.990061e+006	-4.364168e+001	-8.693748e+001	-3.066252e+001	-1.955912e+001	-9.573380e+001	-2.605948e+000	-4.659194e+001	1.095629e+002
9.990066e+006	-4.361764e+001	-8.695522e+001	-3.066814e+001	-1.956411e+001	-9.674581e+001	-1.080912e+002	-4.657440e+001	1.093190e+002
9.990070e+006	-4.362972e+001	-8.674761e+001	-3.064686e+001	-1.958189e+001	-9.031553e+001	1.376546e+002	-4.656041e+001	1.093328e+002
9.990075e+006	-4.367453e+001	-8.692395e+001	-3.065837e+001	-1.958998e+001	-1.020098e+002	3.681896e+001	-4.653496e+001	1.098960e+002
9.990080e+006	-4.364099e+001	-8.700705e+001	-3.065649e+001	-1.961215e+001	-9.262766e+001	6.210152e+001	-4.662478e+001	1.091469e+002
9.990084e+006	-4.361604e+001	-8.673534e+001	-3.066572e+001	-1.957656e+001	-9.387192e+001	1.253332e+002	-4.656077e+001	1.096200e+002
9.990089e+006	-4.363399e+001	-8.670323e+001	-3.065958e+001	-1.964191e+001	-9.351257e+001	7.653769e+001	-4.661700e+001	1.096472e+002
9.990094e+006	-4.362740e+001	-8.657616e+001	-3.065494e+001	-1.959978e+001	-1.052743e+002	7.994755e+001	-4.658681e+001	1.095392e+002
9.990098e+006	-4.364690e+001	-8.680534e+001	-3.066053e+001	-1.968306e+001	-9.364418e+001	5.384913e+001	-4.657033e+001	1.095502e+002
9.990103e+006	-4.360683e+001	-8.682732e+001	-3.066691e+001	-1.969910e+001	-8.683342e+001	5.730982e+001	-4.653827e+001	1.099029e+002
9.990108e+006	-4.365250e+001	-8.695661e+001	-3.065124e+001	-1.966215e+001	-9.050094e+001	-5.672432e+000	-4.651879e+001	1.095226e+002
9.990113e+006	-4.365202e+001	-8.683490e+001	-3.066398e+001	-1.966231e+001	-8.962509e+001	5.154385e+001	-4.654374e+001	1.090393e+002
9.990117e+006	-4.365679e+001	-8.676664e+001	-3.067779e+001	-1.971753e+001	-8.935982e+001	1.786635e+002	-4.656308e+001	1.096499e+002
9.990122e+006	-4.368718e+001	-8.689748e+001	-3.067644e+001	-1.962003e+001	-9.392519e+001	8.056210e+001	-4.655711e+001	1.098946e+002
9.990127e+006	-4.363845e+001	-8.681725e+001	-3.067107e+001	-1.960224e+001	-8.577167e+001	8.494960e+001	-4.654761e+001	1.098402e+002
9.990131e+006	-4.362926e+001	-8.688715e+001	-3.067415e+001	-1.969691e+001	-9.130569e+001	1.060361e+002	-4.655005e+001	1.100517e+002
9.990136e+006	-4.363147e+001	-8.684170e+001	-3.067757e+001	-1.958126e+001	-9.461928e+001	1.541199e+002	-4.654166e+001	1.096430e+002
9.990141e+006	-4.361889e+001	-8.667290e+001	-3.068332e+001	-1.957991e+001	-8.665420e+001	7.958851e+001	-4.659630e+001	1.096562e+002
9.990145e+006	-4.363628e+001	-8.685822e+001	-3.067840e+001	-1.959028e+001	-8.980980e+001	1.048131e+002	-4.651942e+001	1.102150e+002
9.990150e+006	-4.368348e+001	-8.672538e+001	-3.066816e+001	-1.958671e+001	-9.587514e+001	1.340556e+002	-4.655922e+001	1.093013e+002
9.990155e+006	-4.361298e+001	-8.696998e+001	-3.067858e+001	-1.956254e+001	-1.020315e+002	5.006857e+001	-4.650915e+001	1.094889e+002
9.990159e+006	-4.363588e+001	-8.690634e+001	-3.066843e+001	-1.952552e+001	-9.624288e+001	1.617599e+002	-4.658120e+001	1.099085e+002
9.990164e+006	-4.366178e+001	-8.686362e+001	-3.066617e+001	-1.952529e+001	-8.723000e+001	1.148909e+002	-4.655736e+001	1.093374e+002
9.990169e+006	-4.363806e+001	-8.671694e+001	-3.066281e+001	-1.953516e+001	-9.949387e+001	7.932486e+001	-4.650275e+001	1.097438e+002
9.990173e+006	-4.367333e+001	-8.698609e+001	-3.066344e+001	-1.950079e+001	-9.828145e+001	1.619423e+001	-4.651177e+001	1.096600e+002
9.990178e+006	-4.362020e+001	-8.654428e+001	-3.065798e+001	-1.943212e+001	-1.023422e+002	-9.015913e+000	-4.653161e+001	1.095880e+002
9.990183e+006	-4.360689e+001	-8.720198e+001	-3.065745e+001	-1.953934e+001	-9.185644e+001	9.916102e+001	-4.652291e+001	1.096517e+002
9.990188e+006	-4.362753e+001	-8.675781e+001	-3.066109e+001	-1.953815e+001	-9.297463e+001	-1.527728e+002	-4.643787e+001	1.097037e+002
9.990192e+006	-4.367204e+001	-8.679104e+001	-3.065329e+001	-1.954419e+001	-9.751766e+001	1.762263e+002	-4.651504e+001	1.097128e+002
9.990197e+006	-4.363945e+001	-8.680773e+001	-3.065877e+001	-1.959010e+001	-9.452868e+001	1.283007e+001	-4.653176e+001	1.094676e+002
9.990202e+006	-4.366305e+001	-8.678036e+001	-3.066158e+001	-1.960172e+001	-9.593482e+001	-9.457198e+001	-4.656773e+001	1.097090e+002
9.990206e+006	-4.364695e+001	-8.699227e+001	-3.065853e+001	-1.962031e+001	-9.528906e+001	-3.119274e+001	-4.656232e+001	1.096408e+002
9.990211e+006	-4.361234e+001	-8.681354e+001	-3.066589e+001	-1.955531e+001	-1.016758e+002	-1.624242e+001	-4.651126e+001	1.093710e+002
9.990216e+006	-4.365301e+001	-8.647259e+001	-3.066747e+001	-1.952114e+001	-1.043749e+002	1.251024e+002	-4.661441e+001	1.101116e+002
9.990220e+006	-4.360656e+001	-8.669800e+001	-3.066411e+001	-1.955052e+001	-9.852706e+001	2.606878e+000	-4.656065e+001	1.095971e+002
9.990225e+006	-4.363733e+001	-8.685792e+001	-3.065662e+001	-1.963656e+001	-9.038601e+001	8.101459e+001	-4.650202e+001	1.097850e+002
9.990230e+006	-4.364524e+001	-8.685148e+001	-3.065277e+001	-1.951664e+001	-9.520094e+001	9.484122e+001	-4.648982e+001	1.095667e+002
9.990234e+006	-4.368143e+001	-8.669362e+001	-3.065776e+001	-1.961000e+001	-9.505446e+001	-1.277940e+002	-4.649512e+001	1.095269e+002
9.990239e+006	-4.364988e+001	-8.695024e+001	-3.066366e+001	-1.957447e+001	-9.933757e+001	1.304202e-002	-4.658830e+001	1.096533e+002
9.990244e+006	-4.369271e+001	-8.669347e+001	-3.066160e+001	-1.959143e+001	-9.409331e+001	1.387315e+002	-4.658158e+001	1.100666e+002
9.990248e+006	-4.365179e+001	-8.677642e+001	-3.066564e+001	-1.955764e+001	-9.284684e+001	5.746276e+001	-4.649094e+001	1.102310e+002
9.990253e+006	-4.362720e+001	-8.673938e+001	-3.066088e+001	-1.951593e+001	-9.228195e+001	9.043760e+001	-4.647067e+001	1.097741e+002
9.990258e+006	-4.363349e+001	-8.654810e+001	-3.065020e+001	-1.958294e+001	-8.929673e+001	-1.557577e+002	-4.649960e+001	1.097798e+002
9.990263e+006	-4.366507e+001	-8.692320e+001	-3.065757e+001	-1.960386e+001	-9.218041e+001	2.119154e+001	-4.646288e+001	1.092802e+002
9.990267e+006	-4.364737e+001	-8.676333e+001	-3.066461e+001	-1.951816e+001	-1.074968e+002	7.295276e+001	-4.644470e+001	1.094497e+002
9.990272e+006	-4.366447e+001	-8.688260e+001	-3.066139e+001	-1.957863e+001	-8.886406e+001	3.780241e+001	-4.651620e+001	1.098961e+002
9.990277e+006	-4.366484e+001	-8.680898e+001	-3.065472e+001	-1.958684e+001	-8.962263e+001	1.254145e+002	-4.656467e+001	1.097814e+002
9.990281e+006	-4.361769e+001	-8.668976e+001	-3.064750e+001	-1.956107e+001	-9.347386e+001	6.023020e+001	-4.649591e+001	1.097607e+002
9.990286e+006	-4.362511e+001	-8.679399e+001	-3.066483e+001	-1.951705e+001	-9.753219e+001	1.129755e+002	-4.653020e+001	1.097244e+002
9.990291e+006	-4.364066e+001	-8.668117e+001	-3.067078e+001	-1.957446e+001	-9.868614e+001	-3.147707e+001	-4.653991e+001	1.099882e+002
9.990295e+006	-4.365819e+001	-8.685278e+001	-3.066267e+001	-1.954550e+001	-9.330777e+001	6.118518e+001	-4.653575e+001	1.100195e+002
9.990300e+006	-4.363796e+001	-8.666403e+001	-3.066362e+001	-1.951395e+001	-9.532487e+001	8.054362e+001	-4.656094e+001	1.097405e+002
9.990305e+006	-4.364984e+001	-8.671534e+001	-3.065880e+001	-1.953767e+001	-9.313154e+001	7.498727e+001	-4.649723e+001	1.097978e+002
9.990309e+006	-4.365245e+001	-8.669462e+001	-3.066309e+001	-1.952621e+001	-8.886396e+001	1.204993e+002	-4.650920e+001	1.092820e+002
9.990314e+006	-4.362812e+001	-8.663274e+001	-3.065676e+001	-1.954226e+001	-1.037183e+002	5.596902e+001	-4.651321e+001	1.095921e+002
9.990319e+006	-4.363472e+001	-8.668370e+001	-3.066329e+001	-1.954726e+001	-8.728423e+001	1.539642e+002	-4.648324e+001	1.094975e+002
9.990323e+006	-4.365249e+001	-8.699366e+001	-3.065337e+001	-1.955615e+001	-1.078137e+002	-6.906039e+001	-4.647718e+001	1.095979e+002
9.990328e+006	-4.363649e+001	-8.658300e+001	-3.066662e+001	-1.957919e+001	-8.831210e+001	1.253842e+002	-4.654535e+001	1.095705e+002
9.990333e+006	-4.364691e+001	-8.681200e+001	-3.065649e+001	-1.949670e+001	-8.952286e+001	1.367734e+002	-4.652521e+001	1.096291e+002
9.990338e+006	-4.366747e+001	-8.705968e+001	-3.065295e+001	-1.951403e+001	-9.887512e+001	3.005190e+001	-4.655168e+001	1.093058e+002
9.990342e+006	-4.365152e+001	-8.665239e+001	-3.066609e+001	-1.962834e+001	-9.293547e+001	5.957590e+001	-4.654048e+001	1.094494e+002
9.990347e+006	-4.367043e+001	-8.674383e+001	-3.066274e+001	-1.950209e+001	-9.407182e+001	-1.304215e+002	-4.651166e+001	1.095530e+002
9.990352e+006	-4.362849e+001	-8.692355e+001	-3.066135e+001	-1.957204e+001	-8.736620e+001	5.645211e+001	-4.648397e+001	1.094746e+002
9.990356e+006	-4.365008e+001	-8.676001e+001	-3.065207e+001	-1.947801e+001	-9.094683e+001	8.960455e+001	-4.656431e+001	1.097466e+002
9.990361e+006	-4.362154e+001	-8.685792e+001	-3.066655e+001	-1.951954e+001	-9.195098e+001	1.611562e+002	-4.652768e+001	1.097607e+002
9.990366e+006	-4.363120e+001	-8.663826e+001	-3.065589e+001	-1.958648e+001	-8.718018e+001	1.036719e+002	-4.656906e+001	1.098884e+002
9.990370e+006	-4.362613e+001	-8.687338e+001	-3.065299e+001	-1.956100e+001	-8.863487e+001	6.720878e+001	-4.656520e+001	1.096343e+002
9.990375e+006	-4.358456e+001	-8.678180e+001	-3.065815e+001	-1.958500e+001	-9.220991e+001	-1.655110e+002	-4.652259e+001	1.097141e+002
9.990380e+006	-4.365615e+001	-8.696369e+001	-3.065622e+001	-1.953834e+001	-9.376700e+001	1.105884e+002	-4.652781e+001	1.097838e+002
9.990384e+006	-4.369180e+001	-8.672057e+001	-3.066082e+001	-1.954405e+001	-9.750689e+001	-6.136221e+000	-4.654951e+001	1.096633e+002
9.990389e+006	-4.365138e+001	-8.662429e+001	-3.066515e+001	-1.953881e+001	-9.757005e+001	1.386615e+002	-4.649240e+001	1.096448e+002
9.990394e+006	-4.363674e+001	-8.685347e+001	-3.066181e+001	-1.958045e+001	-8.878272e+001	5.629923e+001	-4.651917e+001	1.094064e+002
9.990398e+006	-4.367542e+001	-8.672826e+001	-3.066406e+001	-1.952858e+001	-9.799760e+001	-1.773873e+002	-4.656967e+001	1.095759e+002
9.990403e+006	-4.364278e+001	-8.662659e+001	-3.065068e+001	-1.953558e+001	-9.782528e+001	-1.102061e+002	-4.647550e+001	1.097574e+002
9.990408e+006	-4.366706e+001	-8.700255e+001	-3.065282e+001	-1.956908e+001	-1.015469e+002	-1.723275e+002	-4.654933e+001	1.097992e+002
9.990413e+006	-4.366141e+001	-8.672620e+001	-3.065836e+001	-1.950685e+001	-9.044803e+001	9.481783e+001	-4.649222e+001	1.092663e+002
9.990417e+006	-4.363258e+001	-8.688220e+001	-3.065863e+001	-1.950730e+001	-9.217376e+001	5.864320e+001	-4.647555e+001	1.096584e+002
9.990422e+006	-4.368041e+001	-8.711202e+001	-3.065848e+001	-1.955804e+001	-1.053144e+002	-1.779138e+002	-4.648067e+001	1.096251e+002
9.990427e+006	-4.365122e+001	-8.689859e+001	-3.065495e+001	-1.956373e+001	-9.831139e+001	2.190711e-001	-4.658786e+001	1.098158e+002
9.990431e+006	-4.365311e+001	-8.671733e+001	-3.065897e+001	-1.955655e+001	-9.471372e+001	1.761157e+002	-4.656322e+001	1.097307e+002
9.990436e+006	-4.365859e+001	-8.667085e+001	-3.065151e+001	-1.950755e+001	-9.616072e+001	9.394491e+001	-4.651969e+001	1.096113e+002
9.990441e+006	-4.362947e+001	-8.650482e+001	-3.065070e+001	-1.953079e+001	-1.047475e+002	1.538364e+002	-4.649307e+001	1.098177e+002
9.990445e+006	-4.364590e+001	-8.654672e+001	-3.065975e+001	-1.958039e+001	-9.531364e+001	5.021551e+000	-4.656809e+001	1.093983e+002
9.990450e+006	-4.367135e+001	-8.674540e+001	-3.064903e+001	-1.954204e+001	-9.044101e+001	8.861006e+001	-4.648161e+001	1.095802e+002
9.990455e+006	-4.362124e+001	-8.686298e+001	-3.065853e+001	-1.956348e+001	-1.041607e+002	-9.745278e+001	-4.647349e+001	1.094653e+002
9.990459e+006	-4.366843e+001	-8.681117e+001	-3.065347e+001	-1.956098e+001	-8.854552e+001	1.357583e+002	-4.654904e+001	1.096949e+002
9.990464e+006	-4.364214e+001	-8.682250e+001	-3.066349e+001	-1.956213e+001	-8.791819e+001	1.336425e+002	-4.659956e+001	1.092774e+002
9.990469e+006	-4.366704e+001	-8.687511e+001	-3.064230e+001	-1.951942e+001	-9.661002e+001	1.052249e+002	-4.644916e+001	1.097284e+002
9.990473e+006	-4.367086e+001	-8.654619e+001	-3.065924e+001	-1.956280e+001	-9.652962e+001	1.723061e+001	-4.650319e+001	1.095081e+002
9.990478e+006	-4.362852e+001	-8.682298e+001	-3.066081e+001	-1.959174e+001	-9.571773e+001	1.217634e+002	-4.648432e+001	1.099191e+002
9.990483e+006	-4.365648e+001	-8.677545e+001	-3.065175e+001	-1.953288e+001	-9.302847e+001	1.004539e+002	-4.649668e+001	1.098428e+002
9.990488e+006	-4.364336e+001	-8.669098e+001	-3.066011e+001	-1.953228e+001	-9.746202e+001	1.265281e+002	-4.653713e+001	1.098768e+002
9.990492e+006	-4.365543e+001	-8.675837e+001	-3.065092e+001	-1.953577e+001	-9.596125e+001	6.599904e+001	-4.647146e+001	1.096587e+002
9.990497e+006	-4.367011e+001	-8.644148e+001	-3.065325e+001	-1.959837e+001	-9.895369e+001	9.999858e+000	-4.653627e+001	1.096372e+002
9.990502e+006	-4.363956e+001	-8.664864e+001	-3.065775e+001	-1.950314e+001	-1.067180e+002	7.974114e+000	-4.653441e+001	1.098373e+002
9.990506e+006	-4.365752e+001	-8.655176e+001	-3.066345e+001	-1.957388e+001	-9.363321e+001	1.248504e+002	-4.656907e+001	1.098218e+002
9.990511e+006	-4.363494e+001	-8.661955e+001	-3.065655e+001	-1.951784e+001	-9.375303e+001	7.672990e+001	-4.648192e+001	1.096820e+002
9.990516e+006	-4.361532e+001	-8.689094e+001	-3.064871e+001	-1.954003e+001	-9.631034e+001	8.954795e+001	-4.652153e+001	1.095131e+002
9.990520e+006	-4.369465e+001	-8.676513e+001	-3.065878e+001	-1.952801e+001	-8.780779e+001	3.820640e+001	-4.653448e+001	1.096312e+002
9.990525e+006	-4.365829e+001	-8.684131e+001	-3.065369e+001	-1.960148e+001	-9.711306e+001	3.923614e+001	-4.654289e+001	1.099350e+002
9.990530e+006	-4.360461e+001	-8.691239e+001	-3.065329e+001	-1.951448e+001	-9.014280e+001	1.069162e+002	-4.652856e+001	1.094066e+002
9.990534e+006	-4.359854e+001	-8.664379e+001	-3.065798e+001	-1.957643e+001	-9.971214e+001	5.827464e+001	-4.651494e+001	1.099087e+002
9.990539e+006	-4.365399e+001	-8.668696e+001	-3.065432e+001	-1.950093e+001	-9.071688e+001	1.131695e+002	-4.656073e+001	1.099285e+002
9.990544e+006	-4.360116e+001	-8.666737e+001	-3.065327e+001	-1.953509e+001	-8.697648e+001	1.659778e+002	-4.651340e+001	1.095134e+002
9.990548e+006	-4.360336e+001	-8.668908e+001	-3.064789e+001	-1.951183e+001	-9.398770e+001	-4.843842e+001	-4.656399e+001	1.092963e+002
9.990553e+006	-4.360903e+001	-8.687994e+001	-3.065150e+001	-1.955669e+001	-9.449768e+001	8.421220e+001	-4.649345e+001	1.090527e+002
9.990558e+006	-4.365693e+001	-8.682177e+001	-3.065476e+001	-1.948203e+001	-8.873494e+001	1.132466e+002	-4.644451e+001	1.099016e+002
9.990563e+006	-4.362814e+001	-8.662574e+001	-3.065064e+001	-1.959286e+001	-8.703259e+001	1.133378e+002	-4.653312e+001	1.096429e+002
9.990567e+006	-4.363696e+001	-8.673623e+001	-3.065215e+001	-1.956638e+001	-1.044566e+002	-1.797741e+002	-4.649710e+001	1.096419e+002
9.990572e+006	-4.363953e+001	-8.653967e+001	-3.065541e+001	-1.960721e+001	-9.025504e+001	8.317448e+001	-4.651983e+001	1.098158e+002
9.990577e+006	-4.365623e+001	-8.691702e+001	-3.065639e+001	-1.951693e+001	-9.387769e+001	1.149267e+002	-4.653091e+001	1.094059e+002
9.990581e+006	-4.362307e+001	-8.673940e+001	-3.065546e+001	-1.959232e+001	-9.675221e+001	1.066938e+002	-4.651899e+001	1.100487e+002
9.990586e+006	-4.363774e+001	-8.657603e+001	-3.065427e+001	-1.957544e+001	-1.020563e+002	8.948802e+001	-4.652678e+001	1.098410e+002
9.990591e+006	-4.364885e+001	-8.684215e+001	-3.065921e+001	-1.956456e+001	-8.870815e+001	7.769618e+001	-4.658727e+001	1.096909e+002
9.990595e+006	-4.365781e+001	-8.684246e+001	-3.066016e+001	-1.950822e+001	-9.544357e+001	-1.526943e+002	-4.652901e+001	1.098208e+002
9.990600e+006	-4.368054e+001	-8.655801e+001	-3.065414e+001	-1.954155e+001	-9.103292e+001	3.271277e+001	-4.646179e+001	1.094666e+002
9.990605e+006	-4.360663e+001	-8.649515e+001	-3.064421e+001	-1.958938e+001	-9.374434e+001	4.728690e+001	-4.652555e+001	1.097390e+002
9.990609e+006	-4.366671e+001	-8.685198e+001	-3.064448e+001	-1.954679e+001	-9.340724e+001	1.656466e+002	-4.651835e+001	1.090955e+002
9.990614e+006	-4.366334e+001	-8.672510e+001	-3.065954e+001	-1.957241e+001	-9.282072e+001	1.496203e+002	-4.651574e+001	1.093569e+002
9.990619e+006	-4.361859e+001	-8.686007e+001	-3.065258e+001	-1.957834e+001	-8.851874e+001	1.136087e+002	-4.654666e+001	1.096686e+002
9.990623e+006	-4.365884e+001	-8.676341e+001	-3.065994e+001	-1.947215e+001	-1.052894e+002	2.207914e+001	-4.653211e+001	1.100053e+002
9.990628e+006	-4.361346e+001	-8.662902e+001	-3.065196e+001	-1.955957e+001	-8.809662e+001	1.052540e+002	-4.654011e+001	1.094964e+002
9.990633e+006	-4.364328e+001	-8.706299e+001	-3.063952e+001	-1.951164e+001	-9.706080e+001	1.112312e+002	-4.654034e+001	1.094488e+002
9.990638e+006	-4.362547e+001	-8.661549e+001	-3.065217e+001	-1.953370e+001	-9.198474e+001	1.354910e+002	-4.648936e+001	1.098752e+002
9.990642e+006	-4.364554e+001	-8.682337e+001	-3.064462e+001	-1.959347e+001	-9.190665e+001	-1.735233e+002	-4.654525e+001	1.098332e+002
9.990647e+006	-4.366968e+001	-8.661557e+001	-3.065352e+001	-1.949320e+001	-9.119202e+001	6.817591e+001	-4.653582e+001	1.098002e+002
9.990652e+006	-4.361773e+001	-8.678955e+001	-3.066288e+001	-1.957398e+001	-9.553011e+001	1.946113e+001	-4.646474e+001	1.093649e+002
9.990656e+006	-4.364434e+001	-8.666015e+001	-3.064626e+001	-1.958430e+001	-8.974249e+001	8.152384e+001	-4.654323e+001	1.099154e+002
9.990661e+006	-4.362922e+001	-8.669377e+001	-3.065162e+001	-1.951248e+001	-9.585820e+001	-1.667262e+002	-4.648530e+001	1.096124e+002
9.990666e+006	-4.364658e+001	-8.676074e+001	-3.065725e+001	-1.965288e+001	-9.618961e+001	-4.582434e+001	-4.655497e+001	1.095117e+002
9.990670e+006	-4.363773e+001	-8.683616e+001	-3.065007e+001	-1.954733e+001	-8.562941e+001	7.291812e+001	-4.652754e+001	1.097604e+002
9.990675e+006	-4.364683e+001	-8.655070e+001	-3.065452e+001	-1.954102e+001	-9.321306e+001	1.402611e+002	-4.646920e+001	1.095603e+002
9.990680e+006	-4.365445e+001	-8.677104e+001	-3.065194e+001	-1.964281e+001	-9.434440e+001	-9.295666e+001	-4.651683e+001	1.095183e+002
9.990684e+006	-4.367239e+001	-8.671475e+001	-3.064701e+001	-1.950810e+001	-9.206906e+001	7.386920e+000	-4.653375e+001	1.095906e+002
9.990689e+006	-4.362316e+001	-8.699429e+001	-3.067199e+001	-1.959558e+001	-9.457179e+001	3.908886e+001	-4.652972e+001	1.096518e+002
