!CETC41,AV3656A,ZGL00048,1.3.2
!Calibration ON (Full Solt 2-Port(Omit Isolation))
!Measurements: S11 S21 S12 S22
!2025-04-22 23:51
# Hz  S  dB  R 50.000
9.990000e+006	-4.391965e+001	-8.421823e+001	-3.066774e+001	-2.135896e+001	-8.749421e+001	1.730235e+002	-4.357825e+001	1.170214e+002
9.990005e+006	-4.392386e+001	-8.410291e+001	-3.065687e+001	-2.135010e+001	-8.576546e+001	1.608148e+002	-4.360146e+001	1.170122e+002
9.990009e+006	-4.389757e+001	-8.416139e+001	-3.067616e+001	-2.136615e+001	-9.073357e+001	1.684387e+002	-4.356031e+001	1.167419e+002
9.990014e+006	-4.391041e+001	-8.384739e+001	-3.065799e+001	-2.144245e+001	-1.001416e+002	5.438620e+000	-4.356536e+001	1.170519e+002
9.990019e+006	-4.392132e+001	-8.392494e+001	-3.065326e+001	-2.141142e+001	-9.411867e+001	9.707382e+001	-4.359418e+001	1.169060e+002
9.990023e+006	-4.390172e+001	-8.404829e+001	-3.064717e+001	-2.144064e+001	-8.814286e+001	-1.413245e+002	-4.357378e+001	1.169353e+002
9.990028e+006	-4.393404e+001	-8.437354e+001	-3.065084e+001	-2.140959e+001	-9.056332e+001	-1.274027e+002	-4.362352e+001	1.171403e+002
9.990033e+006	-4.390893e+001	-8.405859e+001	-3.065748e+001	-2.143838e+001	-9.391349e+001	-1.771681e+002	-4.357383e+001	1.171181e+002
9.990038e+006	-4.392296e+001	-8.394236e+001	-3.066610e+001	-2.138346e+001	-9.327255e+001	6.178871e+001	-4.357796e+001	1.170267e+002
9.990042e+006	-4.391351e+001	-8.396467e+001	-3.065518e+001	-2.139669e+001	-9.093422e+001	1.453078e+002	-4.357391e+001	1.169964e+002
9.990047e+006	-4.387520e+001	-8.423104e+001	-3.065316e+001	-2.146425e+001	-9.743811e+001	1.200165e+002	-4.358074e+001	1.169916e+002
9.990052e+006	-4.390874e+001	-8.440363e+001	-3.065417e+001	-2.144448e+001	-1.019334e+002	-1.739780e+002	-4.358216e+001	1.169018e+002
9.990056e+006	-4.388479e+001	-8.430522e+001	-3.065464e+001	-2.145194e+001	-9.359581e+001	-7.926941e+001	-4.357899e+001	1.166848e+002
9.990061e+006	-4.390780e+001	-8.396893e+001	-3.064650e+001	-2.144491e+001	-8.773403e+001	1.190583e+002	-4.359458e+001	1.168850e+002
9.990066e+006	-4.387303e+001	-8.395170e+001	-3.065860e+001	-2.148832e+001	-8.922603e+001	1.100729e+002	-4.357954e+001	1.166273e+002
9.990070e+006	-4.388152e+001	-8.407864e+001	-3.066026e+001	-2.146786e+001	-8.633411e+001	1.250880e+002	-4.356059e+001	1.167565e+002
9.990075e+006	-4.390253e+001	-8.402298e+001	-3.066442e+001	-2.150385e+001	-9.903131e+001	1.037249e+002	-4.358180e+001	1.168886e+002
9.990080e+006	-4.390653e+001	-8.409337e+001	-3.066913e+001	-2.145750e+001	-9.850359e+001	6.791996e+001	-4.356966e+001	1.168678e+002
9.990084e+006	-4.389419e+001	-8.423415e+001	-3.067220e+001	-2.151069e+001	-8.694085e+001	1.231756e+002	-4.357569e+001	1.168547e+002
9.990089e+006	-4.392878e+001	-8.409199e+001	-3.067569e+001	-2.135427e+001	-9.974945e+001	9.035287e+001	-4.356186e+001	1.167532e+002
9.990094e+006	-4.391600e+001	-8.397176e+001	-3.067402e+001	-2.137605e+001	-9.384824e+001	1.448828e+002	-4.358139e+001	1.166850e+002
9.990098e+006	-4.393027e+001	-8.382121e+001	-3.067307e+001	-2.140341e+001	-9.059515e+001	4.587628e+001	-4.356785e+001	1.166291e+002
9.990103e+006	-4.389513e+001	-8.418662e+001	-3.066768e+001	-2.144439e+001	-8.979830e+001	9.928105e+001	-4.351977e+001	1.170429e+002
9.990108e+006	-4.391545e+001	-8.428611e+001	-3.067245e+001	-2.138619e+001	-9.264278e+001	1.525245e+002	-4.357435e+001	1.167831e+002
9.990113e+006	-4.396467e+001	-8.388441e+001	-3.067497e+001	-2.131217e+001	-9.470003e+001	-1.630055e+001	-4.356699e+001	1.168249e+002
9.990117e+006	-4.388307e+001	-8.406448e+001	-3.066120e+001	-2.131543e+001	-8.933696e+001	1.135069e+002	-4.359343e+001	1.168939e+002
9.990122e+006	-4.395627e+001	-8.405000e+001	-3.065250e+001	-2.131265e+001	-9.294573e+001	1.708714e+002	-4.355708e+001	1.169536e+002
9.990127e+006	-4.390812e+001	-8.434518e+001	-3.065374e+001	-2.131097e+001	-9.617292e+001	1.121115e+002	-4.357825e+001	1.167226e+002
9.990131e+006	-4.390095e+001	-8.429888e+001	-3.065351e+001	-2.133204e+001	-9.092173e+001	4.291224e+001	-4.357361e+001	1.167469e+002
9.990136e+006	-4.392183e+001	-8.396931e+001	-3.066183e+001	-2.139262e+001	-9.129690e+001	4.780215e+001	-4.356802e+001	1.167354e+002
9.990141e+006	-4.391978e+001	-8.418929e+001	-3.067226e+001	-2.139416e+001	-9.079370e+001	9.820269e+001	-4.356503e+001	1.169426e+002
9.990145e+006	-4.387725e+001	-8.428973e+001	-3.066580e+001	-2.141600e+001	-1.064894e+002	1.189116e+002	-4.361073e+001	1.167659e+002
9.990150e+006	-4.387306e+001	-8.400138e+001	-3.066227e+001	-2.137008e+001	-9.360244e+001	8.612803e+001	-4.361271e+001	1.169202e+002
9.990155e+006	-4.391267e+001	-8.402735e+001	-3.066117e+001	-2.136174e+001	-9.135402e+001	8.073926e+001	-4.354173e+001	1.169833e+002
9.990159e+006	-4.391576e+001	-8.416518e+001	-3.064722e+001	-2.132166e+001	-9.616496e+001	1.564814e+002	-4.356733e+001	1.169785e+002
9.990164e+006	-4.389501e+001	-8.431722e+001	-3.065907e+001	-2.131858e+001	-8.481419e+001	7.991593e+001	-4.359489e+001	1.170791e+002
9.990169e+006	-4.385784e+001	-8.420753e+001	-3.065548e+001	-2.142914e+001	-9.183276e+001	-3.601288e+000	-4.362825e+001	1.168342e+002
9.990173e+006	-4.388710e+001	-8.397476e+001	-3.065828e+001	-2.138379e+001	-9.026947e+001	1.073521e+002	-4.357253e+001	1.168826e+002
9.990178e+006	-4.388583e+001	-8.424930e+001	-3.065993e+001	-2.136235e+001	-9.633687e+001	1.116771e+002	-4.358081e+001	1.168253e+002
9.990183e+006	-4.392406e+001	-8.402305e+001	-3.065912e+001	-2.133225e+001	-9.543921e+001	6.140369e+001	-4.360874e+001	1.167796e+002
9.990188e+006	-4.393635e+001	-8.407834e+001	-3.065644e+001	-2.135752e+001	-9.498964e+001	-1.702078e+002	-4.355230e+001	1.167384e+002
9.990192e+006	-4.391342e+001	-8.401006e+001	-3.065214e+001	-2.131426e+001	-8.857430e+001	7.847558e+001	-4.358746e+001	1.167401e+002
9.990197e+006	-4.388442e+001	-8.413859e+001	-3.065007e+001	-2.132701e+001	-9.208347e+001	9.167302e+001	-4.355505e+001	1.170052e+002
9.990202e+006	-4.388723e+001	-8.419651e+001	-3.065550e+001	-2.142231e+001	-9.475989e+001	1.301416e+002	-4.358677e+001	1.170248e+002
9.990206e+006	-4.386583e+001	-8.408179e+001	-3.065317e+001	-2.136126e+001	-8.926913e+001	1.013058e+002	-4.355345e+001	1.168992e+002
9.990211e+006	-4.393528e+001	-8.395634e+001	-3.065859e+001	-2.136770e+001	-9.343468e+001	1.089037e+002	-4.357009e+001	1.167194e+002
9.990216e+006	-4.386812e+001	-8.417389e+001	-3.064778e+001	-2.138578e+001	-9.067050e+001	-3.428387e+001	-4.361064e+001	1.167907e+002
9.990220e+006	-4.392032e+001	-8.377372e+001	-3.064934e+001	-2.139741e+001	-9.439387e+001	1.263340e+002	-4.356448e+001	1.166931e+002
9.990225e+006	-4.393317e+001	-8.420062e+001	-3.066127e+001	-2.138958e+001	-8.851421e+001	1.369173e+002	-4.360815e+001	1.167894e+002
9.990230e+006	-4.387923e+001	-8.407443e+001	-3.065901e+001	-2.136929e+001	-9.040420e+001	7.450675e+001	-4.356302e+001	1.168513e+002
9.990234e+006	-4.390717e+001	-8.418999e+001	-3.065840e+001	-2.140188e+001	-9.481878e+001	-1.415041e+002	-4.361369e+001	1.168465e+002
9.990239e+006	-4.393036e+001	-8.393697e+001	-3.065993e+001	-2.135280e+001	-8.938459e+001	9.396945e+001	-4.354431e+001	1.168106e+002
9.990244e+006	-4.389506e+001	-8.420770e+001	-3.065985e+001	-2.135601e+001	-1.053160e+002	-1.124598e+002	-4.357793e+001	1.169796e+002
9.990248e+006	-4.388626e+001	-8.413303e+001	-3.066007e+001	-2.133246e+001	-8.809030e+001	7.331039e+001	-4.358915e+001	1.168755e+002
9.990253e+006	-4.392038e+001	-8.400547e+001	-3.065539e+001	-2.135373e+001	-1.004901e+002	1.220377e+002	-4.361855e+001	1.169167e+002
9.990258e+006	-4.389632e+001	-8.392431e+001	-3.064293e+001	-2.141803e+001	-1.028222e+002	5.152777e+001	-4.360283e+001	1.168659e+002
9.990263e+006	-4.385452e+001	-8.400909e+001	-3.065403e+001	-2.140566e+001	-9.137844e+001	1.317001e+002	-4.353954e+001	1.169855e+002
9.990267e+006	-4.391999e+001	-8.388858e+001	-3.065541e+001	-2.134184e+001	-9.127765e+001	8.531290e+001	-4.360673e+001	1.169955e+002
9.990272e+006	-4.390175e+001	-8.421383e+001	-3.065311e+001	-2.141404e+001	-9.670614e+001	-4.774821e+001	-4.361147e+001	1.167064e+002
9.990277e+006	-4.389844e+001	-8.384509e+001	-3.065032e+001	-2.134431e+001	-1.022851e+002	-1.201909e+002	-4.356243e+001	1.168734e+002
9.990281e+006	-4.387801e+001	-8.408397e+001	-3.065650e+001	-2.139263e+001	-9.872633e+001	-1.295386e+002	-4.355168e+001	1.169597e+002
9.990286e+006	-4.390539e+001	-8.393782e+001	-3.066009e+001	-2.135874e+001	-9.815838e+001	6.763249e+001	-4.358539e+001	1.169606e+002
9.990291e+006	-4.387441e+001	-8.397569e+001	-3.065388e+001	-2.140783e+001	-9.297638e+001	7.174233e+001	-4.356986e+001	1.165617e+002
9.990295e+006	-4.391444e+001	-8.379858e+001	-3.066096e+001	-2.136188e+001	-1.079356e+002	1.556521e+002	-4.354023e+001	1.167731e+002
9.990300e+006	-4.391897e+001	-8.383186e+001	-3.066356e+001	-2.136760e+001	-9.661269e+001	8.888301e+001	-4.353971e+001	1.169440e+002
9.990305e+006	-4.393063e+001	-8.411750e+001	-3.065358e+001	-2.131091e+001	-9.498982e+001	-1.653798e+002	-4.354753e+001	1.167952e+002
9.990309e+006	-4.390132e+001	-8.399469e+001	-3.065214e+001	-2.139686e+001	-9.693958e+001	-1.422758e+002	-4.356281e+001	1.167465e+002
9.990314e+006	-4.392770e+001	-8.400650e+001	-3.065194e+001	-2.144038e+001	-8.813523e+001	1.609771e+002	-4.359555e+001	1.168179e+002
9.990319e+006	-4.388795e+001	-8.413335e+001	-3.064711e+001	-2.135426e+001	-9.561072e+001	1.292619e+002	-4.359019e+001	1.169782e+002
9.990323e+006	-4.392616e+001	-8.421730e+001	-3.064568e+001	-2.139426e+001	-9.085477e+001	1.298559e+002	-4.356785e+001	1.169270e+002
9.990328e+006	-4.391524e+001	-8.399500e+001	-3.065832e+001	-2.135079e+001	-9.307534e+001	1.067617e+002	-4.356110e+001	1.166744e+002
9.990333e+006	-4.390090e+001	-8.422122e+001	-3.065469e+001	-2.134196e+001	-9.573166e+001	9.525022e+001	-4.353740e+001	1.170322e+002
9.990338e+006	-4.388883e+001	-8.418305e+001	-3.065139e+001	-2.136138e+001	-8.842490e+001	6.208057e+001	-4.351888e+001	1.169355e+002
9.990342e+006	-4.388127e+001	-8.410367e+001	-3.066088e+001	-2.134481e+001	-9.148122e+001	7.996622e+001	-4.354138e+001	1.170229e+002
9.990347e+006	-4.392183e+001	-8.400510e+001	-3.064915e+001	-2.134402e+001	-9.409049e+001	9.220575e+001	-4.358735e+001	1.170013e+002
9.990352e+006	-4.390470e+001	-8.400629e+001	-3.065131e+001	-2.135273e+001	-8.722348e+001	1.332169e+002	-4.358605e+001	1.171717e+002
9.990356e+006	-4.389843e+001	-8.403898e+001	-3.065457e+001	-2.139698e+001	-9.084008e+001	4.669384e+001	-4.357312e+001	1.169789e+002
9.990361e+006	-4.387218e+001	-8.410004e+001	-3.065181e+001	-2.128537e+001	-9.173238e+001	1.408473e+002	-4.355376e+001	1.168115e+002
9.990366e+006	-4.389579e+001	-8.417351e+001	-3.066020e+001	-2.140420e+001	-8.924675e+001	9.466684e+001	-4.358031e+001	1.168775e+002
9.990370e+006	-4.384910e+001	-8.392868e+001	-3.065792e+001	-2.141684e+001	-9.537851e+001	1.729968e+002	-4.354015e+001	1.168901e+002
9.990375e+006	-4.391213e+001	-8.394346e+001	-3.064179e+001	-2.135814e+001	-9.532544e+001	1.113953e+002	-4.361901e+001	1.171141e+002
9.990380e+006	-4.385336e+001	-8.387396e+001	-3.065470e+001	-2.133545e+001	-8.945356e+001	4.480549e+001	-4.356039e+001	1.171042e+002
9.990384e+006	-4.392041e+001	-8.405906e+001	-3.064905e+001	-2.131399e+001	-9.447127e+001	1.336857e+002	-4.354152e+001	1.166337e+002
9.990389e+006	-4.391483e+001	-8.409253e+001	-3.065197e+001	-2.137299e+001	-9.552292e+001	1.026573e+002	-4.356448e+001	1.166997e+002
9.990394e+006	-4.389942e+001	-8.414481e+001	-3.066105e+001	-2.135109e+001	-1.009300e+002	-1.779351e+002	-4.358583e+001	1.167958e+002
9.990398e+006	-4.390142e+001	-8.430444e+001	-3.065856e+001	-2.138635e+001	-8.762755e+001	1.395082e+002	-4.356510e+001	1.171412e+002
9.990403e+006	-4.396105e+001	-8.412321e+001	-3.065488e+001	-2.141961e+001	-9.210144e+001	1.026788e+002	-4.357007e+001	1.169609e+002
9.990408e+006	-4.389407e+001	-8.427860e+001	-3.065216e+001	-2.133198e+001	-8.817809e+001	1.474777e+002	-4.359161e+001	1.164926e+002
9.990413e+006	-4.393468e+001	-8.419613e+001	-3.065816e+001	-2.137955e+001	-9.389256e+001	3.304767e+001	-4.353891e+001	1.165691e+002
9.990417e+006	-4.390744e+001	-8.419435e+001	-3.065473e+001	-2.139422e+001	-9.253426e+001	-1.724988e+002	-4.356886e+001	1.169345e+002
9.990422e+006	-4.391830e+001	-8.421324e+001	-3.065668e+001	-2.137247e+001	-9.511046e+001	3.806419e+001	-4.357998e+001	1.168629e+002
9.990427e+006	-4.391863e+001	-8.394930e+001	-3.066066e+001	-2.140785e+001	-9.462205e+001	-1.630586e+002	-4.353951e+001	1.167847e+002
9.990431e+006	-4.389632e+001	-8.406347e+001	-3.065440e+001	-2.135625e+001	-9.538956e+001	9.612373e+001	-4.356630e+001	1.167589e+002
9.990436e+006	-4.394439e+001	-8.399134e+001	-3.065825e+001	-2.133448e+001	-9.543636e+001	-2.494296e+001	-4.357573e+001	1.169985e+002
9.990441e+006	-4.387344e+001	-8.405203e+001	-3.065517e+001	-2.139099e+001	-9.165938e+001	9.009414e+001	-4.355677e+001	1.169795e+002
9.990445e+006	-4.390425e+001	-8.419796e+001	-3.065569e+001	-2.131690e+001	-9.766009e+001	1.128180e+001	-4.355040e+001	1.167031e+002
9.990450e+006	-4.387995e+001	-8.386275e+001	-3.065810e+001	-2.137014e+001	-9.214870e+001	1.548607e+002	-4.357701e+001	1.168221e+002
9.990455e+006	-4.392915e+001	-8.410728e+001	-3.065202e+001	-2.142913e+001	-1.048119e+002	9.188698e+001	-4.353585e+001	1.168665e+002
9.990459e+006	-4.398408e+001	-8.384202e+001	-3.065597e+001	-2.133969e+001	-9.088846e+001	-2.872139e+001	-4.357814e+001	1.168391e+002
9.990464e+006	-4.389151e+001	-8.402002e+001	-3.066371e+001	-2.141984e+001	-9.473666e+001	1.109017e+001	-4.359039e+001	1.168581e+002
9.990469e+006	-4.389368e+001	-8.411844e+001	-3.065435e+001	-2.130121e+001	-9.336039e+001	-3.703749e+001	-4.354833e+001	1.168812e+002
9.990473e+006	-4.392445e+001	-8.418793e+001	-3.066177e+001	-2.135540e+001	-9.307608e+001	4.727646e+001	-4.362127e+001	1.166009e+002
9.990478e+006	-4.393383e+001	-8.402418e+001	-3.065084e+001	-2.133883e+001	-9.078479e+001	1.148354e+001	-4.357341e+001	1.165531e+002
9.990483e+006	-4.389591e+001	-8.400386e+001	-3.065658e+001	-2.137049e+001	-9.549965e+001	1.627993e+002	-4.357593e+001	1.169380e+002
9.990488e+006	-4.390739e+001	-8.401793e+001	-3.065540e+001	-2.130119e+001	-1.003452e+002	-4.745661e+001	-4.355378e+001	1.167676e+002
9.990492e+006	-4.391268e+001	-8.387236e+001	-3.065170e+001	-2.141086e+001	-9.235524e+001	3.894125e+001	-4.351694e+001	1.170125e+002
9.990497e+006	-4.394939e+001	-8.436822e+001	-3.065754e+001	-2.135027e+001	-9.480773e+001	1.412328e+002	-4.358031e+001	1.168771e+002
9.990502e+006	-4.388074e+001	-8.402581e+001	-3.064663e+001	-2.136928e+001	-9.218401e+001	-1.545118e+002	-4.353730e+001	1.168396e+002
9.990506e+006	-4.389772e+001	-8.404058e+001	-3.065032e+001	-2.133156e+001	-1.056301e+002	9.454686e+001	-4.352420e+001	1.166012e+002
9.990511e+006	-4.389291e+001	-8.401633e+001	-3.064750e+001	-2.139804e+001	-1.034670e+002	1.766568e+001	-4.357378e+001	1.166882e+002
9.990516e+006	-4.393665e+001	-8.407881e+001	-3.064271e+001	-2.141228e+001	-1.043390e+002	8.910478e+001	-4.354300e+001	1.168673e+002
9.990520e+006	-4.390951e+001	-8.402809e+001	-3.065674e+001	-2.137592e+001	-9.086248e+001	1.086347e+002	-4.353951e+001	1.168140e+002
9.990525e+006	-4.390626e+001	-8.390899e+001	-3.064448e+001	-2.129322e+001	-9.035602e+001	1.496337e+002	-4.356588e+001	1.169939e+002
9.990530e+006	-4.388902e+001	-8.412348e+001	-3.065043e+001	-2.134598e+001	-9.380510e+001	8.328749e+001	-4.355301e+001	1.169787e+002
9.990534e+006	-4.391271e+001	-8.390249e+001	-3.064894e+001	-2.146621e+001	-9.142522e+001	-4.329547e+000	-4.355031e+001	1.171809e+002
9.990539e+006	-4.389016e+001	-8.405986e+001	-3.065456e+001	-2.136172e+001	-8.987262e+001	1.130067e+002	-4.355837e+001	1.167460e+002
9.990544e+006	-4.389302e+001	-8.391398e+001	-3.064612e+001	-2.142529e+001	-9.665725e+001	9.135088e+001	-4.355252e+001	1.168204e+002
9.990548e+006	-4.390189e+001	-8.405901e+001	-3.065362e+001	-2.142877e+001	-9.131495e+001	-1.686214e+002	-4.358435e+001	1.167674e+002
9.990553e+006	-4.393149e+001	-8.410513e+001	-3.064503e+001	-2.135661e+001	-8.743424e+001	1.307897e+002	-4.356030e+001	1.169799e+002
9.990558e+006	-4.388238e+001	-8.384499e+001	-3.064722e+001	-2.134740e+001	-8.764061e+001	1.478259e+002	-4.357719e+001	1.170718e+002
9.990563e+006	-4.392548e+001	-8.404603e+001	-3.064346e+001	-2.141220e+001	-9.555620e+001	-1.395235e-002	-4.358784e+001	1.169761e+002
9.990567e+006	-4.388289e+001	-8.393311e+001	-3.065561e+001	-2.136803e+001	-9.094758e+001	6.948267e+001	-4.361604e+001	1.169468e+002
9.990572e+006	-4.386352e+001	-8.412492e+001	-3.064479e+001	-2.139240e+001	-9.194507e+001	1.461448e+002	-4.354332e+001	1.167774e+002
9.990577e+006	-4.385690e+001	-8.400683e+001	-3.065037e+001	-2.141147e+001	-8.785228e+001	1.342422e+002	-4.355014e+001	1.169229e+002
9.990581e+006	-4.390368e+001	-8.384789e+001	-3.064506e+001	-2.133942e+001	-9.305277e+001	8.822736e+001	-4.352678e+001	1.165816e+002
9.990586e+006	-4.395235e+001	-8.432148e+001	-3.066151e+001	-2.136800e+001	-9.128656e+001	1.100291e+002	-4.358528e+001	1.166439e+002
9.990591e+006	-4.391442e+001	-8.404892e+001	-3.064793e+001	-2.136975e+001	-9.101160e+001	-1.602841e+002	-4.357065e+001	1.167301e+002
9.990595e+006	-4.389331e+001	-8.430423e+001	-3.066171e+001	-2.139169e+001	-9.045081e+001	9.658506e+001	-4.357573e+001	1.170430e+002
9.990600e+006	-4.389129e+001	-8.400416e+001	-3.064789e+001	-2.137216e+001	-8.983621e+001	1.545230e+002	-4.355354e+001	1.170835e+002
9.990605e+006	-4.394365e+001	-8.419791e+001	-3.065465e+001	-2.134567e+001	-8.961762e+001	3.778773e+001	-4.353013e+001	1.171072e+002
9.990609e+006	-4.392538e+001	-8.407906e+001	-3.065049e+001	-2.132601e+001	-9.063372e+001	1.319863e+002	-4.354891e+001	1.169922e+002
9.990614e+006	-4.391774e+001	-8.389772e+001	-3.064734e+001	-2.145675e+001	-9.299245e+001	1.573250e+002	-4.353857e+001	1.170467e+002
9.990619e+006	-4.388547e+001	-8.401002e+001	-3.065508e+001	-2.137693e+001	-9.577705e+001	-1.723468e+002	-4.359481e+001	1.169357e+002
9.990623e+006	-4.389744e+001	-8.389038e+001	-3.063270e+001	-2.140372e+001	-9.649474e+001	1.408292e+002	-4.354978e+001	1.169211e+002
9.990628e+006	-4.393282e+001	-8.419653e+001	-3.065859e+001	-2.128595e+001	-9.937197e+001	-4.009399e+001	-4.357476e+001	1.166912e+002
9.990633e+006	-4.389418e+001	-8.401550e+001	-3.064608e+001	-2.139204e+001	-9.114509e+001	8.755621e+001	-4.356465e+001	1.168391e+002
9.990638e+006	-4.387429e+001	-8.389466e+001	-3.066075e+001	-2.139532e+001	-1.000214e+002	9.586792e+001	-4.357756e+001	1.167543e+002
9.990642e+006	-4.394265e+001	-8.405965e+001	-3.064494e+001	-2.135613e+001	-9.994888e+001	6.832909e+001	-4.353118e+001	1.170916e+002
9.990647e+006	-4.391112e+001	-8.392400e+001	-3.064503e+001	-2.134418e+001	-1.092461e+002	5.252921e+001	-4.359883e+001	1.170776e+002
9.990652e+006	-4.392510e+001	-8.429814e+001	-3.064929e+001	-2.131127e+001	-9.853903e+001	-5.267078e+001	-4.351148e+001	1.167743e+002
9.990656e+006	-4.392714e+001	-8.397288e+001	-3.064245e+001	-2.142398e+001	-9.229801e+001	1.168353e+002	-4.360118e+001	1.171363e+002
9.990661e+006	-4.393846e+001	-8.410836e+001	-3.064536e+001	-2.130805e+001	-8.626338e+001	1.021117e+002	-4.359258e+001	1.168371e+002
9.990666e+006	-4.390858e+001	-8.399612e+001	-3.065659e+001	-2.142217e+001	-8.734328e+001	5.381270e+001	-4.360739e+001	1.170114e+002
9.990670e+006	-4.391821e+001	-8.409386e+001	-3.064466e+001	-2.146500e+001	-9.288100e+001	9.539795e+001	-4.357702e+001	1.168202e+002
9.990675e+006	-4.390196e+001	-8.414352e+001	-3.064186e+001	-2.138836e+001	-9.406329e+001	-5.759480e+001	-4.357524e+001	1.170668e+002
9.990680e+006	-4.390541e+001	-8.390719e+001	-3.064781e+001	-2.134788e+001	-9.430842e+001	-6.406463e+001	-4.354072e+001	1.174312e+002
9.990684e+006	-4.390402e+001	-8.391523e+001	-3.064623e+001	-2.137880e+001	-9.683194e+001	1.713859e+002	-4.358274e+001	1.171424e+002
9.990689e+006	-4.391189e+001	-8.388885e+001	-3.065611e+001	-2.139911e+001	-1.095490e+002	-6.025866e+001	-4.355070e+001	1.170603e+002
