!CETC41,AV3656A,ZGL00048,1.3.2
!Calibration ON (Full Solt 2-Port(Omit Isolation))
!Measurements: S11 S21 S12 S22
!2025-04-23 00:08
# Hz  S  dB  R 50.000
9.990000e+006	-4.414961e+001	-8.321331e+001	-3.065850e+001	-2.176138e+001	-9.681768e+001	-1.448329e+002	-4.355894e+001	1.160754e+002
9.990005e+006	-4.417628e+001	-8.331516e+001	-3.066734e+001	-2.173386e+001	-9.311741e+001	1.416931e+002	-4.360873e+001	1.162010e+002
9.990009e+006	-4.418386e+001	-8.321314e+001	-3.065437e+001	-2.175670e+001	-9.631133e+001	1.230141e+002	-4.359801e+001	1.165092e+002
9.990014e+006	-4.415610e+001	-8.317172e+001	-3.066017e+001	-2.174548e+001	-8.650287e+001	1.354913e+002	-4.355655e+001	1.163967e+002
9.990019e+006	-4.420201e+001	-8.323022e+001	-3.065115e+001	-2.181508e+001	-9.541673e+001	1.059444e+002	-4.360779e+001	1.164615e+002
9.990023e+006	-4.417066e+001	-8.347627e+001	-3.065611e+001	-2.185680e+001	-9.460469e+001	9.472654e+000	-4.353951e+001	1.163180e+002
9.990028e+006	-4.417764e+001	-8.351542e+001	-3.065487e+001	-2.182216e+001	-1.013065e+002	1.359406e+002	-4.362416e+001	1.164522e+002
9.990033e+006	-4.414393e+001	-8.341485e+001	-3.066142e+001	-2.174023e+001	-8.759337e+001	3.438979e+001	-4.358050e+001	1.163900e+002
9.990038e+006	-4.415691e+001	-8.338355e+001	-3.066448e+001	-2.185041e+001	-9.299058e+001	6.973178e+001	-4.358829e+001	1.161603e+002
9.990042e+006	-4.412813e+001	-8.342674e+001	-3.066734e+001	-2.182243e+001	-8.514243e+001	1.545063e+002	-4.360827e+001	1.161177e+002
9.990047e+006	-4.416829e+001	-8.309522e+001	-3.066721e+001	-2.178576e+001	-9.007054e+001	5.433638e+001	-4.357180e+001	1.162583e+002
9.990052e+006	-4.416072e+001	-8.326102e+001	-3.067232e+001	-2.177369e+001	-9.402901e+001	1.737581e+002	-4.360375e+001	1.159740e+002
9.990056e+006	-4.413158e+001	-8.323199e+001	-3.066541e+001	-2.177271e+001	-8.478185e+001	9.969310e+001	-4.361165e+001	1.162530e+002
9.990061e+006	-4.414715e+001	-8.329087e+001	-3.066963e+001	-2.176341e+001	-9.097914e+001	1.239421e+002	-4.360354e+001	1.161349e+002
9.990066e+006	-4.414739e+001	-8.322455e+001	-3.066793e+001	-2.174020e+001	-1.010272e+002	1.431054e+002	-4.355762e+001	1.162755e+002
9.990070e+006	-4.420001e+001	-8.323651e+001	-3.066709e+001	-2.169390e+001	-9.039642e+001	1.128722e+002	-4.363557e+001	1.163903e+002
9.990075e+006	-4.414561e+001	-8.314603e+001	-3.066337e+001	-2.171483e+001	-9.241449e+001	1.448417e+002	-4.359019e+001	1.165930e+002
9.990080e+006	-4.419607e+001	-8.308019e+001	-3.065825e+001	-2.172859e+001	-9.894231e+001	1.506105e+002	-4.353270e+001	1.166133e+002
9.990084e+006	-4.413765e+001	-8.314410e+001	-3.064236e+001	-2.171365e+001	-9.902582e+001	1.648398e+002	-4.353984e+001	1.161487e+002
9.990089e+006	-4.414870e+001	-8.326958e+001	-3.065015e+001	-2.171724e+001	-9.007804e+001	-1.649795e+002	-4.355559e+001	1.162223e+002
9.990094e+006	-4.417237e+001	-8.341185e+001	-3.065251e+001	-2.179928e+001	-8.845262e+001	1.788199e+002	-4.359814e+001	1.162277e+002
9.990098e+006	-4.415183e+001	-8.341254e+001	-3.065907e+001	-2.176725e+001	-9.856768e+001	-3.948529e+001	-4.356097e+001	1.162035e+002
9.990103e+006	-4.417192e+001	-8.334403e+001	-3.067024e+001	-2.184648e+001	-9.455199e+001	1.608390e+002	-4.356855e+001	1.164885e+002
9.990108e+006	-4.413656e+001	-8.327939e+001	-3.066125e+001	-2.172893e+001	-1.016512e+002	4.886478e+001	-4.359775e+001	1.164756e+002
9.990113e+006	-4.415974e+001	-8.315274e+001	-3.065992e+001	-2.173803e+001	-1.013004e+002	3.594700e+001	-4.359427e+001	1.163912e+002
9.990117e+006	-4.413544e+001	-8.341805e+001	-3.065645e+001	-2.169243e+001	-1.030492e+002	-2.489815e+001	-4.363229e+001	1.161373e+002
9.990122e+006	-4.413237e+001	-8.323831e+001	-3.063909e+001	-2.173902e+001	-9.498660e+001	1.587975e+002	-4.362476e+001	1.160004e+002
9.990127e+006	-4.414360e+001	-8.323354e+001	-3.066483e+001	-2.174547e+001	-9.279854e+001	1.489359e+002	-4.358362e+001	1.164465e+002
9.990131e+006	-4.413152e+001	-8.318459e+001	-3.067028e+001	-2.173587e+001	-1.057727e+002	1.486935e+002	-4.362642e+001	1.165987e+002
9.990136e+006	-4.415735e+001	-8.326875e+001	-3.065679e+001	-2.172915e+001	-8.935796e+001	1.213248e+002	-4.358983e+001	1.164475e+002
9.990141e+006	-4.412675e+001	-8.316565e+001	-3.065435e+001	-2.173628e+001	-9.403752e+001	6.048492e+001	-4.359727e+001	1.164017e+002
9.990145e+006	-4.417401e+001	-8.319155e+001	-3.065045e+001	-2.177025e+001	-9.824143e+001	1.464471e+002	-4.357257e+001	1.161751e+002
9.990150e+006	-4.412821e+001	-8.303546e+001	-3.066270e+001	-2.173117e+001	-9.226223e+001	4.159586e+001	-4.361137e+001	1.164365e+002
9.990155e+006	-4.414474e+001	-8.319057e+001	-3.065234e+001	-2.181641e+001	-9.287149e+001	1.496821e+002	-4.361793e+001	1.163947e+002
9.990159e+006	-4.417437e+001	-8.322365e+001	-3.066121e+001	-2.176975e+001	-1.036715e+002	1.075942e+001	-4.360459e+001	1.163357e+002
9.990164e+006	-4.414738e+001	-8.317271e+001	-3.066390e+001	-2.173256e+001	-8.977173e+001	1.006754e+002	-4.358296e+001	1.163278e+002
9.990169e+006	-4.415452e+001	-8.321863e+001	-3.065691e+001	-2.167480e+001	-1.014916e+002	-1.831649e+001	-4.359423e+001	1.167926e+002
9.990173e+006	-4.418494e+001	-8.330839e+001	-3.066122e+001	-2.172288e+001	-9.412217e+001	-1.318083e+002	-4.359616e+001	1.161373e+002
9.990178e+006	-4.415495e+001	-8.310730e+001	-3.066001e+001	-2.181969e+001	-1.091425e+002	-1.777917e+002	-4.365999e+001	1.164734e+002
9.990183e+006	-4.416125e+001	-8.285728e+001	-3.065201e+001	-2.169366e+001	-9.231348e+001	1.000096e+001	-4.360464e+001	1.165733e+002
9.990188e+006	-4.415925e+001	-8.310270e+001	-3.065080e+001	-2.172881e+001	-9.554622e+001	-5.007513e+000	-4.352841e+001	1.166434e+002
9.990192e+006	-4.411980e+001	-8.321099e+001	-3.064255e+001	-2.179875e+001	-1.049730e+002	4.095696e+001	-4.352568e+001	1.164104e+002
9.990197e+006	-4.415787e+001	-8.317322e+001	-3.066542e+001	-2.179141e+001	-8.849833e+001	1.355165e+002	-4.359183e+001	1.160914e+002
9.990202e+006	-4.418738e+001	-8.322571e+001	-3.065934e+001	-2.175672e+001	-8.812682e+001	1.183865e+002	-4.357130e+001	1.164697e+002
9.990206e+006	-4.415367e+001	-8.324927e+001	-3.066108e+001	-2.172567e+001	-8.614811e+001	9.438926e+001	-4.358438e+001	1.161575e+002
9.990211e+006	-4.415347e+001	-8.334560e+001	-3.066009e+001	-2.168997e+001	-9.697374e+001	1.580284e+002	-4.363482e+001	1.162547e+002
9.990216e+006	-4.414301e+001	-8.312213e+001	-3.064596e+001	-2.174754e+001	-8.978755e+001	1.348589e+002	-4.357702e+001	1.163403e+002
9.990220e+006	-4.413047e+001	-8.339330e+001	-3.066184e+001	-2.170217e+001	-9.198711e+001	1.041290e+002	-4.358822e+001	1.163151e+002
9.990225e+006	-4.413850e+001	-8.334690e+001	-3.064681e+001	-2.176744e+001	-9.237127e+001	8.707915e+001	-4.360018e+001	1.163845e+002
9.990230e+006	-4.412385e+001	-8.331632e+001	-3.065560e+001	-2.167528e+001	-9.705105e+001	1.022152e+002	-4.357206e+001	1.161806e+002
9.990234e+006	-4.419611e+001	-8.301245e+001	-3.064713e+001	-2.172737e+001	-1.003082e+002	1.861582e+001	-4.355720e+001	1.161438e+002
9.990239e+006	-4.416056e+001	-8.321940e+001	-3.065045e+001	-2.168709e+001	-9.295476e+001	3.934357e+001	-4.362824e+001	1.161801e+002
9.990244e+006	-4.413269e+001	-8.331563e+001	-3.065051e+001	-2.172276e+001	-9.324028e+001	7.784310e+001	-4.358821e+001	1.164002e+002
9.990248e+006	-4.414115e+001	-8.343862e+001	-3.065576e+001	-2.168196e+001	-9.058831e+001	5.268965e+001	-4.358899e+001	1.163407e+002
9.990253e+006	-4.416481e+001	-8.279452e+001	-3.065453e+001	-2.167224e+001	-9.497239e+001	-1.606567e+002	-4.359692e+001	1.165081e+002
9.990258e+006	-4.414660e+001	-8.284274e+001	-3.064931e+001	-2.169369e+001	-9.452160e+001	-1.470193e+002	-4.361551e+001	1.165443e+002
9.990263e+006	-4.417153e+001	-8.318699e+001	-3.065608e+001	-2.169364e+001	-8.895341e+001	1.480186e+002	-4.358237e+001	1.164200e+002
9.990267e+006	-4.412367e+001	-8.319817e+001	-3.065906e+001	-2.170329e+001	-9.255465e+001	1.611833e+002	-4.357910e+001	1.164573e+002
9.990272e+006	-4.417907e+001	-8.308802e+001	-3.065139e+001	-2.174115e+001	-9.373288e+001	1.148731e+002	-4.358721e+001	1.166198e+002
9.990277e+006	-4.417151e+001	-8.325370e+001	-3.066152e+001	-2.170669e+001	-9.341018e+001	1.126724e+002	-4.358530e+001	1.164692e+002
9.990281e+006	-4.416385e+001	-8.301034e+001	-3.064660e+001	-2.175035e+001	-9.742181e+001	1.940753e+001	-4.357947e+001	1.162764e+002
9.990286e+006	-4.417405e+001	-8.310425e+001	-3.065882e+001	-2.174578e+001	-1.026347e+002	1.234040e+002	-4.358382e+001	1.164749e+002
9.990291e+006	-4.413991e+001	-8.326684e+001	-3.065169e+001	-2.176122e+001	-9.026993e+001	1.341370e+002	-4.356670e+001	1.161215e+002
9.990295e+006	-4.416978e+001	-8.310059e+001	-3.066703e+001	-2.170492e+001	-8.971843e+001	-1.585893e+002	-4.354364e+001	1.164844e+002
9.990300e+006	-4.417854e+001	-8.329595e+001	-3.064813e+001	-2.171345e+001	-9.553941e+001	1.029075e+002	-4.361178e+001	1.163454e+002
9.990305e+006	-4.414369e+001	-8.328687e+001	-3.066004e+001	-2.175709e+001	-8.597482e+001	1.298326e+002	-4.360229e+001	1.162469e+002
9.990309e+006	-4.415519e+001	-8.295744e+001	-3.065188e+001	-2.162945e+001	-9.585782e+001	-6.734350e+001	-4.359998e+001	1.162962e+002
9.990314e+006	-4.415453e+001	-8.320021e+001	-3.064915e+001	-2.173029e+001	-9.300973e+001	1.142843e+002	-4.359408e+001	1.165434e+002
9.990319e+006	-4.420190e+001	-8.311775e+001	-3.065110e+001	-2.176613e+001	-8.802603e+001	-5.438354e+001	-4.355035e+001	1.165631e+002
9.990323e+006	-4.416380e+001	-8.317119e+001	-3.064913e+001	-2.164965e+001	-9.201372e+001	5.286216e+001	-4.355657e+001	1.162819e+002
9.990328e+006	-4.415850e+001	-8.312389e+001	-3.065118e+001	-2.180239e+001	-8.844709e+001	1.167408e+002	-4.358570e+001	1.160793e+002
9.990333e+006	-4.413934e+001	-8.329992e+001	-3.065926e+001	-2.173657e+001	-9.584088e+001	1.205793e+002	-4.357882e+001	1.163861e+002
9.990338e+006	-4.418446e+001	-8.315110e+001	-3.065531e+001	-2.175707e+001	-8.929321e+001	5.504334e+001	-4.355889e+001	1.165103e+002
9.990342e+006	-4.418260e+001	-8.316462e+001	-3.065680e+001	-2.180087e+001	-9.380560e+001	-6.515905e+001	-4.362502e+001	1.163469e+002
9.990347e+006	-4.412899e+001	-8.315042e+001	-3.065414e+001	-2.167331e+001	-9.149664e+001	5.924822e+001	-4.362007e+001	1.164156e+002
9.990352e+006	-4.416336e+001	-8.339183e+001	-3.065734e+001	-2.178458e+001	-9.541473e+001	2.693467e+001	-4.361079e+001	1.164717e+002
9.990356e+006	-4.411948e+001	-8.323132e+001	-3.064707e+001	-2.177834e+001	-9.394348e+001	1.507288e+002	-4.360032e+001	1.161978e+002
9.990361e+006	-4.417841e+001	-8.297275e+001	-3.064507e+001	-2.179494e+001	-8.936224e+001	5.022066e+001	-4.363700e+001	1.164173e+002
9.990366e+006	-4.415337e+001	-8.346617e+001	-3.065407e+001	-2.176069e+001	-8.720973e+001	7.395497e+001	-4.358567e+001	1.164196e+002
9.990370e+006	-4.416027e+001	-8.337360e+001	-3.065246e+001	-2.172926e+001	-8.839332e+001	1.052669e+002	-4.354514e+001	1.164492e+002
9.990375e+006	-4.420124e+001	-8.324292e+001	-3.065585e+001	-2.171621e+001	-9.064142e+001	4.261916e+001	-4.355949e+001	1.163005e+002
9.990380e+006	-4.416188e+001	-8.295223e+001	-3.064833e+001	-2.175050e+001	-9.412694e+001	9.342996e+001	-4.358473e+001	1.164030e+002
9.990384e+006	-4.413296e+001	-8.316897e+001	-3.065618e+001	-2.179764e+001	-1.035429e+002	2.137047e+001	-4.356516e+001	1.160885e+002
9.990389e+006	-4.415434e+001	-8.315714e+001	-3.065044e+001	-2.173428e+001	-9.325473e+001	6.353457e+001	-4.356962e+001	1.165140e+002
9.990394e+006	-4.416566e+001	-8.334267e+001	-3.064974e+001	-2.173639e+001	-9.828384e+001	1.754249e+002	-4.356725e+001	1.163796e+002
9.990398e+006	-4.414985e+001	-8.319718e+001	-3.065171e+001	-2.170901e+001	-9.011872e+001	8.882122e+001	-4.357067e+001	1.160245e+002
9.990403e+006	-4.418676e+001	-8.331400e+001	-3.065462e+001	-2.175114e+001	-9.182765e+001	1.037962e+001	-4.357789e+001	1.163203e+002
9.990408e+006	-4.414512e+001	-8.318957e+001	-3.064328e+001	-2.170711e+001	-9.412263e+001	1.109315e+002	-4.360270e+001	1.164785e+002
9.990413e+006	-4.419517e+001	-8.289785e+001	-3.066591e+001	-2.172900e+001	-9.409256e+001	1.190226e+002	-4.357706e+001	1.163194e+002
9.990417e+006	-4.410808e+001	-8.326475e+001	-3.065350e+001	-2.169892e+001	-9.188521e+001	7.244757e+001	-4.354996e+001	1.163923e+002
9.990422e+006	-4.415195e+001	-8.320338e+001	-3.064835e+001	-2.172891e+001	-9.697866e+001	6.498906e+001	-4.357891e+001	1.164264e+002
9.990427e+006	-4.418910e+001	-8.316798e+001	-3.065298e+001	-2.171840e+001	-9.230067e+001	1.220249e+002	-4.359849e+001	1.163818e+002
9.990431e+006	-4.414920e+001	-8.300846e+001	-3.064732e+001	-2.172694e+001	-9.209845e+001	1.361575e+002	-4.358746e+001	1.161593e+002
9.990436e+006	-4.418555e+001	-8.328809e+001	-3.064923e+001	-2.173038e+001	-9.257615e+001	1.054250e+002	-4.360103e+001	1.160587e+002
9.990441e+006	-4.415966e+001	-8.316704e+001	-3.064503e+001	-2.172228e+001	-9.685605e+001	1.636516e+002	-4.358942e+001	1.165658e+002
9.990445e+006	-4.418484e+001	-8.311098e+001	-3.065626e+001	-2.173383e+001	-9.460219e+001	1.113436e+002	-4.362239e+001	1.161332e+002
9.990450e+006	-4.418430e+001	-8.301813e+001	-3.064906e+001	-2.180105e+001	-9.245517e+001	1.232304e+002	-4.358313e+001	1.166466e+002
9.990455e+006	-4.417584e+001	-8.304424e+001	-3.065661e+001	-2.169537e+001	-9.974501e+001	1.298807e+002	-4.355558e+001	1.162586e+002
9.990459e+006	-4.416577e+001	-8.293606e+001	-3.065831e+001	-2.173818e+001	-8.995674e+001	1.053418e+002	-4.360067e+001	1.161138e+002
9.990464e+006	-4.417524e+001	-8.304612e+001	-3.064650e+001	-2.179342e+001	-8.997656e+001	1.457296e+002	-4.358991e+001	1.164298e+002
9.990469e+006	-4.416784e+001	-8.317885e+001	-3.065472e+001	-2.171903e+001	-8.742888e+001	1.345009e+002	-4.357665e+001	1.161500e+002
9.990473e+006	-4.414297e+001	-8.309213e+001	-3.065423e+001	-2.171625e+001	-1.040357e+002	1.561778e+002	-4.356864e+001	1.164210e+002
9.990478e+006	-4.418420e+001	-8.325118e+001	-3.065601e+001	-2.174366e+001	-9.749566e+001	1.125280e+002	-4.355775e+001	1.165497e+002
9.990483e+006	-4.419764e+001	-8.359156e+001	-3.065755e+001	-2.172486e+001	-1.034056e+002	1.253731e+002	-4.361391e+001	1.164126e+002
9.990488e+006	-4.413908e+001	-8.315638e+001	-3.065678e+001	-2.175418e+001	-9.418645e+001	9.340451e+001	-4.357626e+001	1.164087e+002
9.990492e+006	-4.415331e+001	-8.277822e+001	-3.064393e+001	-2.172415e+001	-9.382432e+001	4.980328e+001	-4.359814e+001	1.163134e+002
9.990497e+006	-4.421819e+001	-8.328545e+001	-3.065023e+001	-2.169571e+001	-9.509105e+001	1.250237e+002	-4.357361e+001	1.163224e+002
9.990502e+006	-4.420473e+001	-8.328916e+001	-3.065177e+001	-2.172464e+001	-9.696389e+001	-1.499904e+002	-4.355458e+001	1.165207e+002
9.990506e+006	-4.415098e+001	-8.295596e+001	-3.065772e+001	-2.172884e+001	-9.703131e+001	1.512642e+002	-4.358231e+001	1.163794e+002
9.990511e+006	-4.415153e+001	-8.293281e+001	-3.065040e+001	-2.172556e+001	-9.228620e+001	-1.484431e+002	-4.360640e+001	1.164490e+002
9.990516e+006	-4.414634e+001	-8.325956e+001	-3.064919e+001	-2.165536e+001	-9.530745e+001	-1.488529e+002	-4.361048e+001	1.163278e+002
9.990520e+006	-4.418210e+001	-8.328955e+001	-3.065498e+001	-2.174287e+001	-9.319186e+001	-1.365176e+002	-4.363252e+001	1.161779e+002
9.990525e+006	-4.419009e+001	-8.315725e+001	-3.064316e+001	-2.177573e+001	-1.137210e+002	-2.039818e+001	-4.359802e+001	1.161518e+002
9.990530e+006	-4.412674e+001	-8.323840e+001	-3.065219e+001	-2.164674e+001	-1.080138e+002	4.964837e+001	-4.357357e+001	1.166502e+002
9.990534e+006	-4.414704e+001	-8.304472e+001	-3.066026e+001	-2.174299e+001	-8.727080e+001	8.212379e+001	-4.355004e+001	1.162919e+002
9.990539e+006	-4.410560e+001	-8.311604e+001	-3.064627e+001	-2.172776e+001	-9.407162e+001	1.741777e+002	-4.358481e+001	1.164371e+002
9.990544e+006	-4.416590e+001	-8.323547e+001	-3.065365e+001	-2.172290e+001	-9.907770e+001	5.075824e+001	-4.358460e+001	1.162148e+002
9.990548e+006	-4.416344e+001	-8.347214e+001	-3.065548e+001	-2.174220e+001	-9.804170e+001	-1.748711e+002	-4.361225e+001	1.162949e+002
9.990553e+006	-4.417005e+001	-8.306484e+001	-3.065119e+001	-2.173863e+001	-9.054444e+001	-1.028750e+002	-4.357228e+001	1.163190e+002
9.990558e+006	-4.418798e+001	-8.330696e+001	-3.065215e+001	-2.179835e+001	-9.577134e+001	1.436375e+002	-4.360105e+001	1.163938e+002
9.990563e+006	-4.419072e+001	-8.309320e+001	-3.063738e+001	-2.170584e+001	-9.509523e+001	1.186479e+002	-4.358644e+001	1.159862e+002
9.990567e+006	-4.413470e+001	-8.340099e+001	-3.066159e+001	-2.174397e+001	-9.781822e+001	-2.729188e+001	-4.362223e+001	1.163203e+002
9.990572e+006	-4.414405e+001	-8.291444e+001	-3.065155e+001	-2.173093e+001	-1.024096e+002	5.147871e+001	-4.358924e+001	1.165583e+002
9.990577e+006	-4.416758e+001	-8.310226e+001	-3.064460e+001	-2.167416e+001	-9.753522e+001	-1.799753e+002	-4.356323e+001	1.163003e+002
9.990581e+006	-4.417441e+001	-8.285398e+001	-3.065399e+001	-2.171766e+001	-1.009099e+002	4.817863e+001	-4.355036e+001	1.162004e+002
9.990586e+006	-4.418068e+001	-8.317518e+001	-3.065183e+001	-2.173033e+001	-9.764033e+001	-1.552064e+002	-4.356771e+001	1.166711e+002
9.990591e+006	-4.416922e+001	-8.327895e+001	-3.065035e+001	-2.172157e+001	-9.073417e+001	1.295446e+002	-4.352208e+001	1.164548e+002
9.990595e+006	-4.411457e+001	-8.309788e+001	-3.065110e+001	-2.178310e+001	-9.167095e+001	9.376639e+001	-4.359405e+001	1.161380e+002
9.990600e+006	-4.417225e+001	-8.293422e+001	-3.065256e+001	-2.165616e+001	-9.829293e+001	1.525597e+001	-4.355181e+001	1.163204e+002
9.990605e+006	-4.413634e+001	-8.307351e+001	-3.065578e+001	-2.178786e+001	-9.137712e+001	7.786727e+001	-4.357310e+001	1.165161e+002
9.990609e+006	-4.416375e+001	-8.326525e+001	-3.064820e+001	-2.170133e+001	-8.962346e+001	4.082638e+001	-4.357553e+001	1.162547e+002
9.990614e+006	-4.415898e+001	-8.302967e+001	-3.064296e+001	-2.168272e+001	-9.747586e+001	-1.738667e+002	-4.356260e+001	1.163638e+002
9.990619e+006	-4.417783e+001	-8.313337e+001	-3.065575e+001	-2.181515e+001	-1.024186e+002	4.767680e+001	-4.358594e+001	1.160978e+002
9.990623e+006	-4.414718e+001	-8.296076e+001	-3.063751e+001	-2.178831e+001	-8.662749e+001	9.728949e+001	-4.354162e+001	1.162514e+002
9.990628e+006	-4.415030e+001	-8.284849e+001	-3.065399e+001	-2.165648e+001	-8.765681e+001	1.376425e+002	-4.358616e+001	1.162749e+002
9.990633e+006	-4.414767e+001	-8.293524e+001	-3.063986e+001	-2.175409e+001	-9.185268e+001	1.467859e+002	-4.358892e+001	1.166323e+002
9.990638e+006	-4.414296e+001	-8.322251e+001	-3.064634e+001	-2.170031e+001	-8.564729e+001	9.973086e+001	-4.359833e+001	1.162867e+002
9.990642e+006	-4.417993e+001	-8.336681e+001	-3.065808e+001	-2.174965e+001	-8.555076e+001	8.407972e+001	-4.355878e+001	1.163122e+002
9.990647e+006	-4.420752e+001	-8.298886e+001	-3.064795e+001	-2.177339e+001	-9.119409e+001	1.146333e+002	-4.357245e+001	1.161611e+002
9.990652e+006	-4.421937e+001	-8.320884e+001	-3.065103e+001	-2.168674e+001	-9.000245e+001	1.118603e+002	-4.354058e+001	1.162297e+002
9.990656e+006	-4.419585e+001	-8.289198e+001	-3.065205e+001	-2.173039e+001	-8.957898e+001	9.330659e+001	-4.358243e+001	1.161233e+002
9.990661e+006	-4.426016e+001	-8.310477e+001	-3.063773e+001	-2.170288e+001	-9.133623e+001	3.711605e+001	-4.360647e+001	1.162954e+002
9.990666e+006	-4.426407e+001	-8.317486e+001	-3.064472e+001	-2.173211e+001	-1.023414e+002	2.803134e+001	-4.359370e+001	1.165882e+002
9.990670e+006	-4.421790e+001	-8.295475e+001	-3.064354e+001	-2.166322e+001	-9.090469e+001	1.528637e+002	-4.356703e+001	1.162064e+002
9.990675e+006	-4.422865e+001	-8.306350e+001	-3.065139e+001	-2.168213e+001	-9.345190e+001	5.087112e+001	-4.356686e+001	1.163928e+002
9.990680e+006	-4.421911e+001	-8.285112e+001	-3.065099e+001	-2.167292e+001	-9.844768e+001	-5.502620e+001	-4.358614e+001	1.165089e+002
9.990684e+006	-4.420974e+001	-8.289602e+001	-3.064550e+001	-2.177139e+001	-1.054446e+002	2.545808e+001	-4.355782e+001	1.164697e+002
9.990689e+006	-4.425275e+001	-8.291264e+001	-3.065274e+001	-2.171855e+001	-9.442245e+001	1.473286e+002	-4.356517e+001	1.162419e+002
