!CETC41,AV3656A,ZGL00048,1.3.2
!Calibration ON (Full Solt 2-Port(Omit Isolation))
!Measurements: S11 S21 S12 S22
!2025-04-22 22:18
# Hz  S  dB  R 50.000
9.990000e+006	-4.424479e+001	-8.546567e+001	-3.063319e+001	-2.104473e+001	-9.658904e+001	-1.786086e+002	-4.452555e+001	1.148168e+002
9.990005e+006	-4.426559e+001	-8.557547e+001	-3.063772e+001	-2.107557e+001	-8.810642e+001	1.644305e+002	-4.458047e+001	1.150133e+002
9.990009e+006	-4.420980e+001	-8.534602e+001	-3.064368e+001	-2.105736e+001	-9.360625e+001	8.958294e+001	-4.449651e+001	1.151005e+002
9.990014e+006	-4.426135e+001	-8.534603e+001	-3.063241e+001	-2.105565e+001	-9.105544e+001	1.275262e+002	-4.460304e+001	1.147393e+002
9.990019e+006	-4.427704e+001	-8.543287e+001	-3.063870e+001	-2.118865e+001	-1.003237e+002	4.203921e+001	-4.461130e+001	1.149921e+002
9.990023e+006	-4.425360e+001	-8.518368e+001	-3.062472e+001	-2.113605e+001	-9.977429e+001	1.090786e+002	-4.457444e+001	1.148019e+002
9.990028e+006	-4.425226e+001	-8.542773e+001	-3.062988e+001	-2.113099e+001	-1.054046e+002	-4.768807e+001	-4.455001e+001	1.152128e+002
9.990033e+006	-4.423585e+001	-8.529657e+001	-3.061738e+001	-2.114338e+001	-9.688934e+001	6.092960e+001	-4.453558e+001	1.148215e+002
9.990038e+006	-4.426232e+001	-8.517014e+001	-3.062072e+001	-2.114112e+001	-1.043803e+002	2.149965e+001	-4.455363e+001	1.151474e+002
9.990042e+006	-4.424382e+001	-8.534814e+001	-3.063063e+001	-2.108782e+001	-8.820175e+001	6.030231e+001	-4.458385e+001	1.147904e+002
9.990047e+006	-4.425223e+001	-8.535189e+001	-3.063133e+001	-2.112534e+001	-8.678866e+001	1.315052e+002	-4.455289e+001	1.151301e+002
9.990052e+006	-4.423943e+001	-8.565053e+001	-3.062469e+001	-2.117196e+001	-9.503906e+001	1.456609e+002	-4.461833e+001	1.149042e+002
9.990056e+006	-4.423282e+001	-8.552800e+001	-3.063265e+001	-2.119436e+001	-1.105573e+002	9.923562e+001	-4.454610e+001	1.148095e+002
9.990061e+006	-4.422015e+001	-8.534209e+001	-3.062584e+001	-2.118044e+001	-9.059445e+001	-4.866322e+001	-4.450681e+001	1.146637e+002
9.990066e+006	-4.421582e+001	-8.531322e+001	-3.064468e+001	-2.114725e+001	-9.841549e+001	2.501917e+001	-4.453929e+001	1.150374e+002
9.990070e+006	-4.419729e+001	-8.536610e+001	-3.063026e+001	-2.121157e+001	-9.557471e+001	1.586212e+001	-4.451183e+001	1.148624e+002
9.990075e+006	-4.423407e+001	-8.560639e+001	-3.063867e+001	-2.123590e+001	-8.556724e+001	8.431099e+001	-4.457376e+001	1.147806e+002
9.990080e+006	-4.420526e+001	-8.536052e+001	-3.064956e+001	-2.111505e+001	-9.170763e+001	1.370905e+002	-4.450248e+001	1.150489e+002
9.990084e+006	-4.424267e+001	-8.545131e+001	-3.064383e+001	-2.117008e+001	-9.411387e+001	5.280588e+001	-4.457381e+001	1.146064e+002
9.990089e+006	-4.422036e+001	-8.566237e+001	-3.063451e+001	-2.110648e+001	-9.672151e+001	1.388542e+002	-4.454097e+001	1.150450e+002
9.990094e+006	-4.418561e+001	-8.555624e+001	-3.065632e+001	-2.107439e+001	-8.576230e+001	1.216763e+002	-4.459951e+001	1.149147e+002
9.990098e+006	-4.423740e+001	-8.552216e+001	-3.063793e+001	-2.115034e+001	-9.160158e+001	1.103543e+002	-4.459337e+001	1.144342e+002
9.990103e+006	-4.420171e+001	-8.542818e+001	-3.065264e+001	-2.112736e+001	-9.040644e+001	-1.709281e+002	-4.457028e+001	1.145553e+002
9.990108e+006	-4.422065e+001	-8.518356e+001	-3.064903e+001	-2.112267e+001	-8.436243e+001	1.060455e+002	-4.455687e+001	1.149433e+002
9.990113e+006	-4.424596e+001	-8.527425e+001	-3.064698e+001	-2.108217e+001	-9.885617e+001	-4.827399e+001	-4.456241e+001	1.148997e+002
9.990117e+006	-4.423642e+001	-8.554579e+001	-3.063623e+001	-2.100602e+001	-9.426885e+001	9.871694e+001	-4.453147e+001	1.149626e+002
9.990122e+006	-4.421273e+001	-8.532374e+001	-3.064133e+001	-2.101500e+001	-9.155473e+001	8.153976e+001	-4.456257e+001	1.149318e+002
9.990127e+006	-4.422883e+001	-8.528019e+001	-3.063162e+001	-2.108192e+001	-8.802645e+001	5.401259e+001	-4.452952e+001	1.148547e+002
9.990131e+006	-4.421771e+001	-8.527880e+001	-3.063243e+001	-2.111445e+001	-9.307284e+001	8.133214e+001	-4.455326e+001	1.143056e+002
9.990136e+006	-4.425710e+001	-8.535854e+001	-3.062929e+001	-2.113156e+001	-8.896568e+001	1.641304e+002	-4.456968e+001	1.148000e+002
9.990141e+006	-4.419755e+001	-8.541644e+001	-3.063096e+001	-2.110096e+001	-9.011272e+001	1.279930e+002	-4.454632e+001	1.146637e+002
9.990145e+006	-4.422958e+001	-8.558263e+001	-3.063545e+001	-2.116638e+001	-1.011996e+002	1.630525e+002	-4.456752e+001	1.146869e+002
9.990150e+006	-4.423430e+001	-8.549558e+001	-3.063170e+001	-2.111936e+001	-9.427540e+001	1.705301e+002	-4.458019e+001	1.146612e+002
9.990155e+006	-4.424459e+001	-8.555689e+001	-3.064282e+001	-2.107070e+001	-9.219488e+001	8.030503e+001	-4.455454e+001	1.145707e+002
9.990159e+006	-4.420187e+001	-8.532882e+001	-3.064346e+001	-2.113951e+001	-9.054556e+001	9.696410e+001	-4.458977e+001	1.148551e+002
9.990164e+006	-4.424975e+001	-8.556378e+001	-3.064807e+001	-2.114977e+001	-9.642366e+001	1.447824e+002	-4.456323e+001	1.147658e+002
9.990169e+006	-4.419975e+001	-8.540693e+001	-3.063348e+001	-2.112447e+001	-9.352518e+001	-1.188832e+002	-4.461361e+001	1.149155e+002
9.990173e+006	-4.424167e+001	-8.528290e+001	-3.063559e+001	-2.108829e+001	-9.269975e+001	1.482389e+002	-4.454648e+001	1.145714e+002
9.990178e+006	-4.421450e+001	-8.534171e+001	-3.063151e+001	-2.113207e+001	-9.711600e+001	1.413430e+002	-4.458625e+001	1.148850e+002
9.990183e+006	-4.423488e+001	-8.537233e+001	-3.063823e+001	-2.110559e+001	-8.609389e+001	1.655584e+002	-4.453138e+001	1.148641e+002
9.990188e+006	-4.424748e+001	-8.555403e+001	-3.063787e+001	-2.111412e+001	-1.033066e+002	3.214307e+001	-4.455518e+001	1.148154e+002
9.990192e+006	-4.423201e+001	-8.559222e+001	-3.064112e+001	-2.107391e+001	-8.836913e+001	1.120971e+002	-4.453480e+001	1.147065e+002
9.990197e+006	-4.422241e+001	-8.549707e+001	-3.063368e+001	-2.106286e+001	-9.420581e+001	1.347426e+002	-4.454480e+001	1.148683e+002
9.990202e+006	-4.421598e+001	-8.534227e+001	-3.063606e+001	-2.108069e+001	-9.377912e+001	-3.848946e+001	-4.459164e+001	1.149879e+002
9.990206e+006	-4.420925e+001	-8.511734e+001	-3.063423e+001	-2.109492e+001	-9.328460e+001	9.624954e+001	-4.456704e+001	1.149338e+002
9.990211e+006	-4.423287e+001	-8.553925e+001	-3.063762e+001	-2.112941e+001	-9.005907e+001	1.090885e+002	-4.451456e+001	1.151073e+002
9.990216e+006	-4.423548e+001	-8.519091e+001	-3.062811e+001	-2.103442e+001	-9.087880e+001	1.342291e+002	-4.456166e+001	1.148030e+002
9.990220e+006	-4.426413e+001	-8.525986e+001	-3.063684e+001	-2.105914e+001	-9.569018e+001	6.423597e+001	-4.461678e+001	1.147890e+002
9.990225e+006	-4.421901e+001	-8.546081e+001	-3.062161e+001	-2.113167e+001	-9.956498e+001	-8.877512e+000	-4.457554e+001	1.148637e+002
9.990230e+006	-4.424541e+001	-8.527227e+001	-3.064442e+001	-2.110513e+001	-9.607514e+001	-4.072628e+001	-4.454205e+001	1.151174e+002
9.990234e+006	-4.421692e+001	-8.581904e+001	-3.062695e+001	-2.113110e+001	-9.422200e+001	1.029057e+002	-4.455754e+001	1.147005e+002
9.990239e+006	-4.422255e+001	-8.556761e+001	-3.062801e+001	-2.105568e+001	-9.008189e+001	6.748319e+001	-4.457903e+001	1.147834e+002
9.990244e+006	-4.424153e+001	-8.545844e+001	-3.062800e+001	-2.109761e+001	-9.756534e+001	-1.493904e+002	-4.455201e+001	1.146914e+002
9.990248e+006	-4.419884e+001	-8.539029e+001	-3.063626e+001	-2.110019e+001	-9.420162e+001	8.440589e+001	-4.458182e+001	1.145855e+002
9.990253e+006	-4.420188e+001	-8.538015e+001	-3.062987e+001	-2.114507e+001	-9.695539e+001	1.158765e+002	-4.453873e+001	1.149150e+002
9.990258e+006	-4.426712e+001	-8.525967e+001	-3.062626e+001	-2.109481e+001	-9.632111e+001	1.078430e+002	-4.453989e+001	1.149328e+002
9.990263e+006	-4.422106e+001	-8.541849e+001	-3.064049e+001	-2.112547e+001	-9.569520e+001	5.030240e+001	-4.452749e+001	1.147226e+002
9.990267e+006	-4.422176e+001	-8.545440e+001	-3.062885e+001	-2.109298e+001	-9.726768e+001	1.244240e+002	-4.454954e+001	1.148601e+002
9.990272e+006	-4.420555e+001	-8.529984e+001	-3.063632e+001	-2.104830e+001	-9.724118e+001	1.007090e+002	-4.453514e+001	1.149552e+002
9.990277e+006	-4.424535e+001	-8.524672e+001	-3.062421e+001	-2.115294e+001	-1.008717e+002	7.385752e+001	-4.454855e+001	1.148239e+002
9.990281e+006	-4.419167e+001	-8.537989e+001	-3.064150e+001	-2.113661e+001	-8.752484e+001	1.111385e+002	-4.451414e+001	1.147554e+002
9.990286e+006	-4.417419e+001	-8.550522e+001	-3.063358e+001	-2.110314e+001	-8.828495e+001	3.253569e+001	-4.455224e+001	1.145788e+002
9.990291e+006	-4.426522e+001	-8.553775e+001	-3.063183e+001	-2.109938e+001	-9.035601e+001	6.006668e+001	-4.453213e+001	1.146040e+002
9.990295e+006	-4.423626e+001	-8.529676e+001	-3.063888e+001	-2.108591e+001	-9.939235e+001	-1.785126e+002	-4.454164e+001	1.149148e+002
9.990300e+006	-4.424669e+001	-8.550589e+001	-3.063226e+001	-2.100776e+001	-9.982639e+001	3.203784e+001	-4.455848e+001	1.148041e+002
9.990305e+006	-4.418361e+001	-8.565599e+001	-3.062455e+001	-2.105478e+001	-9.362311e+001	6.149983e+001	-4.455164e+001	1.149444e+002
9.990309e+006	-4.420427e+001	-8.560994e+001	-3.063079e+001	-2.108389e+001	-9.215887e+001	8.252731e+001	-4.453898e+001	1.147320e+002
9.990314e+006	-4.423810e+001	-8.522517e+001	-3.063384e+001	-2.114048e+001	-9.235562e+001	1.207114e+002	-4.456152e+001	1.148171e+002
9.990319e+006	-4.422027e+001	-8.543459e+001	-3.063061e+001	-2.105093e+001	-9.601755e+001	9.704570e+001	-4.456444e+001	1.146680e+002
9.990323e+006	-4.424299e+001	-8.551428e+001	-3.063299e+001	-2.108803e+001	-9.490468e+001	2.878386e+001	-4.463139e+001	1.144141e+002
9.990328e+006	-4.417846e+001	-8.545994e+001	-3.063272e+001	-2.110024e+001	-8.924904e+001	1.157377e+002	-4.453339e+001	1.145897e+002
9.990333e+006	-4.422097e+001	-8.532100e+001	-3.062757e+001	-2.106630e+001	-9.201287e+001	1.464516e+002	-4.458801e+001	1.146998e+002
9.990338e+006	-4.426033e+001	-8.515651e+001	-3.062937e+001	-2.103166e+001	-8.629323e+001	1.064358e+002	-4.460299e+001	1.148606e+002
9.990342e+006	-4.421479e+001	-8.540484e+001	-3.062864e+001	-2.103739e+001	-1.006784e+002	-1.760645e+002	-4.458503e+001	1.147401e+002
9.990347e+006	-4.423570e+001	-8.531941e+001	-3.064072e+001	-2.105978e+001	-8.546281e+001	1.115503e+002	-4.460190e+001	1.149253e+002
9.990352e+006	-4.420155e+001	-8.539648e+001	-3.063561e+001	-2.112807e+001	-1.003440e+002	1.036644e+002	-4.455927e+001	1.149766e+002
9.990356e+006	-4.424395e+001	-8.536979e+001	-3.063375e+001	-2.110163e+001	-1.055475e+002	1.446097e+002	-4.451335e+001	1.148111e+002
9.990361e+006	-4.420726e+001	-8.521876e+001	-3.063657e+001	-2.107595e+001	-8.841464e+001	1.779343e+002	-4.455028e+001	1.148002e+002
9.990366e+006	-4.420590e+001	-8.535672e+001	-3.062064e+001	-2.110132e+001	-1.004432e+002	-9.368594e+001	-4.452737e+001	1.147667e+002
9.990370e+006	-4.425794e+001	-8.545016e+001	-3.063399e+001	-2.109950e+001	-9.176695e+001	6.452868e+001	-4.461013e+001	1.145748e+002
9.990375e+006	-4.430724e+001	-8.531060e+001	-3.062340e+001	-2.105406e+001	-9.872948e+001	1.465432e+002	-4.455042e+001	1.147199e+002
9.990380e+006	-4.421392e+001	-8.552666e+001	-3.062695e+001	-2.111552e+001	-9.781022e+001	-1.428073e+002	-4.456295e+001	1.148638e+002
9.990384e+006	-4.422569e+001	-8.550536e+001	-3.062295e+001	-2.113512e+001	-8.855426e+001	1.433924e+002	-4.456617e+001	1.150337e+002
9.990389e+006	-4.421870e+001	-8.540973e+001	-3.063696e+001	-2.106806e+001	-9.416786e+001	7.501434e+001	-4.451579e+001	1.147336e+002
9.990394e+006	-4.419779e+001	-8.547238e+001	-3.064114e+001	-2.114008e+001	-9.136653e+001	4.259936e+001	-4.456301e+001	1.148701e+002
9.990398e+006	-4.421414e+001	-8.525196e+001	-3.062540e+001	-2.114579e+001	-9.171971e+001	1.014847e+002	-4.454384e+001	1.149606e+002
9.990403e+006	-4.420805e+001	-8.536692e+001	-3.062030e+001	-2.110175e+001	-9.751165e+001	7.562417e+001	-4.452055e+001	1.148524e+002
9.990408e+006	-4.420144e+001	-8.540069e+001	-3.062385e+001	-2.113283e+001	-8.835407e+001	1.544298e+002	-4.455007e+001	1.148109e+002
9.990413e+006	-4.421570e+001	-8.545154e+001	-3.062793e+001	-2.110934e+001	-9.063913e+001	1.018166e+002	-4.453583e+001	1.148668e+002
9.990417e+006	-4.425412e+001	-8.558583e+001	-3.062397e+001	-2.110248e+001	-9.365398e+001	4.583070e+001	-4.460096e+001	1.147344e+002
9.990422e+006	-4.424154e+001	-8.546313e+001	-3.063836e+001	-2.110771e+001	-9.485682e+001	-1.249254e+002	-4.452604e+001	1.145991e+002
9.990427e+006	-4.425817e+001	-8.528321e+001	-3.062910e+001	-2.114979e+001	-8.996887e+001	3.892043e+001	-4.459949e+001	1.148474e+002
9.990431e+006	-4.428583e+001	-8.513605e+001	-3.062968e+001	-2.117708e+001	-9.487872e+001	1.638325e+002	-4.455092e+001	1.149991e+002
9.990436e+006	-4.423839e+001	-8.539164e+001	-3.063152e+001	-2.106730e+001	-9.366916e+001	6.363975e+001	-4.450816e+001	1.147039e+002
9.990441e+006	-4.419191e+001	-8.543889e+001	-3.063820e+001	-2.108576e+001	-8.971982e+001	7.353061e+001	-4.458223e+001	1.148611e+002
9.990445e+006	-4.418725e+001	-8.550618e+001	-3.062973e+001	-2.112992e+001	-9.542914e+001	6.188238e+001	-4.458361e+001	1.148409e+002
9.990450e+006	-4.421374e+001	-8.538260e+001	-3.062300e+001	-2.110729e+001	-1.021329e+002	1.659833e+002	-4.457701e+001	1.147482e+002
9.990455e+006	-4.419797e+001	-8.530906e+001	-3.062991e+001	-2.108776e+001	-8.873840e+001	1.344578e+002	-4.455478e+001	1.145108e+002
9.990459e+006	-4.422116e+001	-8.539540e+001	-3.063491e+001	-2.110017e+001	-9.202360e+001	1.008194e+002	-4.457718e+001	1.149049e+002
9.990464e+006	-4.421747e+001	-8.504428e+001	-3.062073e+001	-2.108677e+001	-8.642956e+001	6.034124e+001	-4.451521e+001	1.150392e+002
9.990469e+006	-4.422773e+001	-8.529367e+001	-3.062413e+001	-2.111790e+001	-9.205888e+001	1.674519e+002	-4.458939e+001	1.149482e+002
9.990473e+006	-4.422677e+001	-8.523326e+001	-3.063140e+001	-2.106757e+001	-8.906425e+001	-1.239407e+002	-4.455067e+001	1.150704e+002
9.990478e+006	-4.420878e+001	-8.534629e+001	-3.062597e+001	-2.105583e+001	-9.231226e+001	9.836656e+001	-4.453959e+001	1.147675e+002
9.990483e+006	-4.426178e+001	-8.540619e+001	-3.063041e+001	-2.112140e+001	-8.581681e+001	1.245229e+002	-4.459547e+001	1.147888e+002
9.990488e+006	-4.422805e+001	-8.532305e+001	-3.062539e+001	-2.106917e+001	-8.981536e+001	8.955389e+001	-4.455275e+001	1.149918e+002
9.990492e+006	-4.424453e+001	-8.539148e+001	-3.062562e+001	-2.109652e+001	-9.238200e+001	8.112735e+001	-4.456515e+001	1.148945e+002
9.990497e+006	-4.418719e+001	-8.553930e+001	-3.063096e+001	-2.106840e+001	-8.951353e+001	1.043904e+002	-4.459755e+001	1.149673e+002
9.990502e+006	-4.425149e+001	-8.547435e+001	-3.062797e+001	-2.114999e+001	-9.468445e+001	5.836901e+001	-4.457867e+001	1.148566e+002
9.990506e+006	-4.422771e+001	-8.514713e+001	-3.063262e+001	-2.107640e+001	-1.043084e+002	1.029874e+002	-4.454538e+001	1.147938e+002
9.990511e+006	-4.425724e+001	-8.518510e+001	-3.062439e+001	-2.111059e+001	-9.269718e+001	-1.664849e+002	-4.456571e+001	1.145630e+002
9.990516e+006	-4.419851e+001	-8.559921e+001	-3.063088e+001	-2.102130e+001	-8.745460e+001	8.704063e+001	-4.461155e+001	1.146319e+002
9.990520e+006	-4.423731e+001	-8.525950e+001	-3.063022e+001	-2.109983e+001	-9.735319e+001	2.477584e+001	-4.453833e+001	1.147610e+002
9.990525e+006	-4.421673e+001	-8.533261e+001	-3.061940e+001	-2.106970e+001	-8.641021e+001	1.597494e+002	-4.458868e+001	1.148246e+002
9.990530e+006	-4.420956e+001	-8.555846e+001	-3.062909e+001	-2.105466e+001	-9.479658e+001	7.535821e+001	-4.455802e+001	1.148026e+002
9.990534e+006	-4.427754e+001	-8.546461e+001	-3.062330e+001	-2.113364e+001	-8.850101e+001	9.206056e+001	-4.452667e+001	1.150418e+002
9.990539e+006	-4.423197e+001	-8.537241e+001	-3.063120e+001	-2.104152e+001	-9.725448e+001	1.439195e+002	-4.458559e+001	1.147692e+002
9.990544e+006	-4.421771e+001	-8.533928e+001	-3.063276e+001	-2.104854e+001	-8.974681e+001	1.308324e+002	-4.459202e+001	1.147387e+002
9.990548e+006	-4.422307e+001	-8.531094e+001	-3.062336e+001	-2.104801e+001	-8.988962e+001	1.224194e+002	-4.452478e+001	1.147759e+002
9.990553e+006	-4.424150e+001	-8.544411e+001	-3.061957e+001	-2.115970e+001	-8.740994e+001	1.121833e+002	-4.456929e+001	1.146029e+002
9.990558e+006	-4.423106e+001	-8.539178e+001	-3.061613e+001	-2.110136e+001	-8.794442e+001	1.103633e+002	-4.453784e+001	1.148920e+002
9.990563e+006	-4.424503e+001	-8.513668e+001	-3.061767e+001	-2.106164e+001	-8.956070e+001	9.762867e+001	-4.457271e+001	1.150311e+002
9.990567e+006	-4.421859e+001	-8.518394e+001	-3.063490e+001	-2.106974e+001	-8.871765e+001	1.374346e+002	-4.451814e+001	1.145731e+002
9.990572e+006	-4.421304e+001	-8.538934e+001	-3.062591e+001	-2.113039e+001	-9.359955e+001	-1.633063e+002	-4.456147e+001	1.147054e+002
9.990577e+006	-4.425294e+001	-8.548577e+001	-3.063037e+001	-2.104873e+001	-9.490181e+001	-1.640050e+002	-4.456097e+001	1.150204e+002
9.990581e+006	-4.420699e+001	-8.543353e+001	-3.062103e+001	-2.109712e+001	-9.795634e+001	4.065050e+001	-4.452465e+001	1.147829e+002
9.990586e+006	-4.425374e+001	-8.534588e+001	-3.062639e+001	-2.104231e+001	-9.328488e+001	7.102721e+001	-4.458314e+001	1.149294e+002
9.990591e+006	-4.424463e+001	-8.550586e+001	-3.062638e+001	-2.106600e+001	-9.616145e+001	4.806631e+001	-4.454052e+001	1.148610e+002
9.990595e+006	-4.420067e+001	-8.543911e+001	-3.062138e+001	-2.115319e+001	-1.107384e+002	-5.377927e+001	-4.458787e+001	1.146939e+002
9.990600e+006	-4.423518e+001	-8.523339e+001	-3.062811e+001	-2.097680e+001	-9.631288e+001	1.282921e+002	-4.454201e+001	1.147886e+002
9.990605e+006	-4.420450e+001	-8.543702e+001	-3.062936e+001	-2.109277e+001	-9.305691e+001	9.775862e+001	-4.457145e+001	1.150063e+002
9.990609e+006	-4.418938e+001	-8.529905e+001	-3.062460e+001	-2.103154e+001	-8.779494e+001	1.156001e+002	-4.455100e+001	1.150370e+002
9.990614e+006	-4.423135e+001	-8.540254e+001	-3.063567e+001	-2.110026e+001	-9.147306e+001	1.566124e+002	-4.454205e+001	1.149527e+002
9.990619e+006	-4.423378e+001	-8.533827e+001	-3.062778e+001	-2.117643e+001	-9.621529e+001	-1.614007e+002	-4.456038e+001	1.146643e+002
9.990623e+006	-4.423040e+001	-8.526313e+001	-3.062164e+001	-2.113937e+001	-9.350712e+001	-1.606448e+002	-4.452845e+001	1.149406e+002
9.990628e+006	-4.420521e+001	-8.514276e+001	-3.063007e+001	-2.106373e+001	-1.068584e+002	-1.255612e+002	-4.459379e+001	1.147526e+002
9.990633e+006	-4.424556e+001	-8.553142e+001	-3.063631e+001	-2.114493e+001	-9.418589e+001	1.622687e+002	-4.456785e+001	1.144652e+002
9.990638e+006	-4.426847e+001	-8.552653e+001	-3.062454e+001	-2.120156e+001	-8.697747e+001	4.592453e+001	-4.456987e+001	1.149684e+002
9.990642e+006	-4.424056e+001	-8.511670e+001	-3.061786e+001	-2.102633e+001	-9.418208e+001	1.274443e+002	-4.452652e+001	1.148979e+002
9.990647e+006	-4.423311e+001	-8.526783e+001	-3.062472e+001	-2.111940e+001	-9.211284e+001	1.361793e+002	-4.456986e+001	1.151833e+002
9.990652e+006	-4.427113e+001	-8.549080e+001	-3.062769e+001	-2.110041e+001	-9.262071e+001	1.401586e+002	-4.455112e+001	1.147747e+002
9.990656e+006	-4.423309e+001	-8.526063e+001	-3.062101e+001	-2.111373e+001	-9.908644e+001	8.230964e+001	-4.454752e+001	1.148776e+002
9.990661e+006	-4.426669e+001	-8.517568e+001	-3.062272e+001	-2.104296e+001	-1.018609e+002	3.721122e+001	-4.452893e+001	1.146571e+002
9.990666e+006	-4.425288e+001	-8.521419e+001	-3.063423e+001	-2.109258e+001	-9.305532e+001	-1.521558e+002	-4.456516e+001	1.145747e+002
9.990670e+006	-4.425420e+001	-8.539905e+001	-3.062912e+001	-2.106770e+001	-9.008938e+001	7.214987e+000	-4.458056e+001	1.149185e+002
9.990675e+006	-4.421830e+001	-8.519257e+001	-3.061734e+001	-2.106073e+001	-9.833366e+001	1.638919e+002	-4.454380e+001	1.147436e+002
9.990680e+006	-4.422415e+001	-8.532503e+001	-3.062581e+001	-2.109996e+001	-8.892504e+001	7.491348e+001	-4.453729e+001	1.151332e+002
9.990684e+006	-4.421211e+001	-8.515925e+001	-3.061960e+001	-2.117430e+001	-9.903381e+001	1.585612e+002	-4.457804e+001	1.152198e+002
9.990689e+006	-4.418749e+001	-8.534592e+001	-3.063578e+001	-2.105429e+001	-9.300156e+001	9.317890e+001	-4.454340e+001	1.147639e+002
9.990694e+006	-4.424464e+001	-8.512182e+001	-3.063883e+001	-2.114365e+001	-8.854369e+001	5.295421e+001	-4.452786e+001	1.144536e+002
