!CETC41,AV3656A,ZGL00048,1.3.2
!Calibration ON (Full Solt 2-Port(Omit Isolation))
!Measurements: S11 S21 S12 S22
!2025-07-09 20:54
# Hz  S  dB  R 50.000
9.990000e+006	-4.282942e+001	-8.958121e+001	-3.069397e+001	-2.041245e+001	-9.783847e+001	1.340980e+002	-4.267420e+001	3.399251e+001
9.990005e+006	-4.283274e+001	-8.948731e+001	-3.071751e+001	-2.049452e+001	-8.553996e+001	1.344879e+002	-4.266056e+001	3.423485e+001
9.990009e+006	-4.285589e+001	-8.949782e+001	-3.070440e+001	-2.044472e+001	-9.562051e+001	-1.621582e+002	-4.263920e+001	3.438445e+001
9.990014e+006	-4.287325e+001	-8.946391e+001	-3.069963e+001	-2.042858e+001	-1.016461e+002	-1.715451e+002	-4.266582e+001	3.438033e+001
9.990019e+006	-4.280655e+001	-8.975966e+001	-3.069734e+001	-2.046746e+001	-1.012879e+002	1.254941e+002	-4.263217e+001	3.431853e+001
9.990023e+006	-4.280584e+001	-8.943447e+001	-3.071028e+001	-2.045491e+001	-9.268261e+001	1.228920e+002	-4.266033e+001	3.453712e+001
9.990028e+006	-4.281702e+001	-8.936074e+001	-3.069841e+001	-2.046395e+001	-1.074969e+002	7.111666e+001	-4.273890e+001	3.438220e+001
9.990033e+006	-4.281982e+001	-8.914872e+001	-3.070884e+001	-2.040370e+001	-1.002375e+002	-2.015405e+001	-4.269194e+001	3.456016e+001
9.990038e+006	-4.282833e+001	-8.941836e+001	-3.069950e+001	-2.040359e+001	-1.012903e+002	7.944066e+001	-4.270547e+001	3.464429e+001
9.990042e+006	-4.280917e+001	-8.936528e+001	-3.071976e+001	-2.034221e+001	-9.497974e+001	-2.586754e+001	-4.270996e+001	3.465703e+001
9.990047e+006	-4.283690e+001	-8.930139e+001	-3.071070e+001	-2.034175e+001	-9.037737e+001	1.092134e+002	-4.269877e+001	3.437804e+001
9.990052e+006	-4.285186e+001	-8.950858e+001	-3.070653e+001	-2.044508e+001	-1.012431e+002	8.349815e+001	-4.273122e+001	3.435387e+001
9.990056e+006	-4.283845e+001	-8.957945e+001	-3.071046e+001	-2.051640e+001	-9.681279e+001	-5.411889e+001	-4.271981e+001	3.455877e+001
9.990061e+006	-4.286547e+001	-8.955695e+001	-3.071620e+001	-2.049654e+001	-9.420984e+001	-9.778305e+000	-4.273734e+001	3.445857e+001
9.990066e+006	-4.285876e+001	-8.924085e+001	-3.071421e+001	-2.047956e+001	-9.443853e+001	1.357936e+002	-4.269531e+001	3.452605e+001
9.990070e+006	-4.280978e+001	-8.948572e+001	-3.070404e+001	-2.050337e+001	-9.908896e+001	9.073602e+001	-4.269998e+001	3.446440e+001
9.990075e+006	-4.283812e+001	-8.943747e+001	-3.069871e+001	-2.054368e+001	-9.008410e+001	3.609350e+001	-4.273266e+001	3.441117e+001
9.990080e+006	-4.284240e+001	-8.948004e+001	-3.070521e+001	-2.048394e+001	-9.383543e+001	1.293590e+002	-4.269258e+001	3.432280e+001
9.990084e+006	-4.285581e+001	-8.922046e+001	-3.070390e+001	-2.042364e+001	-9.042981e+001	1.715796e+002	-4.273211e+001	3.424884e+001
9.990089e+006	-4.284047e+001	-8.957731e+001	-3.070284e+001	-2.045923e+001	-8.839237e+001	1.498542e+002	-4.272858e+001	3.428215e+001
9.990094e+006	-4.282491e+001	-8.943873e+001	-3.070490e+001	-2.047412e+001	-8.967694e+001	3.042978e+001	-4.277371e+001	3.443513e+001
9.990098e+006	-4.283919e+001	-8.928042e+001	-3.070065e+001	-2.043290e+001	-9.973581e+001	-4.451371e+001	-4.272264e+001	3.471574e+001
9.990103e+006	-4.284568e+001	-8.932736e+001	-3.070930e+001	-2.056355e+001	-8.899331e+001	9.989615e+001	-4.272508e+001	3.451208e+001
9.990108e+006	-4.282527e+001	-8.948531e+001	-3.069449e+001	-2.052372e+001	-8.779369e+001	8.043223e+001	-4.276971e+001	3.446997e+001
9.990113e+006	-4.282278e+001	-8.946543e+001	-3.070443e+001	-2.050677e+001	-9.638743e+001	1.320194e+002	-4.268598e+001	3.481433e+001
9.990117e+006	-4.285179e+001	-8.926132e+001	-3.072426e+001	-2.040935e+001	-9.372015e+001	1.242307e+002	-4.266569e+001	3.456056e+001
9.990122e+006	-4.286241e+001	-8.950171e+001	-3.073159e+001	-2.045213e+001	-9.330201e+001	1.540372e+002	-4.267323e+001	3.425701e+001
9.990127e+006	-4.283017e+001	-8.935651e+001	-3.072824e+001	-2.050908e+001	-9.503977e+001	4.223518e+001	-4.264528e+001	3.453630e+001
9.990131e+006	-4.279621e+001	-8.928726e+001	-3.073575e+001	-2.043877e+001	-8.939265e+001	1.560211e+002	-4.266000e+001	3.433600e+001
9.990136e+006	-4.285823e+001	-8.954239e+001	-3.072249e+001	-2.034175e+001	-8.757966e+001	9.973064e+001	-4.266956e+001	3.407722e+001
9.990141e+006	-4.284027e+001	-8.947823e+001	-3.071396e+001	-2.038133e+001	-9.203683e+001	1.767929e+002	-4.268282e+001	3.446067e+001
9.990145e+006	-4.285887e+001	-8.948451e+001	-3.071587e+001	-2.032376e+001	-9.760505e+001	9.396892e+000	-4.267980e+001	3.442620e+001
9.990150e+006	-4.283565e+001	-8.929834e+001	-3.072354e+001	-2.034779e+001	-1.034306e+002	-6.203503e+001	-4.272208e+001	3.440968e+001
9.990155e+006	-4.283181e+001	-8.958960e+001	-3.070645e+001	-2.035315e+001	-9.081940e+001	1.739762e+002	-4.272294e+001	3.451796e+001
9.990159e+006	-4.285713e+001	-8.910139e+001	-3.071577e+001	-2.049117e+001	-9.763269e+001	1.034504e+002	-4.273408e+001	3.459992e+001
9.990164e+006	-4.283896e+001	-8.910736e+001	-3.069839e+001	-2.037106e+001	-9.126803e+001	8.050541e+001	-4.265770e+001	3.438837e+001
9.990169e+006	-4.282886e+001	-8.935018e+001	-3.069600e+001	-2.038918e+001	-9.511128e+001	4.901651e+001	-4.266556e+001	3.428417e+001
9.990173e+006	-4.283286e+001	-8.950743e+001	-3.070648e+001	-2.052720e+001	-1.062972e+002	-1.182057e+002	-4.273661e+001	3.439700e+001
9.990178e+006	-4.285435e+001	-8.965492e+001	-3.070354e+001	-2.047443e+001	-9.510236e+001	1.278209e+002	-4.270867e+001	3.427869e+001
9.990183e+006	-4.290379e+001	-8.961781e+001	-3.071510e+001	-2.047861e+001	-1.001341e+002	6.520274e+001	-4.267719e+001	3.413849e+001
9.990188e+006	-4.284635e+001	-8.943307e+001	-3.072228e+001	-2.045210e+001	-9.364955e+001	5.294130e+001	-4.267296e+001	3.435678e+001
9.990192e+006	-4.284735e+001	-8.945521e+001	-3.072259e+001	-2.041411e+001	-1.034719e+002	-1.310079e+002	-4.264601e+001	3.456427e+001
9.990197e+006	-4.286571e+001	-8.930562e+001	-3.071224e+001	-2.035987e+001	-8.887113e+001	6.573487e+001	-4.269544e+001	3.437464e+001
9.990202e+006	-4.281872e+001	-8.927085e+001	-3.071585e+001	-2.038745e+001	-1.097122e+002	1.579637e+002	-4.269837e+001	3.450103e+001
9.990206e+006	-4.285114e+001	-8.936230e+001	-3.070800e+001	-2.041633e+001	-9.014701e+001	2.530161e+001	-4.267118e+001	3.455705e+001
9.990211e+006	-4.282326e+001	-8.920336e+001	-3.071050e+001	-2.045177e+001	-9.626073e+001	-6.366546e+000	-4.268664e+001	3.431751e+001
9.990216e+006	-4.288115e+001	-8.936626e+001	-3.071344e+001	-2.039490e+001	-1.007179e+002	6.940870e+001	-4.269963e+001	3.451650e+001
9.990220e+006	-4.285276e+001	-8.943116e+001	-3.070630e+001	-2.040763e+001	-9.814804e+001	1.071360e+002	-4.270832e+001	3.493997e+001
9.990225e+006	-4.284754e+001	-8.914869e+001	-3.071467e+001	-2.037856e+001	-9.914380e+001	5.731103e+001	-4.269665e+001	3.411762e+001
9.990230e+006	-4.286217e+001	-8.931209e+001	-3.070549e+001	-2.040871e+001	-1.007359e+002	1.780507e+002	-4.269702e+001	3.444897e+001
9.990234e+006	-4.284036e+001	-8.952137e+001	-3.070094e+001	-2.041917e+001	-9.476333e+001	-6.785466e+001	-4.269144e+001	3.445409e+001
9.990239e+006	-4.280906e+001	-8.949544e+001	-3.071130e+001	-2.044613e+001	-8.725323e+001	1.252423e+002	-4.270545e+001	3.442303e+001
9.990244e+006	-4.286636e+001	-8.936814e+001	-3.070172e+001	-2.042957e+001	-9.546130e+001	1.024390e+002	-4.269855e+001	3.437701e+001
9.990248e+006	-4.288683e+001	-8.951404e+001	-3.070477e+001	-2.047677e+001	-8.892501e+001	1.013856e+002	-4.269119e+001	3.444923e+001
9.990253e+006	-4.284262e+001	-8.942063e+001	-3.071751e+001	-2.039307e+001	-9.063982e+001	3.767127e+001	-4.274288e+001	3.442867e+001
9.990258e+006	-4.286565e+001	-8.932765e+001	-3.070588e+001	-2.035869e+001	-9.967759e+001	-1.647816e+002	-4.270240e+001	3.453354e+001
9.990263e+006	-4.286591e+001	-8.964550e+001	-3.071031e+001	-2.048073e+001	-9.860853e+001	-1.423839e+002	-4.268752e+001	3.443490e+001
9.990267e+006	-4.280160e+001	-8.954517e+001	-3.070648e+001	-2.044739e+001	-9.906455e+001	6.894129e+001	-4.271447e+001	3.427089e+001
9.990272e+006	-4.285071e+001	-8.949818e+001	-3.070577e+001	-2.046555e+001	-9.161391e+001	2.608893e+001	-4.273091e+001	3.460952e+001
9.990277e+006	-4.283346e+001	-8.960412e+001	-3.070844e+001	-2.036893e+001	-9.068933e+001	3.981221e+001	-4.272200e+001	3.429200e+001
9.990281e+006	-4.285203e+001	-8.967760e+001	-3.071956e+001	-2.045902e+001	-9.756114e+001	3.590422e+001	-4.268360e+001	3.437363e+001
9.990286e+006	-4.285452e+001	-8.920131e+001	-3.069765e+001	-2.041565e+001	-9.750207e+001	1.629046e+002	-4.268453e+001	3.433625e+001
9.990291e+006	-4.285731e+001	-8.933640e+001	-3.070097e+001	-2.050913e+001	-8.832191e+001	9.455970e+001	-4.270777e+001	3.443856e+001
9.990295e+006	-4.285376e+001	-8.937751e+001	-3.070562e+001	-2.043593e+001	-9.528762e+001	-1.997729e+001	-4.269001e+001	3.412949e+001
9.990300e+006	-4.284901e+001	-8.930298e+001	-3.070281e+001	-2.039975e+001	-9.443255e+001	-1.690719e+002	-4.269264e+001	3.425166e+001
9.990305e+006	-4.284723e+001	-8.933492e+001	-3.071045e+001	-2.042352e+001	-9.640169e+001	9.214988e+001	-4.266913e+001	3.421181e+001
9.990309e+006	-4.285127e+001	-8.927559e+001	-3.070173e+001	-2.040967e+001	-8.882089e+001	5.885869e+001	-4.272246e+001	3.425166e+001
9.990314e+006	-4.285826e+001	-8.936437e+001	-3.070626e+001	-2.043232e+001	-1.028825e+002	3.196043e+001	-4.267873e+001	3.468207e+001
9.990319e+006	-4.285775e+001	-8.941225e+001	-3.070776e+001	-2.044428e+001	-9.326010e+001	1.583076e+002	-4.267811e+001	3.430954e+001
9.990323e+006	-4.284111e+001	-8.938416e+001	-3.070999e+001	-2.039129e+001	-9.772064e+001	5.904232e+000	-4.268933e+001	3.447245e+001
9.990328e+006	-4.281826e+001	-8.944352e+001	-3.069976e+001	-2.043095e+001	-9.096694e+001	1.190393e+002	-4.270096e+001	3.440300e+001
9.990333e+006	-4.285140e+001	-8.938904e+001	-3.070900e+001	-2.041654e+001	-9.336145e+001	1.081121e+002	-4.272739e+001	3.436123e+001
9.990338e+006	-4.284721e+001	-8.949132e+001	-3.071486e+001	-2.042837e+001	-9.533823e+001	-9.471584e+001	-4.269764e+001	3.419827e+001
9.990342e+006	-4.285780e+001	-8.944429e+001	-3.070844e+001	-2.048364e+001	-8.595904e+001	1.638281e+002	-4.271237e+001	3.445602e+001
9.990347e+006	-4.283219e+001	-8.943958e+001	-3.071898e+001	-2.040377e+001	-9.744139e+001	6.807549e+001	-4.269438e+001	3.436713e+001
9.990352e+006	-4.285384e+001	-8.956341e+001	-3.071319e+001	-2.049278e+001	-1.046055e+002	-1.836984e+001	-4.265790e+001	3.445443e+001
9.990356e+006	-4.284057e+001	-8.951261e+001	-3.071049e+001	-2.044233e+001	-9.244393e+001	-1.794487e+002	-4.272886e+001	3.437787e+001
9.990361e+006	-4.287148e+001	-8.972294e+001	-3.070869e+001	-2.045014e+001	-8.682301e+001	1.613735e+002	-4.270210e+001	3.430633e+001
9.990366e+006	-4.286254e+001	-8.932987e+001	-3.070314e+001	-2.042597e+001	-9.489536e+001	1.047287e+002	-4.266126e+001	3.412005e+001
9.990370e+006	-4.285040e+001	-8.943393e+001	-3.070174e+001	-2.045397e+001	-9.486933e+001	1.183124e+002	-4.266728e+001	3.436504e+001
9.990375e+006	-4.285983e+001	-8.924750e+001	-3.070400e+001	-2.041747e+001	-9.224554e+001	-1.478495e+002	-4.266868e+001	3.403494e+001
9.990380e+006	-4.285302e+001	-8.954982e+001	-3.070759e+001	-2.045088e+001	-9.454530e+001	1.552474e+002	-4.269580e+001	3.427643e+001
9.990384e+006	-4.282579e+001	-8.959081e+001	-3.070351e+001	-2.047312e+001	-9.240851e+001	-1.590036e+002	-4.268109e+001	3.425099e+001
9.990389e+006	-4.286700e+001	-8.947978e+001	-3.071157e+001	-2.051554e+001	-9.851082e+001	1.584058e+002	-4.269090e+001	3.443849e+001
9.990394e+006	-4.283548e+001	-8.943245e+001	-3.071096e+001	-2.036087e+001	-9.377245e+001	1.264282e+002	-4.270735e+001	3.448243e+001
9.990398e+006	-4.284010e+001	-8.955635e+001	-3.070281e+001	-2.040655e+001	-9.449811e+001	-1.359432e+002	-4.265844e+001	3.448504e+001
9.990403e+006	-4.283750e+001	-8.924507e+001	-3.070687e+001	-2.036797e+001	-1.010393e+002	1.351182e+002	-4.270120e+001	3.434141e+001
9.990408e+006	-4.284239e+001	-8.935671e+001	-3.070938e+001	-2.046469e+001	-1.026285e+002	-2.649892e+001	-4.269158e+001	3.450179e+001
9.990413e+006	-4.287124e+001	-8.938567e+001	-3.070533e+001	-2.041641e+001	-9.276001e+001	3.911625e+001	-4.264943e+001	3.454188e+001
9.990417e+006	-4.284955e+001	-8.943055e+001	-3.071345e+001	-2.037515e+001	-9.672940e+001	3.980272e+001	-4.267192e+001	3.430998e+001
9.990422e+006	-4.286568e+001	-8.934805e+001	-3.070268e+001	-2.046458e+001	-8.973861e+001	1.065299e+002	-4.268651e+001	3.438704e+001
9.990427e+006	-4.284704e+001	-8.937327e+001	-3.070159e+001	-2.043151e+001	-1.003555e+002	-1.659391e+002	-4.270026e+001	3.437831e+001
9.990431e+006	-4.284623e+001	-8.930769e+001	-3.070427e+001	-2.042400e+001	-9.365175e+001	-1.297199e+002	-4.267048e+001	3.455978e+001
9.990436e+006	-4.284114e+001	-8.944241e+001	-3.071018e+001	-2.043513e+001	-1.026018e+002	1.487325e+002	-4.267281e+001	3.435405e+001
9.990441e+006	-4.283805e+001	-8.953109e+001	-3.070385e+001	-2.042546e+001	-1.039713e+002	2.768558e+001	-4.269213e+001	3.444310e+001
9.990445e+006	-4.286518e+001	-8.947251e+001	-3.070017e+001	-2.039375e+001	-9.273727e+001	-1.053808e+002	-4.268317e+001	3.441178e+001
9.990450e+006	-4.286815e+001	-8.939412e+001	-3.071524e+001	-2.039903e+001	-1.020570e+002	-1.684514e+002	-4.270457e+001	3.463103e+001
9.990455e+006	-4.284343e+001	-8.930479e+001	-3.070315e+001	-2.044599e+001	-9.260819e+001	1.785621e+002	-4.267415e+001	3.425728e+001
9.990459e+006	-4.284973e+001	-8.937490e+001	-3.071279e+001	-2.042222e+001	-8.955776e+001	1.018369e+002	-4.269072e+001	3.397346e+001
9.990464e+006	-4.282324e+001	-8.955544e+001	-3.069169e+001	-2.045449e+001	-9.092544e+001	6.650087e+001	-4.267463e+001	3.436414e+001
9.990469e+006	-4.285913e+001	-8.965544e+001	-3.071053e+001	-2.046416e+001	-8.981671e+001	1.508556e+002	-4.266346e+001	3.436269e+001
9.990473e+006	-4.285814e+001	-8.933378e+001	-3.070776e+001	-2.035216e+001	-8.965048e+001	9.331732e+001	-4.272017e+001	3.431000e+001
9.990478e+006	-4.287309e+001	-8.944171e+001	-3.070650e+001	-2.038273e+001	-8.732774e+001	-1.509912e+001	-4.263997e+001	3.445454e+001
9.990483e+006	-4.286072e+001	-8.925741e+001	-3.071044e+001	-2.034804e+001	-8.518518e+001	1.167201e+002	-4.266971e+001	3.450139e+001
9.990488e+006	-4.285213e+001	-8.932255e+001	-3.069676e+001	-2.043014e+001	-9.267015e+001	1.736118e+001	-4.269756e+001	3.438683e+001
9.990492e+006	-4.283342e+001	-8.940323e+001	-3.071084e+001	-2.038353e+001	-1.065011e+002	-2.186882e+001	-4.271457e+001	3.462195e+001
9.990497e+006	-4.286596e+001	-8.936645e+001	-3.069960e+001	-2.047852e+001	-9.430072e+001	1.715042e+002	-4.267672e+001	3.457059e+001
9.990502e+006	-4.284769e+001	-8.943007e+001	-3.070811e+001	-2.045333e+001	-8.990143e+001	1.588383e+002	-4.272785e+001	3.432950e+001
9.990506e+006	-4.285968e+001	-8.940515e+001	-3.069877e+001	-2.044493e+001	-9.362002e+001	1.296882e+002	-4.270069e+001	3.432419e+001
9.990511e+006	-4.284829e+001	-8.933206e+001	-3.070882e+001	-2.045535e+001	-9.075428e+001	1.197771e+002	-4.269169e+001	3.456818e+001
9.990516e+006	-4.286816e+001	-8.967163e+001	-3.068931e+001	-2.036859e+001	-9.446848e+001	1.762558e+002	-4.264795e+001	3.435303e+001
9.990520e+006	-4.284882e+001	-8.950498e+001	-3.071421e+001	-2.044254e+001	-9.251573e+001	6.957538e+001	-4.272528e+001	3.440712e+001
9.990525e+006	-4.284244e+001	-8.933211e+001	-3.070053e+001	-2.046280e+001	-1.042305e+002	1.047109e+002	-4.271729e+001	3.459939e+001
9.990530e+006	-4.282189e+001	-8.950131e+001	-3.070160e+001	-2.044661e+001	-9.334770e+001	1.140183e+002	-4.268160e+001	3.416582e+001
9.990534e+006	-4.282579e+001	-8.923653e+001	-3.070678e+001	-2.047050e+001	-9.059986e+001	9.475745e+001	-4.269814e+001	3.428977e+001
9.990539e+006	-4.285937e+001	-8.925871e+001	-3.069877e+001	-2.045135e+001	-8.834600e+001	1.133262e+002	-4.267954e+001	3.430343e+001
9.990544e+006	-4.284056e+001	-8.946652e+001	-3.069893e+001	-2.040545e+001	-9.146181e+001	-1.786057e+002	-4.270124e+001	3.449480e+001
9.990548e+006	-4.286720e+001	-8.946919e+001	-3.070360e+001	-2.044520e+001	-9.774279e+001	-1.468750e+002	-4.266844e+001	3.448216e+001
9.990553e+006	-4.284724e+001	-8.917812e+001	-3.070543e+001	-2.044756e+001	-9.910690e+001	1.423869e+002	-4.271334e+001	3.428638e+001
9.990558e+006	-4.287289e+001	-8.951479e+001	-3.069534e+001	-2.050045e+001	-9.285193e+001	8.741132e+001	-4.271227e+001	3.434933e+001
9.990563e+006	-4.284560e+001	-8.936305e+001	-3.070069e+001	-2.039286e+001	-9.256816e+001	-1.710040e+002	-4.270176e+001	3.444825e+001
9.990567e+006	-4.288432e+001	-8.930673e+001	-3.070721e+001	-2.039135e+001	-1.021983e+002	-1.567978e+001	-4.273507e+001	3.456431e+001
9.990572e+006	-4.284321e+001	-8.933257e+001	-3.069476e+001	-2.042386e+001	-9.220602e+001	1.340270e+002	-4.266127e+001	3.454200e+001
9.990577e+006	-4.285231e+001	-8.915479e+001	-3.070458e+001	-2.043032e+001	-8.763670e+001	1.096507e+002	-4.267790e+001	3.433742e+001
9.990581e+006	-4.283054e+001	-8.948733e+001	-3.069811e+001	-2.042515e+001	-9.458521e+001	2.721178e+001	-4.264840e+001	3.428192e+001
9.990586e+006	-4.285471e+001	-8.932686e+001	-3.070225e+001	-2.046177e+001	-9.317435e+001	8.701954e+001	-4.269638e+001	3.455942e+001
9.990591e+006	-4.283717e+001	-8.957354e+001	-3.069505e+001	-2.041754e+001	-9.580729e+001	1.508099e+002	-4.263085e+001	3.446287e+001
9.990595e+006	-4.287631e+001	-8.936155e+001	-3.070382e+001	-2.047149e+001	-1.030405e+002	1.092078e+002	-4.268615e+001	3.435325e+001
9.990600e+006	-4.288280e+001	-8.934726e+001	-3.070943e+001	-2.038660e+001	-9.415288e+001	1.748906e+002	-4.272747e+001	3.425712e+001
9.990605e+006	-4.285515e+001	-8.953814e+001	-3.069877e+001	-2.050351e+001	-9.312890e+001	1.334217e+002	-4.273547e+001	3.445913e+001
9.990609e+006	-4.288024e+001	-8.939029e+001	-3.070605e+001	-2.042938e+001	-9.698580e+001	1.404300e+002	-4.272243e+001	3.442492e+001
9.990614e+006	-4.284648e+001	-8.918743e+001	-3.070373e+001	-2.047294e+001	-9.233283e+001	-3.723618e+001	-4.267146e+001	3.443215e+001
9.990619e+006	-4.284856e+001	-8.923414e+001	-3.070256e+001	-2.050341e+001	-1.009064e+002	6.382268e+001	-4.269657e+001	3.458611e+001
9.990623e+006	-4.284938e+001	-8.949338e+001	-3.069066e+001	-2.037980e+001	-1.055924e+002	-7.120211e+001	-4.269026e+001	3.443249e+001
9.990628e+006	-4.285311e+001	-8.929387e+001	-3.071541e+001	-2.042218e+001	-1.066030e+002	-1.772782e+002	-4.269310e+001	3.422038e+001
9.990633e+006	-4.282812e+001	-8.945892e+001	-3.069314e+001	-2.047646e+001	-9.498369e+001	-1.775466e+002	-4.268395e+001	3.457439e+001
9.990638e+006	-4.285407e+001	-8.935134e+001	-3.070029e+001	-2.038605e+001	-9.106797e+001	9.946264e+001	-4.265214e+001	3.465003e+001
9.990642e+006	-4.281234e+001	-8.951939e+001	-3.070800e+001	-2.042413e+001	-9.876264e+001	3.169932e+001	-4.268071e+001	3.450827e+001
9.990647e+006	-4.283692e+001	-8.920422e+001	-3.069227e+001	-2.041952e+001	-9.833559e+001	-1.256594e+002	-4.271278e+001	3.427480e+001
9.990652e+006	-4.283615e+001	-8.940289e+001	-3.070669e+001	-2.031509e+001	-9.798543e+001	-3.541461e+000	-4.263751e+001	3.453875e+001
9.990656e+006	-4.280522e+001	-8.941249e+001	-3.069920e+001	-2.043089e+001	-9.332231e+001	8.626559e+001	-4.268509e+001	3.431492e+001
9.990661e+006	-4.283519e+001	-8.938627e+001	-3.071173e+001	-2.044663e+001	-1.019064e+002	1.774012e+001	-4.265469e+001	3.420468e+001
9.990666e+006	-4.284043e+001	-8.938980e+001	-3.069541e+001	-2.043080e+001	-9.404261e+001	-1.359939e+002	-4.269746e+001	3.442137e+001
9.990670e+006	-4.285687e+001	-8.931096e+001	-3.068316e+001	-2.044162e+001	-9.358199e+001	1.271788e+002	-4.270556e+001	3.434116e+001
9.990675e+006	-4.284272e+001	-8.948551e+001	-3.071070e+001	-2.043607e+001	-9.904743e+001	-1.296555e+002	-4.266397e+001	3.441498e+001
9.990680e+006	-4.283846e+001	-8.932894e+001	-3.070461e+001	-2.045166e+001	-9.336641e+001	1.291136e+002	-4.267071e+001	3.427455e+001
9.990684e+006	-4.287008e+001	-8.929418e+001	-3.069332e+001	-2.030783e+001	-9.017507e+001	3.391005e+001	-4.271939e+001	3.466325e+001
9.990689e+006	-4.285316e+001	-8.952021e+001	-3.071460e+001	-2.040545e+001	-9.669160e+001	8.028805e+001	-4.269324e+001	3.436043e+001
