!CETC41,AV3656A,ZGL00048,1.3.2
!Calibration ON (Full Solt 2-Port(Omit Isolation))
!Measurements: S11 S21 S12 S22
!2025-07-09 22:35
# Hz  S  dB  R 50.000
9.990000e+006	-4.261614e+001	-8.533805e+001	-3.064587e+001	-2.184003e+001	-8.656803e+001	1.270108e+002	-4.780845e+001	1.133113e+002
9.990005e+006	-4.257079e+001	-8.522412e+001	-3.064375e+001	-2.188167e+001	-8.990445e+001	8.695650e+001	-4.778768e+001	1.138204e+002
9.990009e+006	-4.257378e+001	-8.503974e+001	-3.064388e+001	-2.181706e+001	-8.566559e+001	8.468418e+001	-4.784907e+001	1.136200e+002
9.990014e+006	-4.254689e+001	-8.494380e+001	-3.065232e+001	-2.185967e+001	-8.856688e+001	1.180424e+002	-4.787555e+001	1.142975e+002
9.990019e+006	-4.257919e+001	-8.519711e+001	-3.065982e+001	-2.186133e+001	-8.986123e+001	8.237088e+001	-4.781440e+001	1.147051e+002
9.990023e+006	-4.257538e+001	-8.500300e+001	-3.066104e+001	-2.186431e+001	-1.137360e+002	1.068265e+002	-4.778192e+001	1.143927e+002
9.990028e+006	-4.256323e+001	-8.503394e+001	-3.065414e+001	-2.181785e+001	-9.250455e+001	8.159444e+001	-4.776458e+001	1.144381e+002
9.990033e+006	-4.256915e+001	-8.517002e+001	-3.067783e+001	-2.188231e+001	-9.377996e+001	9.413778e+001	-4.774066e+001	1.142764e+002
9.990038e+006	-4.256161e+001	-8.519626e+001	-3.065251e+001	-2.182606e+001	-8.978964e+001	1.360826e+002	-4.782821e+001	1.136108e+002
9.990042e+006	-4.256943e+001	-8.496887e+001	-3.065062e+001	-2.182641e+001	-8.700262e+001	1.209641e+002	-4.780898e+001	1.135953e+002
9.990047e+006	-4.256537e+001	-8.495075e+001	-3.066391e+001	-2.182776e+001	-9.765912e+001	1.529245e+002	-4.779688e+001	1.134257e+002
9.990052e+006	-4.257803e+001	-8.532347e+001	-3.067349e+001	-2.179686e+001	-9.349344e+001	1.408114e+000	-4.781584e+001	1.137937e+002
9.990056e+006	-4.254992e+001	-8.526182e+001	-3.064436e+001	-2.181279e+001	-9.464457e+001	6.848463e+001	-4.776740e+001	1.139567e+002
9.990061e+006	-4.256534e+001	-8.501002e+001	-3.066721e+001	-2.182006e+001	-9.238628e+001	3.763550e+000	-4.784822e+001	1.137172e+002
9.990066e+006	-4.256518e+001	-8.514782e+001	-3.064803e+001	-2.175231e+001	-1.051185e+002	-2.958484e+001	-4.783792e+001	1.143745e+002
9.990070e+006	-4.258521e+001	-8.487039e+001	-3.065221e+001	-2.176556e+001	-9.644324e+001	6.235715e+000	-4.777816e+001	1.137555e+002
9.990075e+006	-4.253972e+001	-8.490650e+001	-3.065741e+001	-2.187383e+001	-9.414070e+001	2.445250e+001	-4.775730e+001	1.138691e+002
9.990080e+006	-4.257999e+001	-8.506074e+001	-3.066178e+001	-2.184148e+001	-9.093132e+001	3.311997e+001	-4.777273e+001	1.138505e+002
9.990084e+006	-4.256885e+001	-8.516843e+001	-3.065397e+001	-2.181105e+001	-9.033759e+001	1.352740e+002	-4.782016e+001	1.135600e+002
9.990089e+006	-4.255062e+001	-8.506956e+001	-3.064919e+001	-2.180292e+001	-9.419310e+001	-1.339460e+002	-4.779639e+001	1.140422e+002
9.990094e+006	-4.257272e+001	-8.493124e+001	-3.065391e+001	-2.182174e+001	-8.838181e+001	1.457371e+002	-4.773283e+001	1.145555e+002
9.990098e+006	-4.255552e+001	-8.507109e+001	-3.066365e+001	-2.177098e+001	-9.676766e+001	9.731975e+001	-4.777655e+001	1.146057e+002
9.990103e+006	-4.257081e+001	-8.511965e+001	-3.064753e+001	-2.187503e+001	-9.162423e+001	1.676591e+002	-4.785329e+001	1.133850e+002
9.990108e+006	-4.258986e+001	-8.512416e+001	-3.064508e+001	-2.183963e+001	-8.715218e+001	1.135705e+002	-4.781232e+001	1.139957e+002
9.990113e+006	-4.259638e+001	-8.511510e+001	-3.065026e+001	-2.179790e+001	-9.534016e+001	6.617225e+001	-4.777945e+001	1.139201e+002
9.990117e+006	-4.255936e+001	-8.491678e+001	-3.064910e+001	-2.180413e+001	-9.625516e+001	-1.117040e+002	-4.780712e+001	1.137167e+002
9.990122e+006	-4.255337e+001	-8.504668e+001	-3.063974e+001	-2.176121e+001	-9.453463e+001	1.204474e+002	-4.783189e+001	1.141720e+002
9.990127e+006	-4.255654e+001	-8.494813e+001	-3.064709e+001	-2.184845e+001	-1.053926e+002	5.959632e+001	-4.779319e+001	1.138165e+002
9.990131e+006	-4.257069e+001	-8.502927e+001	-3.064931e+001	-2.188631e+001	-9.177456e+001	8.656543e+001	-4.773601e+001	1.138770e+002
9.990136e+006	-4.255040e+001	-8.509915e+001	-3.065055e+001	-2.187283e+001	-1.036485e+002	-2.142156e+001	-4.777111e+001	1.138612e+002
9.990141e+006	-4.255316e+001	-8.502176e+001	-3.064870e+001	-2.180449e+001	-9.977524e+001	1.623019e+002	-4.775815e+001	1.140793e+002
9.990145e+006	-4.259352e+001	-8.511068e+001	-3.065509e+001	-2.173239e+001	-9.339318e+001	1.277427e+002	-4.779709e+001	1.137337e+002
9.990150e+006	-4.258297e+001	-8.491680e+001	-3.065648e+001	-2.182532e+001	-9.131738e+001	1.279824e+002	-4.774088e+001	1.136317e+002
9.990155e+006	-4.254731e+001	-8.501057e+001	-3.065628e+001	-2.179135e+001	-9.299304e+001	4.764430e+001	-4.774768e+001	1.135429e+002
9.990159e+006	-4.257038e+001	-8.502519e+001	-3.064217e+001	-2.180222e+001	-9.998913e+001	-5.175001e+001	-4.786820e+001	1.138016e+002
9.990164e+006	-4.255219e+001	-8.513847e+001	-3.064518e+001	-2.184131e+001	-9.423845e+001	1.455662e+002	-4.777507e+001	1.139696e+002
9.990169e+006	-4.258135e+001	-8.503474e+001	-3.064801e+001	-2.171544e+001	-9.323798e+001	-1.120374e+001	-4.784523e+001	1.138436e+002
9.990173e+006	-4.255115e+001	-8.505300e+001	-3.064745e+001	-2.187368e+001	-9.783728e+001	1.345159e+002	-4.781450e+001	1.139908e+002
9.990178e+006	-4.255581e+001	-8.505056e+001	-3.064816e+001	-2.185514e+001	-1.035840e+002	-1.260988e+002	-4.776204e+001	1.142164e+002
9.990183e+006	-4.260037e+001	-8.519624e+001	-3.065009e+001	-2.181319e+001	-1.044005e+002	4.229062e+001	-4.790063e+001	1.137840e+002
9.990188e+006	-4.256363e+001	-8.505005e+001	-3.064914e+001	-2.185302e+001	-9.746661e+001	-1.512125e+002	-4.774791e+001	1.132465e+002
9.990192e+006	-4.257996e+001	-8.504846e+001	-3.065956e+001	-2.186475e+001	-9.379428e+001	-1.681761e+002	-4.777486e+001	1.138076e+002
9.990197e+006	-4.256421e+001	-8.512865e+001	-3.065067e+001	-2.181752e+001	-9.392737e+001	-1.031051e+002	-4.775599e+001	1.140526e+002
9.990202e+006	-4.257702e+001	-8.513860e+001	-3.064668e+001	-2.187219e+001	-9.057418e+001	3.506381e+001	-4.778533e+001	1.144925e+002
9.990206e+006	-4.253779e+001	-8.513264e+001	-3.064429e+001	-2.179376e+001	-8.814504e+001	7.860879e+001	-4.776319e+001	1.139826e+002
9.990211e+006	-4.256893e+001	-8.521324e+001	-3.065221e+001	-2.180667e+001	-9.389385e+001	4.337277e+001	-4.778854e+001	1.140773e+002
9.990216e+006	-4.257518e+001	-8.498426e+001	-3.065220e+001	-2.182682e+001	-1.050064e+002	1.231437e+002	-4.788302e+001	1.142052e+002
9.990220e+006	-4.260575e+001	-8.489304e+001	-3.064950e+001	-2.183572e+001	-1.016080e+002	-2.129974e+001	-4.779766e+001	1.141776e+002
9.990225e+006	-4.255026e+001	-8.495487e+001	-3.064846e+001	-2.181482e+001	-9.361980e+001	-3.282038e+001	-4.777406e+001	1.137317e+002
9.990230e+006	-4.258628e+001	-8.505114e+001	-3.064820e+001	-2.179752e+001	-9.894850e+001	6.762318e+001	-4.782510e+001	1.138747e+002
9.990234e+006	-4.256782e+001	-8.487528e+001	-3.065512e+001	-2.183529e+001	-8.816899e+001	1.394105e+002	-4.779879e+001	1.141886e+002
9.990239e+006	-4.256533e+001	-8.500188e+001	-3.064370e+001	-2.178144e+001	-9.702765e+001	7.461552e+001	-4.786169e+001	1.140961e+002
9.990244e+006	-4.255806e+001	-8.507430e+001	-3.064626e+001	-2.179155e+001	-8.738489e+001	8.249068e+001	-4.779201e+001	1.144834e+002
9.990248e+006	-4.257182e+001	-8.501060e+001	-3.065872e+001	-2.180511e+001	-9.247229e+001	9.185397e+001	-4.780693e+001	1.138571e+002
9.990253e+006	-4.257368e+001	-8.530314e+001	-3.065524e+001	-2.183691e+001	-8.875309e+001	1.650710e+002	-4.770688e+001	1.136082e+002
9.990258e+006	-4.257940e+001	-8.513832e+001	-3.063806e+001	-2.182878e+001	-9.256196e+001	7.948044e+001	-4.783733e+001	1.144010e+002
9.990263e+006	-4.262167e+001	-8.509153e+001	-3.064586e+001	-2.181024e+001	-8.770219e+001	1.913521e+001	-4.777281e+001	1.138227e+002
9.990267e+006	-4.255871e+001	-8.504195e+001	-3.065310e+001	-2.184640e+001	-8.678939e+001	1.036421e+002	-4.781165e+001	1.143989e+002
9.990272e+006	-4.260894e+001	-8.493251e+001	-3.065210e+001	-2.185524e+001	-9.988490e+001	7.398023e+001	-4.777659e+001	1.140092e+002
9.990277e+006	-4.254043e+001	-8.517398e+001	-3.065780e+001	-2.177521e+001	-8.537062e+001	9.745376e+001	-4.781365e+001	1.135315e+002
9.990281e+006	-4.258076e+001	-8.499931e+001	-3.064754e+001	-2.177333e+001	-9.192727e+001	1.676564e+002	-4.779401e+001	1.142803e+002
9.990286e+006	-4.257978e+001	-8.488906e+001	-3.064988e+001	-2.175914e+001	-1.007664e+002	4.627201e+001	-4.780782e+001	1.136946e+002
9.990291e+006	-4.261130e+001	-8.521056e+001	-3.065089e+001	-2.179912e+001	-9.171015e+001	1.207226e+002	-4.780814e+001	1.136422e+002
9.990295e+006	-4.257446e+001	-8.512812e+001	-3.065206e+001	-2.185806e+001	-8.821566e+001	8.283444e+001	-4.770562e+001	1.140898e+002
9.990300e+006	-4.259336e+001	-8.507524e+001	-3.064764e+001	-2.182165e+001	-9.232640e+001	5.353273e+000	-4.782015e+001	1.139456e+002
9.990305e+006	-4.258800e+001	-8.509283e+001	-3.063238e+001	-2.183605e+001	-8.999989e+001	1.040419e+002	-4.779722e+001	1.138453e+002
9.990309e+006	-4.255000e+001	-8.519888e+001	-3.064334e+001	-2.181547e+001	-9.642064e+001	1.025363e+002	-4.777077e+001	1.140640e+002
9.990314e+006	-4.257451e+001	-8.507369e+001	-3.065116e+001	-2.182914e+001	-9.003761e+001	2.190483e+001	-4.781555e+001	1.135129e+002
9.990319e+006	-4.256061e+001	-8.508439e+001	-3.065006e+001	-2.186857e+001	-9.197977e+001	-1.483816e+002	-4.777412e+001	1.134881e+002
9.990323e+006	-4.254528e+001	-8.502443e+001	-3.064896e+001	-2.180802e+001	-9.127270e+001	1.413354e+002	-4.775997e+001	1.136918e+002
9.990328e+006	-4.260219e+001	-8.523831e+001	-3.065145e+001	-2.179309e+001	-9.395461e+001	1.160376e+002	-4.771237e+001	1.139665e+002
9.990333e+006	-4.256159e+001	-8.489092e+001	-3.065123e+001	-2.175914e+001	-9.177440e+001	1.032970e+002	-4.778625e+001	1.139126e+002
9.990338e+006	-4.259487e+001	-8.508437e+001	-3.064604e+001	-2.184064e+001	-9.400459e+001	1.601573e+002	-4.775061e+001	1.135826e+002
9.990342e+006	-4.257629e+001	-8.495151e+001	-3.065617e+001	-2.183983e+001	-1.031660e+002	-1.055868e+002	-4.776450e+001	1.134215e+002
9.990347e+006	-4.261836e+001	-8.502292e+001	-3.065761e+001	-2.182818e+001	-9.171092e+001	1.632055e+002	-4.780433e+001	1.136846e+002
9.990352e+006	-4.260380e+001	-8.505147e+001	-3.064372e+001	-2.184230e+001	-1.026459e+002	5.577294e+001	-4.776216e+001	1.140467e+002
9.990356e+006	-4.252147e+001	-8.474597e+001	-3.063984e+001	-2.189141e+001	-9.707919e+001	-1.018494e+002	-4.778037e+001	1.139011e+002
9.990361e+006	-4.257365e+001	-8.507715e+001	-3.065034e+001	-2.182374e+001	-1.042801e+002	1.146968e+002	-4.784481e+001	1.135717e+002
9.990366e+006	-4.259757e+001	-8.499366e+001	-3.064385e+001	-2.185771e+001	-9.394156e+001	-1.962217e+001	-4.782499e+001	1.140406e+002
9.990370e+006	-4.255973e+001	-8.481966e+001	-3.066065e+001	-2.182462e+001	-9.773145e+001	7.061700e+000	-4.775244e+001	1.136778e+002
9.990375e+006	-4.258168e+001	-8.490111e+001	-3.064786e+001	-2.179323e+001	-9.808971e+001	1.131460e+002	-4.779651e+001	1.139273e+002
9.990380e+006	-4.254734e+001	-8.502640e+001	-3.064955e+001	-2.190180e+001	-9.248807e+001	-1.641103e+002	-4.779065e+001	1.136492e+002
9.990384e+006	-4.259633e+001	-8.522540e+001	-3.064304e+001	-2.190141e+001	-1.037483e+002	-4.191592e+001	-4.779553e+001	1.138503e+002
9.990389e+006	-4.257605e+001	-8.502460e+001	-3.064602e+001	-2.176849e+001	-9.493229e+001	6.618459e+001	-4.781210e+001	1.143227e+002
9.990394e+006	-4.256328e+001	-8.525928e+001	-3.064289e+001	-2.184416e+001	-9.117481e+001	-1.716391e+002	-4.774971e+001	1.137753e+002
9.990398e+006	-4.257178e+001	-8.486199e+001	-3.065159e+001	-2.184222e+001	-9.670813e+001	1.150483e+002	-4.779987e+001	1.141929e+002
9.990403e+006	-4.256503e+001	-8.494525e+001	-3.065257e+001	-2.184383e+001	-1.018782e+002	9.240274e+000	-4.772712e+001	1.137373e+002
9.990408e+006	-4.256054e+001	-8.511993e+001	-3.065308e+001	-2.179691e+001	-9.513072e+001	1.196824e+002	-4.783820e+001	1.139247e+002
9.990413e+006	-4.256702e+001	-8.516413e+001	-3.063767e+001	-2.180616e+001	-9.953383e+001	-6.944556e+000	-4.779933e+001	1.142203e+002
9.990417e+006	-4.257299e+001	-8.496255e+001	-3.065439e+001	-2.182563e+001	-8.793030e+001	1.427207e+002	-4.776663e+001	1.140284e+002
9.990422e+006	-4.257819e+001	-8.497528e+001	-3.063640e+001	-2.186680e+001	-8.928861e+001	1.697384e+002	-4.772717e+001	1.138557e+002
9.990427e+006	-4.260567e+001	-8.509415e+001	-3.065273e+001	-2.183320e+001	-1.015115e+002	-5.193789e+001	-4.777068e+001	1.138874e+002
9.990431e+006	-4.257950e+001	-8.491538e+001	-3.063647e+001	-2.179174e+001	-1.123337e+002	6.938582e+000	-4.777419e+001	1.136782e+002
9.990436e+006	-4.255053e+001	-8.503519e+001	-3.063775e+001	-2.181599e+001	-9.199623e+001	-1.398108e+002	-4.783047e+001	1.136995e+002
9.990441e+006	-4.256958e+001	-8.513461e+001	-3.063675e+001	-2.178614e+001	-9.822066e+001	-1.500828e+002	-4.774595e+001	1.140453e+002
9.990445e+006	-4.255481e+001	-8.518052e+001	-3.064052e+001	-2.183810e+001	-8.367835e+001	8.339060e+001	-4.775706e+001	1.140441e+002
9.990450e+006	-4.257445e+001	-8.528307e+001	-3.064428e+001	-2.182171e+001	-9.681327e+001	-1.777863e+002	-4.777034e+001	1.138142e+002
9.990455e+006	-4.252994e+001	-8.513379e+001	-3.064625e+001	-2.180934e+001	-8.700545e+001	8.567464e+001	-4.777017e+001	1.142102e+002
9.990459e+006	-4.259656e+001	-8.493629e+001	-3.064998e+001	-2.180812e+001	-1.029515e+002	1.731829e+002	-4.781325e+001	1.138533e+002
9.990464e+006	-4.254840e+001	-8.505636e+001	-3.063991e+001	-2.189216e+001	-1.001142e+002	1.657551e+002	-4.782918e+001	1.141900e+002
9.990469e+006	-4.257654e+001	-8.500763e+001	-3.064381e+001	-2.180589e+001	-1.012091e+002	1.123191e+002	-4.771827e+001	1.137144e+002
9.990473e+006	-4.253789e+001	-8.515201e+001	-3.064334e+001	-2.181762e+001	-1.042410e+002	1.284342e+002	-4.781395e+001	1.138642e+002
9.990478e+006	-4.256583e+001	-8.490178e+001	-3.064202e+001	-2.182878e+001	-9.724485e+001	1.184218e+002	-4.776220e+001	1.140792e+002
9.990483e+006	-4.259233e+001	-8.520586e+001	-3.065148e+001	-2.180644e+001	-9.951255e+001	1.040364e+002	-4.778202e+001	1.140010e+002
9.990488e+006	-4.257418e+001	-8.520524e+001	-3.064162e+001	-2.182555e+001	-9.481582e+001	1.714230e+002	-4.783957e+001	1.139075e+002
9.990492e+006	-4.259439e+001	-8.507596e+001	-3.063532e+001	-2.190958e+001	-9.561995e+001	1.227957e+002	-4.778239e+001	1.138530e+002
9.990497e+006	-4.257781e+001	-8.491298e+001	-3.064663e+001	-2.175284e+001	-9.402892e+001	8.679953e+001	-4.783652e+001	1.140418e+002
9.990502e+006	-4.258734e+001	-8.490037e+001	-3.064516e+001	-2.172878e+001	-8.707972e+001	1.478015e+002	-4.777160e+001	1.132610e+002
9.990506e+006	-4.260533e+001	-8.527449e+001	-3.063350e+001	-2.182704e+001	-8.921625e+001	6.307033e+001	-4.777000e+001	1.135845e+002
9.990511e+006	-4.256982e+001	-8.523271e+001	-3.063756e+001	-2.181069e+001	-8.731447e+001	9.589031e+001	-4.780181e+001	1.143337e+002
9.990516e+006	-4.258098e+001	-8.501706e+001	-3.064495e+001	-2.182655e+001	-9.618228e+001	1.626947e+002	-4.770201e+001	1.138967e+002
9.990520e+006	-4.256300e+001	-8.514051e+001	-3.064278e+001	-2.185494e+001	-9.256490e+001	9.078905e+001	-4.777582e+001	1.137881e+002
9.990525e+006	-4.259282e+001	-8.494813e+001	-3.064341e+001	-2.181261e+001	-9.396375e+001	-7.672929e+001	-4.783873e+001	1.135850e+002
9.990530e+006	-4.256590e+001	-8.493470e+001	-3.064497e+001	-2.179909e+001	-1.048739e+002	-1.671160e+002	-4.784910e+001	1.141109e+002
9.990534e+006	-4.258786e+001	-8.471859e+001	-3.064209e+001	-2.184493e+001	-1.005965e+002	-1.738666e+002	-4.780457e+001	1.139138e+002
9.990539e+006	-4.255580e+001	-8.521570e+001	-3.065235e+001	-2.178726e+001	-9.176447e+001	-1.609025e+002	-4.777715e+001	1.138767e+002
9.990544e+006	-4.257906e+001	-8.523959e+001	-3.064067e+001	-2.180364e+001	-9.798169e+001	8.231536e+001	-4.778136e+001	1.136944e+002
9.990548e+006	-4.258211e+001	-8.506191e+001	-3.064274e+001	-2.182759e+001	-9.619718e+001	9.402422e+001	-4.775453e+001	1.139525e+002
9.990553e+006	-4.255840e+001	-8.477592e+001	-3.064342e+001	-2.188412e+001	-8.914822e+001	9.340849e+001	-4.781156e+001	1.142274e+002
9.990558e+006	-4.254123e+001	-8.520182e+001	-3.064264e+001	-2.188001e+001	-9.015812e+001	1.047450e+002	-4.776892e+001	1.141649e+002
9.990563e+006	-4.255441e+001	-8.492558e+001	-3.064766e+001	-2.182895e+001	-9.529015e+001	3.820329e+001	-4.772716e+001	1.134876e+002
9.990567e+006	-4.258638e+001	-8.530735e+001	-3.065675e+001	-2.178848e+001	-9.620402e+001	-1.385813e+002	-4.779130e+001	1.136815e+002
9.990572e+006	-4.259519e+001	-8.475398e+001	-3.064266e+001	-2.188157e+001	-9.728831e+001	7.259307e+000	-4.779626e+001	1.142384e+002
9.990577e+006	-4.258468e+001	-8.512130e+001	-3.064295e+001	-2.190475e+001	-8.936693e+001	1.692890e+002	-4.774178e+001	1.140055e+002
9.990581e+006	-4.257583e+001	-8.481272e+001	-3.063865e+001	-2.178548e+001	-9.078562e+001	1.085662e+002	-4.776578e+001	1.139601e+002
9.990586e+006	-4.259610e+001	-8.492752e+001	-3.063190e+001	-2.174564e+001	-9.011693e+001	7.683467e+001	-4.781960e+001	1.142172e+002
9.990591e+006	-4.259075e+001	-8.504875e+001	-3.064615e+001	-2.182860e+001	-9.131966e+001	1.146427e+002	-4.773533e+001	1.139293e+002
9.990595e+006	-4.260128e+001	-8.500803e+001	-3.065955e+001	-2.191091e+001	-9.935434e+001	3.542732e+001	-4.780584e+001	1.137711e+002
9.990600e+006	-4.257721e+001	-8.526364e+001	-3.063709e+001	-2.175899e+001	-8.843400e+001	1.909221e+001	-4.780828e+001	1.134857e+002
9.990605e+006	-4.259168e+001	-8.499796e+001	-3.064909e+001	-2.183704e+001	-9.778698e+001	2.566070e+001	-4.773686e+001	1.135610e+002
9.990609e+006	-4.259718e+001	-8.489185e+001	-3.063856e+001	-2.189222e+001	-9.536569e+001	1.669235e+002	-4.778574e+001	1.140377e+002
9.990614e+006	-4.257684e+001	-8.500595e+001	-3.064107e+001	-2.177211e+001	-9.515604e+001	1.519812e+002	-4.776366e+001	1.139657e+002
9.990619e+006	-4.258196e+001	-8.515911e+001	-3.064460e+001	-2.178074e+001	-9.347559e+001	-1.634331e+002	-4.779715e+001	1.133758e+002
9.990623e+006	-4.255669e+001	-8.506051e+001	-3.064767e+001	-2.184415e+001	-8.813890e+001	1.424539e+002	-4.770401e+001	1.138901e+002
9.990628e+006	-4.254110e+001	-8.495623e+001	-3.065001e+001	-2.194866e+001	-9.293835e+001	1.179141e+002	-4.769009e+001	1.139489e+002
9.990633e+006	-4.258235e+001	-8.494773e+001	-3.063429e+001	-2.176603e+001	-1.033250e+002	9.846791e+001	-4.777386e+001	1.139503e+002
9.990638e+006	-4.255407e+001	-8.519111e+001	-3.063675e+001	-2.182707e+001	-9.891099e+001	-7.590072e+001	-4.774769e+001	1.145360e+002
9.990642e+006	-4.260554e+001	-8.502159e+001	-3.062945e+001	-2.184219e+001	-9.463455e+001	8.319877e+001	-4.779765e+001	1.136279e+002
9.990647e+006	-4.255615e+001	-8.506683e+001	-3.064318e+001	-2.181956e+001	-9.883932e+001	1.413077e+002	-4.773279e+001	1.137362e+002
9.990652e+006	-4.257946e+001	-8.491877e+001	-3.064909e+001	-2.181693e+001	-9.277630e+001	-1.239900e+001	-4.782011e+001	1.134020e+002
9.990656e+006	-4.257402e+001	-8.495548e+001	-3.063285e+001	-2.182764e+001	-1.014149e+002	4.711631e+001	-4.774320e+001	1.137130e+002
9.990661e+006	-4.256876e+001	-8.486886e+001	-3.063806e+001	-2.185827e+001	-9.528827e+001	-5.979866e+001	-4.779433e+001	1.135132e+002
9.990666e+006	-4.261664e+001	-8.502664e+001	-3.064780e+001	-2.178165e+001	-9.444747e+001	-1.661333e+002	-4.781150e+001	1.139919e+002
9.990670e+006	-4.257910e+001	-8.500193e+001	-3.064370e+001	-2.176786e+001	-9.493279e+001	-6.931637e+001	-4.776537e+001	1.139137e+002
9.990675e+006	-4.261131e+001	-8.501738e+001	-3.063431e+001	-2.191397e+001	-1.004589e+002	3.874244e+001	-4.781316e+001	1.138576e+002
9.990680e+006	-4.255746e+001	-8.502722e+001	-3.063487e+001	-2.186060e+001	-9.783097e+001	1.017372e+002	-4.779764e+001	1.142305e+002
9.990684e+006	-4.256561e+001	-8.499855e+001	-3.062759e+001	-2.176638e+001	-1.027617e+002	-1.986033e+001	-4.777428e+001	1.140335e+002
9.990689e+006	-4.257601e+001	-8.496211e+001	-3.064689e+001	-2.170342e+001	-8.719844e+001	8.554599e+001	-4.773860e+001	1.141147e+002
