!CETC41,AV3656A,ZGL00048,1.3.2
!Calibration ON (Full Solt 2-Port(Omit Isolation))
!Measurements: S11 S21 S12 S22
!2025-07-09 22:19
# Hz  S  dB  R 50.000
9.990000e+006	-4.232915e+001	-8.522894e+001	-3.069916e+001	-2.156503e+001	-8.734923e+001	8.279524e+001	-4.596619e+001	4.592882e+001
9.990005e+006	-4.227679e+001	-8.532777e+001	-3.069258e+001	-2.149329e+001	-9.245574e+001	1.354455e+002	-4.595311e+001	4.593893e+001
9.990009e+006	-4.232600e+001	-8.519708e+001	-3.069974e+001	-2.160585e+001	-9.549515e+001	2.514254e+001	-4.594267e+001	4.608967e+001
9.990014e+006	-4.233436e+001	-8.537487e+001	-3.070563e+001	-2.155846e+001	-8.996333e+001	1.657343e+002	-4.601104e+001	4.547979e+001
9.990019e+006	-4.231051e+001	-8.514434e+001	-3.070244e+001	-2.155003e+001	-8.980627e+001	1.326149e+002	-4.594295e+001	4.598671e+001
9.990023e+006	-4.234678e+001	-8.535128e+001	-3.070018e+001	-2.145474e+001	-8.938927e+001	-1.603612e+002	-4.603763e+001	4.587365e+001
9.990028e+006	-4.229619e+001	-8.528535e+001	-3.069705e+001	-2.152413e+001	-1.022364e+002	1.705386e+002	-4.597460e+001	4.538745e+001
9.990033e+006	-4.232032e+001	-8.529542e+001	-3.070744e+001	-2.155009e+001	-9.648933e+001	5.432709e+001	-4.604601e+001	4.540767e+001
9.990038e+006	-4.233250e+001	-8.539679e+001	-3.069608e+001	-2.153578e+001	-1.003475e+002	-2.883333e+001	-4.598930e+001	4.559731e+001
9.990042e+006	-4.233245e+001	-8.502632e+001	-3.070209e+001	-2.156305e+001	-9.105054e+001	-1.379871e+002	-4.602968e+001	4.539258e+001
9.990047e+006	-4.229227e+001	-8.515032e+001	-3.069333e+001	-2.156328e+001	-9.638901e+001	-1.725462e+002	-4.601478e+001	4.570521e+001
9.990052e+006	-4.231540e+001	-8.523459e+001	-3.069960e+001	-2.161355e+001	-1.055456e+002	1.609387e+002	-4.598812e+001	4.572100e+001
9.990056e+006	-4.229650e+001	-8.517305e+001	-3.069306e+001	-2.159618e+001	-1.027985e+002	1.480948e+002	-4.599069e+001	4.580843e+001
9.990061e+006	-4.232199e+001	-8.534919e+001	-3.068440e+001	-2.155801e+001	-8.840685e+001	1.306841e+002	-4.599723e+001	4.606934e+001
9.990066e+006	-4.231197e+001	-8.528776e+001	-3.071764e+001	-2.148879e+001	-8.707790e+001	9.987197e+001	-4.599675e+001	4.569279e+001
9.990070e+006	-4.228486e+001	-8.509067e+001	-3.070866e+001	-2.146194e+001	-9.314256e+001	7.708801e+001	-4.595563e+001	4.571872e+001
9.990075e+006	-4.232027e+001	-8.530521e+001	-3.071282e+001	-2.146461e+001	-8.945920e+001	-1.246571e+002	-4.593640e+001	4.546195e+001
9.990080e+006	-4.230767e+001	-8.501397e+001	-3.070459e+001	-2.142114e+001	-9.820411e+001	1.241731e+002	-4.600246e+001	4.496113e+001
9.990084e+006	-4.228408e+001	-8.523259e+001	-3.070005e+001	-2.137504e+001	-9.212480e+001	1.316234e+002	-4.604726e+001	4.583186e+001
9.990089e+006	-4.229290e+001	-8.528479e+001	-3.069146e+001	-2.134938e+001	-9.145130e+001	1.380313e+002	-4.603235e+001	4.534662e+001
9.990094e+006	-4.232544e+001	-8.516231e+001	-3.068530e+001	-2.148571e+001	-9.624827e+001	-6.712549e+001	-4.599030e+001	4.580694e+001
9.990098e+006	-4.230584e+001	-8.544375e+001	-3.069525e+001	-2.145747e+001	-1.014689e+002	6.173220e+001	-4.601378e+001	4.595296e+001
9.990103e+006	-4.234558e+001	-8.516962e+001	-3.069061e+001	-2.154377e+001	-9.554591e+001	-1.147658e+002	-4.595270e+001	4.578365e+001
9.990108e+006	-4.231427e+001	-8.533036e+001	-3.070706e+001	-2.154304e+001	-9.409741e+001	-1.323685e+002	-4.599028e+001	4.567547e+001
9.990113e+006	-4.231932e+001	-8.509493e+001	-3.070315e+001	-2.141948e+001	-9.070888e+001	-5.051882e+001	-4.597782e+001	4.548626e+001
9.990117e+006	-4.233695e+001	-8.539138e+001	-3.071626e+001	-2.141907e+001	-1.071697e+002	-9.810019e+000	-4.599537e+001	4.564244e+001
9.990122e+006	-4.233674e+001	-8.521030e+001	-3.068805e+001	-2.135531e+001	-8.849896e+001	6.199362e+000	-4.599514e+001	4.568758e+001
9.990127e+006	-4.232330e+001	-8.540294e+001	-3.068629e+001	-2.148550e+001	-8.889398e+001	1.438475e+002	-4.604886e+001	4.561751e+001
9.990131e+006	-4.233545e+001	-8.519538e+001	-3.068909e+001	-2.139158e+001	-9.051119e+001	3.500567e+001	-4.604760e+001	4.534948e+001
9.990136e+006	-4.231573e+001	-8.542009e+001	-3.069061e+001	-2.160535e+001	-1.019303e+002	1.582328e+002	-4.598903e+001	4.572069e+001
9.990141e+006	-4.230563e+001	-8.544253e+001	-3.070063e+001	-2.147847e+001	-1.001121e+002	-7.813041e+001	-4.603416e+001	4.572275e+001
9.990145e+006	-4.230663e+001	-8.521508e+001	-3.070096e+001	-2.148179e+001	-1.024441e+002	2.488507e+001	-4.598342e+001	4.567674e+001
9.990150e+006	-4.230617e+001	-8.536828e+001	-3.070199e+001	-2.144396e+001	-9.574659e+001	1.065359e+002	-4.604528e+001	4.554655e+001
9.990155e+006	-4.231110e+001	-8.517457e+001	-3.069012e+001	-2.147480e+001	-9.100927e+001	-2.521471e+001	-4.604004e+001	4.565315e+001
9.990159e+006	-4.230958e+001	-8.523761e+001	-3.068646e+001	-2.147189e+001	-1.236071e+002	1.215272e+002	-4.598682e+001	4.580637e+001
9.990164e+006	-4.232532e+001	-8.537387e+001	-3.070082e+001	-2.147727e+001	-9.142102e+001	-1.265560e+001	-4.601244e+001	4.566488e+001
9.990169e+006	-4.232763e+001	-8.531047e+001	-3.069732e+001	-2.156496e+001	-1.005051e+002	5.019436e+001	-4.599042e+001	4.569666e+001
9.990173e+006	-4.231818e+001	-8.522532e+001	-3.069644e+001	-2.155532e+001	-1.020247e+002	1.221458e+002	-4.600023e+001	4.612786e+001
9.990178e+006	-4.232623e+001	-8.519657e+001	-3.070459e+001	-2.149999e+001	-8.803817e+001	1.430193e+002	-4.599385e+001	4.565551e+001
9.990183e+006	-4.232865e+001	-8.537935e+001	-3.068902e+001	-2.146640e+001	-1.029077e+002	4.563084e+001	-4.601942e+001	4.544517e+001
9.990188e+006	-4.233798e+001	-8.541417e+001	-3.068379e+001	-2.153762e+001	-9.017672e+001	2.307672e+001	-4.601664e+001	4.561225e+001
9.990192e+006	-4.232859e+001	-8.510969e+001	-3.069027e+001	-2.150508e+001	-9.659253e+001	-1.753239e+002	-4.596871e+001	4.576636e+001
9.990197e+006	-4.232313e+001	-8.537169e+001	-3.069046e+001	-2.149603e+001	-9.037839e+001	1.322441e+002	-4.598575e+001	4.602202e+001
9.990202e+006	-4.229637e+001	-8.494451e+001	-3.069309e+001	-2.149963e+001	-9.874313e+001	-7.178277e+001	-4.604950e+001	4.527281e+001
9.990206e+006	-4.230618e+001	-8.507381e+001	-3.068495e+001	-2.148721e+001	-9.368814e+001	8.139740e+001	-4.599293e+001	4.590962e+001
9.990211e+006	-4.232981e+001	-8.532741e+001	-3.069599e+001	-2.158291e+001	-9.156828e+001	1.753632e+002	-4.599353e+001	4.571754e+001
9.990216e+006	-4.229777e+001	-8.505023e+001	-3.068488e+001	-2.145180e+001	-9.173171e+001	-1.652441e+002	-4.599818e+001	4.557746e+001
9.990220e+006	-4.229719e+001	-8.521148e+001	-3.069884e+001	-2.148148e+001	-9.212474e+001	1.723917e+002	-4.596654e+001	4.564607e+001
9.990225e+006	-4.231623e+001	-8.512449e+001	-3.068828e+001	-2.141995e+001	-9.269174e+001	1.188515e+002	-4.603672e+001	4.557299e+001
9.990230e+006	-4.231427e+001	-8.514084e+001	-3.068977e+001	-2.145435e+001	-1.051960e+002	1.617363e+002	-4.602941e+001	4.558919e+001
9.990234e+006	-4.233238e+001	-8.526841e+001	-3.069190e+001	-2.152091e+001	-8.925625e+001	-3.782550e+001	-4.589767e+001	4.598977e+001
9.990239e+006	-4.233307e+001	-8.529554e+001	-3.069139e+001	-2.151120e+001	-9.635308e+001	1.024904e+002	-4.598907e+001	4.574129e+001
9.990244e+006	-4.232506e+001	-8.534424e+001	-3.068877e+001	-2.150867e+001	-9.623499e+001	9.940234e+001	-4.601331e+001	4.542588e+001
9.990248e+006	-4.233183e+001	-8.531308e+001	-3.069079e+001	-2.146282e+001	-8.717949e+001	-5.626686e+001	-4.596949e+001	4.575447e+001
9.990253e+006	-4.231686e+001	-8.524477e+001	-3.068700e+001	-2.149162e+001	-9.985917e+001	2.246013e+001	-4.595201e+001	4.584443e+001
9.990258e+006	-4.233015e+001	-8.524396e+001	-3.069448e+001	-2.148284e+001	-8.796272e+001	1.311735e+002	-4.597751e+001	4.583617e+001
9.990263e+006	-4.232476e+001	-8.544543e+001	-3.069097e+001	-2.150816e+001	-9.356972e+001	1.434878e+002	-4.597992e+001	4.576884e+001
9.990267e+006	-4.230429e+001	-8.508147e+001	-3.068868e+001	-2.150591e+001	-9.943952e+001	-7.478811e+001	-4.600803e+001	4.580169e+001
9.990272e+006	-4.231503e+001	-8.516038e+001	-3.069367e+001	-2.146276e+001	-8.986638e+001	8.564691e-001	-4.600726e+001	4.561947e+001
9.990277e+006	-4.230762e+001	-8.532074e+001	-3.069395e+001	-2.148987e+001	-9.255737e+001	1.115917e+002	-4.593824e+001	4.545254e+001
9.990281e+006	-4.232382e+001	-8.500692e+001	-3.068500e+001	-2.148247e+001	-1.073188e+002	1.230721e+002	-4.597160e+001	4.567108e+001
9.990286e+006	-4.228524e+001	-8.529358e+001	-3.068157e+001	-2.152500e+001	-9.107708e+001	1.103457e+002	-4.597088e+001	4.596883e+001
9.990291e+006	-4.231020e+001	-8.524930e+001	-3.068365e+001	-2.149564e+001	-9.296976e+001	9.120405e+001	-4.604131e+001	4.554124e+001
9.990295e+006	-4.233682e+001	-8.528850e+001	-3.068825e+001	-2.143270e+001	-8.861137e+001	-1.398534e+001	-4.596826e+001	4.517129e+001
9.990300e+006	-4.230206e+001	-8.517463e+001	-3.068600e+001	-2.153255e+001	-1.051860e+002	-1.281962e+002	-4.599333e+001	4.588631e+001
9.990305e+006	-4.231183e+001	-8.500360e+001	-3.068382e+001	-2.143288e+001	-9.508704e+001	-1.061214e+002	-4.596587e+001	4.623465e+001
9.990309e+006	-4.230930e+001	-8.507675e+001	-3.069145e+001	-2.145079e+001	-9.211917e+001	7.052488e+001	-4.597126e+001	4.612033e+001
9.990314e+006	-4.232790e+001	-8.515466e+001	-3.069214e+001	-2.146201e+001	-9.271119e+001	1.339432e+002	-4.600585e+001	4.590405e+001
9.990319e+006	-4.230348e+001	-8.525192e+001	-3.069033e+001	-2.146345e+001	-9.878248e+001	-1.296742e+000	-4.598488e+001	4.623889e+001
9.990323e+006	-4.231802e+001	-8.543485e+001	-3.069433e+001	-2.138637e+001	-9.154932e+001	-1.536188e+002	-4.596994e+001	4.564069e+001
9.990328e+006	-4.234162e+001	-8.513326e+001	-3.069373e+001	-2.148468e+001	-8.885970e+001	4.368235e+001	-4.601188e+001	4.581784e+001
9.990333e+006	-4.233205e+001	-8.518914e+001	-3.069258e+001	-2.148775e+001	-1.255600e+002	-1.704547e+002	-4.598972e+001	4.550303e+001
9.990338e+006	-4.233856e+001	-8.532500e+001	-3.068470e+001	-2.143849e+001	-9.028603e+001	-1.741512e+002	-4.596156e+001	4.575868e+001
9.990342e+006	-4.232683e+001	-8.501546e+001	-3.068472e+001	-2.150904e+001	-1.044252e+002	1.169130e+002	-4.603833e+001	4.586436e+001
9.990347e+006	-4.229463e+001	-8.531729e+001	-3.069168e+001	-2.149179e+001	-9.136271e+001	-1.452354e+001	-4.598406e+001	4.564317e+001
9.990352e+006	-4.229858e+001	-8.506193e+001	-3.068870e+001	-2.149320e+001	-1.075425e+002	-1.888427e+001	-4.602136e+001	4.543807e+001
9.990356e+006	-4.229436e+001	-8.523657e+001	-3.069003e+001	-2.143449e+001	-9.271820e+001	1.463019e+002	-4.596912e+001	4.558455e+001
9.990361e+006	-4.233094e+001	-8.508775e+001	-3.068736e+001	-2.157375e+001	-9.230462e+001	-1.571740e+002	-4.595813e+001	4.574310e+001
9.990366e+006	-4.231982e+001	-8.538957e+001	-3.069204e+001	-2.152345e+001	-1.043377e+002	1.462271e+002	-4.600071e+001	4.568635e+001
9.990370e+006	-4.233162e+001	-8.541288e+001	-3.068683e+001	-2.154151e+001	-8.743206e+001	-1.802032e+001	-4.597137e+001	4.562961e+001
9.990375e+006	-4.231085e+001	-8.530851e+001	-3.069028e+001	-2.153734e+001	-9.966674e+001	6.138738e+001	-4.600577e+001	4.527991e+001
9.990380e+006	-4.231585e+001	-8.522464e+001	-3.068164e+001	-2.146217e+001	-8.630667e+001	8.458250e+001	-4.596372e+001	4.555429e+001
9.990384e+006	-4.231962e+001	-8.518817e+001	-3.068334e+001	-2.150863e+001	-1.094795e+002	-3.551700e+001	-4.603081e+001	4.572065e+001
9.990389e+006	-4.231173e+001	-8.511342e+001	-3.068731e+001	-2.149202e+001	-9.556991e+001	-7.160406e+001	-4.600769e+001	4.596035e+001
9.990394e+006	-4.232415e+001	-8.537186e+001	-3.068985e+001	-2.159677e+001	-1.010915e+002	6.439887e+001	-4.599713e+001	4.584369e+001
9.990398e+006	-4.230109e+001	-8.520899e+001	-3.069563e+001	-2.147085e+001	-9.346523e+001	5.008363e+001	-4.601102e+001	4.540875e+001
9.990403e+006	-4.232691e+001	-8.536638e+001	-3.069197e+001	-2.148473e+001	-9.237824e+001	7.692194e+001	-4.603732e+001	4.577262e+001
9.990408e+006	-4.231449e+001	-8.514919e+001	-3.068696e+001	-2.151570e+001	-8.772535e+001	5.330173e+001	-4.595870e+001	4.538172e+001
9.990413e+006	-4.230075e+001	-8.529466e+001	-3.067729e+001	-2.151326e+001	-8.580443e+001	1.448941e+002	-4.595900e+001	4.524472e+001
9.990417e+006	-4.231631e+001	-8.543080e+001	-3.070051e+001	-2.147778e+001	-9.751297e+001	-1.635990e+002	-4.601411e+001	4.524368e+001
9.990422e+006	-4.232662e+001	-8.507610e+001	-3.067658e+001	-2.147221e+001	-1.005260e+002	6.367734e+001	-4.595912e+001	4.546770e+001
9.990427e+006	-4.232642e+001	-8.531887e+001	-3.068894e+001	-2.144176e+001	-9.389075e+001	4.052849e+001	-4.601469e+001	4.539133e+001
9.990431e+006	-4.234565e+001	-8.524474e+001	-3.068292e+001	-2.147744e+001	-8.845178e+001	6.795596e+001	-4.601306e+001	4.575565e+001
9.990436e+006	-4.233703e+001	-8.518531e+001	-3.069319e+001	-2.152618e+001	-9.042265e+001	-1.585617e+002	-4.597421e+001	4.594133e+001
9.990441e+006	-4.232258e+001	-8.501899e+001	-3.069167e+001	-2.138102e+001	-9.713964e+001	9.953221e+001	-4.596450e+001	4.564960e+001
9.990445e+006	-4.233645e+001	-8.537809e+001	-3.068075e+001	-2.156922e+001	-9.854009e+001	1.298414e+002	-4.595822e+001	4.575023e+001
9.990450e+006	-4.234402e+001	-8.512799e+001	-3.068364e+001	-2.148135e+001	-1.031402e+002	1.258102e+002	-4.598174e+001	4.603678e+001
9.990455e+006	-4.232938e+001	-8.519316e+001	-3.069829e+001	-2.143981e+001	-9.182550e+001	1.626161e+002	-4.600848e+001	4.571343e+001
9.990459e+006	-4.231306e+001	-8.532061e+001	-3.068543e+001	-2.153559e+001	-9.119913e+001	4.650129e+001	-4.592343e+001	4.615392e+001
9.990464e+006	-4.230707e+001	-8.527263e+001	-3.069295e+001	-2.156569e+001	-8.941628e+001	-1.658242e+002	-4.595954e+001	4.602105e+001
9.990469e+006	-4.230411e+001	-8.521431e+001	-3.067668e+001	-2.147098e+001	-8.941244e+001	1.541439e+002	-4.592374e+001	4.577609e+001
9.990473e+006	-4.232826e+001	-8.511938e+001	-3.069065e+001	-2.146466e+001	-9.190276e+001	2.161089e+001	-4.602148e+001	4.559102e+001
9.990478e+006	-4.231365e+001	-8.506029e+001	-3.067919e+001	-2.151813e+001	-1.070138e+002	-5.874651e+001	-4.598816e+001	4.552839e+001
9.990483e+006	-4.230869e+001	-8.513442e+001	-3.069105e+001	-2.142807e+001	-9.329337e+001	1.430063e+002	-4.604999e+001	4.571324e+001
9.990488e+006	-4.231290e+001	-8.494754e+001	-3.069513e+001	-2.157248e+001	-8.874853e+001	9.442513e+001	-4.599136e+001	4.572668e+001
9.990492e+006	-4.231458e+001	-8.513226e+001	-3.068243e+001	-2.144206e+001	-9.937072e+001	1.585864e+001	-4.599260e+001	4.558418e+001
9.990497e+006	-4.237591e+001	-8.505618e+001	-3.068428e+001	-2.148940e+001	-8.534540e+001	5.066147e+001	-4.596468e+001	4.571919e+001
9.990502e+006	-4.231539e+001	-8.523276e+001	-3.068638e+001	-2.139574e+001	-8.792394e+001	6.558962e+001	-4.597616e+001	4.555634e+001
9.990506e+006	-4.231037e+001	-8.517096e+001	-3.069395e+001	-2.149491e+001	-9.202538e+001	-4.565935e+001	-4.596035e+001	4.589955e+001
9.990511e+006	-4.231418e+001	-8.526211e+001	-3.067220e+001	-2.153909e+001	-9.802789e+001	1.547192e+002	-4.597732e+001	4.604698e+001
9.990516e+006	-4.230103e+001	-8.510434e+001	-3.069618e+001	-2.145726e+001	-9.237009e+001	-1.191575e+001	-4.595535e+001	4.580013e+001
9.990520e+006	-4.230762e+001	-8.528254e+001	-3.068318e+001	-2.148970e+001	-1.120512e+002	-1.063526e+002	-4.603290e+001	4.569418e+001
9.990525e+006	-4.232438e+001	-8.531939e+001	-3.068039e+001	-2.146175e+001	-1.044642e+002	1.572297e+002	-4.598892e+001	4.613660e+001
9.990530e+006	-4.232641e+001	-8.521290e+001	-3.069428e+001	-2.152416e+001	-1.040046e+002	9.675921e+001	-4.595042e+001	4.593313e+001
9.990534e+006	-4.233283e+001	-8.512886e+001	-3.067724e+001	-2.148370e+001	-9.295529e+001	8.774023e+001	-4.600177e+001	4.591556e+001
9.990539e+006	-4.232775e+001	-8.526044e+001	-3.068108e+001	-2.144100e+001	-9.232985e+001	1.071465e+002	-4.602308e+001	4.559252e+001
9.990544e+006	-4.232705e+001	-8.510103e+001	-3.067629e+001	-2.145056e+001	-9.278161e+001	4.548026e+001	-4.603386e+001	4.555470e+001
9.990548e+006	-4.233645e+001	-8.527503e+001	-3.068913e+001	-2.146021e+001	-8.957859e+001	-7.365451e+001	-4.597387e+001	4.562013e+001
9.990553e+006	-4.231054e+001	-8.514229e+001	-3.069294e+001	-2.156983e+001	-9.456065e+001	1.351227e+002	-4.596679e+001	4.586476e+001
9.990558e+006	-4.231972e+001	-8.536256e+001	-3.068259e+001	-2.151118e+001	-1.068944e+002	1.799661e+002	-4.594642e+001	4.568572e+001
9.990563e+006	-4.229715e+001	-8.503081e+001	-3.068482e+001	-2.144314e+001	-9.515235e+001	1.747543e+001	-4.598995e+001	4.577780e+001
9.990567e+006	-4.231987e+001	-8.503327e+001	-3.069068e+001	-2.141813e+001	-9.683396e+001	1.125234e+002	-4.598432e+001	4.566481e+001
9.990572e+006	-4.231857e+001	-8.513772e+001	-3.068784e+001	-2.146716e+001	-1.021030e+002	-7.089438e+001	-4.600946e+001	4.561064e+001
9.990577e+006	-4.228715e+001	-8.535944e+001	-3.067253e+001	-2.155437e+001	-8.463874e+001	1.243940e+002	-4.601573e+001	4.572611e+001
9.990581e+006	-4.231285e+001	-8.525504e+001	-3.067824e+001	-2.141818e+001	-8.727999e+001	1.068545e+002	-4.599446e+001	4.540342e+001
9.990586e+006	-4.231692e+001	-8.541330e+001	-3.068519e+001	-2.159414e+001	-9.461085e+001	3.117811e+001	-4.593600e+001	4.575769e+001
9.990591e+006	-4.232549e+001	-8.520928e+001	-3.067798e+001	-2.153225e+001	-9.386101e+001	1.664856e+002	-4.594047e+001	4.567604e+001
9.990595e+006	-4.232384e+001	-8.517625e+001	-3.068367e+001	-2.149583e+001	-8.856560e+001	1.331335e+002	-4.603873e+001	4.588839e+001
9.990600e+006	-4.231693e+001	-8.515514e+001	-3.067530e+001	-2.151742e+001	-9.165538e+001	-1.524217e+002	-4.605541e+001	4.586681e+001
9.990605e+006	-4.233877e+001	-8.512785e+001	-3.067670e+001	-2.149699e+001	-8.682950e+001	1.204384e+002	-4.600842e+001	4.551555e+001
9.990609e+006	-4.229981e+001	-8.529095e+001	-3.069428e+001	-2.144472e+001	-9.855462e+001	-1.110790e+002	-4.603556e+001	4.594115e+001
9.990614e+006	-4.231393e+001	-8.534594e+001	-3.068432e+001	-2.140866e+001	-9.250889e+001	5.294647e+001	-4.597123e+001	4.555081e+001
9.990619e+006	-4.231513e+001	-8.517599e+001	-3.068367e+001	-2.151157e+001	-9.725694e+001	9.713893e+001	-4.597439e+001	4.579708e+001
9.990623e+006	-4.231345e+001	-8.509150e+001	-3.069410e+001	-2.151232e+001	-8.438052e+001	-1.682949e+002	-4.597440e+001	4.585872e+001
9.990628e+006	-4.231899e+001	-8.498568e+001	-3.068236e+001	-2.142776e+001	-1.012521e+002	3.409690e+001	-4.599768e+001	4.598569e+001
9.990633e+006	-4.230761e+001	-8.518030e+001	-3.069108e+001	-2.149693e+001	-9.129857e+001	1.132068e+002	-4.601880e+001	4.590196e+001
9.990638e+006	-4.231914e+001	-8.503094e+001	-3.068907e+001	-2.154322e+001	-9.322301e+001	1.681897e+002	-4.601044e+001	4.576199e+001
9.990642e+006	-4.230446e+001	-8.514661e+001	-3.067710e+001	-2.155408e+001	-9.518350e+001	5.665700e+001	-4.594589e+001	4.567661e+001
9.990647e+006	-4.231266e+001	-8.519380e+001	-3.068625e+001	-2.147653e+001	-9.734151e+001	4.611682e+001	-4.599627e+001	4.599919e+001
9.990652e+006	-4.232558e+001	-8.523012e+001	-3.068822e+001	-2.150047e+001	-9.255453e+001	1.141826e+001	-4.595139e+001	4.610791e+001
9.990656e+006	-4.231850e+001	-8.521958e+001	-3.067217e+001	-2.158869e+001	-9.092761e+001	1.290674e+002	-4.597027e+001	4.569973e+001
9.990661e+006	-4.230234e+001	-8.534898e+001	-3.068376e+001	-2.145888e+001	-8.731472e+001	1.003762e+002	-4.596229e+001	4.605695e+001
9.990666e+006	-4.233437e+001	-8.524185e+001	-3.069579e+001	-2.144375e+001	-1.025735e+002	2.112473e+001	-4.600143e+001	4.588869e+001
9.990670e+006	-4.236150e+001	-8.518230e+001	-3.068763e+001	-2.154626e+001	-8.976247e+001	4.461798e+001	-4.596281e+001	4.567579e+001
9.990675e+006	-4.232091e+001	-8.540080e+001	-3.069660e+001	-2.159888e+001	-1.054004e+002	1.344223e+002	-4.599158e+001	4.555041e+001
9.990680e+006	-4.235446e+001	-8.501381e+001	-3.065878e+001	-2.147659e+001	-9.388219e+001	4.922010e+001	-4.599100e+001	4.571077e+001
9.990684e+006	-4.231362e+001	-8.511801e+001	-3.069207e+001	-2.144335e+001	-1.009763e+002	-1.531167e+002	-4.598418e+001	4.572346e+001
9.990689e+006	-4.233546e+001	-8.528879e+001	-3.068082e+001	-2.157192e+001	-9.172089e+001	1.524413e+002	-4.598064e+001	4.570101e+001
