!CETC41,AV3656A,ZGL00048,1.3.2
!Calibration ON (Full Solt 2-Port(Omit Isolation))
!Measurements: S11 S21 S12 S22
!2025-07-09 20:17
# Hz  S  dB  R 50.000
9.990000e+006	-4.299921e+001	-8.960232e+001	-3.068212e+001	-1.998906e+001	-8.873425e+001	9.166497e+001	-4.725556e+001	6.439704e+001
9.990005e+006	-4.297839e+001	-9.003879e+001	-3.067994e+001	-2.011802e+001	-9.187338e+001	3.674883e+001	-4.726712e+001	6.440317e+001
9.990009e+006	-4.299599e+001	-8.976474e+001	-3.067992e+001	-2.010473e+001	-8.891427e+001	-1.659654e+002	-4.720550e+001	6.416068e+001
9.990014e+006	-4.299783e+001	-8.976545e+001	-3.067264e+001	-2.011548e+001	-9.283747e+001	1.307822e+002	-4.722481e+001	6.460056e+001
9.990019e+006	-4.294567e+001	-8.973979e+001	-3.066031e+001	-2.007119e+001	-9.040555e+001	-5.003794e+000	-4.719634e+001	6.418892e+001
9.990023e+006	-4.303750e+001	-8.965169e+001	-3.066864e+001	-2.004130e+001	-9.017164e+001	1.183119e+002	-4.721083e+001	6.455267e+001
9.990028e+006	-4.299131e+001	-8.960282e+001	-3.066450e+001	-1.998408e+001	-1.071088e+002	-1.470764e+001	-4.715211e+001	6.448838e+001
9.990033e+006	-4.299829e+001	-8.974429e+001	-3.067494e+001	-1.992071e+001	-9.548002e+001	6.994393e+000	-4.720107e+001	6.482078e+001
9.990038e+006	-4.299074e+001	-8.995862e+001	-3.067439e+001	-1.996905e+001	-8.850881e+001	1.043811e+002	-4.709517e+001	6.462686e+001
9.990042e+006	-4.298163e+001	-8.971853e+001	-3.067214e+001	-2.002958e+001	-1.090471e+002	3.561338e+001	-4.715229e+001	6.446271e+001
9.990047e+006	-4.298830e+001	-8.966398e+001	-3.068332e+001	-1.996462e+001	-9.577700e+001	-1.330036e+002	-4.718434e+001	6.485679e+001
9.990052e+006	-4.296509e+001	-8.977559e+001	-3.068518e+001	-2.007992e+001	-8.840261e+001	1.579403e+002	-4.721105e+001	6.527394e+001
9.990056e+006	-4.301825e+001	-8.975929e+001	-3.068099e+001	-2.005968e+001	-8.979670e+001	9.925650e+001	-4.713741e+001	6.478998e+001
9.990061e+006	-4.299820e+001	-8.964986e+001	-3.067848e+001	-2.010273e+001	-9.225186e+001	1.139509e+002	-4.717146e+001	6.498532e+001
9.990066e+006	-4.296287e+001	-8.966286e+001	-3.066723e+001	-2.010834e+001	-1.003991e+002	6.694531e+001	-4.718103e+001	6.513195e+001
9.990070e+006	-4.298243e+001	-8.967095e+001	-3.067917e+001	-2.007006e+001	-8.924504e+001	9.549876e+001	-4.721312e+001	6.481039e+001
9.990075e+006	-4.300913e+001	-8.975769e+001	-3.067588e+001	-2.016705e+001	-9.497413e+001	7.211815e+001	-4.722577e+001	6.498428e+001
9.990080e+006	-4.297503e+001	-8.981007e+001	-3.067156e+001	-2.014748e+001	-9.560851e+001	1.420382e+002	-4.708276e+001	6.522119e+001
9.990084e+006	-4.301023e+001	-8.968164e+001	-3.067340e+001	-2.020777e+001	-9.455061e+001	-1.640116e+001	-4.722261e+001	6.460136e+001
9.990089e+006	-4.297419e+001	-8.976695e+001	-3.066857e+001	-2.016318e+001	-1.028411e+002	-1.734122e+002	-4.726343e+001	6.470507e+001
9.990094e+006	-4.297347e+001	-8.962261e+001	-3.065448e+001	-2.017198e+001	-1.153330e+002	-1.525212e+002	-4.720945e+001	6.478234e+001
9.990098e+006	-4.296944e+001	-8.970940e+001	-3.065318e+001	-2.010924e+001	-9.274326e+001	1.751205e+002	-4.720778e+001	6.457842e+001
9.990103e+006	-4.299661e+001	-8.978672e+001	-3.065999e+001	-2.017632e+001	-1.044094e+002	-5.042988e+001	-4.720640e+001	6.482069e+001
9.990108e+006	-4.297792e+001	-8.978429e+001	-3.065156e+001	-2.015295e+001	-8.974340e+001	1.310049e+002	-4.716664e+001	6.464681e+001
9.990113e+006	-4.297153e+001	-8.959639e+001	-3.066065e+001	-2.012502e+001	-9.534024e+001	7.371923e+001	-4.716753e+001	6.505366e+001
9.990117e+006	-4.299443e+001	-8.963905e+001	-3.066668e+001	-2.012451e+001	-9.531149e+001	-4.867890e+001	-4.718871e+001	6.473327e+001
9.990122e+006	-4.304141e+001	-8.966831e+001	-3.066699e+001	-2.020529e+001	-9.204064e+001	1.709170e+002	-4.721506e+001	6.491228e+001
9.990127e+006	-4.300576e+001	-8.979591e+001	-3.065674e+001	-2.021057e+001	-8.968140e+001	9.679596e+001	-4.718993e+001	6.479274e+001
9.990131e+006	-4.299646e+001	-8.974327e+001	-3.066198e+001	-2.011428e+001	-8.948397e+001	1.544780e+002	-4.714981e+001	6.462037e+001
9.990136e+006	-4.299601e+001	-8.979418e+001	-3.067376e+001	-2.020188e+001	-9.421099e+001	1.610117e+002	-4.716535e+001	6.442406e+001
9.990141e+006	-4.299073e+001	-8.960501e+001	-3.067602e+001	-2.016364e+001	-1.026060e+002	7.232810e+001	-4.716069e+001	6.469650e+001
9.990145e+006	-4.295932e+001	-8.986783e+001	-3.069327e+001	-2.018702e+001	-8.950057e+001	3.247184e+001	-4.716756e+001	6.494798e+001
9.990150e+006	-4.299976e+001	-8.954847e+001	-3.070375e+001	-2.010134e+001	-9.377096e+001	-1.524797e+001	-4.718611e+001	6.439058e+001
9.990155e+006	-4.296708e+001	-9.002779e+001	-3.069859e+001	-2.010134e+001	-8.991950e+001	6.448999e+001	-4.719418e+001	6.505117e+001
9.990159e+006	-4.299341e+001	-8.974692e+001	-3.069942e+001	-2.008017e+001	-9.051610e+001	-1.776724e+002	-4.716129e+001	6.491190e+001
9.990164e+006	-4.298372e+001	-8.992796e+001	-3.069862e+001	-2.002976e+001	-9.469757e+001	1.164214e+002	-4.713359e+001	6.455911e+001
9.990169e+006	-4.298700e+001	-8.959924e+001	-3.070219e+001	-2.015957e+001	-9.452445e+001	6.605119e+001	-4.722380e+001	6.486519e+001
9.990173e+006	-4.296493e+001	-8.956852e+001	-3.069803e+001	-2.005950e+001	-9.702294e+001	-1.785519e+002	-4.719743e+001	6.455497e+001
9.990178e+006	-4.296910e+001	-8.964996e+001	-3.069254e+001	-1.994313e+001	-9.133041e+001	2.932673e+001	-4.721626e+001	6.510492e+001
9.990183e+006	-4.297178e+001	-8.963339e+001	-3.067607e+001	-2.000220e+001	-9.565158e+001	6.632048e+001	-4.720538e+001	6.519780e+001
9.990188e+006	-4.301188e+001	-8.950718e+001	-3.065874e+001	-1.999981e+001	-8.860835e+001	1.577128e+002	-4.716690e+001	6.480803e+001
9.990192e+006	-4.299664e+001	-8.975269e+001	-3.065770e+001	-1.998001e+001	-8.805777e+001	5.159597e+001	-4.716340e+001	6.441252e+001
9.990197e+006	-4.297591e+001	-8.977888e+001	-3.065992e+001	-2.011170e+001	-8.818451e+001	1.230108e+002	-4.718875e+001	6.463354e+001
9.990202e+006	-4.299259e+001	-8.959931e+001	-3.067531e+001	-2.008041e+001	-9.546142e+001	8.975664e+001	-4.722420e+001	6.459122e+001
9.990206e+006	-4.297895e+001	-8.976761e+001	-3.066919e+001	-2.010744e+001	-9.496492e+001	8.888241e+001	-4.712855e+001	6.483266e+001
9.990211e+006	-4.301066e+001	-8.968545e+001	-3.068766e+001	-2.008863e+001	-9.208166e+001	8.139633e+001	-4.719681e+001	6.475729e+001
9.990216e+006	-4.300688e+001	-8.954825e+001	-3.067662e+001	-2.000822e+001	-9.132779e+001	-1.467113e+002	-4.722408e+001	6.474543e+001
9.990220e+006	-4.299986e+001	-8.982084e+001	-3.067328e+001	-1.997765e+001	-9.865868e+001	1.180575e+002	-4.719886e+001	6.446504e+001
9.990225e+006	-4.299487e+001	-8.961902e+001	-3.067528e+001	-1.999120e+001	-9.540697e+001	1.368884e+002	-4.719942e+001	6.440941e+001
9.990230e+006	-4.299517e+001	-8.976188e+001	-3.066460e+001	-2.005032e+001	-9.647556e+001	3.130618e+001	-4.714769e+001	6.464275e+001
9.990234e+006	-4.302226e+001	-8.972922e+001	-3.066799e+001	-2.008580e+001	-9.553995e+001	5.778479e+001	-4.719879e+001	6.417069e+001
9.990239e+006	-4.297653e+001	-8.983730e+001	-3.067836e+001	-2.010811e+001	-9.480865e+001	1.697731e+002	-4.718717e+001	6.449183e+001
9.990244e+006	-4.297429e+001	-8.969507e+001	-3.067392e+001	-2.001406e+001	-9.847709e+001	1.781320e+002	-4.719925e+001	6.465416e+001
9.990248e+006	-4.303538e+001	-8.978335e+001	-3.067507e+001	-2.000611e+001	-9.133397e+001	-5.328541e+001	-4.718246e+001	6.495897e+001
9.990253e+006	-4.300771e+001	-8.963918e+001	-3.067246e+001	-2.002196e+001	-9.356395e+001	2.557331e+001	-4.723802e+001	6.493197e+001
9.990258e+006	-4.300750e+001	-8.988645e+001	-3.067037e+001	-2.003518e+001	-9.245237e+001	1.266522e+002	-4.712097e+001	6.463636e+001
9.990263e+006	-4.299511e+001	-8.977381e+001	-3.066860e+001	-2.003374e+001	-9.297354e+001	-4.590520e+001	-4.718405e+001	6.438822e+001
9.990267e+006	-4.295573e+001	-8.975681e+001	-3.067293e+001	-2.002788e+001	-1.011355e+002	1.400772e+002	-4.717192e+001	6.488379e+001
9.990272e+006	-4.298364e+001	-8.965593e+001	-3.067568e+001	-2.001435e+001	-9.046700e+001	-1.485452e+002	-4.719048e+001	6.473435e+001
9.990277e+006	-4.298346e+001	-8.961577e+001	-3.067286e+001	-2.002375e+001	-9.105903e+001	-9.645572e+001	-4.718663e+001	6.449829e+001
9.990281e+006	-4.299287e+001	-8.956865e+001	-3.067049e+001	-1.996329e+001	-9.060766e+001	1.002789e+002	-4.717953e+001	6.487782e+001
9.990286e+006	-4.300076e+001	-8.966748e+001	-3.067902e+001	-2.003253e+001	-9.642688e+001	1.602426e+002	-4.715145e+001	6.519355e+001
9.990291e+006	-4.300773e+001	-8.950489e+001	-3.067202e+001	-2.004654e+001	-9.758833e+001	-1.669517e+002	-4.718868e+001	6.435979e+001
9.990295e+006	-4.297396e+001	-8.975056e+001	-3.067128e+001	-2.000471e+001	-9.004773e+001	6.612500e+001	-4.722831e+001	6.509411e+001
9.990300e+006	-4.299070e+001	-8.943399e+001	-3.067021e+001	-2.003671e+001	-8.963032e+001	8.241141e+001	-4.713703e+001	6.498992e+001
9.990305e+006	-4.296060e+001	-8.972956e+001	-3.066535e+001	-2.010799e+001	-9.624154e+001	-1.175693e+002	-4.721492e+001	6.505154e+001
9.990309e+006	-4.298092e+001	-8.964153e+001	-3.066907e+001	-2.004135e+001	-9.767507e+001	1.457261e+002	-4.712823e+001	6.470195e+001
9.990314e+006	-4.296192e+001	-8.970753e+001	-3.067796e+001	-2.001477e+001	-1.116106e+002	-6.578363e+001	-4.722467e+001	6.460367e+001
9.990319e+006	-4.300203e+001	-8.980498e+001	-3.067472e+001	-2.010889e+001	-9.495021e+001	1.386906e+002	-4.717504e+001	6.433876e+001
9.990323e+006	-4.299251e+001	-8.967845e+001	-3.068121e+001	-2.012184e+001	-9.325136e+001	1.461939e+002	-4.725821e+001	6.457692e+001
9.990328e+006	-4.298121e+001	-8.980227e+001	-3.067172e+001	-2.006885e+001	-9.222839e+001	1.386819e+001	-4.718516e+001	6.429252e+001
9.990333e+006	-4.296654e+001	-8.969742e+001	-3.067083e+001	-2.005426e+001	-9.592682e+001	1.502556e+002	-4.719879e+001	6.445795e+001
9.990338e+006	-4.298600e+001	-8.993552e+001	-3.066443e+001	-2.007644e+001	-1.003875e+002	1.472917e+001	-4.718750e+001	6.479399e+001
9.990342e+006	-4.301435e+001	-8.974869e+001	-3.067106e+001	-2.005605e+001	-1.000724e+002	1.105764e+002	-4.720593e+001	6.480616e+001
9.990347e+006	-4.300273e+001	-8.981351e+001	-3.067540e+001	-2.012197e+001	-9.502977e+001	6.057170e+001	-4.716353e+001	6.441719e+001
9.990352e+006	-4.300340e+001	-8.945733e+001	-3.065656e+001	-2.004822e+001	-9.348285e+001	-9.393240e+000	-4.721779e+001	6.495284e+001
9.990356e+006	-4.297235e+001	-8.994832e+001	-3.067084e+001	-2.006743e+001	-9.677271e+001	5.196354e+001	-4.717770e+001	6.512472e+001
9.990361e+006	-4.299333e+001	-8.961248e+001	-3.067365e+001	-2.008395e+001	-9.300165e+001	6.022660e+001	-4.719508e+001	6.516603e+001
9.990366e+006	-4.298345e+001	-8.990929e+001	-3.067319e+001	-2.005011e+001	-9.122243e+001	5.324680e+000	-4.718151e+001	6.484968e+001
9.990370e+006	-4.297823e+001	-8.971809e+001	-3.066107e+001	-2.003783e+001	-8.807464e+001	1.006995e+002	-4.714663e+001	6.457739e+001
9.990375e+006	-4.299834e+001	-8.949187e+001	-3.066093e+001	-2.010081e+001	-9.441165e+001	7.719576e+001	-4.719152e+001	6.522369e+001
9.990380e+006	-4.298174e+001	-8.982812e+001	-3.067398e+001	-2.003716e+001	-9.094388e+001	-1.302197e+002	-4.716782e+001	6.472049e+001
9.990384e+006	-4.297653e+001	-8.967982e+001	-3.067298e+001	-2.002663e+001	-9.600833e+001	8.659618e+001	-4.717567e+001	6.459216e+001
9.990389e+006	-4.295400e+001	-8.971083e+001	-3.066826e+001	-2.003809e+001	-9.356419e+001	5.403050e+001	-4.721769e+001	6.488046e+001
9.990394e+006	-4.299947e+001	-8.959585e+001	-3.066827e+001	-2.011071e+001	-9.742519e+001	-8.076502e+001	-4.720139e+001	6.493013e+001
9.990398e+006	-4.294895e+001	-8.964847e+001	-3.066884e+001	-2.004916e+001	-9.381109e+001	-1.749443e+002	-4.724108e+001	6.490587e+001
9.990403e+006	-4.301254e+001	-8.944951e+001	-3.065935e+001	-2.004082e+001	-1.007940e+002	-1.417364e+002	-4.719488e+001	6.471169e+001
9.990408e+006	-4.297529e+001	-8.977187e+001	-3.067100e+001	-2.014770e+001	-1.079474e+002	1.129651e+002	-4.716621e+001	6.447597e+001
9.990413e+006	-4.297870e+001	-8.951492e+001	-3.067592e+001	-2.004074e+001	-8.872816e+001	7.173390e+001	-4.720739e+001	6.504806e+001
9.990417e+006	-4.297174e+001	-8.968864e+001	-3.066303e+001	-1.995303e+001	-9.795331e+001	1.174588e+002	-4.716324e+001	6.482954e+001
9.990422e+006	-4.297222e+001	-8.971344e+001	-3.066442e+001	-2.003736e+001	-9.570172e+001	1.050019e+002	-4.714805e+001	6.437089e+001
9.990427e+006	-4.301187e+001	-8.950998e+001	-3.067013e+001	-2.005302e+001	-9.258918e+001	9.933838e+001	-4.716121e+001	6.515779e+001
9.990431e+006	-4.301308e+001	-8.988031e+001	-3.066024e+001	-2.000747e+001	-8.945478e+001	1.243912e+002	-4.719574e+001	6.514419e+001
9.990436e+006	-4.298962e+001	-8.988336e+001	-3.066633e+001	-2.000934e+001	-9.187920e+001	1.143361e+002	-4.720849e+001	6.419889e+001
9.990441e+006	-4.300929e+001	-8.956297e+001	-3.067254e+001	-2.003216e+001	-9.697230e+001	-3.945160e+000	-4.720098e+001	6.483300e+001
9.990445e+006	-4.298284e+001	-8.988141e+001	-3.066712e+001	-2.002079e+001	-9.805447e+001	1.503332e+001	-4.729322e+001	6.466347e+001
9.990450e+006	-4.299010e+001	-8.991889e+001	-3.067156e+001	-2.004709e+001	-9.226071e+001	1.570585e+002	-4.721551e+001	6.475278e+001
9.990455e+006	-4.296838e+001	-9.015046e+001	-3.066935e+001	-2.002229e+001	-8.981438e+001	1.265910e+002	-4.718237e+001	6.486242e+001
9.990459e+006	-4.296458e+001	-8.976824e+001	-3.067598e+001	-2.004636e+001	-8.970893e+001	1.487854e+002	-4.722791e+001	6.442949e+001
9.990464e+006	-4.296747e+001	-8.943500e+001	-3.066581e+001	-2.005886e+001	-9.160065e+001	7.069619e+001	-4.717643e+001	6.510778e+001
9.990469e+006	-4.300617e+001	-8.969899e+001	-3.066798e+001	-2.001110e+001	-9.719056e+001	1.039768e+002	-4.721872e+001	6.489112e+001
9.990473e+006	-4.299446e+001	-8.977447e+001	-3.066690e+001	-1.998584e+001	-9.184931e+001	1.167334e+002	-4.714605e+001	6.476337e+001
9.990478e+006	-4.296716e+001	-8.966163e+001	-3.067122e+001	-2.004417e+001	-1.014763e+002	2.688574e+000	-4.712064e+001	6.451753e+001
9.990483e+006	-4.299053e+001	-8.974519e+001	-3.067003e+001	-2.007474e+001	-9.015952e+001	2.975499e+001	-4.715421e+001	6.513539e+001
9.990488e+006	-4.297914e+001	-8.953932e+001	-3.066891e+001	-2.010260e+001	-8.628272e+001	9.958863e+001	-4.716063e+001	6.507343e+001
9.990492e+006	-4.300707e+001	-8.971690e+001	-3.067458e+001	-2.000378e+001	-1.016820e+002	-1.244574e+001	-4.718100e+001	6.534366e+001
9.990497e+006	-4.295729e+001	-8.984630e+001	-3.066057e+001	-2.009153e+001	-9.667302e+001	-6.943952e+001	-4.718651e+001	6.464227e+001
9.990502e+006	-4.298554e+001	-8.963019e+001	-3.067031e+001	-2.003776e+001	-9.363966e+001	-1.257232e+002	-4.715258e+001	6.492521e+001
9.990506e+006	-4.300652e+001	-8.995651e+001	-3.066854e+001	-2.007531e+001	-9.188972e+001	4.991748e+001	-4.717884e+001	6.476814e+001
9.990511e+006	-4.299757e+001	-8.941798e+001	-3.067333e+001	-2.013634e+001	-1.007919e+002	-5.467335e+001	-4.723625e+001	6.479194e+001
9.990516e+006	-4.296815e+001	-8.967344e+001	-3.066039e+001	-2.010221e+001	-9.596949e+001	-1.132438e+002	-4.723084e+001	6.473884e+001
9.990520e+006	-4.300066e+001	-8.984887e+001	-3.067568e+001	-2.005565e+001	-9.120178e+001	2.162547e+001	-4.721852e+001	6.477980e+001
9.990525e+006	-4.294482e+001	-8.970017e+001	-3.066716e+001	-2.008705e+001	-8.996964e+001	-2.323236e+001	-4.712162e+001	6.456953e+001
9.990530e+006	-4.298303e+001	-8.962636e+001	-3.067243e+001	-2.002675e+001	-9.274955e+001	1.271912e+002	-4.720214e+001	6.463189e+001
9.990534e+006	-4.298792e+001	-8.954833e+001	-3.066455e+001	-2.013493e+001	-9.664377e+001	4.089333e+001	-4.720539e+001	6.468395e+001
9.990539e+006	-4.299431e+001	-8.957864e+001	-3.067346e+001	-1.997910e+001	-9.048594e+001	7.966927e+001	-4.715549e+001	6.455773e+001
9.990544e+006	-4.299121e+001	-8.954687e+001	-3.067253e+001	-2.012705e+001	-1.082495e+002	-1.016213e+002	-4.723541e+001	6.479052e+001
9.990548e+006	-4.299593e+001	-8.975404e+001	-3.065528e+001	-2.009674e+001	-9.289584e+001	-5.821214e+001	-4.718050e+001	6.456829e+001
9.990553e+006	-4.303871e+001	-8.959366e+001	-3.067995e+001	-2.007800e+001	-8.773561e+001	7.758894e+001	-4.720331e+001	6.500459e+001
9.990558e+006	-4.295834e+001	-8.972242e+001	-3.066264e+001	-2.007611e+001	-9.527929e+001	1.408900e+001	-4.721296e+001	6.486412e+001
9.990563e+006	-4.299635e+001	-8.960199e+001	-3.066173e+001	-2.000830e+001	-9.603029e+001	-1.094402e+001	-4.725573e+001	6.503140e+001
9.990567e+006	-4.298126e+001	-8.973296e+001	-3.067503e+001	-2.007921e+001	-9.131335e+001	1.075080e+002	-4.715746e+001	6.514202e+001
9.990572e+006	-4.294412e+001	-8.958803e+001	-3.065964e+001	-2.006664e+001	-9.191244e+001	4.305088e+001	-4.716318e+001	6.439757e+001
9.990577e+006	-4.299821e+001	-8.957648e+001	-3.066735e+001	-2.005226e+001	-8.822303e+001	1.045890e+002	-4.717418e+001	6.483643e+001
9.990581e+006	-4.298823e+001	-8.966153e+001	-3.066402e+001	-2.000003e+001	-9.564602e+001	9.095821e+001	-4.717187e+001	6.479376e+001
9.990586e+006	-4.299947e+001	-8.979952e+001	-3.067557e+001	-2.004267e+001	-1.042473e+002	-3.316239e+001	-4.715970e+001	6.533166e+001
9.990591e+006	-4.303025e+001	-8.973157e+001	-3.067497e+001	-2.005370e+001	-9.335392e+001	-1.792001e+002	-4.713974e+001	6.504908e+001
9.990595e+006	-4.300171e+001	-8.957369e+001	-3.066412e+001	-2.002582e+001	-8.965118e+001	1.610896e+002	-4.711657e+001	6.469413e+001
9.990600e+006	-4.297978e+001	-8.957921e+001	-3.066590e+001	-2.010593e+001	-9.529071e+001	2.276632e+000	-4.724802e+001	6.495566e+001
9.990605e+006	-4.296051e+001	-8.992056e+001	-3.066296e+001	-1.997492e+001	-9.593334e+001	-1.513391e+002	-4.713926e+001	6.436640e+001
9.990609e+006	-4.299540e+001	-8.967007e+001	-3.066576e+001	-2.011130e+001	-9.362370e+001	3.890294e+001	-4.725701e+001	6.457567e+001
9.990614e+006	-4.299074e+001	-8.970159e+001	-3.065873e+001	-2.008891e+001	-9.636589e+001	3.666454e+001	-4.716425e+001	6.473198e+001
9.990619e+006	-4.299561e+001	-8.949078e+001	-3.066776e+001	-2.003288e+001	-8.723451e+001	1.434258e+002	-4.716668e+001	6.451702e+001
9.990623e+006	-4.300815e+001	-8.992730e+001	-3.067429e+001	-2.008741e+001	-8.920782e+001	1.236912e+002	-4.718506e+001	6.469381e+001
9.990628e+006	-4.300643e+001	-8.959744e+001	-3.067018e+001	-1.998108e+001	-9.716850e+001	1.395997e+002	-4.719704e+001	6.441126e+001
9.990633e+006	-4.301466e+001	-8.962352e+001	-3.066817e+001	-2.005526e+001	-9.028560e+001	1.486423e+002	-4.720293e+001	6.476557e+001
9.990638e+006	-4.300683e+001	-8.974000e+001	-3.066021e+001	-2.004630e+001	-8.766404e+001	1.769475e+002	-4.719814e+001	6.470900e+001
9.990642e+006	-4.300127e+001	-8.947246e+001	-3.065250e+001	-2.000720e+001	-9.515683e+001	-1.739611e+002	-4.712409e+001	6.460307e+001
9.990647e+006	-4.300034e+001	-8.970616e+001	-3.066698e+001	-2.007302e+001	-1.045100e+002	-2.270610e+001	-4.711581e+001	6.449342e+001
9.990652e+006	-4.300575e+001	-8.985173e+001	-3.065166e+001	-2.000465e+001	-9.213791e+001	-6.646568e+001	-4.716567e+001	6.449113e+001
9.990656e+006	-4.300298e+001	-8.974367e+001	-3.066418e+001	-1.999241e+001	-9.381295e+001	8.587149e+001	-4.721820e+001	6.497785e+001
9.990661e+006	-4.298756e+001	-8.958568e+001	-3.067036e+001	-2.007792e+001	-9.847434e+001	-1.261120e+002	-4.718866e+001	6.474014e+001
9.990666e+006	-4.300145e+001	-8.972211e+001	-3.065396e+001	-2.008129e+001	-1.020916e+002	1.563199e+001	-4.717375e+001	6.463721e+001
9.990670e+006	-4.298410e+001	-8.990361e+001	-3.065978e+001	-2.007217e+001	-9.371202e+001	-1.781908e+002	-4.714721e+001	6.503151e+001
9.990675e+006	-4.298339e+001	-8.953610e+001	-3.066847e+001	-2.009283e+001	-9.246362e+001	1.143641e+002	-4.716304e+001	6.473120e+001
9.990680e+006	-4.295925e+001	-8.972575e+001	-3.067059e+001	-2.014730e+001	-9.489703e+001	1.295760e+002	-4.721127e+001	6.419293e+001
9.990684e+006	-4.300364e+001	-9.000412e+001	-3.066344e+001	-2.004030e+001	-1.007500e+002	-4.203264e+001	-4.715897e+001	6.522377e+001
9.990689e+006	-4.297585e+001	-8.978706e+001	-3.066501e+001	-2.002644e+001	-8.679112e+001	1.698069e+002	-4.714400e+001	6.511995e+001
