!CETC41,AV3656A,ZGL00048,1.3.2
!Calibration ON (Full Solt 2-Port(Omit Isolation))
!Measurements: S11 S21 S12 S22
!2025-07-09 20:37
# Hz  S  dB  R 50.000
9.990000e+006	-4.301611e+001	-8.902689e+001	-3.066660e+001	-2.021311e+001	-9.738188e+001	9.214391e+001	-4.656372e+001	6.311920e+001
9.990005e+006	-4.298654e+001	-8.901107e+001	-3.067298e+001	-2.020215e+001	-9.397137e+001	-1.009454e+002	-4.655567e+001	6.266829e+001
9.990009e+006	-4.296694e+001	-8.908253e+001	-3.067008e+001	-2.018331e+001	-1.000105e+002	1.495440e+002	-4.658619e+001	6.255886e+001
9.990014e+006	-4.296817e+001	-8.872337e+001	-3.066872e+001	-2.013433e+001	-9.147859e+001	4.349946e+000	-4.658833e+001	6.261315e+001
9.990019e+006	-4.297014e+001	-8.893285e+001	-3.067670e+001	-2.021766e+001	-9.575629e+001	5.716690e+001	-4.653192e+001	6.235927e+001
9.990023e+006	-4.299564e+001	-8.892962e+001	-3.068249e+001	-2.012844e+001	-9.117757e+001	1.001490e+002	-4.652146e+001	6.203598e+001
9.990028e+006	-4.302646e+001	-8.881821e+001	-3.068104e+001	-2.023197e+001	-9.331655e+001	9.314578e+001	-4.660868e+001	6.264395e+001
9.990033e+006	-4.299435e+001	-8.892961e+001	-3.067604e+001	-2.021972e+001	-9.207877e+001	9.829713e+001	-4.654995e+001	6.244531e+001
9.990038e+006	-4.299354e+001	-8.907418e+001	-3.066568e+001	-2.027968e+001	-9.562419e+001	-1.261118e+002	-4.655832e+001	6.250591e+001
9.990042e+006	-4.301950e+001	-8.902563e+001	-3.067245e+001	-2.022403e+001	-9.187584e+001	7.281624e+001	-4.657517e+001	6.259460e+001
9.990047e+006	-4.299546e+001	-8.906830e+001	-3.066823e+001	-2.020439e+001	-8.927141e+001	1.120152e+002	-4.653691e+001	6.261898e+001
9.990052e+006	-4.299488e+001	-8.902606e+001	-3.066308e+001	-2.020406e+001	-9.189295e+001	1.221001e+002	-4.658017e+001	6.262885e+001
9.990056e+006	-4.299459e+001	-8.885902e+001	-3.067289e+001	-2.011101e+001	-9.405496e+001	7.945009e+001	-4.651610e+001	6.281471e+001
9.990061e+006	-4.299999e+001	-8.908231e+001	-3.067231e+001	-2.018980e+001	-9.079645e+001	6.841547e+001	-4.658930e+001	6.268913e+001
9.990066e+006	-4.299149e+001	-8.869665e+001	-3.067344e+001	-2.026073e+001	-9.050144e+001	1.624185e+002	-4.660231e+001	6.292206e+001
9.990070e+006	-4.295421e+001	-8.878803e+001	-3.067081e+001	-2.022133e+001	-8.928194e+001	1.605011e+002	-4.662436e+001	6.253685e+001
9.990075e+006	-4.295983e+001	-8.880114e+001	-3.066991e+001	-2.026060e+001	-8.947318e+001	9.446715e+001	-4.651795e+001	6.266428e+001
9.990080e+006	-4.298843e+001	-8.891415e+001	-3.066934e+001	-2.025329e+001	-9.899385e+001	1.542771e+002	-4.657496e+001	6.282756e+001
9.990084e+006	-4.300563e+001	-8.911155e+001	-3.066777e+001	-2.028270e+001	-9.386611e+001	1.483404e+001	-4.655747e+001	6.283966e+001
9.990089e+006	-4.298727e+001	-8.873978e+001	-3.066193e+001	-2.022590e+001	-1.091923e+002	-1.751003e+002	-4.653716e+001	6.276218e+001
9.990094e+006	-4.296783e+001	-8.892218e+001	-3.066096e+001	-2.025420e+001	-9.343527e+001	1.023012e+002	-4.658161e+001	6.282264e+001
9.990098e+006	-4.297498e+001	-8.910129e+001	-3.067082e+001	-2.029981e+001	-9.386447e+001	1.435278e+002	-4.658786e+001	6.283828e+001
9.990103e+006	-4.302359e+001	-8.892712e+001	-3.065937e+001	-2.021331e+001	-1.000610e+002	-1.768458e+002	-4.656717e+001	6.312137e+001
9.990108e+006	-4.300832e+001	-8.908863e+001	-3.066129e+001	-2.024389e+001	-9.327194e+001	1.207878e+002	-4.648210e+001	6.252565e+001
9.990113e+006	-4.296252e+001	-8.870717e+001	-3.065963e+001	-2.024305e+001	-8.871601e+001	7.939047e+001	-4.655232e+001	6.278139e+001
9.990117e+006	-4.300835e+001	-8.857918e+001	-3.066352e+001	-2.031869e+001	-9.023031e+001	-1.044080e+002	-4.654790e+001	6.282965e+001
9.990122e+006	-4.302109e+001	-8.906558e+001	-3.068385e+001	-2.034513e+001	-9.839452e+001	-1.360473e+002	-4.651528e+001	6.245764e+001
9.990127e+006	-4.295874e+001	-8.864480e+001	-3.068533e+001	-2.037355e+001	-9.746287e+001	5.936720e+001	-4.661670e+001	6.291903e+001
9.990131e+006	-4.302039e+001	-8.916393e+001	-3.068760e+001	-2.036629e+001	-9.541591e+001	1.223641e+002	-4.649653e+001	6.263378e+001
9.990136e+006	-4.299858e+001	-8.875113e+001	-3.068414e+001	-2.025041e+001	-1.032638e+002	9.369630e+001	-4.658609e+001	6.292547e+001
9.990141e+006	-4.295016e+001	-8.867953e+001	-3.069520e+001	-2.033423e+001	-9.330393e+001	1.319829e+002	-4.654650e+001	6.264323e+001
9.990145e+006	-4.301075e+001	-8.899788e+001	-3.070539e+001	-2.022878e+001	-9.089247e+001	1.171899e+002	-4.661845e+001	6.259555e+001
9.990150e+006	-4.296943e+001	-8.889544e+001	-3.069420e+001	-2.022260e+001	-1.029034e+002	1.189493e+002	-4.662289e+001	6.271663e+001
9.990155e+006	-4.298568e+001	-8.883526e+001	-3.069711e+001	-2.022571e+001	-1.012244e+002	5.910866e+001	-4.655842e+001	6.241684e+001
9.990159e+006	-4.294635e+001	-8.881611e+001	-3.069942e+001	-2.027588e+001	-9.186466e+001	6.718516e+001	-4.655031e+001	6.265216e+001
9.990164e+006	-4.296954e+001	-8.893769e+001	-3.068627e+001	-2.026405e+001	-9.313579e+001	-1.541567e+002	-4.660380e+001	6.287098e+001
9.990169e+006	-4.297494e+001	-8.893902e+001	-3.069656e+001	-2.025065e+001	-9.680672e+001	7.693507e+001	-4.652818e+001	6.277618e+001
9.990173e+006	-4.302159e+001	-8.899966e+001	-3.067802e+001	-2.019654e+001	-8.861216e+001	2.688392e+001	-4.655559e+001	6.241600e+001
9.990178e+006	-4.297164e+001	-8.875339e+001	-3.068357e+001	-2.013032e+001	-9.047435e+001	8.790564e+000	-4.657180e+001	6.305510e+001
9.990183e+006	-4.300476e+001	-8.874049e+001	-3.067549e+001	-2.010188e+001	-9.377504e+001	1.776817e+002	-4.655565e+001	6.286763e+001
9.990188e+006	-4.298835e+001	-8.889989e+001	-3.066929e+001	-2.012559e+001	-9.495631e+001	6.400354e+001	-4.660342e+001	6.248482e+001
9.990192e+006	-4.299565e+001	-8.875092e+001	-3.067623e+001	-2.020118e+001	-9.320738e+001	-1.687228e+002	-4.658559e+001	6.291756e+001
9.990197e+006	-4.298665e+001	-8.902304e+001	-3.067363e+001	-2.022274e+001	-9.028994e+001	6.860995e+001	-4.656165e+001	6.271247e+001
9.990202e+006	-4.299996e+001	-8.871853e+001	-3.067603e+001	-2.031592e+001	-9.681869e+001	4.388032e+001	-4.653810e+001	6.321319e+001
9.990206e+006	-4.299660e+001	-8.904657e+001	-3.068474e+001	-2.023244e+001	-8.918602e+001	4.738209e+001	-4.657700e+001	6.279911e+001
9.990211e+006	-4.298599e+001	-8.888819e+001	-3.067475e+001	-2.020967e+001	-9.779322e+001	-1.549750e+002	-4.656801e+001	6.287821e+001
9.990216e+006	-4.300249e+001	-8.873853e+001	-3.067452e+001	-2.018072e+001	-9.379386e+001	8.346964e+001	-4.659931e+001	6.292587e+001
9.990220e+006	-4.302197e+001	-8.882269e+001	-3.067675e+001	-2.018707e+001	-8.599203e+001	1.302308e+002	-4.656703e+001	6.260302e+001
9.990225e+006	-4.299950e+001	-8.902758e+001	-3.067101e+001	-2.018021e+001	-8.703269e+001	1.427783e+002	-4.660284e+001	6.280701e+001
9.990230e+006	-4.297201e+001	-8.891403e+001	-3.067878e+001	-2.020023e+001	-9.384557e+001	7.126048e+001	-4.657113e+001	6.258841e+001
9.990234e+006	-4.301274e+001	-8.886321e+001	-3.068905e+001	-2.021736e+001	-9.269477e+001	1.574880e+001	-4.657524e+001	6.249634e+001
9.990239e+006	-4.299326e+001	-8.875927e+001	-3.068869e+001	-2.026952e+001	-9.551232e+001	1.161355e+002	-4.654001e+001	6.282827e+001
9.990244e+006	-4.294708e+001	-8.895622e+001	-3.067877e+001	-2.017705e+001	-9.749141e+001	1.668170e+002	-4.652270e+001	6.268644e+001
9.990248e+006	-4.300159e+001	-8.874680e+001	-3.067887e+001	-2.013183e+001	-9.900071e+001	1.138634e+002	-4.655343e+001	6.266994e+001
9.990253e+006	-4.297118e+001	-8.899485e+001	-3.068356e+001	-2.025138e+001	-1.032352e+002	-2.120452e+001	-4.655416e+001	6.274084e+001
9.990258e+006	-4.301100e+001	-8.905122e+001	-3.067098e+001	-2.017096e+001	-1.179144e+002	6.812227e+001	-4.650205e+001	6.316865e+001
9.990263e+006	-4.298843e+001	-8.912862e+001	-3.067914e+001	-2.017230e+001	-9.132476e+001	4.926968e+001	-4.655956e+001	6.264867e+001
9.990267e+006	-4.299813e+001	-8.896834e+001	-3.068283e+001	-2.023361e+001	-9.160624e+001	1.117768e+002	-4.656429e+001	6.282550e+001
9.990272e+006	-4.298623e+001	-8.894328e+001	-3.067506e+001	-2.017976e+001	-9.403240e+001	1.205523e+002	-4.659159e+001	6.292704e+001
9.990277e+006	-4.298363e+001	-8.873961e+001	-3.067130e+001	-2.020840e+001	-9.362803e+001	6.899710e+001	-4.652187e+001	6.301532e+001
9.990281e+006	-4.302266e+001	-8.879232e+001	-3.066736e+001	-2.015862e+001	-9.728253e+001	1.315122e+002	-4.657193e+001	6.315800e+001
9.990286e+006	-4.303267e+001	-8.871946e+001	-3.067782e+001	-2.024053e+001	-9.320700e+001	1.324078e+002	-4.661102e+001	6.283426e+001
9.990291e+006	-4.298652e+001	-8.875327e+001	-3.067492e+001	-2.017442e+001	-8.980193e+001	5.883461e+001	-4.658754e+001	6.300065e+001
9.990295e+006	-4.298021e+001	-8.889058e+001	-3.067610e+001	-2.016567e+001	-8.578350e+001	1.784216e+002	-4.657666e+001	6.301075e+001
9.990300e+006	-4.296565e+001	-8.873405e+001	-3.067230e+001	-2.018822e+001	-1.006755e+002	-1.658072e+002	-4.662750e+001	6.283208e+001
9.990305e+006	-4.297348e+001	-8.897278e+001	-3.066520e+001	-2.016828e+001	-9.600135e+001	1.113218e+002	-4.655371e+001	6.300300e+001
9.990309e+006	-4.299971e+001	-8.882346e+001	-3.068114e+001	-2.024976e+001	-9.928482e+001	1.842999e+001	-4.653809e+001	6.307235e+001
9.990314e+006	-4.298567e+001	-8.863270e+001	-3.068381e+001	-2.015557e+001	-9.655562e+001	-1.147837e+002	-4.653365e+001	6.305841e+001
9.990319e+006	-4.297277e+001	-8.890739e+001	-3.067055e+001	-2.017819e+001	-8.864317e+001	-7.804114e+001	-4.653448e+001	6.278724e+001
9.990323e+006	-4.300026e+001	-8.873006e+001	-3.067837e+001	-2.021060e+001	-9.479530e+001	9.626539e+001	-4.662980e+001	6.243385e+001
9.990328e+006	-4.300786e+001	-8.896023e+001	-3.067137e+001	-2.020291e+001	-8.991622e+001	1.676513e+002	-4.653038e+001	6.278054e+001
9.990333e+006	-4.295450e+001	-8.891701e+001	-3.066495e+001	-2.023869e+001	-8.897218e+001	1.429219e+002	-4.653637e+001	6.243425e+001
9.990338e+006	-4.298901e+001	-8.895175e+001	-3.067177e+001	-2.020129e+001	-1.069143e+002	9.615569e+001	-4.654010e+001	6.296809e+001
9.990342e+006	-4.298747e+001	-8.885621e+001	-3.068094e+001	-2.015432e+001	-9.156806e+001	8.802504e+001	-4.652053e+001	6.286212e+001
9.990347e+006	-4.300038e+001	-8.886866e+001	-3.067319e+001	-2.020867e+001	-1.014218e+002	-1.098340e+002	-4.661526e+001	6.262528e+001
9.990352e+006	-4.298103e+001	-8.885743e+001	-3.066978e+001	-2.021260e+001	-9.850685e+001	6.343540e+001	-4.657642e+001	6.276786e+001
9.990356e+006	-4.302931e+001	-8.920604e+001	-3.067183e+001	-2.021201e+001	-9.998254e+001	-1.037061e+002	-4.653856e+001	6.240193e+001
9.990361e+006	-4.299485e+001	-8.902163e+001	-3.068940e+001	-2.015927e+001	-9.765896e+001	-4.567907e+001	-4.655430e+001	6.247315e+001
9.990366e+006	-4.299572e+001	-8.894415e+001	-3.067826e+001	-2.017898e+001	-9.816887e+001	-1.520309e+002	-4.659331e+001	6.225221e+001
9.990370e+006	-4.302626e+001	-8.880436e+001	-3.068221e+001	-2.026481e+001	-9.536482e+001	5.919561e+001	-4.656975e+001	6.303012e+001
9.990375e+006	-4.296406e+001	-8.885331e+001	-3.066926e+001	-2.018405e+001	-1.100922e+002	-1.447847e+001	-4.657349e+001	6.282693e+001
9.990380e+006	-4.300371e+001	-8.895431e+001	-3.066928e+001	-2.020066e+001	-1.020285e+002	-6.334207e+001	-4.658562e+001	6.251948e+001
9.990384e+006	-4.297373e+001	-8.867073e+001	-3.067699e+001	-2.017555e+001	-9.249302e+001	1.789344e+002	-4.659148e+001	6.272593e+001
9.990389e+006	-4.302145e+001	-8.872260e+001	-3.068406e+001	-2.020463e+001	-9.141169e+001	2.897261e+001	-4.654327e+001	6.248805e+001
9.990394e+006	-4.298505e+001	-8.895403e+001	-3.066647e+001	-2.023359e+001	-8.951160e+001	5.111065e+001	-4.659382e+001	6.281076e+001
9.990398e+006	-4.295449e+001	-8.891149e+001	-3.067725e+001	-2.017483e+001	-9.130887e+001	-9.334530e+001	-4.659554e+001	6.265044e+001
9.990403e+006	-4.296625e+001	-8.893349e+001	-3.066841e+001	-2.018806e+001	-1.017790e+002	1.795033e+002	-4.654097e+001	6.259808e+001
9.990408e+006	-4.303037e+001	-8.887520e+001	-3.067804e+001	-2.016545e+001	-8.660676e+001	6.704428e+001	-4.656830e+001	6.256920e+001
9.990413e+006	-4.298644e+001	-8.875911e+001	-3.067614e+001	-2.024096e+001	-8.770098e+001	6.500725e+001	-4.661085e+001	6.255520e+001
9.990417e+006	-4.300118e+001	-8.889772e+001	-3.066197e+001	-2.014728e+001	-9.260084e+001	9.116050e+001	-4.658376e+001	6.280460e+001
9.990422e+006	-4.299020e+001	-8.893491e+001	-3.066452e+001	-2.021508e+001	-9.358230e+001	8.446547e+001	-4.653695e+001	6.257441e+001
9.990427e+006	-4.296591e+001	-8.883907e+001	-3.066460e+001	-2.017423e+001	-9.740524e+001	4.370963e+000	-4.650996e+001	6.277152e+001
9.990431e+006	-4.299999e+001	-8.867058e+001	-3.067180e+001	-2.027802e+001	-8.965718e+001	1.386882e+002	-4.654981e+001	6.279643e+001
9.990436e+006	-4.299042e+001	-8.860287e+001	-3.067952e+001	-2.023175e+001	-8.806680e+001	6.408809e+001	-4.659730e+001	6.226645e+001
9.990441e+006	-4.297459e+001	-8.900663e+001	-3.066862e+001	-2.018064e+001	-9.577509e+001	8.920494e+001	-4.656178e+001	6.309294e+001
9.990445e+006	-4.298539e+001	-8.902246e+001	-3.067614e+001	-2.021472e+001	-1.039039e+002	-1.278141e+002	-4.654359e+001	6.283277e+001
9.990450e+006	-4.299923e+001	-8.882091e+001	-3.067931e+001	-2.015434e+001	-9.217543e+001	9.861586e+001	-4.654403e+001	6.290012e+001
9.990455e+006	-4.294987e+001	-8.858291e+001	-3.066152e+001	-2.019321e+001	-9.669931e+001	1.032628e+002	-4.658102e+001	6.287875e+001
9.990459e+006	-4.299152e+001	-8.903090e+001	-3.066717e+001	-2.026257e+001	-9.118553e+001	8.254948e+001	-4.651332e+001	6.289416e+001
9.990464e+006	-4.298038e+001	-8.888209e+001	-3.068675e+001	-2.024495e+001	-1.020925e+002	-1.838585e+001	-4.659085e+001	6.338218e+001
9.990469e+006	-4.299934e+001	-8.887913e+001	-3.066287e+001	-2.014338e+001	-9.653397e+001	1.102238e+002	-4.655575e+001	6.282999e+001
9.990473e+006	-4.298452e+001	-8.899903e+001	-3.067113e+001	-2.021447e+001	-9.173695e+001	-7.459271e+000	-4.659765e+001	6.260005e+001
9.990478e+006	-4.298080e+001	-8.881341e+001	-3.067841e+001	-2.015345e+001	-9.320228e+001	1.042318e+002	-4.657315e+001	6.301144e+001
9.990483e+006	-4.301384e+001	-8.893959e+001	-3.067046e+001	-2.028145e+001	-9.611425e+001	6.889915e+001	-4.660738e+001	6.279184e+001
9.990488e+006	-4.299761e+001	-8.901648e+001	-3.068131e+001	-2.016617e+001	-8.895187e+001	1.230367e+002	-4.659037e+001	6.295147e+001
9.990492e+006	-4.297583e+001	-8.894785e+001	-3.067690e+001	-2.027647e+001	-9.576362e+001	9.712816e+001	-4.650877e+001	6.268832e+001
9.990497e+006	-4.297053e+001	-8.905137e+001	-3.068775e+001	-2.029516e+001	-8.723478e+001	1.290103e+002	-4.661943e+001	6.284597e+001
9.990502e+006	-4.293872e+001	-8.885404e+001	-3.066783e+001	-2.014857e+001	-8.847560e+001	6.572487e+001	-4.657866e+001	6.266297e+001
9.990506e+006	-4.295688e+001	-8.902231e+001	-3.067059e+001	-2.030526e+001	-1.032056e+002	1.534737e+002	-4.661363e+001	6.272965e+001
9.990511e+006	-4.299036e+001	-8.888562e+001	-3.067083e+001	-2.015640e+001	-9.381025e+001	-1.441152e+002	-4.650660e+001	6.297545e+001
9.990516e+006	-4.297322e+001	-8.885959e+001	-3.066849e+001	-2.017016e+001	-9.493255e+001	-8.788243e+001	-4.654190e+001	6.280206e+001
9.990520e+006	-4.297550e+001	-8.864086e+001	-3.066890e+001	-2.017516e+001	-8.874465e+001	-1.127807e+002	-4.648872e+001	6.288518e+001
9.990525e+006	-4.297272e+001	-8.890244e+001	-3.067616e+001	-2.018575e+001	-8.603814e+001	-1.319961e+001	-4.654899e+001	6.287127e+001
9.990530e+006	-4.297749e+001	-8.881637e+001	-3.066974e+001	-2.027978e+001	-8.850312e+001	1.147543e+002	-4.649771e+001	6.248751e+001
9.990534e+006	-4.298645e+001	-8.909132e+001	-3.067677e+001	-2.018337e+001	-1.003592e+002	1.776220e+002	-4.657810e+001	6.267723e+001
9.990539e+006	-4.298141e+001	-8.898168e+001	-3.065859e+001	-2.026009e+001	-9.596781e+001	1.157289e+002	-4.657576e+001	6.281193e+001
9.990544e+006	-4.304518e+001	-8.865220e+001	-3.067208e+001	-2.017612e+001	-9.590691e+001	1.535503e+002	-4.656333e+001	6.312873e+001
9.990548e+006	-4.298966e+001	-8.883290e+001	-3.066956e+001	-2.018354e+001	-1.043582e+002	-4.338788e+001	-4.654502e+001	6.287528e+001
9.990553e+006	-4.299979e+001	-8.878217e+001	-3.066975e+001	-2.025462e+001	-9.080379e+001	4.787915e+001	-4.660747e+001	6.274660e+001
9.990558e+006	-4.301473e+001	-8.865733e+001	-3.066678e+001	-2.018364e+001	-8.873399e+001	4.920073e+001	-4.660775e+001	6.261413e+001
9.990563e+006	-4.299665e+001	-8.904770e+001	-3.067940e+001	-2.017608e+001	-9.669933e+001	-1.275658e+002	-4.657708e+001	6.292002e+001
9.990567e+006	-4.301998e+001	-8.894669e+001	-3.066763e+001	-2.017946e+001	-1.024557e+002	1.523317e+002	-4.657011e+001	6.285408e+001
9.990572e+006	-4.304394e+001	-8.882267e+001	-3.066740e+001	-2.022133e+001	-9.754905e+001	-1.511831e+000	-4.655668e+001	6.261366e+001
9.990577e+006	-4.295423e+001	-8.896935e+001	-3.066537e+001	-2.023847e+001	-9.246865e+001	1.513671e+002	-4.658250e+001	6.269698e+001
9.990581e+006	-4.298114e+001	-8.894316e+001	-3.067274e+001	-2.018170e+001	-9.495024e+001	6.100692e+001	-4.659241e+001	6.271106e+001
9.990586e+006	-4.298657e+001	-8.873362e+001	-3.066949e+001	-2.024194e+001	-9.305861e+001	2.438832e+001	-4.655832e+001	6.279821e+001
9.990591e+006	-4.297282e+001	-8.877982e+001	-3.066194e+001	-2.019908e+001	-8.951676e+001	7.874165e+001	-4.653990e+001	6.302049e+001
9.990595e+006	-4.296878e+001	-8.874885e+001	-3.067098e+001	-2.022708e+001	-8.680949e+001	1.118835e+002	-4.653067e+001	6.271897e+001
9.990600e+006	-4.298527e+001	-8.876679e+001	-3.065534e+001	-2.014313e+001	-9.468505e+001	1.734859e+002	-4.651487e+001	6.274008e+001
9.990605e+006	-4.298771e+001	-8.870785e+001	-3.066238e+001	-2.021354e+001	-9.803474e+001	-1.145979e+002	-4.653909e+001	6.291069e+001
9.990609e+006	-4.300749e+001	-8.890225e+001	-3.066221e+001	-2.027479e+001	-9.213592e+001	4.879567e+001	-4.651323e+001	6.283434e+001
9.990614e+006	-4.300410e+001	-8.874623e+001	-3.065013e+001	-2.022987e+001	-1.025038e+002	-1.145378e+002	-4.658745e+001	6.324288e+001
9.990619e+006	-4.301474e+001	-8.869497e+001	-3.067393e+001	-2.016666e+001	-9.180052e+001	8.184414e+001	-4.656976e+001	6.238986e+001
9.990623e+006	-4.298858e+001	-8.900348e+001	-3.066421e+001	-2.021515e+001	-8.974870e+001	1.348653e+002	-4.655027e+001	6.267740e+001
9.990628e+006	-4.300974e+001	-8.897088e+001	-3.066460e+001	-2.024645e+001	-9.535128e+001	-1.346589e+002	-4.660082e+001	6.281438e+001
9.990633e+006	-4.302161e+001	-8.891054e+001	-3.066658e+001	-2.022446e+001	-9.105561e+001	4.459604e+001	-4.651717e+001	6.252112e+001
9.990638e+006	-4.297959e+001	-8.887967e+001	-3.066402e+001	-2.017800e+001	-1.038979e+002	1.689591e+002	-4.661668e+001	6.244134e+001
9.990642e+006	-4.300476e+001	-8.869450e+001	-3.067006e+001	-2.024194e+001	-9.544525e+001	5.755442e+001	-4.653521e+001	6.306952e+001
9.990647e+006	-4.301312e+001	-8.875441e+001	-3.066506e+001	-2.021983e+001	-9.884431e+001	1.192500e+002	-4.653037e+001	6.254709e+001
9.990652e+006	-4.300928e+001	-8.864355e+001	-3.066335e+001	-2.021671e+001	-9.554825e+001	3.470275e+001	-4.659410e+001	6.293672e+001
9.990656e+006	-4.301204e+001	-8.902457e+001	-3.066639e+001	-2.017947e+001	-8.733718e+001	7.846510e+001	-4.658228e+001	6.261389e+001
9.990661e+006	-4.296481e+001	-8.880488e+001	-3.067125e+001	-2.018888e+001	-9.375700e+001	5.547129e+001	-4.660342e+001	6.270327e+001
9.990666e+006	-4.300381e+001	-8.863253e+001	-3.067058e+001	-2.025255e+001	-8.962076e+001	1.005155e+002	-4.651447e+001	6.235977e+001
9.990670e+006	-4.298428e+001	-8.897381e+001	-3.065932e+001	-2.014816e+001	-9.347026e+001	1.279741e+002	-4.654547e+001	6.307586e+001
9.990675e+006	-4.300339e+001	-8.888850e+001	-3.066451e+001	-2.024356e+001	-8.864370e+001	6.655149e+001	-4.651126e+001	6.315917e+001
9.990680e+006	-4.301861e+001	-8.887940e+001	-3.066543e+001	-2.020501e+001	-9.123323e+001	1.255336e+002	-4.652329e+001	6.263297e+001
9.990684e+006	-4.296925e+001	-8.881471e+001	-3.066829e+001	-2.022836e+001	-8.699272e+001	1.515333e+002	-4.660030e+001	6.245074e+001
9.990689e+006	-4.300824e+001	-8.884801e+001	-3.066305e+001	-2.018053e+001	-9.166644e+001	7.395148e+001	-4.658687e+001	6.272715e+001
