!CETC41,AV3656A,ZGL00048,1.3.2
!Calibration ON (Full Solt 2-Port(Omit Isolation))
!Measurements: S11 S21 S12 S22
!2025-07-09 21:40
# Hz  S  dB  R 50.000
9.990000e+006	-4.204148e+001	-8.385802e+001	-3.069083e+001	-2.075060e+001	-9.773022e+001	8.926310e+001	-4.592056e+001	4.160370e+001
9.990005e+006	-4.204684e+001	-8.361845e+001	-3.069427e+001	-2.065633e+001	-9.230941e+001	5.785415e+001	-4.595628e+001	4.192601e+001
9.990009e+006	-4.206129e+001	-8.352430e+001	-3.067956e+001	-2.070671e+001	-9.951908e+001	1.600665e+002	-4.596214e+001	4.165884e+001
9.990014e+006	-4.205420e+001	-8.361963e+001	-3.068304e+001	-2.065768e+001	-9.034376e+001	9.508317e+001	-4.597012e+001	4.184170e+001
9.990019e+006	-4.204457e+001	-8.353805e+001	-3.067749e+001	-2.063694e+001	-9.131375e+001	6.032019e+001	-4.597819e+001	4.188918e+001
9.990023e+006	-4.203949e+001	-8.369379e+001	-3.068391e+001	-2.066626e+001	-9.271390e+001	1.750663e+002	-4.595447e+001	4.246365e+001
9.990028e+006	-4.203835e+001	-8.388963e+001	-3.067447e+001	-2.057361e+001	-8.741339e+001	1.025284e+002	-4.591260e+001	4.231678e+001
9.990033e+006	-4.201989e+001	-8.382429e+001	-3.068808e+001	-2.063579e+001	-8.798491e+001	9.921503e+001	-4.597818e+001	4.221556e+001
9.990038e+006	-4.205814e+001	-8.380137e+001	-3.068924e+001	-2.051404e+001	-8.820970e+001	9.783419e+001	-4.597849e+001	4.250627e+001
9.990042e+006	-4.204584e+001	-8.356769e+001	-3.069061e+001	-2.058069e+001	-1.009126e+002	1.191570e+002	-4.600619e+001	4.214605e+001
9.990047e+006	-4.204084e+001	-8.365135e+001	-3.069268e+001	-2.059409e+001	-8.876640e+001	1.068485e+002	-4.599157e+001	4.197112e+001
9.990052e+006	-4.201720e+001	-8.377348e+001	-3.068500e+001	-2.065428e+001	-1.026844e+002	-3.108123e+001	-4.597267e+001	4.245520e+001
9.990056e+006	-4.206720e+001	-8.351933e+001	-3.068882e+001	-2.059470e+001	-9.104746e+001	9.355205e+001	-4.595870e+001	4.194927e+001
9.990061e+006	-4.205331e+001	-8.390650e+001	-3.069434e+001	-2.064649e+001	-8.712646e+001	1.279826e+002	-4.603462e+001	4.205511e+001
9.990066e+006	-4.206388e+001	-8.349725e+001	-3.069467e+001	-2.066936e+001	-9.765067e+001	4.671063e+001	-4.601862e+001	4.246217e+001
9.990070e+006	-4.205085e+001	-8.351340e+001	-3.069702e+001	-2.068557e+001	-9.290361e+001	5.145441e+001	-4.599989e+001	4.238711e+001
9.990075e+006	-4.203929e+001	-8.366847e+001	-3.069721e+001	-2.061250e+001	-8.986464e+001	1.173331e+002	-4.594744e+001	4.234001e+001
9.990080e+006	-4.201749e+001	-8.375661e+001	-3.069428e+001	-2.067097e+001	-9.597043e+001	-6.326852e+000	-4.601216e+001	4.176721e+001
9.990084e+006	-4.203163e+001	-8.376145e+001	-3.070398e+001	-2.070566e+001	-9.476262e+001	6.910675e+001	-4.599775e+001	4.217745e+001
9.990089e+006	-4.205992e+001	-8.373484e+001	-3.070607e+001	-2.067506e+001	-9.296884e+001	1.147282e+002	-4.598104e+001	4.239535e+001
9.990094e+006	-4.203977e+001	-8.373390e+001	-3.070594e+001	-2.067543e+001	-9.118791e+001	3.073426e+001	-4.596070e+001	4.209507e+001
9.990098e+006	-4.208020e+001	-8.354819e+001	-3.070131e+001	-2.073886e+001	-8.959628e+001	-5.068370e+001	-4.603150e+001	4.205545e+001
9.990103e+006	-4.204367e+001	-8.374065e+001	-3.070015e+001	-2.061393e+001	-9.598416e+001	7.016390e+000	-4.597537e+001	4.160267e+001
9.990108e+006	-4.204226e+001	-8.356962e+001	-3.070797e+001	-2.071292e+001	-1.047037e+002	1.741784e+002	-4.597159e+001	4.221025e+001
9.990113e+006	-4.206271e+001	-8.365393e+001	-3.070171e+001	-2.070635e+001	-1.055423e+002	1.009438e+002	-4.595096e+001	4.196704e+001
9.990117e+006	-4.205460e+001	-8.374514e+001	-3.071138e+001	-2.073337e+001	-8.945941e+001	-4.062925e+001	-4.597648e+001	4.157562e+001
9.990122e+006	-4.205345e+001	-8.356966e+001	-3.070302e+001	-2.059498e+001	-9.279976e+001	4.650727e+001	-4.595989e+001	4.204143e+001
9.990127e+006	-4.205247e+001	-8.345144e+001	-3.070871e+001	-2.063966e+001	-9.621127e+001	-1.235221e+002	-4.604903e+001	4.199639e+001
9.990131e+006	-4.207034e+001	-8.393719e+001	-3.069782e+001	-2.064414e+001	-9.553575e+001	1.283316e+002	-4.600588e+001	4.181300e+001
9.990136e+006	-4.203448e+001	-8.364914e+001	-3.070136e+001	-2.064793e+001	-9.159987e+001	1.197071e+002	-4.607273e+001	4.187832e+001
9.990141e+006	-4.202217e+001	-8.347164e+001	-3.070237e+001	-2.062586e+001	-9.753838e+001	2.464640e+001	-4.601545e+001	4.170445e+001
9.990145e+006	-4.207098e+001	-8.377517e+001	-3.069916e+001	-2.061856e+001	-8.644778e+001	1.284052e+002	-4.606559e+001	4.224250e+001
9.990150e+006	-4.204243e+001	-8.355773e+001	-3.070406e+001	-2.067058e+001	-1.009063e+002	1.165052e+002	-4.594927e+001	4.231800e+001
9.990155e+006	-4.203819e+001	-8.336525e+001	-3.069099e+001	-2.068835e+001	-9.407799e+001	1.548058e+002	-4.596479e+001	4.175214e+001
9.990159e+006	-4.202828e+001	-8.372233e+001	-3.068614e+001	-2.072028e+001	-9.274441e+001	1.229417e+002	-4.598680e+001	4.222360e+001
9.990164e+006	-4.206328e+001	-8.376750e+001	-3.070141e+001	-2.066800e+001	-9.237710e+001	7.467619e+001	-4.600457e+001	4.180223e+001
9.990169e+006	-4.209123e+001	-8.357787e+001	-3.070404e+001	-2.071421e+001	-8.628273e+001	1.413127e+002	-4.604463e+001	4.180178e+001
9.990173e+006	-4.207637e+001	-8.340690e+001	-3.070437e+001	-2.064470e+001	-8.784079e+001	9.578852e+001	-4.602784e+001	4.223037e+001
9.990178e+006	-4.204400e+001	-8.361845e+001	-3.071116e+001	-2.075401e+001	-9.173285e+001	1.064567e+002	-4.603895e+001	4.181300e+001
9.990183e+006	-4.205304e+001	-8.353707e+001	-3.070373e+001	-2.066983e+001	-1.072205e+002	1.142229e+002	-4.602000e+001	4.207410e+001
9.990188e+006	-4.204379e+001	-8.363861e+001	-3.070066e+001	-2.067781e+001	-9.300023e+001	7.889917e+001	-4.602180e+001	4.241689e+001
9.990192e+006	-4.206487e+001	-8.370798e+001	-3.069894e+001	-2.069141e+001	-8.947090e+001	1.681262e+002	-4.598999e+001	4.192594e+001
9.990197e+006	-4.203885e+001	-8.342452e+001	-3.069525e+001	-2.070282e+001	-9.390624e+001	-1.412855e+002	-4.598772e+001	4.185262e+001
9.990202e+006	-4.205247e+001	-8.354740e+001	-3.069456e+001	-2.070435e+001	-9.193816e+001	1.070264e+002	-4.602098e+001	4.190623e+001
9.990206e+006	-4.206901e+001	-8.361056e+001	-3.070921e+001	-2.071776e+001	-9.642330e+001	-1.746270e+002	-4.602912e+001	4.213930e+001
9.990211e+006	-4.205217e+001	-8.348721e+001	-3.069772e+001	-2.066337e+001	-9.163601e+001	-1.750842e+002	-4.598622e+001	4.194487e+001
9.990216e+006	-4.202635e+001	-8.374880e+001	-3.069511e+001	-2.059736e+001	-9.344859e+001	-1.658941e+002	-4.601039e+001	4.193192e+001
9.990220e+006	-4.204209e+001	-8.337672e+001	-3.070190e+001	-2.063844e+001	-9.176261e+001	1.229199e+002	-4.597380e+001	4.196239e+001
9.990225e+006	-4.202618e+001	-8.379610e+001	-3.070329e+001	-2.063568e+001	-1.005099e+002	1.332485e+002	-4.597595e+001	4.175198e+001
9.990230e+006	-4.203919e+001	-8.359132e+001	-3.069453e+001	-2.067262e+001	-8.861343e+001	1.267158e+002	-4.601532e+001	4.188810e+001
9.990234e+006	-4.205457e+001	-8.358579e+001	-3.069216e+001	-2.064263e+001	-9.143708e+001	1.013977e+002	-4.602571e+001	4.183123e+001
9.990239e+006	-4.205837e+001	-8.367687e+001	-3.068691e+001	-2.063244e+001	-9.668930e+001	-1.755192e+002	-4.597546e+001	4.234543e+001
9.990244e+006	-4.203771e+001	-8.337944e+001	-3.069449e+001	-2.062872e+001	-9.091549e+001	6.191029e+001	-4.602981e+001	4.178730e+001
9.990248e+006	-4.206782e+001	-8.355427e+001	-3.070212e+001	-2.065018e+001	-9.308400e+001	1.683030e+002	-4.598916e+001	4.187591e+001
9.990253e+006	-4.202757e+001	-8.349058e+001	-3.069300e+001	-2.064615e+001	-8.893946e+001	2.907885e+001	-4.598787e+001	4.212655e+001
9.990258e+006	-4.204498e+001	-8.355592e+001	-3.068939e+001	-2.064273e+001	-9.211581e+001	-1.708184e+002	-4.593743e+001	4.205284e+001
9.990263e+006	-4.204376e+001	-8.354605e+001	-3.070270e+001	-2.064352e+001	-1.048104e+002	-1.054413e+002	-4.595057e+001	4.196905e+001
9.990267e+006	-4.207517e+001	-8.348882e+001	-3.069680e+001	-2.062948e+001	-9.119113e+001	-1.726043e+002	-4.606838e+001	4.205736e+001
9.990272e+006	-4.206864e+001	-8.366052e+001	-3.068699e+001	-2.068738e+001	-1.080180e+002	1.059490e+002	-4.596031e+001	4.206497e+001
9.990277e+006	-4.204274e+001	-8.352701e+001	-3.069613e+001	-2.062763e+001	-9.829011e+001	-1.493311e+002	-4.601743e+001	4.239799e+001
9.990281e+006	-4.204742e+001	-8.363012e+001	-3.069199e+001	-2.066945e+001	-8.849993e+001	6.431496e+001	-4.598511e+001	4.193422e+001
9.990286e+006	-4.209743e+001	-8.381550e+001	-3.070367e+001	-2.064813e+001	-9.176399e+001	4.647246e+001	-4.602741e+001	4.171131e+001
9.990291e+006	-4.207617e+001	-8.356193e+001	-3.069488e+001	-2.062732e+001	-9.561760e+001	5.329997e+001	-4.601395e+001	4.210563e+001
9.990295e+006	-4.204059e+001	-8.376064e+001	-3.069934e+001	-2.063619e+001	-8.892036e+001	1.730938e+002	-4.606514e+001	4.180920e+001
9.990300e+006	-4.204894e+001	-8.364466e+001	-3.069279e+001	-2.063189e+001	-9.929878e+001	1.529077e+002	-4.599363e+001	4.204805e+001
9.990305e+006	-4.204058e+001	-8.358608e+001	-3.069876e+001	-2.068353e+001	-8.902447e+001	5.829062e+001	-4.600122e+001	4.188309e+001
9.990309e+006	-4.205564e+001	-8.358449e+001	-3.069324e+001	-2.067031e+001	-9.034713e+001	7.064172e+001	-4.596382e+001	4.242033e+001
9.990314e+006	-4.205632e+001	-8.354785e+001	-3.068918e+001	-2.063536e+001	-1.040896e+002	-3.393342e+001	-4.598473e+001	4.204352e+001
9.990319e+006	-4.204529e+001	-8.356705e+001	-3.069100e+001	-2.065402e+001	-9.135809e+001	9.447080e+001	-4.602875e+001	4.216925e+001
9.990323e+006	-4.204795e+001	-8.386744e+001	-3.068954e+001	-2.062115e+001	-9.198594e+001	1.114720e+002	-4.597003e+001	4.204456e+001
9.990328e+006	-4.202360e+001	-8.366000e+001	-3.069595e+001	-2.073363e+001	-8.824572e+001	1.346905e+002	-4.600580e+001	4.185646e+001
9.990333e+006	-4.207105e+001	-8.344202e+001	-3.069364e+001	-2.065994e+001	-9.333207e+001	9.210868e+001	-4.602055e+001	4.206749e+001
9.990338e+006	-4.204101e+001	-8.382573e+001	-3.068927e+001	-2.070029e+001	-9.284102e+001	9.411981e+001	-4.598847e+001	4.195609e+001
9.990342e+006	-4.207716e+001	-8.361449e+001	-3.069545e+001	-2.060848e+001	-8.851211e+001	8.663312e+001	-4.606657e+001	4.204460e+001
9.990347e+006	-4.204216e+001	-8.372127e+001	-3.069731e+001	-2.063006e+001	-9.342870e+001	7.985111e+001	-4.600112e+001	4.217193e+001
9.990352e+006	-4.204049e+001	-8.371727e+001	-3.068715e+001	-2.070486e+001	-9.495836e+001	1.208975e+002	-4.599195e+001	4.227908e+001
9.990356e+006	-4.200195e+001	-8.377250e+001	-3.069413e+001	-2.069487e+001	-8.768294e+001	1.204382e+002	-4.599028e+001	4.216151e+001
9.990361e+006	-4.202400e+001	-8.355025e+001	-3.068929e+001	-2.058308e+001	-9.770166e+001	6.921274e+001	-4.599080e+001	4.212710e+001
9.990366e+006	-4.206010e+001	-8.368288e+001	-3.068875e+001	-2.064292e+001	-9.670968e+001	1.256046e+002	-4.599125e+001	4.196647e+001
9.990370e+006	-4.203552e+001	-8.361028e+001	-3.069828e+001	-2.073036e+001	-9.117284e+001	1.513449e+002	-4.598735e+001	4.203222e+001
9.990375e+006	-4.202608e+001	-8.341189e+001	-3.068551e+001	-2.065331e+001	-1.044962e+002	7.806490e+001	-4.596698e+001	4.185351e+001
9.990380e+006	-4.204632e+001	-8.361229e+001	-3.069707e+001	-2.065349e+001	-9.754910e+001	1.201949e+002	-4.602680e+001	4.174876e+001
9.990384e+006	-4.204156e+001	-8.351679e+001	-3.070152e+001	-2.071701e+001	-9.032785e+001	1.453999e+002	-4.596644e+001	4.178841e+001
9.990389e+006	-4.205852e+001	-8.388492e+001	-3.068795e+001	-2.067491e+001	-9.614808e+001	1.150580e+002	-4.602561e+001	4.221247e+001
9.990394e+006	-4.205577e+001	-8.356342e+001	-3.069360e+001	-2.068196e+001	-9.414071e+001	4.057363e+001	-4.595774e+001	4.176996e+001
9.990398e+006	-4.207269e+001	-8.346049e+001	-3.069032e+001	-2.066966e+001	-9.971544e+001	6.048291e+001	-4.601911e+001	4.200392e+001
9.990403e+006	-4.206801e+001	-8.368841e+001	-3.069587e+001	-2.067015e+001	-8.963794e+001	7.057455e+001	-4.595943e+001	4.189118e+001
9.990408e+006	-4.206726e+001	-8.379779e+001	-3.069098e+001	-2.071381e+001	-9.497813e+001	-6.671520e+001	-4.603115e+001	4.196404e+001
9.990413e+006	-4.204088e+001	-8.385405e+001	-3.069296e+001	-2.065358e+001	-9.336137e+001	1.353668e+002	-4.600545e+001	4.240070e+001
9.990417e+006	-4.208125e+001	-8.332836e+001	-3.069833e+001	-2.068316e+001	-9.549269e+001	8.309596e+001	-4.598325e+001	4.186735e+001
9.990422e+006	-4.202743e+001	-8.347744e+001	-3.068800e+001	-2.065459e+001	-8.872183e+001	1.081527e+001	-4.599140e+001	4.214312e+001
9.990427e+006	-4.208523e+001	-8.365224e+001	-3.069263e+001	-2.062701e+001	-9.065549e+001	1.082137e+002	-4.599009e+001	4.179880e+001
9.990431e+006	-4.207329e+001	-8.375826e+001	-3.069333e+001	-2.069860e+001	-9.747578e+001	1.264419e+002	-4.598231e+001	4.181518e+001
9.990436e+006	-4.206233e+001	-8.363885e+001	-3.070140e+001	-2.071868e+001	-9.439132e+001	6.304280e+001	-4.591507e+001	4.217596e+001
9.990441e+006	-4.204051e+001	-8.357336e+001	-3.068391e+001	-2.072941e+001	-1.015168e+002	-1.518405e+002	-4.597519e+001	4.186322e+001
9.990445e+006	-4.204414e+001	-8.370841e+001	-3.069838e+001	-2.066343e+001	-9.224770e+001	1.527953e+002	-4.593802e+001	4.227684e+001
9.990450e+006	-4.207858e+001	-8.370313e+001	-3.070330e+001	-2.063814e+001	-9.040596e+001	-1.679111e+002	-4.603261e+001	4.207254e+001
9.990455e+006	-4.204217e+001	-8.380463e+001	-3.069714e+001	-2.061719e+001	-9.021888e+001	-4.539101e+001	-4.594920e+001	4.212481e+001
9.990459e+006	-4.205586e+001	-8.371067e+001	-3.069622e+001	-2.064513e+001	-9.369953e+001	1.050245e+002	-4.599367e+001	4.164340e+001
9.990464e+006	-4.203698e+001	-8.347955e+001	-3.069510e+001	-2.062126e+001	-1.008454e+002	-7.109758e+001	-4.601767e+001	4.220751e+001
9.990469e+006	-4.203418e+001	-8.369405e+001	-3.068149e+001	-2.063526e+001	-9.092580e+001	1.768003e+002	-4.601393e+001	4.185074e+001
9.990473e+006	-4.203877e+001	-8.354528e+001	-3.068881e+001	-2.066808e+001	-9.507204e+001	-1.580304e+002	-4.602981e+001	4.193525e+001
9.990478e+006	-4.202211e+001	-8.361422e+001	-3.069665e+001	-2.062492e+001	-9.741971e+001	5.588409e+001	-4.601181e+001	4.221254e+001
9.990483e+006	-4.206327e+001	-8.362457e+001	-3.068560e+001	-2.069572e+001	-1.035300e+002	-4.792252e+001	-4.601860e+001	4.203386e+001
9.990488e+006	-4.208069e+001	-8.376738e+001	-3.069501e+001	-2.063947e+001	-8.844918e+001	1.429893e+002	-4.601624e+001	4.209627e+001
9.990492e+006	-4.204248e+001	-8.366604e+001	-3.068856e+001	-2.066161e+001	-9.023407e+001	8.483124e+001	-4.598802e+001	4.205499e+001
9.990497e+006	-4.205979e+001	-8.365201e+001	-3.068796e+001	-2.063615e+001	-9.388328e+001	5.835624e+001	-4.603208e+001	4.224386e+001
9.990502e+006	-4.203836e+001	-8.359698e+001	-3.068221e+001	-2.070504e+001	-9.485253e+001	9.985910e+001	-4.604832e+001	4.192994e+001
9.990506e+006	-4.208906e+001	-8.347103e+001	-3.068897e+001	-2.061812e+001	-9.330493e+001	9.347807e+001	-4.599553e+001	4.231445e+001
9.990511e+006	-4.203813e+001	-8.355677e+001	-3.068909e+001	-2.067197e+001	-9.051499e+001	1.446875e+002	-4.593213e+001	4.249890e+001
9.990516e+006	-4.203862e+001	-8.365215e+001	-3.067976e+001	-2.062951e+001	-8.937748e+001	1.287704e+002	-4.596811e+001	4.196943e+001
9.990520e+006	-4.207242e+001	-8.357770e+001	-3.069093e+001	-2.070000e+001	-1.025642e+002	1.059881e+002	-4.599326e+001	4.209911e+001
9.990525e+006	-4.205063e+001	-8.351920e+001	-3.068667e+001	-2.068600e+001	-8.900673e+001	-1.934085e+001	-4.604444e+001	4.214546e+001
9.990530e+006	-4.205357e+001	-8.358530e+001	-3.069202e+001	-2.065927e+001	-9.687496e+001	6.324600e+001	-4.599141e+001	4.193250e+001
9.990534e+006	-4.204030e+001	-8.356224e+001	-3.069782e+001	-2.065251e+001	-8.876902e+001	1.233387e+002	-4.602152e+001	4.216871e+001
9.990539e+006	-4.207970e+001	-8.358952e+001	-3.069475e+001	-2.071823e+001	-9.819615e+001	1.337682e+002	-4.595339e+001	4.197265e+001
9.990544e+006	-4.201753e+001	-8.362150e+001	-3.068702e+001	-2.066780e+001	-9.542151e+001	1.701848e+001	-4.600579e+001	4.228965e+001
9.990548e+006	-4.204440e+001	-8.359586e+001	-3.069242e+001	-2.074394e+001	-9.826640e+001	1.260365e+002	-4.602712e+001	4.208939e+001
9.990553e+006	-4.204596e+001	-8.371463e+001	-3.068975e+001	-2.062577e+001	-9.684747e+001	1.412866e+001	-4.602624e+001	4.165538e+001
9.990558e+006	-4.204175e+001	-8.353952e+001	-3.069885e+001	-2.068290e+001	-9.444366e+001	9.634463e+001	-4.599964e+001	4.216242e+001
9.990563e+006	-4.205962e+001	-8.358163e+001	-3.068647e+001	-2.063963e+001	-1.024823e+002	-2.203853e+001	-4.596960e+001	4.216505e+001
9.990567e+006	-4.206320e+001	-8.349530e+001	-3.068855e+001	-2.072486e+001	-8.655225e+001	1.613603e+002	-4.590772e+001	4.220759e+001
9.990572e+006	-4.204567e+001	-8.372731e+001	-3.067178e+001	-2.073781e+001	-9.071216e+001	1.073750e+002	-4.604277e+001	4.155470e+001
9.990577e+006	-4.206612e+001	-8.344861e+001	-3.070275e+001	-2.067190e+001	-1.020705e+002	-1.757123e+002	-4.603878e+001	4.194375e+001
9.990581e+006	-4.205083e+001	-8.350739e+001	-3.068614e+001	-2.063635e+001	-9.732133e+001	1.734412e+002	-4.599494e+001	4.244762e+001
9.990586e+006	-4.204354e+001	-8.337084e+001	-3.069192e+001	-2.065217e+001	-9.768508e+001	9.620077e+001	-4.602010e+001	4.216597e+001
9.990591e+006	-4.205607e+001	-8.368274e+001	-3.068531e+001	-2.074203e+001	-9.815351e+001	1.389699e+002	-4.596193e+001	4.229086e+001
9.990595e+006	-4.206261e+001	-8.382062e+001	-3.068634e+001	-2.065079e+001	-8.922884e+001	9.325864e+001	-4.592240e+001	4.209146e+001
9.990600e+006	-4.203372e+001	-8.348324e+001	-3.069413e+001	-2.062787e+001	-8.710414e+001	2.632551e+001	-4.598697e+001	4.229298e+001
9.990605e+006	-4.205420e+001	-8.348122e+001	-3.069143e+001	-2.070257e+001	-9.650535e+001	-6.723346e+001	-4.597031e+001	4.212632e+001
9.990609e+006	-4.207891e+001	-8.355211e+001	-3.067715e+001	-2.078010e+001	-1.042076e+002	1.791121e+002	-4.601883e+001	4.241759e+001
9.990614e+006	-4.204303e+001	-8.352751e+001	-3.068409e+001	-2.057756e+001	-9.171838e+001	-1.077751e+002	-4.596856e+001	4.228901e+001
9.990619e+006	-4.208211e+001	-8.369405e+001	-3.069966e+001	-2.065254e+001	-8.633318e+001	8.724934e+001	-4.603871e+001	4.193496e+001
9.990623e+006	-4.206089e+001	-8.375131e+001	-3.067796e+001	-2.064925e+001	-9.310229e+001	5.580793e+001	-4.596233e+001	4.199340e+001
9.990628e+006	-4.201622e+001	-8.361219e+001	-3.069542e+001	-2.055905e+001	-9.239903e+001	6.730429e+001	-4.599642e+001	4.193015e+001
9.990633e+006	-4.207287e+001	-8.351936e+001	-3.069941e+001	-2.071229e+001	-9.322279e+001	8.051536e+001	-4.598215e+001	4.214590e+001
9.990638e+006	-4.205879e+001	-8.356395e+001	-3.068402e+001	-2.065524e+001	-1.023559e+002	1.348683e+001	-4.600047e+001	4.213496e+001
9.990642e+006	-4.207940e+001	-8.383231e+001	-3.069626e+001	-2.066430e+001	-8.775079e+001	1.025745e+002	-4.598525e+001	4.221572e+001
9.990647e+006	-4.205190e+001	-8.387000e+001	-3.068148e+001	-2.072075e+001	-9.673942e+001	-1.257802e+001	-4.599950e+001	4.200463e+001
9.990652e+006	-4.206133e+001	-8.370014e+001	-3.067835e+001	-2.061805e+001	-1.008174e+002	1.520801e+002	-4.600098e+001	4.197016e+001
9.990656e+006	-4.206237e+001	-8.348062e+001	-3.069798e+001	-2.066136e+001	-9.681347e+001	9.022621e+001	-4.599310e+001	4.212982e+001
9.990661e+006	-4.204454e+001	-8.344202e+001	-3.069036e+001	-2.060936e+001	-9.197691e+001	9.754521e+001	-4.599298e+001	4.189327e+001
9.990666e+006	-4.205381e+001	-8.372494e+001	-3.069755e+001	-2.073324e+001	-9.321874e+001	7.186511e+001	-4.596964e+001	4.195292e+001
9.990670e+006	-4.203512e+001	-8.380490e+001	-3.068991e+001	-2.068281e+001	-8.944981e+001	8.521687e+001	-4.593751e+001	4.204736e+001
9.990675e+006	-4.209250e+001	-8.356410e+001	-3.067959e+001	-2.059650e+001	-9.814812e+001	1.344383e+002	-4.594428e+001	4.231518e+001
9.990680e+006	-4.206745e+001	-8.360781e+001	-3.070363e+001	-2.067619e+001	-8.683247e+001	1.240697e+002	-4.598916e+001	4.173504e+001
9.990684e+006	-4.203034e+001	-8.350836e+001	-3.068157e+001	-2.065964e+001	-8.833815e+001	1.470500e+002	-4.597770e+001	4.228365e+001
9.990689e+006	-4.205779e+001	-8.346508e+001	-3.069741e+001	-2.059464e+001	-1.005554e+002	1.591239e+002	-4.595056e+001	4.217790e+001
