# Hz S dB R 50.000
3.628594e+06	-4.347634e+01	-9.799642e+01	-3.082415e+01	-6.891393e+00	-8.774436e+01	1.333595e+02	-5.627726e+01	9.784897e+01
3.628625e+06	-4.347944e+01	-9.792603e+01	-3.082343e+01	-6.891274e+00	-9.163093e+01	1.313170e+02	-5.623684e+01	9.790709e+01
3.628656e+06	-4.348253e+01	-9.785559e+01	-3.082272e+01	-6.891154e+00	-9.875775e+01	1.240408e+02	-5.619660e+01	9.796468e+01
3.628688e+06	-4.348561e+01	-9.778510e+01	-3.082200e+01	-6.891035e+00	-1.070856e+02	-7.326091e+00	-5.615654e+01	9.802174e+01
3.628719e+06	-4.348867e+01	-9.771456e+01	-3.082129e+01	-6.890915e+00	-9.460587e+01	-3.505708e+01	-5.611665e+01	9.807827e+01
3.628750e+06	-4.349169e+01	-9.764539e+01	-3.082056e+01	-6.890872e+00	-8.958102e+01	-3.859953e+01	-5.607730e+01	9.813222e+01
3.628782e+06	-4.349006e+01	-9.775309e+01	-3.081810e+01	-6.900202e+00	-9.184147e+01	-4.213197e+01	-5.608356e+01	9.792951e+01
3.628813e+06	-4.348840e+01	-9.786075e+01	-3.081563e+01	-6.909526e+00	-9.481956e+01	-4.859818e+01	-5.608971e+01	9.772652e+01
3.628844e+06	-4.348671e+01	-9.796836e+01	-3.081317e+01	-6.918846e+00	-9.896316e+01	-6.341180e+01	-5.609576e+01	9.752324e+01
3.628875e+06	-4.348499e+01	-9.807594e+01	-3.081070e+01	-6.928160e+00	-1.033367e+02	-1.063825e+02	-5.610170e+01	9.731967e+01
3.628906e+06	-4.348343e+01	-9.818122e+01	-3.080831e+01	-6.937264e+00	-1.006556e+02	-1.610780e+02	-5.610825e+01	9.711876e+01
3.628938e+06	-4.349351e+01	-9.814833e+01	-3.081049e+01	-6.933789e+00	-1.012228e+02	-1.770612e+02	-5.615815e+01	9.709756e+01
3.628969e+06	-4.350360e+01	-9.811536e+01	-3.081266e+01	-6.930311e+00	-1.010749e+02	1.661423e+02	-5.620833e+01	9.707611e+01
3.629000e+06	-4.351370e+01	-9.808232e+01	-3.081483e+01	-6.926832e+00	-1.002765e+02	1.511231e+02	-5.625881e+01	9.705441e+01
3.629032e+06	-4.352381e+01	-9.804920e+01	-3.081700e+01	-6.923351e+00	-9.911038e+01	1.391947e+02	-5.630958e+01	9.703246e+01
3.629063e+06	-4.353393e+01	-9.801600e+01	-3.081917e+01	-6.919868e+00	-9.783103e+01	1.302216e+02	-5.636065e+01	9.701025e+01
3.629094e+06	-4.352871e+01	-9.803300e+01	-3.082047e+01	-6.922192e+00	-1.001109e+02	1.044024e+02	-5.633527e+01	9.706673e+01
3.629125e+06	-4.352336e+01	-9.805039e+01	-3.082176e+01	-6.924564e+00	-1.000769e+02	6.979176e+01	-5.630934e+01	9.712351e+01
3.629156e+06	-4.351802e+01	-9.806776e+01	-3.082305e+01	-6.926936e+00	-9.773942e+01	4.417893e+01	-5.628348e+01	9.717996e+01
3.629188e+06	-4.351268e+01	-9.808510e+01	-3.082434e+01	-6.929309e+00	-9.511998e+01	3.003828e+01	-5.625769e+01	9.723606e+01
3.629219e+06	-4.350734e+01	-9.810243e+01	-3.082563e+01	-6.931683e+00	-9.287174e+01	2.201990e+01	-5.623197e+01	9.729184e+01
3.629250e+06	-4.350190e+01	-9.804961e+01	-3.082539e+01	-6.927705e+00	-9.562518e+01	3.701717e+01	-5.623268e+01	9.750386e+01
3.629282e+06	-4.349645e+01	-9.799686e+01	-3.082515e+01	-6.923727e+00	-9.798947e+01	6.482130e+01	-5.623328e+01	9.771590e+01
3.629313e+06	-4.349099e+01	-9.794417e+01	-3.082491e+01	-6.919749e+00	-9.766141e+01	1.009556e+02	-5.623376e+01	9.792798e+01
3.629344e+06	-4.348554e+01	-9.789155e+01	-3.082468e+01	-6.915772e+00	-9.506920e+01	1.258731e+02	-5.623411e+01	9.814007e+01
3.629375e+06	-4.348018e+01	-9.783953e+01	-3.082444e+01	-6.911815e+00	-9.241064e+01	1.389942e+02	-5.623423e+01	9.834798e+01
3.629406e+06	-4.348728e+01	-9.785271e+01	-3.082467e+01	-6.910404e+00	-9.427688e+01	1.302150e+02	-5.621902e+01	9.803637e+01
3.629438e+06	-4.349439e+01	-9.786592e+01	-3.082489e+01	-6.908993e+00	-9.624112e+01	1.164925e+02	-5.620359e+01	9.772586e+01
3.629469e+06	-4.350151e+01	-9.787915e+01	-3.082511e+01	-6.907582e+00	-9.778993e+01	9.567023e+01	-5.618793e+01	9.741646e+01
3.629500e+06	-4.350863e+01	-9.789240e+01	-3.082534e+01	-6.906171e+00	-9.796745e+01	6.997199e+01	-5.617205e+01	9.710818e+01
3.629532e+06	-4.351559e+01	-9.790556e+01	-3.082553e+01	-6.904864e+00	-9.661298e+01	4.814719e+01	-5.615668e+01	9.680711e+01
3.629563e+06	-4.351220e+01	-9.791194e+01	-3.082358e+01	-6.909985e+00	-9.441893e+01	5.564689e+01	-5.618655e+01	9.688071e+01
3.629594e+06	-4.350882e+01	-9.791831e+01	-3.082163e+01	-6.915104e+00	-9.259236e+01	6.035951e+01	-5.621651e+01	9.695481e+01
3.629625e+06	-4.350544e+01	-9.792467e+01	-3.081968e+01	-6.920220e+00	-9.105047e+01	6.355527e+01	-5.624655e+01	9.702943e+01
3.629656e+06	-4.350206e+01	-9.793103e+01	-3.081773e+01	-6.925334e+00	-8.972476e+01	6.585187e+01	-5.627669e+01	9.710457e+01
3.629688e+06	-4.349868e+01	-9.793739e+01	-3.081579e+01	-6.930446e+00	-8.856567e+01	6.757689e+01	-5.630692e+01	9.718023e+01
3.629719e+06	-4.349962e+01	-9.788115e+01	-3.081621e+01	-6.935110e+00	-9.005173e+01	7.241765e+01	-5.629447e+01	9.689025e+01
3.629750e+06	-4.350059e+01	-9.782439e+01	-3.081666e+01	-6.939770e+00	-9.176319e+01	7.946803e+01	-5.628147e+01	9.659818e+01
3.629782e+06	-4.350155e+01	-9.776761e+01	-3.081710e+01	-6.944431e+00	-9.364287e+01	9.016346e+01	-5.626826e+01	9.630699e+01
3.629813e+06	-4.350250e+01	-9.771083e+01	-3.081755e+01	-6.949093e+00	-9.543797e+01	1.066224e+02	-5.625485e+01	9.601670e+01
3.629844e+06	-4.350344e+01	-9.765403e+01	-3.081799e+01	-6.953755e+00	-9.643380e+01	1.296200e+02	-5.624124e+01	9.572730e+01
3.629875e+06	-4.350707e+01	-9.771228e+01	-3.081761e+01	-6.948727e+00	-1.012319e+02	1.104459e+02	-5.626693e+01	9.577649e+01
3.629906e+06	-4.351070e+01	-9.777058e+01	-3.081723e+01	-6.943700e+00	-1.046567e+02	5.261871e+01	-5.629268e+01	9.582596e+01
3.629938e+06	-4.351432e+01	-9.782893e+01	-3.081685e+01	-6.938673e+00	-9.982660e+01	6.563734e+00	-5.631851e+01	9.587574e+01
3.629969e+06	-4.351793e+01	-9.788733e+01	-3.081648e+01	-6.933647e+00	-9.545382e+01	-7.888385e+00	-5.634440e+01	9.592580e+01
3.630000e+06	-4.352146e+01	-9.794592e+01	-3.081611e+01	-6.928575e+00	-9.241942e+01	-1.398411e+01	-5.637000e+01	9.597918e+01
3.630032e+06	-4.351563e+01	-9.802253e+01	-3.081710e+01	-6.917874e+00	-9.328057e+01	-1.997117e+01	-5.634970e+01	9.640383e+01
3.630063e+06	-4.350978e+01	-9.809904e+01	-3.081810e+01	-6.907170e+00	-9.410811e+01	-2.724940e+01	-5.632897e+01	9.682649e+01
3.630094e+06	-4.350392e+01	-9.817544e+01	-3.081909e+01	-6.896463e+00	-9.483687e+01	-3.596603e+01	-5.630782e+01	9.724711e+01
3.630125e+06	-4.349805e+01	-9.825174e+01	-3.082008e+01	-6.885754e+00	-9.537794e+01	-4.606823e+01	-5.628625e+01	9.766567e+01
3.630156e+06	-4.349223e+01	-9.832574e+01	-3.082105e+01	-6.875276e+00	-9.565541e+01	-5.689282e+01	-5.626503e+01	9.807422e+01
3.630188e+06	-4.349044e+01	-9.826439e+01	-3.082036e+01	-6.879150e+00	-9.678776e+01	-5.077863e+01	-5.628968e+01	9.799451e+01
3.630219e+06	-4.348863e+01	-9.820307e+01	-3.081968e+01	-6.883023e+00	-9.794082e+01	-4.281366e+01	-5.631439e+01	9.791435e+01
3.630250e+06	-4.348681e+01	-9.814177e+01	-3.081899e+01	-6.886896e+00	-9.901826e+01	-3.249412e+01	-5.633915e+01	9.783373e+01
3.630282e+06	-4.348499e+01	-9.808050e+01	-3.081831e+01	-6.890768e+00	-9.984553e+01	-1.960526e+01	-5.636396e+01	9.775265e+01
3.630313e+06	-4.348315e+01	-9.801925e+01	-3.081763e+01	-6.894640e+00	-1.002030e+02	-4.792650e+00	-5.638882e+01	9.767110e+01
3.630344e+06	-4.347938e+01	-9.799268e+01	-3.081988e+01	-6.910754e+00	-9.848812e+01	-3.114072e+01	-5.635737e+01	9.748548e+01
3.630375e+06	-4.347558e+01	-9.796641e+01	-3.082215e+01	-6.926976e+00	-9.607687e+01	-4.736528e+01	-5.632548e+01	9.730038e+01
3.630406e+06	-4.347179e+01	-9.794017e+01	-3.082442e+01	-6.943206e+00	-9.386467e+01	-5.680912e+01	-5.629363e+01	9.711663e+01
3.630438e+06	-4.346799e+01	-9.791395e+01	-3.082670e+01	-6.959444e+00	-9.198308e+01	-6.268744e+01	-5.626180e+01	9.693422e+01
3.630469e+06	-4.346420e+01	-9.788775e+01	-3.082897e+01	-6.975691e+00	-9.038618e+01	-6.662211e+01	-5.623000e+01	9.675315e+01
3.630500e+06	-4.347046e+01	-9.790310e+01	-3.082747e+01	-6.948575e+00	-9.146433e+01	-5.043546e+01	-5.624818e+01	9.690566e+01
3.630532e+06	-4.347673e+01	-9.791848e+01	-3.082597e+01	-6.921468e+00	-9.176705e+01	-3.136065e+01	-5.626634e+01	9.705881e+01
3.630563e+06	-4.348300e+01	-9.793388e+01	-3.082446e+01	-6.894371e+00	-9.113092e+01	-1.303026e+01	-5.628448e+01	9.721260e+01
3.630594e+06	-4.348927e+01	-9.794930e+01	-3.082296e+01	-6.867283e+00	-8.987658e+01	1.623846e+00	-5.630259e+01	9.736703e+01
3.630625e+06	-4.349550e+01	-9.796463e+01	-3.082144e+01	-6.840522e+00	-8.844684e+01	1.222222e+01	-5.632078e+01	9.752030e+01
3.630656e+06	-4.349559e+01	-9.796553e+01	-3.081902e+01	-6.853161e+00	-9.116582e+01	1.294436e+01	-5.635249e+01	9.744879e+01
3.630688e+06	-4.349567e+01	-9.796644e+01	-3.081660e+01	-6.865793e+00	-9.514084e+01	1.450523e+01	-5.638431e+01	9.737676e+01
3.630719e+06	-4.349576e+01	-9.796734e+01	-3.081419e+01	-6.878417e+00	-1.026254e+02	2.035377e+01	-5.641622e+01	9.730420e+01
3.630750e+06	-4.349585e+01	-9.796825e+01	-3.081177e+01	-6.891035e+00	-1.099748e+02	1.661477e+02	-5.644824e+01	9.723111e+01
3.630782e+06	-4.349593e+01	-9.796886e+01	-3.080943e+01	-6.903375e+00	-9.777953e+01	-1.755328e+02	-5.647920e+01	9.715488e+01
3.630813e+06	-4.349566e+01	-9.795135e+01	-3.081209e+01	-6.899075e+00	-1.004785e+02	1.794744e+02	-5.643845e+01	9.692064e+01
3.630844e+06	-4.349540e+01	-9.793385e+01	-3.081476e+01	-6.894773e+00	-1.041980e+02	1.689752e+02	-5.639775e+01	9.668858e+01
3.630875e+06	-4.349513e+01	-9.791634e+01	-3.081742e+01	-6.890468e+00	-1.091543e+02	1.393217e+02	-5.635709e+01	9.645868e+01
3.630906e+06	-4.349487e+01	-9.789884e+01	-3.082008e+01	-6.886160e+00	-1.092416e+02	7.716440e+01	-5.631649e+01	9.623092e+01
3.630938e+06	-4.349460e+01	-9.788134e+01	-3.082275e+01	-6.881849e+00	-1.042816e+02	4.686063e+01	-5.627594e+01	9.600529e+01
3.630969e+06	-4.349606e+01	-9.785521e+01	-3.082242e+01	-6.872652e+00	-1.031874e+02	3.473184e+01	-5.629586e+01	9.648978e+01
3.631000e+06	-4.349753e+01	-9.782900e+01	-3.082207e+01	-6.863416e+00	-1.019716e+02	2.545031e+01	-5.631568e+01	9.698225e+01
3.631032e+06	-4.349900e+01	-9.780278e+01	-3.082172e+01	-6.854181e+00	-1.007533e+02	1.845031e+01	-5.633489e+01	9.747695e+01
3.631063e+06	-4.350046e+01	-9.777656e+01	-3.082137e+01	-6.844947e+00	-9.959799e+01	1.312972e+01	-5.635349e+01	9.797380e+01
3.631094e+06	-4.350193e+01	-9.775032e+01	-3.082102e+01	-6.835713e+00	-9.852692e+01	9.014550e+00	-5.637148e+01	9.847275e+01
3.631125e+06	-4.349880e+01	-9.777952e+01	-3.082035e+01	-6.845592e+00	-9.734898e+01	2.085448e+01	-5.630443e+01	9.830805e+01
3.631156e+06	-4.349566e+01	-9.780870e+01	-3.081968e+01	-6.855470e+00	-9.606487e+01	2.974434e+01	-5.623782e+01	9.814587e+01
3.631188e+06	-4.349252e+01	-9.783785e+01	-3.081901e+01	-6.865347e+00	-9.480942e+01	3.636866e+01	-5.617164e+01	9.798615e+01
3.631219e+06	-4.348938e+01	-9.786699e+01	-3.081834e+01	-6.875222e+00	-9.363546e+01	4.137194e+01	-5.610591e+01	9.782884e+01
3.631250e+06	-4.348632e+01	-9.789625e+01	-3.081767e+01	-6.884973e+00	-9.259262e+01	4.510586e+01	-5.604139e+01	9.767581e+01
3.631282e+06	-4.349232e+01	-9.794377e+01	-3.081759e+01	-6.879651e+00	-9.661254e+01	2.542922e+01	-5.607466e+01	9.776400e+01
3.631313e+06	-4.349832e+01	-9.799136e+01	-3.081752e+01	-6.874329e+00	-9.928589e+01	-2.126032e+01	-5.610804e+01	9.785287e+01
3.631344e+06	-4.350432e+01	-9.803902e+01	-3.081744e+01	-6.869007e+00	-9.602660e+01	-6.411806e+01	-5.614153e+01	9.794243e+01
3.631375e+06	-4.351031e+01	-9.808674e+01	-3.081737e+01	-6.863685e+00	-9.212190e+01	-8.146415e+01	-5.617513e+01	9.803268e+01
3.631406e+06	-4.351614e+01	-9.813369e+01	-3.081725e+01	-6.858517e+00	-8.922995e+01	-8.892224e+01	-5.620834e+01	9.812176e+01
3.631438e+06	-4.351172e+01	-9.812907e+01	-3.081472e+01	-6.862805e+00	-8.983840e+01	-7.270753e+01	-5.621103e+01	9.809619e+01
3.631469e+06	-4.350731e+01	-9.812446e+01	-3.081219e+01	-6.867091e+00	-8.970667e+01	-5.555047e+01	-5.621371e+01	9.807061e+01
3.631500e+06	-4.350289e+01	-9.811986e+01	-3.080966e+01	-6.871374e+00	-8.889445e+01	-4.020647e+01	-5.621640e+01	9.804501e+01
3.631532e+06	-4.349848e+01	-9.811526e+01	-3.080714e+01	-6.875655e+00	-8.770068e+01	-2.808146e+01	-5.621908e+01	9.801940e+01
3.631563e+06	-4.349408e+01	-9.811067e+01	-3.080461e+01	-6.879934e+00	-8.639385e+01	-1.901958e+01	-5.622176e+01	9.799377e+01
3.631594e+06	-4.349407e+01	-9.806825e+01	-3.080632e+01	-6.863816e+00	-8.861883e+01	-1.751921e+01	-5.626451e+01	9.798008e+01
3.631625e+06	-4.349409e+01	-9.802553e+01	-3.080806e+01	-6.847528e+00	-9.165149e+01	-1.485930e+01	-5.630779e+01	9.796636e+01
3.631656e+06	-4.349411e+01	-9.798281e+01	-3.080980e+01	-6.831233e+00	-9.627333e+01	-8.427281e+00	-5.635129e+01	9.795250e+01
3.631688e+06	-4.349412e+01	-9.794009e+01	-3.081154e+01	-6.814932e+00	-1.050886e+02	2.332331e+01	-5.639501e+01	9.793850e+01
3.631719e+06	-4.349413e+01	-9.789737e+01	-3.081328e+01	-6.798624e+00	-1.016098e+02	1.267342e+02	-5.643895e+01	9.792436e+01
3.631750e+06	-4.350556e+01	-9.792128e+01	-3.081417e+01	-6.812672e+00	-9.938239e+01	1.695086e+02	-5.639079e+01	9.804578e+01
3.631782e+06	-4.351700e+01	-9.794525e+01	-3.081506e+01	-6.826722e+00	-9.571484e+01	-1.703399e+02	-5.634286e+01	9.816587e+01
3.631813e+06	-4.352845e+01	-9.796928e+01	-3.081596e+01	-6.840775e+00	-9.277458e+01	-1.610755e+02	-5.629515e+01	9.828464e+01
3.631844e+06	-4.353992e+01	-9.799338e+01	-3.081685e+01	-6.854831e+00	-9.048545e+01	-1.560170e+02	-5.624767e+01	9.840212e+01
3.631875e+06	-4.355123e+01	-9.801720e+01	-3.081772e+01	-6.868772e+00	-8.865478e+01	-1.529064e+02	-5.620091e+01	9.851863e+01
3.631906e+06	-4.354079e+01	-9.799798e+01	-3.081625e+01	-6.867966e+00	-8.865362e+01	-1.541230e+02	-5.621609e+01	9.867244e+01
3.631938e+06	-4.353036e+01	-9.797882e+01	-3.081478e+01	-6.867161e+00	-8.864854e+01	-1.553386e+02	-5.623123e+01	9.882678e+01
3.631969e+06	-4.351995e+01	-9.795970e+01	-3.081332e+01	-6.866357e+00	-8.863957e+01	-1.565524e+02	-5.624634e+01	9.898166e+01
3.632000e+06	-4.350955e+01	-9.794062e+01	-3.081185e+01	-6.865552e+00	-8.862673e+01	-1.577630e+02	-5.626141e+01	9.913709e+01
3.632032e+06	-4.349946e+01	-9.792190e+01	-3.081043e+01	-6.864575e+00	-8.864951e+01	-1.589847e+02	-5.627635e+01	9.928666e+01
3.632063e+06	-4.350795e+01	-9.792165e+01	-3.081185e+01	-6.852971e+00	-9.152119e+01	-1.619889e+02	-5.628593e+01	9.904346e+01
3.632094e+06	-4.351645e+01	-9.792140e+01	-3.081327e+01	-6.841363e+00	-9.575167e+01	-1.688070e+02	-5.629536e+01	9.879973e+01
3.632125e+06	-4.352495e+01	-9.792116e+01	-3.081469e+01	-6.829751e+00	-1.030849e+02	1.644832e+02	-5.630465e+01	9.855547e+01
3.632156e+06	-4.353347e+01	-9.792091e+01	-3.081611e+01	-6.818135e+00	-1.026735e+02	7.021353e+01	-5.631378e+01	9.831069e+01
3.632188e+06	-4.354199e+01	-9.792066e+01	-3.081753e+01	-6.806516e+00	-9.551876e+01	4.554717e+01	-5.632277e+01	9.806540e+01
3.632219e+06	-4.353737e+01	-9.788471e+01	-3.081697e+01	-6.823616e+00	-9.741027e+01	3.197745e+01	-5.632538e+01	9.783440e+01
3.632250e+06	-4.353265e+01	-9.784851e+01	-3.081639e+01	-6.840946e+00	-9.895912e+01	1.142737e+01	-5.632779e+01	9.760339e+01
3.632282e+06	-4.352792e+01	-9.781235e+01	-3.081581e+01	-6.858273e+00	-9.917312e+01	-1.404106e+01	-5.633007e+01	9.737225e+01
3.632313e+06	-4.352320e+01	-9.777623e+01	-3.081523e+01	-6.875597e+00	-9.787255e+01	-3.634064e+01	-5.633221e+01	9.714099e+01
3.632344e+06	-4.351847e+01	-9.774015e+01	-3.081465e+01	-6.892920e+00	-9.595521e+01	-5.152786e+01	-5.633420e+01	9.690962e+01
3.632375e+06	-4.351501e+01	-9.777257e+01	-3.081398e+01	-6.893486e+00	-9.576738e+01	-3.022990e+01	-5.631596e+01	9.712487e+01
3.632406e+06	-4.351154e+01	-9.780497e+01	-3.081330e+01	-6.894051e+00	-9.459273e+01	-1.214130e+01	-5.629764e+01	9.733921e+01
3.632438e+06	-4.350807e+01	-9.783734e+01	-3.081263e+01	-6.894617e+00	-9.300409e+01	9.133784e-01	-5.627923e+01	9.755265e+01
3.632469e+06	-4.350460e+01	-9.786969e+01	-3.081196e+01	-6.895182e+00	-9.139540e+01	9.906706e+00	-5.626075e+01	9.776519e+01
3.632500e+06	-4.350120e+01	-9.790156e+01	-3.081129e+01	-6.895689e+00	-8.993308e+01	1.612040e+01	-5.624246e+01	9.797405e+01
3.632532e+06	-4.350590e+01	-9.787812e+01	-3.081074e+01	-6.888972e+00	-9.142447e+01	1.174721e+01	-5.625927e+01	9.783873e+01
3.632563e+06	-4.351060e+01	-9.785464e+01	-3.081019e+01	-6.882256e+00	-9.313614e+01	5.417059e+00	-5.627606e+01	9.770290e+01
3.632594e+06	-4.351530e+01	-9.783115e+01	-3.080965e+01	-6.875541e+00	-9.506415e+01	-4.233887e+00	-5.629283e+01	9.756653e+01
3.632625e+06	-4.352001e+01	-9.780762e+01	-3.080910e+01	-6.868827e+00	-9.703381e+01	-1.945758e+01	-5.630958e+01	9.742964e+01
3.632656e+06	-4.352467e+01	-9.778498e+01	-3.080855e+01	-6.862117e+00	-9.836708e+01	-4.164065e+01	-5.632635e+01	9.729893e+01
3.632688e+06	-4.352624e+01	-9.781803e+01	-3.080780e+01	-6.855590e+00	-9.766081e+01	-3.853777e+01	-5.634478e+01	9.758117e+01
3.632719e+06	-4.352782e+01	-9.785109e+01	-3.080705e+01	-6.849065e+00	-9.698752e+01	-3.589092e+01	-5.636304e+01	9.786461e+01
3.632750e+06	-4.352939e+01	-9.788416e+01	-3.080630e+01	-6.842540e+00	-9.634786e+01	-3.361560e+01	-5.638113e+01	9.814924e+01
3.632782e+06	-4.353096e+01	-9.791724e+01	-3.080555e+01	-6.836017e+00	-9.574102e+01	-3.164460e+01	-5.639903e+01	9.843505e+01
3.632813e+06	-4.353253e+01	-9.795034e+01	-3.080481e+01	-6.829495e+00	-9.516541e+01	-2.992453e+01	-5.641676e+01	9.872203e+01
3.632844e+06	-4.353342e+01	-9.788994e+01	-3.080477e+01	-6.838848e+00	-9.780098e+01	-1.477079e+01	-5.635891e+01	9.848033e+01
3.632875e+06	-4.353430e+01	-9.782878e+01	-3.080475e+01	-6.848330e+00	-1.000011e+02	1.259592e+01	-5.630069e+01	9.823762e+01
3.632906e+06	-4.353516e+01	-9.776760e+01	-3.080472e+01	-6.857811e+00	-9.965370e+01	4.727489e+01	-5.624271e+01	9.799815e+01
3.632938e+06	-4.353602e+01	-9.770642e+01	-3.080470e+01	-6.867292e+00	-9.719197e+01	7.158999e+01	-5.618495e+01	9.776184e+01
3.632969e+06	-4.353687e+01	-9.764522e+01	-3.080467e+01	-6.876773e+00	-9.458708e+01	8.487395e+01	-5.612744e+01	9.752865e+01
3.633000e+06	-4.354136e+01	-9.769113e+01	-3.080532e+01	-6.879915e+00	-9.474871e+01	8.764402e+01	-5.614629e+01	9.765221e+01
3.633032e+06	-4.354584e+01	-9.773709e+01	-3.080598e+01	-6.883058e+00	-9.489197e+01	9.051313e+01	-5.616515e+01	9.777632e+01
3.633063e+06	-4.355032e+01	-9.778310e+01	-3.080663e+01	-6.886201e+00	-9.501481e+01	9.347158e+01	-5.618400e+01	9.790096e+01
3.633094e+06	-4.355480e+01	-9.782916e+01	-3.080728e+01	-6.889345e+00	-9.511531e+01	9.650716e+01	-5.620286e+01	9.802614e+01
3.633125e+06	-4.355913e+01	-9.787449e+01	-3.080794e+01	-6.892456e+00	-9.519522e+01	9.966686e+01	-5.622187e+01	9.815077e+01
3.633156e+06	-4.354529e+01	-9.782433e+01	-3.080968e+01	-6.891493e+00	-9.552767e+01	1.109874e+02	-5.626055e+01	9.813935e+01
3.633188e+06	-4.353147e+01	-9.777432e+01	-3.081142e+01	-6.890529e+00	-9.550882e+01	1.227299e+02	-5.629940e+01	9.812783e+01
3.633219e+06	-4.351767e+01	-9.772448e+01	-3.081315e+01	-6.889564e+00	-9.514306e+01	1.339571e+02	-5.633843e+01	9.811620e+01
3.633250e+06	-4.350387e+01	-9.767480e+01	-3.081489e+01	-6.888600e+00	-9.450761e+01	1.439485e+02	-5.637763e+01	9.810447e+01
3.633282e+06	-4.349043e+01	-9.762646e+01	-3.081658e+01	-6.887922e+00	-9.377339e+01	1.522095e+02	-5.641581e+01	9.809242e+01
3.633313e+06	-4.349761e+01	-9.765180e+01	-3.081563e+01	-6.904914e+00	-9.787586e+01	1.448754e+02	-5.638044e+01	9.806775e+01
3.633344e+06	-4.350479e+01	-9.767717e+01	-3.081468e+01	-6.921902e+00	-1.046633e+02	1.183091e+02	-5.634521e+01	9.804328e+01
3.633375e+06	-4.351198e+01	-9.770259e+01	-3.081373e+01	-6.938886e+00	-1.048555e+02	3.100792e+01	-5.631011e+01	9.801900e+01
3.633406e+06	-4.351917e+01	-9.772805e+01	-3.081278e+01	-6.955867e+00	-9.799571e+01	3.388600e+00	-5.627516e+01	9.799492e+01
3.633438e+06	-4.352636e+01	-9.775355e+01	-3.081183e+01	-6.972844e+00	-9.385068e+01	-4.114838e+00	-5.624035e+01	9.797103e+01
3.633469e+06	-4.352250e+01	-9.779673e+01	-3.080991e+01	-6.965505e+00	-9.390719e+01	-1.173597e+01	-5.624918e+01	9.767563e+01
3.633500e+06	-4.351855e+01	-9.784002e+01	-3.080799e+01	-6.957973e+00	-9.383635e+01	-1.939256e+01	-5.625814e+01	9.737743e+01
3.633532e+06	-4.351460e+01	-9.788328e+01	-3.080607e+01	-6.950445e+00	-9.361751e+01	-2.679658e+01	-5.626687e+01	9.707861e+01
3.633563e+06	-4.351064e+01	-9.792649e+01	-3.080415e+01	-6.942920e+00	-9.327161e+01	-3.373215e+01	-5.627537e+01	9.677921e+01
3.633594e+06	-4.350668e+01	-9.796966e+01	-3.080223e+01	-6.935398e+00	-9.282727e+01	-4.006199e+01	-5.628364e+01	9.647922e+01
