# Hz S dB R 50.000
3.623906e+06	-2.650711e+01	1.752511e+02	-3.147251e+01	-5.016520e+00	-9.787472e+01	7.752938e+01	-2.648526e+01	1.699757e+02
3.623937e+06	-2.650731e+01	1.752567e+02	-3.146994e+01	-4.979513e+00	-9.322165e+01	6.038780e+01	-2.648329e+01	1.699836e+02
3.623968e+06	-2.650752e+01	1.752622e+02	-3.146738e+01	-4.942527e+00	-8.998812e+01	5.356046e+01	-2.648131e+01	1.699914e+02
3.624000e+06	-2.650772e+01	1.752678e+02	-3.146480e+01	-4.905564e+00	-8.758804e+01	4.999741e+01	-2.647934e+01	1.699993e+02
3.624031e+06	-2.650792e+01	1.752733e+02	-3.146223e+01	-4.868622e+00	-8.569310e+01	4.782523e+01	-2.647737e+01	1.700072e+02
3.624062e+06	-2.650813e+01	1.752789e+02	-3.145965e+01	-4.831703e+00	-8.413142e+01	4.636639e+01	-2.647540e+01	1.700150e+02
3.624094e+06	-2.650748e+01	1.752761e+02	-3.145890e+01	-4.815112e+00	-8.513919e+01	4.350235e+01	-2.647696e+01	1.700058e+02
3.624125e+06	-2.650681e+01	1.752731e+02	-3.145820e+01	-4.799024e+00	-8.632203e+01	3.974858e+01	-2.647861e+01	1.699962e+02
3.624156e+06	-2.650614e+01	1.752701e+02	-3.145750e+01	-4.782939e+00	-8.763357e+01	3.474329e+01	-2.648026e+01	1.699865e+02
3.624187e+06	-2.650548e+01	1.752671e+02	-3.145680e+01	-4.766856e+00	-8.907039e+01	2.786727e+01	-2.648190e+01	1.699769e+02
3.624218e+06	-2.650481e+01	1.752640e+02	-3.145609e+01	-4.750775e+00	-9.057910e+01	1.819259e+01	-2.648355e+01	1.699673e+02
3.624250e+06	-2.650533e+01	1.752619e+02	-3.145217e+01	-4.733183e+00	-9.215892e+01	2.724303e+01	-2.648288e+01	1.699802e+02
3.624281e+06	-2.650588e+01	1.752598e+02	-3.144819e+01	-4.715582e+00	-9.367973e+01	4.068132e+01	-2.648216e+01	1.699935e+02
3.624312e+06	-2.650642e+01	1.752577e+02	-3.144422e+01	-4.697997e+00	-9.473445e+01	5.889819e+01	-2.648145e+01	1.700069e+02
3.624344e+06	-2.650696e+01	1.752556e+02	-3.144024e+01	-4.680428e+00	-9.480091e+01	7.973376e+01	-2.648073e+01	1.700202e+02
3.624375e+06	-2.650751e+01	1.752535e+02	-3.143627e+01	-4.662875e+00	-9.383777e+01	9.844506e+01	-2.648002e+01	1.700335e+02
3.624406e+06	-2.650708e+01	1.752534e+02	-3.143253e+01	-4.649908e+00	-9.582882e+01	7.790547e+01	-2.647976e+01	1.700382e+02
3.624437e+06	-2.650664e+01	1.752533e+02	-3.142879e+01	-4.636989e+00	-9.641408e+01	4.926552e+01	-2.647950e+01	1.700429e+02
3.624468e+06	-2.650621e+01	1.752532e+02	-3.142506e+01	-4.624081e+00	-9.498715e+01	2.347779e+01	-2.647925e+01	1.700475e+02
3.624500e+06	-2.650577e+01	1.752531e+02	-3.142132e+01	-4.611184e+00	-9.277575e+01	6.849508e+00	-2.647899e+01	1.700522e+02
3.624531e+06	-2.650534e+01	1.752530e+02	-3.141759e+01	-4.598298e+00	-9.065457e+01	-3.157751e+00	-2.647874e+01	1.700568e+02
3.624562e+06	-2.650415e+01	1.752645e+02	-3.141130e+01	-4.588053e+00	-9.110168e+01	-1.425748e+01	-2.647765e+01	1.700491e+02
3.624594e+06	-2.650296e+01	1.752761e+02	-3.140502e+01	-4.577823e+00	-9.120752e+01	-2.609703e+01	-2.647657e+01	1.700413e+02
3.624625e+06	-2.650176e+01	1.752876e+02	-3.139874e+01	-4.567608e+00	-9.094722e+01	-3.772497e+01	-2.647548e+01	1.700336e+02
3.624656e+06	-2.650057e+01	1.752991e+02	-3.139246e+01	-4.557408e+00	-9.037975e+01	-4.828316e+01	-2.647439e+01	1.700259e+02
3.624687e+06	-2.649938e+01	1.753106e+02	-3.138619e+01	-4.547222e+00	-8.960997e+01	-5.732108e+01	-2.647331e+01	1.700182e+02
3.624718e+06	-2.649984e+01	1.753037e+02	-3.138353e+01	-4.567953e+00	-9.069968e+01	-4.657818e+01	-2.647435e+01	1.700127e+02
3.624750e+06	-2.650035e+01	1.752964e+02	-3.138096e+01	-4.589432e+00	-9.153045e+01	-3.250692e+01	-2.647544e+01	1.700072e+02
3.624781e+06	-2.650086e+01	1.752890e+02	-3.137839e+01	-4.610898e+00	-9.179268e+01	-1.650133e+01	-2.647653e+01	1.700018e+02
3.624812e+06	-2.650137e+01	1.752817e+02	-3.137582e+01	-4.632351e+00	-9.138092e+01	-7.760643e-01	-2.647763e+01	1.699963e+02
3.624844e+06	-2.650187e+01	1.752743e+02	-3.137325e+01	-4.653792e+00	-9.045539e+01	1.265947e+01	-2.647872e+01	1.699909e+02
3.624875e+06	-2.650169e+01	1.752841e+02	-3.136857e+01	-4.662507e+00	-9.123892e+01	2.665900e+01	-2.647881e+01	1.699951e+02
3.624906e+06	-2.650150e+01	1.752941e+02	-3.136385e+01	-4.671005e+00	-9.149306e+01	4.255476e+01	-2.647888e+01	1.699995e+02
3.624937e+06	-2.650131e+01	1.753041e+02	-3.135913e+01	-4.679495e+00	-9.108311e+01	5.816064e+01	-2.647894e+01	1.700040e+02
3.624968e+06	-2.650112e+01	1.753142e+02	-3.135442e+01	-4.687975e+00	-9.016648e+01	7.151162e+01	-2.647901e+01	1.700084e+02
3.625000e+06	-2.650093e+01	1.753242e+02	-3.134971e+01	-4.696446e+00	-8.900167e+01	8.198106e+01	-2.647908e+01	1.700128e+02
3.625031e+06	-2.650208e+01	1.753206e+02	-3.134786e+01	-4.733966e+00	-9.165513e+01	8.466344e+01	-2.647905e+01	1.700089e+02
3.625062e+06	-2.650324e+01	1.753168e+02	-3.134602e+01	-4.771705e+00	-9.549434e+01	9.023168e+01	-2.647902e+01	1.700050e+02
3.625094e+06	-2.650441e+01	1.753130e+02	-3.134419e+01	-4.809428e+00	-1.019406e+02	1.087188e+02	-2.647899e+01	1.700011e+02
3.625125e+06	-2.650557e+01	1.753093e+02	-3.134235e+01	-4.847134e+00	-1.054700e+02	-1.619641e+02	-2.647896e+01	1.699972e+02
3.625156e+06	-2.650673e+01	1.753055e+02	-3.134051e+01	-4.884825e+00	-9.755847e+01	-1.248246e+02	-2.647893e+01	1.699933e+02
3.625187e+06	-2.650711e+01	1.753037e+02	-3.134104e+01	-4.880860e+00	-1.028764e+02	-1.651792e+02	-2.647857e+01	1.699971e+02
3.625218e+06	-2.650749e+01	1.753018e+02	-3.134157e+01	-4.876894e+00	-1.003726e+02	1.312763e+02	-2.647822e+01	1.700008e+02
3.625250e+06	-2.650788e+01	1.753000e+02	-3.134210e+01	-4.872927e+00	-9.528585e+01	1.093371e+02	-2.647786e+01	1.700046e+02
3.625281e+06	-2.650826e+01	1.752982e+02	-3.134263e+01	-4.868961e+00	-9.177514e+01	1.013556e+02	-2.647750e+01	1.700083e+02
3.625312e+06	-2.650864e+01	1.752963e+02	-3.134316e+01	-4.864993e+00	-8.921912e+01	9.739563e+01	-2.647715e+01	1.700121e+02
3.625344e+06	-2.650831e+01	1.752889e+02	-3.134103e+01	-4.887080e+00	-8.993471e+01	9.234183e+01	-2.647672e+01	1.700222e+02
3.625375e+06	-2.650796e+01	1.752813e+02	-3.133884e+01	-4.909796e+00	-9.071033e+01	8.623824e+01	-2.647629e+01	1.700325e+02
3.625406e+06	-2.650761e+01	1.752738e+02	-3.133665e+01	-4.932501e+00	-9.143299e+01	7.897986e+01	-2.647587e+01	1.700427e+02
3.625437e+06	-2.650726e+01	1.752662e+02	-3.133446e+01	-4.955194e+00	-9.204357e+01	7.050908e+01	-2.647544e+01	1.700530e+02
3.625468e+06	-2.650691e+01	1.752586e+02	-3.133227e+01	-4.977876e+00	-9.247005e+01	6.095459e+01	-2.647501e+01	1.700632e+02
3.625500e+06	-2.650710e+01	1.752679e+02	-3.133253e+01	-4.980439e+00	-9.311147e+01	5.785589e+01	-2.647635e+01	1.700532e+02
3.625531e+06	-2.650730e+01	1.752775e+02	-3.133283e+01	-4.982676e+00	-9.378044e+01	5.438437e+01	-2.647771e+01	1.700429e+02
3.625562e+06	-2.650750e+01	1.752871e+02	-3.133313e+01	-4.984912e+00	-9.446478e+01	5.032663e+01	-2.647908e+01	1.700325e+02
3.625594e+06	-2.650771e+01	1.752966e+02	-3.133344e+01	-4.987148e+00	-9.515214e+01	4.557323e+01	-2.648045e+01	1.700221e+02
3.625625e+06	-2.650791e+01	1.753062e+02	-3.133374e+01	-4.989385e+00	-9.582247e+01	4.001327e+01	-2.648182e+01	1.700118e+02
3.625656e+06	-2.650799e+01	1.753002e+02	-3.133427e+01	-4.990816e+00	-9.427069e+01	4.176946e+01	-2.648067e+01	1.700235e+02
3.625687e+06	-2.650807e+01	1.752940e+02	-3.133481e+01	-4.992240e+00	-9.293560e+01	4.307302e+01	-2.647949e+01	1.700355e+02
3.625718e+06	-2.650815e+01	1.752878e+02	-3.133535e+01	-4.993664e+00	-9.177569e+01	4.405107e+01	-2.647832e+01	1.700474e+02
3.625750e+06	-2.650823e+01	1.752817e+02	-3.133588e+01	-4.995088e+00	-9.075083e+01	4.481161e+01	-2.647714e+01	1.700593e+02
3.625781e+06	-2.650831e+01	1.752755e+02	-3.133642e+01	-4.996513e+00	-8.983314e+01	4.541972e+01	-2.647597e+01	1.700712e+02
3.625812e+06	-2.650800e+01	1.752758e+02	-3.133627e+01	-5.015277e+00	-9.346233e+01	4.807604e+01	-2.647675e+01	1.700670e+02
3.625844e+06	-2.650768e+01	1.752762e+02	-3.133612e+01	-5.034041e+00	-9.969258e+01	5.636716e+01	-2.647752e+01	1.700628e+02
3.625875e+06	-2.650737e+01	1.752765e+02	-3.133597e+01	-5.052804e+00	-1.102455e+02	1.516745e+02	-2.647830e+01	1.700585e+02
3.625906e+06	-2.650705e+01	1.752769e+02	-3.133582e+01	-5.071566e+00	-9.804321e+01	-1.528884e+02	-2.647908e+01	1.700543e+02
3.625937e+06	-2.650674e+01	1.752772e+02	-3.133566e+01	-5.090328e+00	-9.259839e+01	-1.466900e+02	-2.647985e+01	1.700501e+02
3.625968e+06	-2.650650e+01	1.752702e+02	-3.133527e+01	-5.125706e+00	-9.544200e+01	-1.490447e+02	-2.647992e+01	1.700446e+02
3.626000e+06	-2.650626e+01	1.752630e+02	-3.133487e+01	-5.161490e+00	-1.000015e+02	-1.549654e+02	-2.647998e+01	1.700391e+02
3.626031e+06	-2.650602e+01	1.752559e+02	-3.133447e+01	-5.197271e+00	-1.087970e+02	1.763501e+02	-2.648004e+01	1.700335e+02
3.626062e+06	-2.650577e+01	1.752487e+02	-3.133406e+01	-5.233048e+00	-1.059683e+02	6.891398e+01	-2.648009e+01	1.700280e+02
3.626094e+06	-2.650553e+01	1.752415e+02	-3.133365e+01	-5.268822e+00	-9.865504e+01	5.164815e+01	-2.648015e+01	1.700225e+02
3.626125e+06	-2.650517e+01	1.752537e+02	-3.133542e+01	-5.256026e+00	-9.612549e+01	9.929348e+01	-2.647926e+01	1.700204e+02
3.626156e+06	-2.650481e+01	1.752663e+02	-3.133723e+01	-5.242435e+00	-9.201794e+01	1.200085e+02	-2.647836e+01	1.700183e+02
3.626187e+06	-2.650445e+01	1.752788e+02	-3.133904e+01	-5.228839e+00	-8.888612e+01	1.288503e+02	-2.647745e+01	1.700162e+02
3.626218e+06	-2.650409e+01	1.752914e+02	-3.134085e+01	-5.215237e+00	-8.650511e+01	1.335239e+02	-2.647655e+01	1.700142e+02
3.626250e+06	-2.650372e+01	1.753039e+02	-3.134266e+01	-5.201629e+00	-8.460987e+01	1.363785e+02	-2.647565e+01	1.700121e+02
3.626281e+06	-2.650324e+01	1.753052e+02	-3.134279e+01	-5.213891e+00	-8.619344e+01	1.330050e+02	-2.647587e+01	1.700120e+02
3.626312e+06	-2.650275e+01	1.753065e+02	-3.134290e+01	-5.226361e+00	-8.811189e+01	1.278761e+02	-2.647611e+01	1.700119e+02
3.626344e+06	-2.650227e+01	1.753077e+02	-3.134302e+01	-5.238832e+00	-9.042742e+01	1.195067e+02	-2.647634e+01	1.700117e+02
3.626375e+06	-2.650178e+01	1.753090e+02	-3.134313e+01	-5.251303e+00	-9.312006e+01	1.044912e+02	-2.647658e+01	1.700116e+02
3.626406e+06	-2.650130e+01	1.753102e+02	-3.134325e+01	-5.263775e+00	-9.540096e+01	7.714827e+01	-2.647681e+01	1.700115e+02
3.626437e+06	-2.650282e+01	1.753002e+02	-3.134287e+01	-5.264036e+00	-9.504178e+01	5.873684e+01	-2.647772e+01	1.700181e+02
3.626468e+06	-2.650434e+01	1.752903e+02	-3.134249e+01	-5.264296e+00	-9.397270e+01	4.319460e+01	-2.647863e+01	1.700248e+02
3.626500e+06	-2.650586e+01	1.752803e+02	-3.134210e+01	-5.264557e+00	-9.259170e+01	3.153532e+01	-2.647953e+01	1.700314e+02
3.626531e+06	-2.650738e+01	1.752703e+02	-3.134172e+01	-5.264817e+00	-9.117405e+01	2.311552e+01	-2.648044e+01	1.700380e+02
3.626562e+06	-2.650890e+01	1.752603e+02	-3.134134e+01	-5.265078e+00	-8.983713e+01	1.699434e+01	-2.648135e+01	1.700446e+02
3.626594e+06	-2.650839e+01	1.752649e+02	-3.134398e+01	-5.261218e+00	-8.890872e+01	1.718931e+01	-2.648014e+01	1.700433e+02
3.626625e+06	-2.650784e+01	1.752699e+02	-3.134669e+01	-5.257255e+00	-8.807590e+01	1.745816e+01	-2.647888e+01	1.700418e+02
3.626656e+06	-2.650728e+01	1.752748e+02	-3.134940e+01	-5.253289e+00	-8.731584e+01	1.768196e+01	-2.647761e+01	1.700403e+02
3.626687e+06	-2.650672e+01	1.752798e+02	-3.135211e+01	-5.249320e+00	-8.661687e+01	1.787115e+01	-2.647635e+01	1.700387e+02
3.626718e+06	-2.650616e+01	1.752847e+02	-3.135483e+01	-5.245350e+00	-8.596991e+01	1.803319e+01	-2.647509e+01	1.700372e+02
3.626750e+06	-2.650616e+01	1.752870e+02	-3.135428e+01	-5.248324e+00	-8.815189e+01	1.731003e+01	-2.647770e+01	1.700359e+02
3.626781e+06	-2.650618e+01	1.752893e+02	-3.135367e+01	-5.251410e+00	-9.114419e+01	1.597059e+01	-2.648038e+01	1.700345e+02
3.626812e+06	-2.650619e+01	1.752916e+02	-3.135307e+01	-5.254496e+00	-9.572680e+01	1.276541e+01	-2.648305e+01	1.700331e+02
3.626844e+06	-2.650621e+01	1.752939e+02	-3.135247e+01	-5.257582e+00	-1.055680e+02	-4.346343e+00	-2.648573e+01	1.700318e+02
3.626875e+06	-2.650622e+01	1.752962e+02	-3.135186e+01	-5.260667e+00	-1.030863e+02	-1.409890e+02	-2.648841e+01	1.700304e+02
3.626906e+06	-2.650683e+01	1.752998e+02	-3.135187e+01	-5.240356e+00	-1.163554e+02	-1.062374e+02	-2.648665e+01	1.700351e+02
3.626937e+06	-2.650744e+01	1.753034e+02	-3.135188e+01	-5.219856e+00	-1.060738e+02	1.813853e+01	-2.648486e+01	1.700397e+02
3.626968e+06	-2.650805e+01	1.753070e+02	-3.135189e+01	-5.199356e+00	-9.927484e+01	2.477147e+01	-2.648306e+01	1.700444e+02
3.627000e+06	-2.650866e+01	1.753107e+02	-3.135189e+01	-5.178855e+00	-9.548606e+01	2.672776e+01	-2.648127e+01	1.700491e+02
3.627031e+06	-2.650927e+01	1.753143e+02	-3.135190e+01	-5.158355e+00	-9.285325e+01	2.766164e+01	-2.647948e+01	1.700538e+02
3.627062e+06	-2.650802e+01	1.753093e+02	-3.135223e+01	-5.176223e+00	-9.180374e+01	3.078022e+01	-2.647994e+01	1.700516e+02
3.627094e+06	-2.650677e+01	1.753043e+02	-3.135256e+01	-5.194092e+00	-9.084915e+01	3.325578e+01	-2.648040e+01	1.700493e+02
3.627125e+06	-2.650553e+01	1.752993e+02	-3.135288e+01	-5.211962e+00	-8.997726e+01	3.526165e+01	-2.648085e+01	1.700471e+02
3.627156e+06	-2.650428e+01	1.752943e+02	-3.135321e+01	-5.229834e+00	-8.917694e+01	3.691613e+01	-2.648131e+01	1.700448e+02
3.627187e+06	-2.650303e+01	1.752893e+02	-3.135353e+01	-5.247707e+00	-8.843861e+01	3.830197e+01	-2.648177e+01	1.700426e+02
3.627218e+06	-2.650303e+01	1.752879e+02	-3.135102e+01	-5.236207e+00	-8.911486e+01	4.339484e+01	-2.648207e+01	1.700411e+02
3.627250e+06	-2.650306e+01	1.752866e+02	-3.134844e+01	-5.223992e+00	-8.979767e+01	4.947562e+01	-2.648237e+01	1.700397e+02
3.627281e+06	-2.650309e+01	1.752853e+02	-3.134586e+01	-5.211783e+00	-9.041515e+01	5.654304e+01	-2.648267e+01	1.700383e+02
3.627312e+06	-2.650312e+01	1.752839e+02	-3.134328e+01	-5.199583e+00	-9.091781e+01	6.458930e+01	-2.648297e+01	1.700368e+02
3.627344e+06	-2.650315e+01	1.752826e+02	-3.134070e+01	-5.187389e+00	-9.125116e+01	7.345474e+01	-2.648328e+01	1.700354e+02
3.627375e+06	-2.650287e+01	1.752866e+02	-3.134065e+01	-5.216532e+00	-9.103169e+01	6.066899e+01	-2.648313e+01	1.700367e+02
3.627406e+06	-2.650258e+01	1.752907e+02	-3.134063e+01	-5.246346e+00	-9.041140e+01	4.875773e+01	-2.648297e+01	1.700379e+02
3.627437e+06	-2.650230e+01	1.752948e+02	-3.134061e+01	-5.276161e+00	-8.953788e+01	3.874978e+01	-2.648282e+01	1.700392e+02
3.627468e+06	-2.650201e+01	1.752989e+02	-3.134059e+01	-5.305975e+00	-8.854955e+01	3.068715e+01	-2.648267e+01	1.700405e+02
3.627500e+06	-2.650172e+01	1.753030e+02	-3.134057e+01	-5.335789e+00	-8.753912e+01	2.428970e+01	-2.648251e+01	1.700418e+02
3.627531e+06	-2.650288e+01	1.752980e+02	-3.134342e+01	-5.329311e+00	-8.972300e+01	2.604604e+01	-2.648252e+01	1.700390e+02
3.627562e+06	-2.650404e+01	1.752930e+02	-3.134629e+01	-5.322535e+00	-9.266796e+01	2.932847e+01	-2.648252e+01	1.700363e+02
3.627594e+06	-2.650521e+01	1.752880e+02	-3.134917e+01	-5.315754e+00	-9.704638e+01	3.697416e+01	-2.648253e+01	1.700335e+02
3.627625e+06	-2.650637e+01	1.752830e+02	-3.135204e+01	-5.308969e+00	-1.045527e+02	6.848658e+01	-2.648253e+01	1.700307e+02
3.627656e+06	-2.650754e+01	1.752780e+02	-3.135492e+01	-5.302180e+00	-1.026801e+02	1.595544e+02	-2.648254e+01	1.700279e+02
3.627687e+06	-2.650710e+01	1.752762e+02	-3.135482e+01	-5.295326e+00	-1.125474e+02	7.116532e+01	-2.648307e+01	1.700287e+02
3.627718e+06	-2.650666e+01	1.752744e+02	-3.135472e+01	-5.288471e+00	-1.012930e+02	1.272854e+01	-2.648360e+01	1.700295e+02
3.627750e+06	-2.650623e+01	1.752726e+02	-3.135462e+01	-5.281617e+00	-9.585000e+01	5.569534e+00	-2.648413e+01	1.700302e+02
3.627781e+06	-2.650579e+01	1.752708e+02	-3.135452e+01	-5.274763e+00	-9.249601e+01	2.975220e+00	-2.648466e+01	1.700310e+02
3.627812e+06	-2.650535e+01	1.752690e+02	-3.135442e+01	-5.267909e+00	-9.007546e+01	1.641126e+00	-2.648519e+01	1.700318e+02
3.627844e+06	-2.650553e+01	1.752746e+02	-3.135368e+01	-5.275578e+00	-9.115850e+01	9.289771e+00	-2.648413e+01	1.700300e+02
3.627875e+06	-2.650572e+01	1.752802e+02	-3.135292e+01	-5.283602e+00	-9.225407e+01	1.947455e+01	-2.648304e+01	1.700282e+02
3.627906e+06	-2.650592e+01	1.752859e+02	-3.135215e+01	-5.291624e+00	-9.311216e+01	3.226716e+01	-2.648195e+01	1.700264e+02
3.627937e+06	-2.650611e+01	1.752916e+02	-3.135139e+01	-5.299645e+00	-9.350885e+01	4.709029e+01	-2.648086e+01	1.700246e+02
3.627968e+06	-2.650631e+01	1.752973e+02	-3.135063e+01	-5.307665e+00	-9.330497e+01	6.225402e+01	-2.647977e+01	1.700227e+02
3.628000e+06	-2.650648e+01	1.753077e+02	-3.135142e+01	-5.300852e+00	-9.670532e+01	7.306001e+01	-2.648082e+01	1.700262e+02
3.628031e+06	-2.650665e+01	1.753182e+02	-3.135224e+01	-5.293796e+00	-1.010850e+02	1.002576e+02	-2.648191e+01	1.700297e+02
3.628062e+06	-2.650682e+01	1.753287e+02	-3.135305e+01	-5.286739e+00	-1.017868e+02	1.553867e+02	-2.648300e+01	1.700333e+02
3.628094e+06	-2.650700e+01	1.753391e+02	-3.135387e+01	-5.279681e+00	-9.747957e+01	-1.718124e+02	-2.648408e+01	1.700368e+02
3.628125e+06	-2.650717e+01	1.753496e+02	-3.135468e+01	-5.272621e+00	-9.381867e+01	-1.593114e+02	-2.648517e+01	1.700404e+02
3.628156e+06	-2.650786e+01	1.753362e+02	-3.135301e+01	-5.272442e+00	-9.727627e+01	-1.365560e+02	-2.648346e+01	1.700359e+02
3.628187e+06	-2.650856e+01	1.753226e+02	-3.135131e+01	-5.272318e+00	-9.869875e+01	-9.339988e+01	-2.648174e+01	1.700314e+02
3.628218e+06	-2.650926e+01	1.753090e+02	-3.134961e+01	-5.272194e+00	-9.579762e+01	-5.816558e+01	-2.648001e+01	1.700269e+02
3.628250e+06	-2.650996e+01	1.752953e+02	-3.134792e+01	-5.272071e+00	-9.242653e+01	-4.189199e+01	-2.647828e+01	1.700224e+02
3.628281e+06	-2.651066e+01	1.752817e+02	-3.134622e+01	-5.271947e+00	-8.974191e+01	-3.387036e+01	-2.647655e+01	1.700179e+02
3.628312e+06	-2.650877e+01	1.752890e+02	-3.134621e+01	-5.274467e+00	-9.144866e+01	-4.237208e+01	-2.647747e+01	1.700280e+02
3.628344e+06	-2.650688e+01	1.752963e+02	-3.134620e+01	-5.276986e+00	-9.321142e+01	-5.510620e+01	-2.647839e+01	1.700381e+02
3.628375e+06	-2.650499e+01	1.753036e+02	-3.134618e+01	-5.279506e+00	-9.463124e+01	-7.364674e+01	-2.647930e+01	1.700482e+02
3.628406e+06	-2.650310e+01	1.753109e+02	-3.134617e+01	-5.282026e+00	-9.498937e+01	-9.661391e+01	-2.648022e+01	1.700583e+02
3.628437e+06	-2.650121e+01	1.753182e+02	-3.134616e+01	-5.284546e+00	-9.402716e+01	-1.179593e+02	-2.648114e+01	1.700684e+02
3.628468e+06	-2.650202e+01	1.753106e+02	-3.134742e+01	-5.281110e+00	-9.915896e+01	-1.279145e+02	-2.648084e+01	1.700698e+02
3.628500e+06	-2.650289e+01	1.753027e+02	-3.134870e+01	-5.277527e+00	-1.079756e+02	1.742300e+02	-2.648052e+01	1.700711e+02
3.628531e+06	-2.650377e+01	1.752947e+02	-3.134999e+01	-5.273943e+00	-1.003849e+02	9.705190e+01	-2.648019e+01	1.700723e+02
3.628562e+06	-2.650465e+01	1.752867e+02	-3.135128e+01	-5.270358e+00	-9.458287e+01	8.500927e+01	-2.647987e+01	1.700735e+02
3.628594e+06	-2.650553e+01	1.752787e+02	-3.135257e+01	-5.266772e+00	-9.104740e+01	8.092599e+01	-2.647955e+01	1.700748e+02
3.628625e+06	-2.650496e+01	1.752808e+02	-3.135320e+01	-5.269873e+00	-9.224024e+01	7.022005e+01	-2.647978e+01	1.700793e+02
3.628656e+06	-2.650437e+01	1.752831e+02	-3.135382e+01	-5.273084e+00	-9.324111e+01	5.613492e+01	-2.648003e+01	1.700838e+02
3.628687e+06	-2.650378e+01	1.752854e+02	-3.135444e+01	-5.276294e+00	-9.367175e+01	3.945851e+01	-2.648028e+01	1.700884e+02
3.628718e+06	-2.650319e+01	1.752876e+02	-3.135506e+01	-5.279506e+00	-9.334670e+01	2.257206e+01	-2.648053e+01	1.700929e+02
3.628750e+06	-2.650260e+01	1.752899e+02	-3.135568e+01	-5.282717e+00	-9.240918e+01	8.024820e+00	-2.648078e+01	1.700975e+02
3.628781e+06	-2.650342e+01	1.752865e+02	-3.135478e+01	-5.280589e+00	-9.422134e+01	1.691571e+01	-2.648031e+01	1.700928e+02
3.628812e+06	-2.650425e+01	1.752830e+02	-3.135386e+01	-5.278418e+00	-9.611658e+01	3.090555e+01	-2.647984e+01	1.700882e+02
3.628844e+06	-2.650508e+01	1.752796e+02	-3.135295e+01	-5.276248e+00	-9.754711e+01	5.167027e+01	-2.647937e+01	1.700835e+02
3.628875e+06	-2.650591e+01	1.752761e+02	-3.135204e+01	-5.274078e+00	-9.763340e+01	7.664242e+01	-2.647890e+01	1.700788e+02
3.628906e+06	-2.650674e+01	1.752727e+02	-3.135113e+01	-5.271908e+00	-9.630500e+01	9.810683e+01	-2.647843e+01	1.700741e+02
3.628937e+06	-2.650772e+01	1.752759e+02	-3.135024e+01	-5.275532e+00	-9.559225e+01	8.707347e+01	-2.647855e+01	1.700714e+02
3.628968e+06	-2.650870e+01	1.752792e+02	-3.134936e+01	-5.279155e+00	-9.468656e+01	7.793357e+01	-2.647866e+01	1.700687e+02
