# Hz S dB R 50.000
3.624688e+06	-2.650132e+01	1.752960e+02	-3.139648e+01	-4.328258e+00	-9.123375e+01	-3.485708e+01	-2.649171e+01	1.700120e+02
3.624719e+06	-2.650172e+01	1.753004e+02	-3.139005e+01	-4.338865e+00	-9.237933e+01	-3.878322e+01	-2.649129e+01	1.700092e+02
3.624750e+06	-2.650213e+01	1.753047e+02	-3.138362e+01	-4.349456e+00	-9.363671e+01	-4.396365e+01	-2.649086e+01	1.700063e+02
3.624782e+06	-2.650253e+01	1.753091e+02	-3.137719e+01	-4.360032e+00	-9.499386e+01	-5.097149e+01	-2.649044e+01	1.700035e+02
3.624813e+06	-2.650293e+01	1.753135e+02	-3.137077e+01	-4.370592e+00	-9.638866e+01	-6.061310e+01	-2.649002e+01	1.700006e+02
3.624844e+06	-2.650333e+01	1.753177e+02	-3.136436e+01	-4.381320e+00	-9.766572e+01	-7.350237e+01	-2.648960e+01	1.699979e+02
3.624876e+06	-2.650337e+01	1.753069e+02	-3.135832e+01	-4.414850e+00	-1.010059e+02	-4.860535e+01	-2.648996e+01	1.700094e+02
3.624907e+06	-2.650341e+01	1.752960e+02	-3.135227e+01	-4.448332e+00	-1.018252e+02	-5.793864e+00	-2.649033e+01	1.700210e+02
3.624938e+06	-2.650345e+01	1.752852e+02	-3.134623e+01	-4.481768e+00	-9.885205e+01	2.623444e+01	-2.649069e+01	1.700325e+02
3.624969e+06	-2.650349e+01	1.752744e+02	-3.134018e+01	-4.515158e+00	-9.563788e+01	4.131203e+01	-2.649105e+01	1.700440e+02
3.625000e+06	-2.650355e+01	1.752638e+02	-3.133423e+01	-4.548742e+00	-9.312482e+01	4.881397e+01	-2.649139e+01	1.700553e+02
3.625032e+06	-2.650449e+01	1.752720e+02	-3.133339e+01	-4.597119e+00	-9.483938e+01	4.248879e+01	-2.649079e+01	1.700498e+02
3.625063e+06	-2.650544e+01	1.752802e+02	-3.133254e+01	-4.645486e+00	-9.677194e+01	3.283713e+01	-2.649019e+01	1.700443e+02
3.625094e+06	-2.650638e+01	1.752883e+02	-3.133169e+01	-4.693844e+00	-9.874799e+01	1.759266e+01	-2.648959e+01	1.700388e+02
3.625126e+06	-2.650733e+01	1.752965e+02	-3.133083e+01	-4.742192e+00	-1.001085e+02	-5.118475e+00	-2.648899e+01	1.700333e+02
3.625157e+06	-2.650822e+01	1.753043e+02	-3.133000e+01	-4.789214e+00	-9.983361e+01	-3.036542e+01	-2.648839e+01	1.700279e+02
3.625188e+06	-2.650712e+01	1.752969e+02	-3.133022e+01	-4.782690e+00	-9.696337e+01	-2.212802e+01	-2.648751e+01	1.700261e+02
3.625219e+06	-2.650603e+01	1.752895e+02	-3.133045e+01	-4.776166e+00	-9.473195e+01	-1.756061e+01	-2.648664e+01	1.700244e+02
3.625250e+06	-2.650493e+01	1.752822e+02	-3.133068e+01	-4.769641e+00	-9.292993e+01	-1.469168e+01	-2.648576e+01	1.700227e+02
3.625282e+06	-2.650383e+01	1.752748e+02	-3.133091e+01	-4.763116e+00	-9.142576e+01	-1.273143e+01	-2.648489e+01	1.700210e+02
3.625313e+06	-2.650273e+01	1.752674e+02	-3.133114e+01	-4.756590e+00	-9.013767e+01	-1.131021e+01	-2.648401e+01	1.700193e+02
3.625344e+06	-2.650244e+01	1.752750e+02	-3.133036e+01	-4.785333e+00	-9.056959e+01	-6.707280e+00	-2.648424e+01	1.700172e+02
3.625376e+06	-2.650214e+01	1.752827e+02	-3.132957e+01	-4.814072e+00	-9.095922e+01	-1.646596e+00	-2.648447e+01	1.700151e+02
3.625407e+06	-2.650185e+01	1.752903e+02	-3.132878e+01	-4.842804e+00	-9.129004e+01	3.853042e+00	-2.648470e+01	1.700131e+02
3.625438e+06	-2.650155e+01	1.752979e+02	-3.132800e+01	-4.871532e+00	-9.154496e+01	9.737655e+00	-2.648493e+01	1.700110e+02
3.625469e+06	-2.650126e+01	1.753055e+02	-3.132720e+01	-4.900111e+00	-9.171530e+01	1.578545e+01	-2.648516e+01	1.700089e+02
3.625500e+06	-2.650077e+01	1.753020e+02	-3.132605e+01	-4.910852e+00	-9.256801e+01	4.930804e+00	-2.648484e+01	1.700108e+02
3.625532e+06	-2.650028e+01	1.752985e+02	-3.132490e+01	-4.921590e+00	-9.310700e+01	-7.839504e+00	-2.648452e+01	1.700127e+02
3.625563e+06	-2.649980e+01	1.752951e+02	-3.132375e+01	-4.932325e+00	-9.318881e+01	-2.157381e+01	-2.648420e+01	1.700146e+02
3.625594e+06	-2.649931e+01	1.752916e+02	-3.132259e+01	-4.943057e+00	-9.278826e+01	-3.480410e+01	-2.648388e+01	1.700164e+02
3.625626e+06	-2.649886e+01	1.752882e+02	-3.132152e+01	-4.953582e+00	-9.206923e+01	-4.600782e+01	-2.648358e+01	1.700183e+02
3.625657e+06	-2.650047e+01	1.752908e+02	-3.132496e+01	-4.951502e+00	-9.434248e+01	-3.218902e+01	-2.648452e+01	1.700208e+02
3.625688e+06	-2.650209e+01	1.752933e+02	-3.132840e+01	-4.949420e+00	-9.626992e+01	-9.396027e+00	-2.648546e+01	1.700232e+02
3.625719e+06	-2.650371e+01	1.752959e+02	-3.133185e+01	-4.947337e+00	-9.647084e+01	2.027188e+01	-2.648639e+01	1.700257e+02
3.625750e+06	-2.650533e+01	1.752984e+02	-3.133529e+01	-4.945252e+00	-9.473787e+01	4.478701e+01	-2.648733e+01	1.700281e+02
3.625782e+06	-2.650687e+01	1.753010e+02	-3.133862e+01	-4.943774e+00	-9.257198e+01	5.981956e+01	-2.648824e+01	1.700303e+02
3.625813e+06	-2.650520e+01	1.753043e+02	-3.133693e+01	-4.967065e+00	-9.535387e+01	6.875623e+01	-2.648807e+01	1.700202e+02
3.625844e+06	-2.650354e+01	1.753077e+02	-3.133523e+01	-4.990348e+00	-9.877966e+01	8.726497e+01	-2.648790e+01	1.700102e+02
3.625876e+06	-2.650187e+01	1.753110e+02	-3.133354e+01	-5.013621e+00	-1.011928e+02	1.257095e+02	-2.648774e+01	1.700002e+02
3.625907e+06	-2.650021e+01	1.753144e+02	-3.133185e+01	-5.036885e+00	-9.913284e+01	1.660674e+02	-2.648757e+01	1.699902e+02
3.625938e+06	-2.649854e+01	1.753177e+02	-3.133015e+01	-5.060140e+00	-9.567361e+01	-1.738716e+02	-2.648740e+01	1.699802e+02
3.625969e+06	-2.649979e+01	1.753206e+02	-3.133307e+01	-5.055175e+00	-1.015929e+02	-1.734260e+02	-2.648724e+01	1.699838e+02
3.626000e+06	-2.650103e+01	1.753234e+02	-3.133599e+01	-5.050207e+00	-1.326869e+02	-1.399636e+02	-2.648708e+01	1.699873e+02
3.626032e+06	-2.650228e+01	1.753263e+02	-3.133891e+01	-5.045236e+00	-1.020021e+02	4.727054e+00	-2.648693e+01	1.699909e+02
3.626063e+06	-2.650352e+01	1.753292e+02	-3.134183e+01	-5.040261e+00	-9.587824e+01	5.205263e+00	-2.648677e+01	1.699945e+02
3.626094e+06	-2.650476e+01	1.753320e+02	-3.134471e+01	-5.035373e+00	-9.234944e+01	5.411071e+00	-2.648662e+01	1.699981e+02
3.626126e+06	-2.650502e+01	1.753305e+02	-3.134222e+01	-5.041562e+00	-9.279794e+01	1.197633e+01	-2.648829e+01	1.700093e+02
3.626157e+06	-2.650528e+01	1.753291e+02	-3.133974e+01	-5.047747e+00	-9.313912e+01	1.916960e+01	-2.648996e+01	1.700205e+02
3.626188e+06	-2.650554e+01	1.753277e+02	-3.133725e+01	-5.053929e+00	-9.334261e+01	2.683109e+01	-2.649164e+01	1.700317e+02
3.626219e+06	-2.650580e+01	1.753262e+02	-3.133476e+01	-5.060108e+00	-9.338754e+01	3.471627e+01	-2.649331e+01	1.700429e+02
3.626250e+06	-2.650603e+01	1.753246e+02	-3.133237e+01	-5.066363e+00	-9.324611e+01	4.240490e+01	-2.649493e+01	1.700539e+02
3.626282e+06	-2.650491e+01	1.753127e+02	-3.133562e+01	-5.077581e+00	-9.175700e+01	4.206215e+01	-2.649354e+01	1.700517e+02
3.626313e+06	-2.650378e+01	1.753008e+02	-3.133886e+01	-5.088808e+00	-9.048602e+01	4.181270e+01	-2.649214e+01	1.700495e+02
3.626344e+06	-2.650266e+01	1.752890e+02	-3.134210e+01	-5.100042e+00	-8.937738e+01	4.162304e+01	-2.649075e+01	1.700473e+02
3.626376e+06	-2.650153e+01	1.752771e+02	-3.134535e+01	-5.111286e+00	-8.839430e+01	4.147396e+01	-2.648936e+01	1.700451e+02
3.626407e+06	-2.650044e+01	1.752657e+02	-3.134845e+01	-5.122032e+00	-8.755058e+01	4.124861e+01	-2.648804e+01	1.700431e+02
3.626438e+06	-2.650100e+01	1.752726e+02	-3.134565e+01	-5.112225e+00	-8.835729e+01	3.630679e+01	-2.648957e+01	1.700468e+02
3.626469e+06	-2.650157e+01	1.752794e+02	-3.134285e+01	-5.102424e+00	-8.916056e+01	3.035527e+01	-2.649111e+01	1.700506e+02
3.626500e+06	-2.650213e+01	1.752863e+02	-3.134006e+01	-5.092630e+00	-8.992162e+01	2.322369e+01	-2.649264e+01	1.700543e+02
3.626532e+06	-2.650269e+01	1.752932e+02	-3.133726e+01	-5.082842e+00	-9.058160e+01	1.481602e+01	-2.649417e+01	1.700581e+02
3.626563e+06	-2.650325e+01	1.753001e+02	-3.133446e+01	-5.073061e+00	-9.106470e+01	5.215302e+00	-2.649571e+01	1.700618e+02
3.626594e+06	-2.650422e+01	1.753038e+02	-3.133575e+01	-5.079047e+00	-9.410420e+01	5.036307e+00	-2.649420e+01	1.700542e+02
3.626626e+06	-2.650519e+01	1.753075e+02	-3.133705e+01	-5.085036e+00	-9.881995e+01	4.599182e+00	-2.649268e+01	1.700467e+02
3.626657e+06	-2.650616e+01	1.753112e+02	-3.133834e+01	-5.091026e+00	-1.098976e+02	1.904977e+00	-2.649117e+01	1.700391e+02
3.626688e+06	-2.650714e+01	1.753148e+02	-3.133964e+01	-5.097017e+00	-1.058971e+02	-1.720004e+02	-2.648965e+01	1.700316e+02
3.626719e+06	-2.650810e+01	1.753185e+02	-3.134093e+01	-5.103101e+00	-9.757667e+01	-1.735042e+02	-2.648815e+01	1.700241e+02
3.626750e+06	-2.650769e+01	1.753217e+02	-3.134252e+01	-5.120409e+00	-1.022697e+02	1.761468e+02	-2.648877e+01	1.700266e+02
3.626782e+06	-2.650729e+01	1.753248e+02	-3.134411e+01	-5.137723e+00	-1.094354e+02	1.314269e+02	-2.648939e+01	1.700292e+02
3.626813e+06	-2.650688e+01	1.753279e+02	-3.134570e+01	-5.155044e+00	-1.050877e+02	5.469553e+01	-2.649001e+01	1.700317e+02
3.626844e+06	-2.650648e+01	1.753310e+02	-3.134729e+01	-5.172370e+00	-9.927733e+01	3.710368e+01	-2.649063e+01	1.700342e+02
3.626876e+06	-2.650607e+01	1.753340e+02	-3.134885e+01	-5.189211e+00	-9.568506e+01	3.142804e+01	-2.649126e+01	1.700367e+02
3.626907e+06	-2.650538e+01	1.753282e+02	-3.134858e+01	-5.175743e+00	-9.527547e+01	3.800071e+01	-2.649253e+01	1.700353e+02
3.626938e+06	-2.650469e+01	1.753223e+02	-3.134831e+01	-5.162276e+00	-9.478591e+01	4.392457e+01	-2.649380e+01	1.700339e+02
3.626969e+06	-2.650400e+01	1.753165e+02	-3.134805e+01	-5.148810e+00	-9.424438e+01	4.918337e+01	-2.649506e+01	1.700325e+02
3.627000e+06	-2.650331e+01	1.753106e+02	-3.134778e+01	-5.135344e+00	-9.367397e+01	5.380879e+01	-2.649633e+01	1.700311e+02
3.627032e+06	-2.650266e+01	1.753050e+02	-3.134754e+01	-5.122241e+00	-9.316569e+01	5.805564e+01	-2.649755e+01	1.700299e+02
3.627063e+06	-2.650328e+01	1.753096e+02	-3.134832e+01	-5.123804e+00	-9.573031e+01	7.451714e+01	-2.649656e+01	1.700332e+02
3.627094e+06	-2.650391e+01	1.753141e+02	-3.134911e+01	-5.125368e+00	-9.759253e+01	1.026640e+02	-2.649557e+01	1.700364e+02
3.627126e+06	-2.650453e+01	1.753187e+02	-3.134989e+01	-5.126932e+00	-9.692892e+01	1.354523e+02	-2.649458e+01	1.700397e+02
3.627157e+06	-2.650516e+01	1.753232e+02	-3.135068e+01	-5.128496e+00	-9.451610e+01	1.577872e+02	-2.649359e+01	1.700430e+02
3.627188e+06	-2.650578e+01	1.753278e+02	-3.135146e+01	-5.130061e+00	-9.203340e+01	1.702783e+02	-2.649260e+01	1.700463e+02
3.627219e+06	-2.650686e+01	1.753205e+02	-3.135135e+01	-5.139189e+00	-9.445422e+01	1.774561e+02	-2.649218e+01	1.700449e+02
3.627250e+06	-2.650793e+01	1.753133e+02	-3.135124e+01	-5.148317e+00	-9.744811e+01	-1.690665e+02	-2.649176e+01	1.700435e+02
3.627282e+06	-2.650901e+01	1.753060e+02	-3.135113e+01	-5.157445e+00	-1.004431e+02	-1.413936e+02	-2.649134e+01	1.700420e+02
3.627313e+06	-2.651008e+01	1.752987e+02	-3.135102e+01	-5.166572e+00	-1.004780e+02	-1.002249e+02	-2.649093e+01	1.700406e+02
3.627344e+06	-2.651114e+01	1.752915e+02	-3.135092e+01	-5.175503e+00	-9.755840e+01	-7.255609e+01	-2.649051e+01	1.700392e+02
3.627376e+06	-2.651046e+01	1.752938e+02	-3.135193e+01	-5.160142e+00	-1.014201e+02	-1.046787e+02	-2.649009e+01	1.700374e+02
3.627407e+06	-2.650978e+01	1.752961e+02	-3.135294e+01	-5.144778e+00	-1.008173e+02	-1.553763e+02	-2.648968e+01	1.700357e+02
3.627438e+06	-2.650910e+01	1.752984e+02	-3.135395e+01	-5.129410e+00	-9.682638e+01	1.774954e+02	-2.648926e+01	1.700340e+02
3.627469e+06	-2.650842e+01	1.753007e+02	-3.135496e+01	-5.114039e+00	-9.350117e+01	1.661688e+02	-2.648885e+01	1.700322e+02
3.627500e+06	-2.650777e+01	1.753031e+02	-3.135593e+01	-5.099175e+00	-9.103982e+01	1.604033e+02	-2.648843e+01	1.700306e+02
3.627532e+06	-2.650876e+01	1.753074e+02	-3.135453e+01	-5.115705e+00	-9.328949e+01	1.530814e+02	-2.648770e+01	1.700357e+02
3.627563e+06	-2.650976e+01	1.753117e+02	-3.135313e+01	-5.132230e+00	-9.597857e+01	1.400764e+02	-2.648698e+01	1.700408e+02
3.627594e+06	-2.651075e+01	1.753160e+02	-3.135173e+01	-5.148750e+00	-9.860852e+01	1.155477e+02	-2.648625e+01	1.700459e+02
3.627626e+06	-2.651175e+01	1.753203e+02	-3.135034e+01	-5.165265e+00	-9.903511e+01	7.937341e+01	-2.648553e+01	1.700510e+02
3.627657e+06	-2.651267e+01	1.753245e+02	-3.134891e+01	-5.181518e+00	-9.681274e+01	5.144093e+01	-2.648484e+01	1.700559e+02
3.627688e+06	-2.651041e+01	1.753240e+02	-3.134623e+01	-5.187329e+00	-9.879312e+01	4.351633e+01	-2.648585e+01	1.700523e+02
3.627719e+06	-2.650815e+01	1.753235e+02	-3.134355e+01	-5.193138e+00	-1.010016e+02	3.061275e+01	-2.648686e+01	1.700486e+02
3.627750e+06	-2.650589e+01	1.753231e+02	-3.134087e+01	-5.198942e+00	-1.029734e+02	9.429844e+00	-2.648787e+01	1.700449e+02
3.627782e+06	-2.650363e+01	1.753226e+02	-3.133819e+01	-5.204743e+00	-1.034581e+02	-1.922007e+01	-2.648887e+01	1.700413e+02
3.627813e+06	-2.650137e+01	1.753221e+02	-3.133551e+01	-5.210541e+00	-1.019771e+02	-4.452899e+01	-2.648988e+01	1.700376e+02
3.627844e+06	-2.650084e+01	1.753171e+02	-3.133853e+01	-5.198317e+00	-1.125725e+02	-6.241390e+01	-2.649102e+01	1.700338e+02
3.627876e+06	-2.650030e+01	1.753120e+02	-3.134155e+01	-5.186085e+00	-1.084607e+02	1.579650e+02	-2.649216e+01	1.700300e+02
3.627907e+06	-2.649977e+01	1.753070e+02	-3.134456e+01	-5.173844e+00	-1.004769e+02	1.487029e+02	-2.649331e+01	1.700262e+02
3.627938e+06	-2.649923e+01	1.753019e+02	-3.134758e+01	-5.161595e+00	-9.635321e+01	1.464144e+02	-2.649445e+01	1.700225e+02
3.627969e+06	-2.649870e+01	1.752969e+02	-3.135057e+01	-5.149431e+00	-9.358902e+01	1.452841e+02	-2.649558e+01	1.700187e+02
3.628000e+06	-2.649897e+01	1.753009e+02	-3.134952e+01	-5.148893e+00	-9.411161e+01	1.313268e+02	-2.649501e+01	1.700216e+02
3.628032e+06	-2.649925e+01	1.753048e+02	-3.134847e+01	-5.148356e+00	-9.408891e+01	1.165244e+02	-2.649444e+01	1.700245e+02
3.628063e+06	-2.649952e+01	1.753088e+02	-3.134742e+01	-5.147819e+00	-9.352889e+01	1.027022e+02	-2.649387e+01	1.700273e+02
3.628094e+06	-2.649979e+01	1.753127e+02	-3.134636e+01	-5.147281e+00	-9.260387e+01	9.108549e+01	-2.649330e+01	1.700302e+02
3.628126e+06	-2.650007e+01	1.753166e+02	-3.134536e+01	-5.147071e+00	-9.155125e+01	8.187719e+01	-2.649272e+01	1.700331e+02
3.628157e+06	-2.650054e+01	1.753179e+02	-3.134750e+01	-5.166929e+00	-9.284535e+01	7.075508e+01	-2.649142e+01	1.700393e+02
3.628188e+06	-2.650102e+01	1.753193e+02	-3.134963e+01	-5.186797e+00	-9.385981e+01	5.618111e+01	-2.649012e+01	1.700456e+02
3.628219e+06	-2.650150e+01	1.753206e+02	-3.135177e+01	-5.206675e+00	-9.425881e+01	3.895776e+01	-2.648882e+01	1.700518e+02
3.628250e+06	-2.650197e+01	1.753219e+02	-3.135390e+01	-5.226563e+00	-9.386071e+01	2.173257e+01	-2.648752e+01	1.700580e+02
3.628282e+06	-2.650244e+01	1.753233e+02	-3.135594e+01	-5.245510e+00	-9.289165e+01	7.811794e+00	-2.648627e+01	1.700639e+02
3.628313e+06	-2.650225e+01	1.753263e+02	-3.135430e+01	-5.225819e+00	-9.326344e+01	2.316452e+01	-2.648691e+01	1.700550e+02
3.628344e+06	-2.650207e+01	1.753294e+02	-3.135267e+01	-5.206136e+00	-9.299635e+01	3.870810e+01	-2.648756e+01	1.700461e+02
3.628376e+06	-2.650189e+01	1.753325e+02	-3.135103e+01	-5.186460e+00	-9.219245e+01	5.241089e+01	-2.648821e+01	1.700372e+02
3.628407e+06	-2.650171e+01	1.753355e+02	-3.134939e+01	-5.166791e+00	-9.109195e+01	6.337812e+01	-2.648885e+01	1.700283e+02
3.628438e+06	-2.650153e+01	1.753386e+02	-3.134775e+01	-5.147130e+00	-8.989766e+01	7.177772e+01	-2.648950e+01	1.700194e+02
3.628469e+06	-2.650258e+01	1.753358e+02	-3.134995e+01	-5.151627e+00	-9.268499e+01	6.978343e+01	-2.648916e+01	1.700251e+02
3.628500e+06	-2.650363e+01	1.753330e+02	-3.135215e+01	-5.156126e+00	-9.677701e+01	6.537691e+01	-2.648882e+01	1.700307e+02
3.628532e+06	-2.650467e+01	1.753302e+02	-3.135435e+01	-5.160627e+00	-1.042844e+02	4.839374e+01	-2.648847e+01	1.700364e+02
3.628563e+06	-2.650572e+01	1.753275e+02	-3.135656e+01	-5.165130e+00	-1.068537e+02	-6.287853e+01	-2.648813e+01	1.700421e+02
3.628594e+06	-2.650675e+01	1.753247e+02	-3.135874e+01	-5.169626e+00	-9.803098e+01	-8.960570e+01	-2.648780e+01	1.700477e+02
3.628626e+06	-2.650522e+01	1.753273e+02	-3.135816e+01	-5.172868e+00	-1.020444e+02	-1.047089e+02	-2.648843e+01	1.700498e+02
3.628657e+06	-2.650369e+01	1.753299e+02	-3.135759e+01	-5.176109e+00	-1.061382e+02	-1.462095e+02	-2.648907e+01	1.700518e+02
3.628688e+06	-2.650217e+01	1.753325e+02	-3.135701e+01	-5.179350e+00	-1.036655e+02	1.607952e+02	-2.648971e+01	1.700539e+02
3.628719e+06	-2.650064e+01	1.753351e+02	-3.135644e+01	-5.182591e+00	-9.926455e+01	1.395758e+02	-2.649035e+01	1.700560e+02
3.628750e+06	-2.649917e+01	1.753377e+02	-3.135586e+01	-5.185865e+00	-9.604508e+01	1.309164e+02	-2.649097e+01	1.700580e+02
3.628782e+06	-2.650131e+01	1.753366e+02	-3.135499e+01	-5.191260e+00	-9.547121e+01	1.230966e+02	-2.649016e+01	1.700595e+02
3.628813e+06	-2.650346e+01	1.753356e+02	-3.135413e+01	-5.196654e+00	-9.480134e+01	1.163253e+02	-2.648935e+01	1.700609e+02
3.628844e+06	-2.650560e+01	1.753345e+02	-3.135327e+01	-5.202047e+00	-9.408332e+01	1.105576e+02	-2.648854e+01	1.700624e+02
3.628876e+06	-2.650774e+01	1.753334e+02	-3.135241e+01	-5.207439e+00	-9.335120e+01	1.056791e+02	-2.648773e+01	1.700639e+02
3.628907e+06	-2.650982e+01	1.753325e+02	-3.135156e+01	-5.212679e+00	-9.267327e+01	1.018322e+02	-2.648694e+01	1.700653e+02
3.628938e+06	-2.650955e+01	1.753348e+02	-3.135101e+01	-5.211804e+00	-9.388282e+01	1.107985e+02	-2.648706e+01	1.700670e+02
3.628969e+06	-2.650929e+01	1.753371e+02	-3.135046e+01	-5.210929e+00	-9.496370e+01	1.225039e+02	-2.648717e+01	1.700686e+02
3.629000e+06	-2.650902e+01	1.753394e+02	-3.134991e+01	-5.210055e+00	-9.568620e+01	1.369632e+02	-2.648729e+01	1.700702e+02
3.629032e+06	-2.650875e+01	1.753417e+02	-3.134936e+01	-5.209180e+00	-9.581072e+01	1.529412e+02	-2.648740e+01	1.700718e+02
3.629063e+06	-2.650848e+01	1.753440e+02	-3.134881e+01	-5.208306e+00	-9.528727e+01	1.681841e+02	-2.648752e+01	1.700734e+02
3.629094e+06	-2.650778e+01	1.753448e+02	-3.135027e+01	-5.200675e+00	-9.513138e+01	1.744837e+02	-2.648657e+01	1.700631e+02
3.629126e+06	-2.650709e+01	1.753456e+02	-3.135173e+01	-5.193041e+00	-9.487990e+01	-1.795064e+02	-2.648561e+01	1.700528e+02
3.629157e+06	-2.650639e+01	1.753465e+02	-3.135320e+01	-5.185404e+00	-9.454869e+01	-1.738878e+02	-2.648466e+01	1.700425e+02
3.629188e+06	-2.650569e+01	1.753473e+02	-3.135466e+01	-5.177765e+00	-9.415563e+01	-1.687199e+02	-2.648371e+01	1.700322e+02
3.629219e+06	-2.650501e+01	1.753481e+02	-3.135611e+01	-5.170067e+00	-9.374737e+01	-1.640895e+02	-2.648277e+01	1.700221e+02
3.629250e+06	-2.650564e+01	1.753445e+02	-3.135626e+01	-5.155339e+00	-9.770143e+01	-1.699048e+02	-2.648423e+01	1.700314e+02
3.629282e+06	-2.650627e+01	1.753410e+02	-3.135640e+01	-5.140610e+00	-1.044426e+02	1.697844e+02	-2.648569e+01	1.700407e+02
3.629313e+06	-2.650690e+01	1.753375e+02	-3.135655e+01	-5.125881e+00	-1.068811e+02	7.690865e+01	-2.648715e+01	1.700499e+02
3.629344e+06	-2.650754e+01	1.753340e+02	-3.135669e+01	-5.111151e+00	-9.908585e+01	4.429091e+01	-2.648860e+01	1.700592e+02
3.629376e+06	-2.650817e+01	1.753305e+02	-3.135678e+01	-5.097001e+00	-9.467935e+01	3.675610e+01	-2.649003e+01	1.700684e+02
3.629407e+06	-2.650872e+01	1.753284e+02	-3.135336e+01	-5.118521e+00	-9.449673e+01	3.352251e+01	-2.648950e+01	1.700671e+02
3.629438e+06	-2.650927e+01	1.753263e+02	-3.134994e+01	-5.140023e+00	-9.429196e+01	3.043011e+01	-2.648897e+01	1.700659e+02
3.629469e+06	-2.650983e+01	1.753243e+02	-3.134653e+01	-5.161509e+00	-9.406838e+01	2.748665e+01	-2.648844e+01	1.700647e+02
3.629500e+06	-2.651038e+01	1.753222e+02	-3.134311e+01	-5.182978e+00	-9.382921e+01	2.469602e+01	-2.648792e+01	1.700634e+02
3.629532e+06	-2.651090e+01	1.753203e+02	-3.133985e+01	-5.203782e+00	-9.362200e+01	2.216727e+01	-2.648743e+01	1.700622e+02
3.629563e+06	-2.651010e+01	1.753244e+02	-3.134297e+01	-5.198222e+00	-9.538329e+01	2.457325e+01	-2.648850e+01	1.700614e+02
3.629594e+06	-2.650930e+01	1.753285e+02	-3.134608e+01	-5.192658e+00	-9.756389e+01	2.836269e+01	-2.648957e+01	1.700606e+02
3.629626e+06	-2.650850e+01	1.753325e+02	-3.134920e+01	-5.187090e+00	-1.003878e+02	3.511556e+01	-2.649064e+01	1.700599e+02
3.629657e+06	-2.650770e+01	1.753366e+02	-3.135231e+01	-5.181518e+00	-1.041798e+02	4.970303e+01	-2.649172e+01	1.700591e+02
3.629688e+06	-2.650690e+01	1.753407e+02	-3.135543e+01	-5.175942e+00	-1.081119e+02	8.749957e+01	-2.649279e+01	1.700583e+02
3.629719e+06	-2.650647e+01	1.753512e+02	-3.135342e+01	-5.182016e+00	-1.052267e+02	1.047121e+02	-2.649193e+01	1.700628e+02
3.629750e+06	-2.650604e+01	1.753616e+02	-3.135141e+01	-5.188087e+00	-1.027380e+02	1.138839e+02	-2.649107e+01	1.700673e+02
