# Hz S dB R 50.000
3.626094e+06	-2.648749e+01	1.749530e+02	-3.132968e+01	-4.900424e+00	-9.930983e+01	-3.890799e+01	-2.652926e+01	1.700415e+02
3.626125e+06	-2.648725e+01	1.749598e+02	-3.133047e+01	-4.902997e+00	-9.888959e+01	-2.668015e+01	-2.652924e+01	1.700360e+02
3.626156e+06	-2.648701e+01	1.749666e+02	-3.133126e+01	-4.905570e+00	-9.815918e+01	-1.598866e+01	-2.652922e+01	1.700305e+02
3.626188e+06	-2.648677e+01	1.749734e+02	-3.133205e+01	-4.908143e+00	-9.725431e+01	-7.148175e+00	-2.652920e+01	1.700250e+02
3.626219e+06	-2.648653e+01	1.749802e+02	-3.133284e+01	-4.910717e+00	-9.628356e+01	-3.462139e-02	-2.652918e+01	1.700195e+02
3.626250e+06	-2.648629e+01	1.749868e+02	-3.133362e+01	-4.913324e+00	-9.536836e+01	5.643801e+00	-2.652916e+01	1.700141e+02
3.626282e+06	-2.648592e+01	1.749806e+02	-3.133346e+01	-4.919893e+00	-1.049565e+02	1.904636e+01	-2.652862e+01	1.700115e+02
3.626313e+06	-2.648556e+01	1.749743e+02	-3.133329e+01	-4.926462e+00	-1.036196e+02	1.622251e+02	-2.652808e+01	1.700090e+02
3.626344e+06	-2.648520e+01	1.749681e+02	-3.133313e+01	-4.933031e+00	-9.488044e+01	1.730535e+02	-2.652755e+01	1.700064e+02
3.626375e+06	-2.648484e+01	1.749618e+02	-3.133297e+01	-4.939600e+00	-9.057129e+01	1.754506e+02	-2.652701e+01	1.700038e+02
3.626406e+06	-2.648448e+01	1.749559e+02	-3.133282e+01	-4.946065e+00	-8.778083e+01	1.764164e+02	-2.652649e+01	1.700014e+02
3.626438e+06	-2.648446e+01	1.749656e+02	-3.133367e+01	-4.946201e+00	-9.088641e+01	1.700727e+02	-2.652741e+01	1.700075e+02
3.626469e+06	-2.648444e+01	1.749754e+02	-3.133451e+01	-4.946338e+00	-9.532178e+01	1.548093e+02	-2.652832e+01	1.700135e+02
3.626500e+06	-2.648441e+01	1.749852e+02	-3.133535e+01	-4.946474e+00	-9.992555e+01	1.066234e+02	-2.652924e+01	1.700196e+02
3.626532e+06	-2.648439e+01	1.749949e+02	-3.133619e+01	-4.946611e+00	-9.620457e+01	5.103037e+01	-2.653015e+01	1.700257e+02
3.626563e+06	-2.648437e+01	1.750047e+02	-3.133703e+01	-4.946747e+00	-9.150365e+01	3.279731e+01	-2.653106e+01	1.700318e+02
3.626594e+06	-2.648453e+01	1.750033e+02	-3.133813e+01	-4.955355e+00	-9.058950e+01	4.575758e+01	-2.653078e+01	1.700346e+02
3.626625e+06	-2.648470e+01	1.750018e+02	-3.133922e+01	-4.964033e+00	-8.945421e+01	5.614684e+01	-2.653048e+01	1.700375e+02
3.626656e+06	-2.648486e+01	1.750002e+02	-3.134031e+01	-4.972713e+00	-8.825635e+01	6.407057e+01	-2.653018e+01	1.700403e+02
3.626688e+06	-2.648503e+01	1.749987e+02	-3.134141e+01	-4.981395e+00	-8.709191e+01	7.009939e+01	-2.652989e+01	1.700432e+02
3.626719e+06	-2.648519e+01	1.749972e+02	-3.134250e+01	-4.990080e+00	-8.599945e+01	7.474519e+01	-2.652959e+01	1.700460e+02
3.626750e+06	-2.648548e+01	1.750062e+02	-3.134266e+01	-5.004939e+00	-8.800810e+01	7.578319e+01	-2.653095e+01	1.700425e+02
3.626782e+06	-2.648577e+01	1.750152e+02	-3.134281e+01	-5.019798e+00	-9.061901e+01	7.755013e+01	-2.653231e+01	1.700391e+02
3.626813e+06	-2.648606e+01	1.750242e+02	-3.134296e+01	-5.034657e+00	-9.434318e+01	8.121622e+01	-2.653368e+01	1.700356e+02
3.626844e+06	-2.648634e+01	1.750332e+02	-3.134312e+01	-5.049517e+00	-1.007550e+02	9.306864e+01	-2.653504e+01	1.700321e+02
3.626875e+06	-2.648663e+01	1.750421e+02	-3.134328e+01	-5.064066e+00	-1.082692e+02	-1.712247e+02	-2.653638e+01	1.700287e+02
3.626906e+06	-2.648604e+01	1.750401e+02	-3.134419e+01	-5.039957e+00	-1.047919e+02	-3.419137e+01	-2.653464e+01	1.700343e+02
3.626938e+06	-2.648546e+01	1.750381e+02	-3.134510e+01	-5.015843e+00	-9.672304e+01	-2.379913e+01	-2.653290e+01	1.700399e+02
3.626969e+06	-2.648488e+01	1.750361e+02	-3.134601e+01	-4.991724e+00	-9.256988e+01	-2.126770e+01	-2.653116e+01	1.700455e+02
3.627000e+06	-2.648429e+01	1.750341e+02	-3.134692e+01	-4.967600e+00	-8.976634e+01	-2.013159e+01	-2.652943e+01	1.700510e+02
3.627032e+06	-2.648372e+01	1.750322e+02	-3.134780e+01	-4.944057e+00	-8.770984e+01	-1.949200e+01	-2.652772e+01	1.700565e+02
3.627063e+06	-2.648393e+01	1.750368e+02	-3.134738e+01	-4.956537e+00	-8.990234e+01	-1.924798e+01	-2.652798e+01	1.700546e+02
3.627094e+06	-2.648415e+01	1.750414e+02	-3.134696e+01	-4.969017e+00	-9.284184e+01	-1.880741e+01	-2.652825e+01	1.700526e+02
3.627125e+06	-2.648436e+01	1.750460e+02	-3.134654e+01	-4.981495e+00	-9.731644e+01	-1.777289e+01	-2.652851e+01	1.700507e+02
3.627156e+06	-2.648457e+01	1.750506e+02	-3.134612e+01	-4.993972e+00	-1.070051e+02	-1.248239e+01	-2.652877e+01	1.700488e+02
3.627188e+06	-2.648478e+01	1.750552e+02	-3.134569e+01	-5.006447e+00	-1.063738e+02	1.523531e+02	-2.652903e+01	1.700469e+02
3.627219e+06	-2.648549e+01	1.750453e+02	-3.134478e+01	-4.995792e+00	-1.024669e+02	8.926865e+01	-2.652994e+01	1.700430e+02
3.627250e+06	-2.648620e+01	1.750353e+02	-3.134386e+01	-4.984953e+00	-9.731319e+01	7.049483e+01	-2.653087e+01	1.700390e+02
3.627282e+06	-2.648691e+01	1.750252e+02	-3.134295e+01	-4.974117e+00	-9.386357e+01	6.363007e+01	-2.653179e+01	1.700350e+02
3.627313e+06	-2.648762e+01	1.750152e+02	-3.134203e+01	-4.963282e+00	-9.135389e+01	6.017957e+01	-2.653271e+01	1.700311e+02
3.627344e+06	-2.648833e+01	1.750052e+02	-3.134111e+01	-4.952450e+00	-8.939411e+01	5.811779e+01	-2.653363e+01	1.700271e+02
3.627375e+06	-2.648858e+01	1.750101e+02	-3.134094e+01	-4.966083e+00	-9.035616e+01	6.598302e+01	-2.653240e+01	1.700226e+02
3.627406e+06	-2.648883e+01	1.750149e+02	-3.134078e+01	-4.979716e+00	-9.121008e+01	7.569318e+01	-2.653117e+01	1.700182e+02
3.627438e+06	-2.648908e+01	1.750198e+02	-3.134061e+01	-4.993348e+00	-9.182846e+01	8.721958e+01	-2.652993e+01	1.700137e+02
3.627469e+06	-2.648932e+01	1.750247e+02	-3.134045e+01	-5.006979e+00	-9.207650e+01	9.997439e+01	-2.652870e+01	1.700092e+02
3.627500e+06	-2.648957e+01	1.750295e+02	-3.134029e+01	-5.020462e+00	-9.191078e+01	1.126879e+02	-2.652748e+01	1.700049e+02
3.627532e+06	-2.648911e+01	1.750287e+02	-3.134169e+01	-5.015584e+00	-9.483427e+01	1.073976e+02	-2.652800e+01	1.700133e+02
3.627563e+06	-2.648865e+01	1.750279e+02	-3.134308e+01	-5.010704e+00	-9.899461e+01	9.536817e+01	-2.652852e+01	1.700218e+02
3.627594e+06	-2.648819e+01	1.750271e+02	-3.134448e+01	-5.005823e+00	-1.043635e+02	5.673772e+01	-2.652904e+01	1.700303e+02
3.627625e+06	-2.648773e+01	1.750264e+02	-3.134588e+01	-5.000940e+00	-1.022022e+02	-7.840372e+00	-2.652956e+01	1.700388e+02
3.627656e+06	-2.648730e+01	1.750256e+02	-3.134728e+01	-4.996095e+00	-9.715121e+01	-3.047097e+01	-2.653006e+01	1.700472e+02
3.627688e+06	-2.648848e+01	1.750255e+02	-3.134904e+01	-4.993666e+00	-9.879853e+01	-2.341131e+01	-2.652953e+01	1.700514e+02
3.627719e+06	-2.648966e+01	1.750254e+02	-3.135080e+01	-4.991236e+00	-1.005860e+02	-1.289496e+01	-2.652899e+01	1.700556e+02
3.627750e+06	-2.649084e+01	1.750252e+02	-3.135256e+01	-4.988805e+00	-1.022752e+02	2.909526e+00	-2.652846e+01	1.700598e+02
3.627782e+06	-2.649202e+01	1.750251e+02	-3.135432e+01	-4.986373e+00	-1.032421e+02	2.461156e+01	-2.652792e+01	1.700640e+02
3.627813e+06	-2.649320e+01	1.750250e+02	-3.135608e+01	-4.983940e+00	-1.028469e+02	4.787360e+01	-2.652738e+01	1.700682e+02
3.627844e+06	-2.649268e+01	1.750337e+02	-3.135419e+01	-4.989903e+00	-9.816408e+01	4.169923e+01	-2.652732e+01	1.700590e+02
3.627875e+06	-2.649214e+01	1.750424e+02	-3.135227e+01	-4.995930e+00	-9.509008e+01	3.908156e+01	-2.652725e+01	1.700498e+02
3.627906e+06	-2.649160e+01	1.750511e+02	-3.135035e+01	-5.001955e+00	-9.281664e+01	3.766761e+01	-2.652719e+01	1.700406e+02
3.627938e+06	-2.649106e+01	1.750599e+02	-3.134844e+01	-5.007977e+00	-9.101381e+01	3.678332e+01	-2.652712e+01	1.700313e+02
3.627969e+06	-2.649052e+01	1.750686e+02	-3.134652e+01	-5.013997e+00	-8.952043e+01	3.617829e+01	-2.652706e+01	1.700221e+02
3.628000e+06	-2.648957e+01	1.750566e+02	-3.134733e+01	-5.025629e+00	-9.146685e+01	4.168533e+01	-2.652737e+01	1.700321e+02
3.628032e+06	-2.648863e+01	1.750445e+02	-3.134814e+01	-5.037263e+00	-9.380401e+01	5.072666e+01	-2.652769e+01	1.700421e+02
3.628063e+06	-2.648768e+01	1.750325e+02	-3.134895e+01	-5.048899e+00	-9.645709e+01	6.693538e+01	-2.652800e+01	1.700521e+02
3.628094e+06	-2.648673e+01	1.750204e+02	-3.134977e+01	-5.060538e+00	-9.847098e+01	9.547146e+01	-2.652831e+01	1.700622e+02
3.628125e+06	-2.648579e+01	1.750085e+02	-3.135057e+01	-5.071954e+00	-9.786986e+01	1.290941e+02	-2.652863e+01	1.700721e+02
3.628156e+06	-2.648631e+01	1.750108e+02	-3.135066e+01	-5.055529e+00	-1.003663e+02	1.008109e+02	-2.652926e+01	1.700662e+02
3.628188e+06	-2.648683e+01	1.750130e+02	-3.135076e+01	-5.039104e+00	-1.000262e+02	6.341250e+01	-2.652990e+01	1.700603e+02
3.628219e+06	-2.648735e+01	1.750153e+02	-3.135085e+01	-5.022678e+00	-9.731020e+01	3.812230e+01	-2.653053e+01	1.700544e+02
3.628250e+06	-2.648787e+01	1.750176e+02	-3.135094e+01	-5.006252e+00	-9.454653e+01	2.498260e+01	-2.653117e+01	1.700485e+02
3.628282e+06	-2.648837e+01	1.750197e+02	-3.135100e+01	-4.989994e+00	-9.233198e+01	1.766317e+01	-2.653178e+01	1.700427e+02
3.628313e+06	-2.648787e+01	1.750156e+02	-3.134890e+01	-4.984051e+00	-9.562410e+01	7.261010e+00	-2.653112e+01	1.700410e+02
3.628344e+06	-2.648737e+01	1.750115e+02	-3.134681e+01	-4.978112e+00	-9.975014e+01	-1.783592e+01	-2.653045e+01	1.700394e+02
3.628375e+06	-2.648687e+01	1.750073e+02	-3.134471e+01	-4.972175e+00	-1.009370e+02	-6.927314e+01	-2.652979e+01	1.700377e+02
3.628406e+06	-2.648637e+01	1.750032e+02	-3.134262e+01	-4.966241e+00	-9.703526e+01	-1.041653e+02	-2.652913e+01	1.700361e+02
3.628438e+06	-2.648586e+01	1.749990e+02	-3.134053e+01	-4.960310e+00	-9.339248e+01	-1.180513e+02	-2.652847e+01	1.700344e+02
3.628469e+06	-2.648570e+01	1.749937e+02	-3.134344e+01	-4.970963e+00	-9.820601e+01	-1.021355e+02	-2.652913e+01	1.700382e+02
3.628500e+06	-2.648554e+01	1.749883e+02	-3.134639e+01	-4.981756e+00	-1.029547e+02	-4.528140e+01	-2.652981e+01	1.700420e+02
3.628532e+06	-2.648538e+01	1.749830e+02	-3.134935e+01	-4.992557e+00	-9.789485e+01	8.601798e+00	-2.653049e+01	1.700458e+02
3.628563e+06	-2.648522e+01	1.749776e+02	-3.135230e+01	-5.003365e+00	-9.313066e+01	2.371242e+01	-2.653116e+01	1.700496e+02
3.628594e+06	-2.648506e+01	1.749723e+02	-3.135526e+01	-5.014180e+00	-8.990327e+01	2.967510e+01	-2.653184e+01	1.700534e+02
3.628625e+06	-2.648632e+01	1.749789e+02	-3.135337e+01	-5.016571e+00	-9.215404e+01	2.911842e+01	-2.653136e+01	1.700434e+02
3.628656e+06	-2.648758e+01	1.749855e+02	-3.135147e+01	-5.018960e+00	-9.519799e+01	2.809429e+01	-2.653089e+01	1.700335e+02
3.628688e+06	-2.648883e+01	1.749921e+02	-3.134958e+01	-5.021349e+00	-9.991331e+01	2.559145e+01	-2.653041e+01	1.700235e+02
3.628719e+06	-2.649009e+01	1.749987e+02	-3.134769e+01	-5.023737e+00	-1.106478e+02	1.060325e+01	-2.652993e+01	1.700136e+02
3.628750e+06	-2.649134e+01	1.750053e+02	-3.134583e+01	-5.026222e+00	-1.066151e+02	-1.351315e+02	-2.652947e+01	1.700038e+02
3.628782e+06	-2.649085e+01	1.750024e+02	-3.134886e+01	-5.041036e+00	-9.975831e+01	-1.238827e+02	-2.653036e+01	1.700119e+02
3.628813e+06	-2.649037e+01	1.749996e+02	-3.135189e+01	-5.055860e+00	-9.591179e+01	-1.206215e+02	-2.653125e+01	1.700200e+02
3.628844e+06	-2.648989e+01	1.749967e+02	-3.135492e+01	-5.070695e+00	-9.324532e+01	-1.190814e+02	-2.653214e+01	1.700282e+02
3.628875e+06	-2.648941e+01	1.749939e+02	-3.135795e+01	-5.085540e+00	-9.120514e+01	-1.181857e+02	-2.653302e+01	1.700363e+02
3.628906e+06	-2.648893e+01	1.749911e+02	-3.136087e+01	-5.100133e+00	-8.961436e+01	-1.175448e+02	-2.653389e+01	1.700444e+02
3.628938e+06	-2.648887e+01	1.749931e+02	-3.135720e+01	-5.098621e+00	-9.228772e+01	-1.121479e+02	-2.653295e+01	1.700480e+02
3.628969e+06	-2.648881e+01	1.749950e+02	-3.135353e+01	-5.097111e+00	-9.592079e+01	-1.009380e+02	-2.653202e+01	1.700517e+02
3.629000e+06	-2.648875e+01	1.749970e+02	-3.134986e+01	-5.095602e+00	-1.005177e+02	-7.084394e+01	-2.653109e+01	1.700553e+02
3.629032e+06	-2.648869e+01	1.749989e+02	-3.134619e+01	-5.094094e+00	-1.004884e+02	-1.280953e+01	-2.653016e+01	1.700590e+02
3.629063e+06	-2.648863e+01	1.750009e+02	-3.134253e+01	-5.092587e+00	-9.589031e+01	1.705711e+01	-2.652923e+01	1.700627e+02
3.629094e+06	-2.648812e+01	1.750084e+02	-3.134297e+01	-5.071893e+00	-9.949090e+01	3.879051e+01	-2.652995e+01	1.700576e+02
3.629125e+06	-2.648761e+01	1.750160e+02	-3.134345e+01	-5.051042e+00	-1.013035e+02	8.279779e+01	-2.653068e+01	1.700524e+02
3.629156e+06	-2.648710e+01	1.750236e+02	-3.134392e+01	-5.030189e+00	-9.835146e+01	1.203393e+02	-2.653141e+01	1.700473e+02
3.629188e+06	-2.648659e+01	1.750312e+02	-3.134439e+01	-5.009334e+00	-9.483165e+01	1.371520e+02	-2.653214e+01	1.700421e+02
3.629219e+06	-2.648608e+01	1.750388e+02	-3.134486e+01	-4.988476e+00	-9.206386e+01	1.452140e+02	-2.653287e+01	1.700370e+02
3.629250e+06	-2.648596e+01	1.750398e+02	-3.134621e+01	-4.990827e+00	-9.198034e+01	1.242941e+02	-2.653307e+01	1.700456e+02
3.629282e+06	-2.648584e+01	1.750408e+02	-3.134756e+01	-4.993178e+00	-9.090694e+01	1.060821e+02	-2.653327e+01	1.700543e+02
3.629313e+06	-2.648572e+01	1.750419e+02	-3.134890e+01	-4.995530e+00	-8.937460e+01	9.269479e+01	-2.653347e+01	1.700629e+02
3.629344e+06	-2.648560e+01	1.750429e+02	-3.135025e+01	-4.997882e+00	-8.778877e+01	8.338937e+01	-2.653366e+01	1.700715e+02
3.629375e+06	-2.648548e+01	1.750439e+02	-3.135159e+01	-5.000169e+00	-8.633561e+01	7.695062e+01	-2.653384e+01	1.700800e+02
3.629406e+06	-2.648593e+01	1.750442e+02	-3.135168e+01	-4.994208e+00	-8.819728e+01	8.348219e+01	-2.653177e+01	1.700725e+02
3.629438e+06	-2.648638e+01	1.750444e+02	-3.135176e+01	-4.988247e+00	-9.033519e+01	9.386791e+01	-2.652970e+01	1.700650e+02
3.629469e+06	-2.648682e+01	1.750447e+02	-3.135185e+01	-4.982286e+00	-9.252800e+01	1.111336e+02	-2.652763e+01	1.700576e+02
3.629500e+06	-2.648727e+01	1.750449e+02	-3.135194e+01	-4.976324e+00	-9.383500e+01	1.374980e+02	-2.652557e+01	1.700501e+02
3.629532e+06	-2.648769e+01	1.750452e+02	-3.135198e+01	-4.970485e+00	-9.316192e+01	1.655319e+02	-2.652356e+01	1.700427e+02
3.629563e+06	-2.648665e+01	1.750457e+02	-3.134939e+01	-4.972144e+00	-9.581405e+01	1.767300e+02	-2.652545e+01	1.700407e+02
3.629594e+06	-2.648561e+01	1.750463e+02	-3.134680e+01	-4.973802e+00	-9.868177e+01	-1.617613e+02	-2.652733e+01	1.700386e+02
3.629625e+06	-2.648456e+01	1.750468e+02	-3.134421e+01	-4.975459e+00	-9.988409e+01	-1.259021e+02	-2.652922e+01	1.700366e+02
3.629656e+06	-2.648352e+01	1.750474e+02	-3.134162e+01	-4.977115e+00	-9.785420e+01	-9.372369e+01	-2.653111e+01	1.700346e+02
3.629688e+06	-2.648248e+01	1.750479e+02	-3.133903e+01	-4.978771e+00	-9.496141e+01	-7.613649e+01	-2.653299e+01	1.700326e+02
3.629719e+06	-2.648271e+01	1.750441e+02	-3.133949e+01	-4.993730e+00	-9.699727e+01	-7.705903e+01	-2.653362e+01	1.700363e+02
3.629750e+06	-2.648296e+01	1.750403e+02	-3.133997e+01	-5.008799e+00	-9.971818e+01	-7.884445e+01	-2.653423e+01	1.700400e+02
3.629782e+06	-2.648321e+01	1.750365e+02	-3.134045e+01	-5.023869e+00	-1.036733e+02	-8.269744e+01	-2.653484e+01	1.700437e+02
3.629813e+06	-2.648345e+01	1.750326e+02	-3.134093e+01	-5.038941e+00	-1.108084e+02	-9.663780e+01	-2.653545e+01	1.700475e+02
3.629844e+06	-2.648370e+01	1.750288e+02	-3.134141e+01	-5.054014e+00	-1.154573e+02	1.526762e+02	-2.653606e+01	1.700512e+02
3.629875e+06	-2.648480e+01	1.750205e+02	-3.134314e+01	-5.037765e+00	-1.067889e+02	4.451241e+01	-2.653459e+01	1.700470e+02
3.629906e+06	-2.648591e+01	1.750122e+02	-3.134487e+01	-5.021510e+00	-1.001655e+02	3.510896e+01	-2.653312e+01	1.700429e+02
3.629938e+06	-2.648701e+01	1.750039e+02	-3.134660e+01	-5.005248e+00	-9.640568e+01	3.227528e+01	-2.653165e+01	1.700387e+02
3.629969e+06	-2.648812e+01	1.749956e+02	-3.134833e+01	-4.988980e+00	-9.378276e+01	3.091672e+01	-2.653018e+01	1.700345e+02
3.630000e+06	-2.648922e+01	1.749875e+02	-3.135004e+01	-4.972807e+00	-9.182029e+01	3.020172e+01	-2.652872e+01	1.700305e+02
3.630032e+06	-2.648992e+01	1.749981e+02	-3.134835e+01	-4.969287e+00	-9.797545e+01	5.009628e+01	-2.652880e+01	1.700388e+02
3.630063e+06	-2.649063e+01	1.750087e+02	-3.134666e+01	-4.965769e+00	-1.011103e+02	1.326779e+02	-2.652888e+01	1.700472e+02
3.630094e+06	-2.649133e+01	1.750193e+02	-3.134497e+01	-4.962252e+00	-9.385341e+01	1.707714e+02	-2.652896e+01	1.700556e+02
3.630125e+06	-2.649204e+01	1.750299e+02	-3.134328e+01	-4.958737e+00	-8.934649e+01	1.799343e+02	-2.652904e+01	1.700640e+02
3.630156e+06	-2.649271e+01	1.750404e+02	-3.134162e+01	-4.955294e+00	-8.640907e+01	-1.761926e+02	-2.652912e+01	1.700721e+02
3.630188e+06	-2.649174e+01	1.750470e+02	-3.134156e+01	-4.956207e+00	-8.931782e+01	-1.693628e+02	-2.652917e+01	1.700671e+02
3.630219e+06	-2.649076e+01	1.750537e+02	-3.134149e+01	-4.957121e+00	-9.327179e+01	-1.541708e+02	-2.652923e+01	1.700622e+02
3.630250e+06	-2.648979e+01	1.750603e+02	-3.134143e+01	-4.958035e+00	-9.725428e+01	-1.133685e+02	-2.652928e+01	1.700572e+02
3.630282e+06	-2.648881e+01	1.750669e+02	-3.134136e+01	-4.958948e+00	-9.491775e+01	-6.120256e+01	-2.652934e+01	1.700522e+02
3.630313e+06	-2.648784e+01	1.750735e+02	-3.134130e+01	-4.959862e+00	-9.058952e+01	-3.969226e+01	-2.652939e+01	1.700472e+02
3.630344e+06	-2.648809e+01	1.750618e+02	-3.134226e+01	-4.966413e+00	-9.290455e+01	-4.344427e+01	-2.652948e+01	1.700473e+02
3.630375e+06	-2.648835e+01	1.750499e+02	-3.134323e+01	-4.973012e+00	-9.604987e+01	-5.076838e+01	-2.652957e+01	1.700475e+02
3.630406e+06	-2.648862e+01	1.750379e+02	-3.134420e+01	-4.979612e+00	-1.004322e+02	-6.842256e+01	-2.652967e+01	1.700476e+02
3.630438e+06	-2.648888e+01	1.750260e+02	-3.134517e+01	-4.986213e+00	-1.040956e+02	-1.184009e+02	-2.652976e+01	1.700478e+02
3.630469e+06	-2.648914e+01	1.750141e+02	-3.134614e+01	-4.992816e+00	-1.002886e+02	-1.672732e+02	-2.652985e+01	1.700479e+02
3.630500e+06	-2.648897e+01	1.750245e+02	-3.134483e+01	-5.001602e+00	-1.039417e+02	1.665486e+02	-2.652964e+01	1.700445e+02
3.630532e+06	-2.648880e+01	1.750349e+02	-3.134353e+01	-5.010384e+00	-1.046348e+02	1.198608e+02	-2.652944e+01	1.700412e+02
3.630563e+06	-2.648864e+01	1.750452e+02	-3.134222e+01	-5.019165e+00	-1.012081e+02	8.777647e+01	-2.652923e+01	1.700378e+02
3.630594e+06	-2.648847e+01	1.750556e+02	-3.134092e+01	-5.027942e+00	-9.784351e+01	7.371072e+01	-2.652902e+01	1.700344e+02
3.630625e+06	-2.648831e+01	1.750659e+02	-3.133962e+01	-5.036591e+00	-9.525519e+01	6.665228e+01	-2.652882e+01	1.700311e+02
3.630656e+06	-2.648923e+01	1.750622e+02	-3.133909e+01	-5.029581e+00	-9.642613e+01	5.383426e+01	-2.652904e+01	1.700317e+02
3.630688e+06	-2.649015e+01	1.750586e+02	-3.133857e+01	-5.022573e+00	-9.715110e+01	3.781430e+01	-2.652926e+01	1.700323e+02
3.630719e+06	-2.649107e+01	1.750550e+02	-3.133805e+01	-5.015565e+00	-9.714095e+01	2.037806e+01	-2.652948e+01	1.700328e+02
3.630750e+06	-2.649199e+01	1.750514e+02	-3.133752e+01	-5.008558e+00	-9.640039e+01	4.425941e+00	-2.652970e+01	1.700334e+02
3.630782e+06	-2.649288e+01	1.750478e+02	-3.133701e+01	-5.001817e+00	-9.530251e+01	-7.882338e+00	-2.652991e+01	1.700341e+02
3.630813e+06	-2.649153e+01	1.750474e+02	-3.133730e+01	-5.011389e+00	-9.929209e+01	1.738264e+01	-2.652980e+01	1.700400e+02
3.630844e+06	-2.649018e+01	1.750470e+02	-3.133758e+01	-5.020961e+00	-1.003734e+02	6.730765e+01	-2.652969e+01	1.700459e+02
3.630875e+06	-2.648883e+01	1.750465e+02	-3.133787e+01	-5.030534e+00	-9.663299e+01	1.015993e+02	-2.652957e+01	1.700518e+02
3.630906e+06	-2.648748e+01	1.750461e+02	-3.133815e+01	-5.040107e+00	-9.306463e+01	1.156555e+02	-2.652946e+01	1.700577e+02
3.630938e+06	-2.648613e+01	1.750457e+02	-3.133844e+01	-5.049681e+00	-9.035386e+01	1.224250e+02	-2.652935e+01	1.700636e+02
3.630969e+06	-2.648736e+01	1.750463e+02	-3.133907e+01	-5.053543e+00	-9.261979e+01	1.171955e+02	-2.653095e+01	1.700641e+02
3.631000e+06	-2.648861e+01	1.750468e+02	-3.133971e+01	-5.057360e+00	-9.556453e+01	1.074640e+02	-2.653256e+01	1.700645e+02
3.631032e+06	-2.648987e+01	1.750474e+02	-3.134035e+01	-5.061177e+00	-9.916464e+01	8.641935e+01	-2.653417e+01	1.700650e+02
3.631063e+06	-2.649112e+01	1.750479e+02	-3.134098e+01	-5.064995e+00	-1.011000e+02	4.364008e+01	-2.653578e+01	1.700654e+02
3.631094e+06	-2.649237e+01	1.750485e+02	-3.134162e+01	-5.068813e+00	-9.832894e+01	5.551788e+00	-2.653739e+01	1.700659e+02
3.631125e+06	-2.649086e+01	1.750505e+02	-3.134132e+01	-5.060851e+00	-9.894146e+01	-3.497081e+01	-2.653701e+01	1.700593e+02
3.631156e+06	-2.648936e+01	1.750526e+02	-3.134102e+01	-5.052889e+00	-9.617981e+01	-6.545677e+01	-2.653663e+01	1.700527e+02
