# Hz S dB R 50.000
3.626250e+06	-2.648947e+01	1.751583e+02	-3.134416e+01	-4.867768e+00	-1.046453e+02	5.382735e+01	-2.654094e+01	1.698581e+02
3.626281e+06	-2.649087e+01	1.751608e+02	-3.134377e+01	-4.888185e+00	-1.023264e+02	4.950561e+00	-2.654124e+01	1.698607e+02
3.626312e+06	-2.649227e+01	1.751633e+02	-3.134337e+01	-4.908600e+00	-9.822381e+01	-1.612872e+01	-2.654153e+01	1.698632e+02
3.626344e+06	-2.649367e+01	1.751657e+02	-3.134298e+01	-4.929013e+00	-9.508191e+01	-2.511479e+01	-2.654183e+01	1.698658e+02
3.626375e+06	-2.649507e+01	1.751682e+02	-3.134258e+01	-4.949425e+00	-9.269300e+01	-2.985440e+01	-2.654213e+01	1.698684e+02
3.626406e+06	-2.649645e+01	1.751706e+02	-3.134220e+01	-4.969696e+00	-9.082430e+01	-3.259872e+01	-2.654242e+01	1.698710e+02
3.626438e+06	-2.649531e+01	1.751624e+02	-3.134387e+01	-4.972778e+00	-9.291316e+01	-1.185266e+01	-2.654187e+01	1.698826e+02
3.626469e+06	-2.649418e+01	1.751542e+02	-3.134553e+01	-4.975862e+00	-9.356795e+01	1.721269e+01	-2.654133e+01	1.698942e+02
3.626500e+06	-2.649304e+01	1.751460e+02	-3.134720e+01	-4.978946e+00	-9.212934e+01	4.356484e+01	-2.654079e+01	1.699059e+02
3.626531e+06	-2.649190e+01	1.751377e+02	-3.134887e+01	-4.982032e+00	-8.987419e+01	6.043027e+01	-2.654025e+01	1.699175e+02
3.626562e+06	-2.649077e+01	1.751295e+02	-3.135053e+01	-4.985120e+00	-8.771961e+01	7.048692e+01	-2.653971e+01	1.699291e+02
3.626594e+06	-2.649217e+01	1.751411e+02	-3.135015e+01	-4.979161e+00	-8.915000e+01	7.340302e+01	-2.654047e+01	1.699156e+02
3.626625e+06	-2.649362e+01	1.751530e+02	-3.134974e+01	-4.973057e+00	-9.090387e+01	7.751346e+01	-2.654125e+01	1.699016e+02
3.626656e+06	-2.649507e+01	1.751649e+02	-3.134933e+01	-4.966952e+00	-9.301404e+01	8.393482e+01	-2.654203e+01	1.698877e+02
3.626688e+06	-2.649651e+01	1.751768e+02	-3.134892e+01	-4.960849e+00	-9.555061e+01	9.494337e+01	-2.654281e+01	1.698738e+02
3.626719e+06	-2.649796e+01	1.751887e+02	-3.134850e+01	-4.954746e+00	-9.826468e+01	1.154009e+02	-2.654358e+01	1.698598e+02
3.626750e+06	-2.649747e+01	1.751851e+02	-3.134894e+01	-4.955770e+00	-1.002162e+02	1.326385e+02	-2.654339e+01	1.698682e+02
3.626781e+06	-2.649697e+01	1.751815e+02	-3.134939e+01	-4.956852e+00	-1.012827e+02	1.572635e+02	-2.654319e+01	1.698767e+02
3.626812e+06	-2.649647e+01	1.751778e+02	-3.134984e+01	-4.957934e+00	-1.006117e+02	-1.768819e+02	-2.654299e+01	1.698852e+02
3.626844e+06	-2.649597e+01	1.751741e+02	-3.135028e+01	-4.959017e+00	-9.877941e+01	-1.578014e+02	-2.654279e+01	1.698938e+02
3.626875e+06	-2.649547e+01	1.751704e+02	-3.135073e+01	-4.960099e+00	-9.675318e+01	-1.456998e+02	-2.654259e+01	1.699023e+02
3.626906e+06	-2.649588e+01	1.751653e+02	-3.134982e+01	-4.961336e+00	-9.675982e+01	-1.397510e+02	-2.654271e+01	1.698939e+02
3.626938e+06	-2.649628e+01	1.751603e+02	-3.134892e+01	-4.962573e+00	-9.667369e+01	-1.338565e+02	-2.654283e+01	1.698855e+02
3.626969e+06	-2.649669e+01	1.751552e+02	-3.134801e+01	-4.963809e+00	-9.650014e+01	-1.281363e+02	-2.654295e+01	1.698771e+02
3.627000e+06	-2.649710e+01	1.751501e+02	-3.134711e+01	-4.965045e+00	-9.624921e+01	-1.226897e+02	-2.654307e+01	1.698686e+02
3.627031e+06	-2.649749e+01	1.751451e+02	-3.134623e+01	-4.966190e+00	-9.596362e+01	-1.177283e+02	-2.654320e+01	1.698604e+02
3.627062e+06	-2.649619e+01	1.751455e+02	-3.134888e+01	-4.956056e+00	-9.970784e+01	-1.376322e+02	-2.654397e+01	1.698698e+02
3.627094e+06	-2.649489e+01	1.751458e+02	-3.135153e+01	-4.945916e+00	-1.020712e+02	1.789165e+02	-2.654475e+01	1.698793e+02
3.627125e+06	-2.649358e+01	1.751462e+02	-3.135418e+01	-4.935769e+00	-9.925786e+01	1.381471e+02	-2.654553e+01	1.698887e+02
3.627156e+06	-2.649228e+01	1.751465e+02	-3.135684e+01	-4.925616e+00	-9.558062e+01	1.201293e+02	-2.654630e+01	1.698982e+02
3.627188e+06	-2.649098e+01	1.751469e+02	-3.135949e+01	-4.915458e+00	-9.270731e+01	1.117630e+02	-2.654708e+01	1.699076e+02
3.627219e+06	-2.649119e+01	1.751476e+02	-3.135840e+01	-4.930579e+00	-9.373371e+01	1.208733e+02	-2.654658e+01	1.699066e+02
3.627250e+06	-2.649142e+01	1.751483e+02	-3.135724e+01	-4.946108e+00	-9.463939e+01	1.326456e+02	-2.654605e+01	1.699053e+02
3.627281e+06	-2.649165e+01	1.751489e+02	-3.135609e+01	-4.961633e+00	-9.516673e+01	1.465686e+02	-2.654553e+01	1.699040e+02
3.627312e+06	-2.649189e+01	1.751496e+02	-3.135493e+01	-4.977153e+00	-9.515108e+01	1.613552e+02	-2.654501e+01	1.699028e+02
3.627344e+06	-2.649212e+01	1.751503e+02	-3.135378e+01	-4.992670e+00	-9.459794e+01	1.751852e+02	-2.654448e+01	1.699015e+02
3.627375e+06	-2.649252e+01	1.751527e+02	-3.135574e+01	-4.993176e+00	-9.774459e+01	1.435628e+02	-2.654432e+01	1.699006e+02
3.627406e+06	-2.649293e+01	1.751552e+02	-3.135772e+01	-4.993561e+00	-9.701852e+01	9.905994e+01	-2.654417e+01	1.698998e+02
3.627438e+06	-2.649333e+01	1.751576e+02	-3.135970e+01	-4.993946e+00	-9.355115e+01	7.343198e+01	-2.654401e+01	1.698989e+02
3.627469e+06	-2.649374e+01	1.751601e+02	-3.136169e+01	-4.994331e+00	-9.047489e+01	6.168297e+01	-2.654386e+01	1.698981e+02
3.627500e+06	-2.649414e+01	1.751625e+02	-3.136367e+01	-4.994717e+00	-8.805882e+01	5.547160e+01	-2.654370e+01	1.698972e+02
3.627531e+06	-2.649419e+01	1.751646e+02	-3.136210e+01	-5.002817e+00	-8.952355e+01	4.560405e+01	-2.654360e+01	1.698982e+02
3.627562e+06	-2.649425e+01	1.751668e+02	-3.136054e+01	-5.010913e+00	-9.085233e+01	3.193097e+01	-2.654350e+01	1.698991e+02
3.627594e+06	-2.649430e+01	1.751689e+02	-3.135897e+01	-5.019007e+00	-9.166776e+01	1.431901e+01	-2.654339e+01	1.699001e+02
3.627625e+06	-2.649436e+01	1.751711e+02	-3.135740e+01	-5.027098e+00	-9.158697e+01	-4.905640e+00	-2.654329e+01	1.699010e+02
3.627656e+06	-2.649442e+01	1.751732e+02	-3.135587e+01	-5.035070e+00	-9.068561e+01	-2.181763e+01	-2.654320e+01	1.699021e+02
3.627688e+06	-2.649537e+01	1.751731e+02	-3.135783e+01	-5.028726e+00	-9.393175e+01	-2.086475e+01	-2.654503e+01	1.699094e+02
3.627719e+06	-2.649632e+01	1.751730e+02	-3.135979e+01	-5.022379e+00	-9.916254e+01	-1.833542e+01	-2.654686e+01	1.699167e+02
3.627750e+06	-2.649727e+01	1.751728e+02	-3.136176e+01	-5.016029e+00	-1.134413e+02	6.315048e+00	-2.654869e+01	1.699241e+02
3.627781e+06	-2.649822e+01	1.751727e+02	-3.136372e+01	-5.009676e+00	-1.026606e+02	1.477125e+02	-2.655052e+01	1.699314e+02
3.627812e+06	-2.649916e+01	1.751726e+02	-3.136569e+01	-5.003320e+00	-9.568215e+01	1.523444e+02	-2.655235e+01	1.699388e+02
3.627844e+06	-2.649932e+01	1.751791e+02	-3.136504e+01	-4.995595e+00	-9.674170e+01	1.391403e+02	-2.655051e+01	1.699305e+02
3.627875e+06	-2.649946e+01	1.751857e+02	-3.136435e+01	-4.987848e+00	-9.739555e+01	1.225242e+02	-2.654862e+01	1.699220e+02
3.627906e+06	-2.649960e+01	1.751923e+02	-3.136366e+01	-4.980103e+00	-9.726787e+01	1.048372e+02	-2.654672e+01	1.699135e+02
3.627938e+06	-2.649975e+01	1.751989e+02	-3.136297e+01	-4.972359e+00	-9.641954e+01	8.908219e+01	-2.654482e+01	1.699050e+02
3.627969e+06	-2.649989e+01	1.752054e+02	-3.136229e+01	-4.964617e+00	-9.517761e+01	7.675754e+01	-2.654293e+01	1.698965e+02
3.628000e+06	-2.649965e+01	1.752044e+02	-3.136142e+01	-4.974061e+00	-9.597544e+01	7.100878e+01	-2.654315e+01	1.699007e+02
3.628031e+06	-2.649941e+01	1.752033e+02	-3.136054e+01	-4.983642e+00	-9.676016e+01	6.414429e+01	-2.654340e+01	1.699050e+02
3.628062e+06	-2.649917e+01	1.752021e+02	-3.135967e+01	-4.993221e+00	-9.745974e+01	5.599255e+01	-2.654365e+01	1.699093e+02
3.628094e+06	-2.649893e+01	1.752010e+02	-3.135880e+01	-5.002798e+00	-9.799969e+01	4.657983e+01	-2.654389e+01	1.699137e+02
3.628125e+06	-2.649869e+01	1.751999e+02	-3.135793e+01	-5.012373e+00	-9.830016e+01	3.620075e+01	-2.654414e+01	1.699180e+02
3.628156e+06	-2.649751e+01	1.751996e+02	-3.135933e+01	-5.007994e+00	-9.358038e+01	2.805207e+01	-2.654411e+01	1.699173e+02
3.628188e+06	-2.649632e+01	1.751993e+02	-3.136073e+01	-5.003614e+00	-9.048910e+01	2.474601e+01	-2.654408e+01	1.699166e+02
3.628219e+06	-2.649514e+01	1.751990e+02	-3.136212e+01	-4.999232e+00	-8.820189e+01	2.296685e+01	-2.654406e+01	1.699158e+02
3.628250e+06	-2.649395e+01	1.751987e+02	-3.136352e+01	-4.994849e+00	-8.638891e+01	2.185726e+01	-2.654403e+01	1.699151e+02
3.628281e+06	-2.649278e+01	1.751983e+02	-3.136492e+01	-4.990471e+00	-8.491665e+01	2.107781e+01	-2.654399e+01	1.699144e+02
3.628312e+06	-2.649233e+01	1.751905e+02	-3.136588e+01	-4.986845e+00	-8.744649e+01	1.655778e+01	-2.654290e+01	1.699166e+02
3.628344e+06	-2.649188e+01	1.751827e+02	-3.136684e+01	-4.983217e+00	-9.086882e+01	7.561047e+00	-2.654182e+01	1.699188e+02
3.628375e+06	-2.649143e+01	1.751749e+02	-3.136781e+01	-4.979589e+00	-9.554952e+01	-1.586040e+01	-2.654073e+01	1.699210e+02
3.628406e+06	-2.649099e+01	1.751671e+02	-3.136877e+01	-4.975961e+00	-9.744272e+01	-7.377662e+01	-2.653964e+01	1.699232e+02
3.628438e+06	-2.649054e+01	1.751593e+02	-3.136973e+01	-4.972331e+00	-9.281227e+01	-1.119647e+02	-2.653856e+01	1.699254e+02
3.628469e+06	-2.649144e+01	1.751692e+02	-3.136853e+01	-4.956035e+00	-9.901668e+01	-1.064485e+02	-2.654072e+01	1.699228e+02
3.628500e+06	-2.649236e+01	1.751795e+02	-3.136729e+01	-4.939538e+00	-1.120318e+02	9.358934e-01	-2.654293e+01	1.699202e+02
3.628531e+06	-2.649329e+01	1.751897e+02	-3.136605e+01	-4.923046e+00	-9.735278e+01	5.293046e+01	-2.654514e+01	1.699175e+02
3.628562e+06	-2.649421e+01	1.751999e+02	-3.136481e+01	-4.906558e+00	-9.181446e+01	5.733785e+01	-2.654736e+01	1.699149e+02
3.628594e+06	-2.649513e+01	1.752101e+02	-3.136357e+01	-4.890075e+00	-8.844701e+01	5.891735e+01	-2.654957e+01	1.699122e+02
3.628625e+06	-2.649551e+01	1.752074e+02	-3.136119e+01	-4.909274e+00	-8.906431e+01	6.034321e+01	-2.654785e+01	1.699182e+02
3.628656e+06	-2.649588e+01	1.752045e+02	-3.135880e+01	-4.928750e+00	-8.975381e+01	6.200824e+01	-2.654609e+01	1.699243e+02
3.628688e+06	-2.649625e+01	1.752017e+02	-3.135640e+01	-4.948216e+00	-9.049337e+01	6.397116e+01	-2.654433e+01	1.699303e+02
3.628719e+06	-2.649663e+01	1.751988e+02	-3.135401e+01	-4.967671e+00	-9.128847e+01	6.631361e+01	-2.654258e+01	1.699364e+02
3.628750e+06	-2.649700e+01	1.751960e+02	-3.135162e+01	-4.987115e+00	-9.214433e+01	6.914679e+01	-2.654082e+01	1.699424e+02
3.628781e+06	-2.649628e+01	1.751904e+02	-3.135346e+01	-4.986664e+00	-9.188846e+01	6.785218e+01	-2.654121e+01	1.699359e+02
3.628812e+06	-2.649556e+01	1.751849e+02	-3.135530e+01	-4.986213e+00	-9.163585e+01	6.663118e+01	-2.654160e+01	1.699294e+02
3.628844e+06	-2.649484e+01	1.751794e+02	-3.135714e+01	-4.985761e+00	-9.138676e+01	6.547873e+01	-2.654199e+01	1.699229e+02
3.628875e+06	-2.649412e+01	1.751738e+02	-3.135898e+01	-4.985309e+00	-9.114138e+01	6.439006e+01	-2.654237e+01	1.699164e+02
3.628906e+06	-2.649341e+01	1.751683e+02	-3.136080e+01	-4.984851e+00	-9.091441e+01	6.332539e+01	-2.654276e+01	1.699099e+02
3.628938e+06	-2.649326e+01	1.751687e+02	-3.135995e+01	-4.983636e+00	-9.259925e+01	5.672156e+01	-2.654245e+01	1.699079e+02
3.628969e+06	-2.649311e+01	1.751691e+02	-3.135910e+01	-4.982422e+00	-9.447068e+01	4.674816e+01	-2.654215e+01	1.699059e+02
3.629000e+06	-2.649296e+01	1.751695e+02	-3.135825e+01	-4.981207e+00	-9.632869e+01	3.131757e+01	-2.654184e+01	1.699039e+02
3.629031e+06	-2.649281e+01	1.751699e+02	-3.135740e+01	-4.979993e+00	-9.752947e+01	9.083740e+00	-2.654154e+01	1.699018e+02
3.629062e+06	-2.649266e+01	1.751703e+02	-3.135654e+01	-4.978779e+00	-9.724795e+01	-1.579060e+01	-2.654123e+01	1.698998e+02
3.629094e+06	-2.649276e+01	1.751732e+02	-3.135522e+01	-4.973637e+00	-9.872814e+01	-1.423289e+01	-2.654286e+01	1.699013e+02
3.629125e+06	-2.649286e+01	1.751762e+02	-3.135389e+01	-4.968432e+00	-1.005529e+02	-1.135662e+01	-2.654451e+01	1.699029e+02
3.629156e+06	-2.649296e+01	1.751792e+02	-3.135256e+01	-4.963229e+00	-1.028200e+02	-6.746531e+00	-2.654617e+01	1.699044e+02
3.629188e+06	-2.649306e+01	1.751822e+02	-3.135123e+01	-4.958028e+00	-1.057507e+02	1.661436e+00	-2.654782e+01	1.699059e+02
3.629219e+06	-2.649316e+01	1.751852e+02	-3.134990e+01	-4.952828e+00	-1.095318e+02	2.012271e+01	-2.654948e+01	1.699075e+02
3.629250e+06	-2.649334e+01	1.751755e+02	-3.135045e+01	-4.956163e+00	-1.145873e+02	8.245594e+01	-2.654869e+01	1.699082e+02
3.629281e+06	-2.649352e+01	1.751658e+02	-3.135102e+01	-4.959567e+00	-1.086922e+02	1.361490e+02	-2.654788e+01	1.699090e+02
3.629312e+06	-2.649369e+01	1.751560e+02	-3.135158e+01	-4.962972e+00	-1.038408e+02	1.496727e+02	-2.654707e+01	1.699097e+02
3.629344e+06	-2.649387e+01	1.751463e+02	-3.135215e+01	-4.966377e+00	-1.006135e+02	1.549662e+02	-2.654627e+01	1.699105e+02
3.629375e+06	-2.649405e+01	1.751365e+02	-3.135271e+01	-4.969783e+00	-9.823614e+01	1.577399e+02	-2.654546e+01	1.699112e+02
3.629406e+06	-2.649429e+01	1.751440e+02	-3.135263e+01	-4.964285e+00	-1.017931e+02	1.395090e+02	-2.654615e+01	1.699161e+02
3.629438e+06	-2.649454e+01	1.751514e+02	-3.135255e+01	-4.958787e+00	-1.044183e+02	9.990733e+01	-2.654684e+01	1.699210e+02
3.629469e+06	-2.649478e+01	1.751589e+02	-3.135246e+01	-4.953290e+00	-1.022153e+02	5.790204e+01	-2.654753e+01	1.699259e+02
3.629500e+06	-2.649503e+01	1.751663e+02	-3.135238e+01	-4.947792e+00	-9.860624e+01	3.785884e+01	-2.654822e+01	1.699308e+02
3.629531e+06	-2.649527e+01	1.751737e+02	-3.135230e+01	-4.942353e+00	-9.572032e+01	2.861123e+01	-2.654889e+01	1.699357e+02
3.629562e+06	-2.649587e+01	1.751756e+02	-3.135225e+01	-4.944128e+00	-9.652544e+01	2.974076e+01	-2.654790e+01	1.699327e+02
3.629594e+06	-2.649646e+01	1.751775e+02	-3.135220e+01	-4.945902e+00	-9.740835e+01	3.111263e+01	-2.654691e+01	1.699297e+02
3.629625e+06	-2.649705e+01	1.751794e+02	-3.135214e+01	-4.947677e+00	-9.838436e+01	3.281198e+01	-2.654592e+01	1.699267e+02
3.629656e+06	-2.649764e+01	1.751813e+02	-3.135209e+01	-4.949451e+00	-9.947309e+01	3.496752e+01	-2.654493e+01	1.699237e+02
3.629688e+06	-2.649823e+01	1.751832e+02	-3.135204e+01	-4.951226e+00	-1.006996e+02	3.778196e+01	-2.654395e+01	1.699207e+02
3.629719e+06	-2.649766e+01	1.751867e+02	-3.135151e+01	-4.942314e+00	-1.071944e+02	6.215892e+00	-2.654481e+01	1.699225e+02
3.629750e+06	-2.649706e+01	1.751902e+02	-3.135096e+01	-4.933230e+00	-1.060634e+02	-7.404310e+01	-2.654571e+01	1.699243e+02
3.629781e+06	-2.649647e+01	1.751938e+02	-3.135042e+01	-4.924147e+00	-9.985522e+01	-9.909159e+01	-2.654660e+01	1.699261e+02
3.629812e+06	-2.649588e+01	1.751973e+02	-3.134988e+01	-4.915065e+00	-9.593485e+01	-1.066721e+02	-2.654750e+01	1.699279e+02
3.629844e+06	-2.649528e+01	1.752009e+02	-3.134933e+01	-4.905985e+00	-9.319175e+01	-1.101839e+02	-2.654839e+01	1.699297e+02
3.629875e+06	-2.649595e+01	1.751897e+02	-3.135071e+01	-4.924879e+00	-9.569944e+01	-1.200477e+02	-2.654815e+01	1.699418e+02
3.629906e+06	-2.649663e+01	1.751784e+02	-3.135210e+01	-4.944005e+00	-9.858233e+01	-1.387864e+02	-2.654790e+01	1.699540e+02
3.629938e+06	-2.649731e+01	1.751671e+02	-3.135349e+01	-4.963137e+00	-1.003660e+02	-1.721372e+02	-2.654765e+01	1.699663e+02
3.629969e+06	-2.649798e+01	1.751558e+02	-3.135488e+01	-4.982275e+00	-9.888950e+01	1.531437e+02	-2.654739e+01	1.699785e+02
3.630000e+06	-2.649866e+01	1.751445e+02	-3.135627e+01	-5.001419e+00	-9.601609e+01	1.329513e+02	-2.654714e+01	1.699907e+02
3.630031e+06	-2.649818e+01	1.751555e+02	-3.135663e+01	-4.998623e+00	-9.595395e+01	1.102330e+02	-2.654557e+01	1.699788e+02
3.630062e+06	-2.649769e+01	1.751666e+02	-3.135698e+01	-4.995827e+00	-9.474020e+01	9.075533e+01	-2.654400e+01	1.699668e+02
3.630094e+06	-2.649721e+01	1.751776e+02	-3.135734e+01	-4.993030e+00	-9.304670e+01	7.695188e+01	-2.654243e+01	1.699549e+02
3.630125e+06	-2.649672e+01	1.751887e+02	-3.135770e+01	-4.990234e+00	-9.134198e+01	6.766715e+01	-2.654087e+01	1.699430e+02
3.630156e+06	-2.649623e+01	1.751996e+02	-3.135805e+01	-4.987413e+00	-8.980131e+01	6.127126e+01	-2.653932e+01	1.699312e+02
3.630188e+06	-2.649552e+01	1.751981e+02	-3.135751e+01	-4.981605e+00	-9.027145e+01	5.127604e+01	-2.654084e+01	1.699291e+02
3.630219e+06	-2.649480e+01	1.751966e+02	-3.135698e+01	-4.975798e+00	-9.046714e+01	4.047529e+01	-2.654236e+01	1.699270e+02
3.630250e+06	-2.649408e+01	1.751951e+02	-3.135645e+01	-4.969992e+00	-9.034963e+01	2.957570e+01	-2.654388e+01	1.699250e+02
3.630281e+06	-2.649336e+01	1.751936e+02	-3.135592e+01	-4.964187e+00	-8.994264e+01	1.932193e+01	-2.654540e+01	1.699229e+02
3.630312e+06	-2.649264e+01	1.751921e+02	-3.135539e+01	-4.958382e+00	-8.931830e+01	1.022653e+01	-2.654693e+01	1.699208e+02
3.630344e+06	-2.649364e+01	1.751852e+02	-3.135382e+01	-4.956711e+00	-9.024949e+01	4.917913e+00	-2.654706e+01	1.699214e+02
3.630375e+06	-2.649466e+01	1.751781e+02	-3.135223e+01	-4.955107e+00	-9.122278e+01	-1.643121e+00	-2.654716e+01	1.699219e+02
3.630406e+06	-2.649569e+01	1.751711e+02	-3.135064e+01	-4.953504e+00	-9.215827e+01	-9.826624e+00	-2.654727e+01	1.699225e+02
3.630438e+06	-2.649672e+01	1.751640e+02	-3.134906e+01	-4.951902e+00	-9.296297e+01	-1.984242e+01	-2.654738e+01	1.699230e+02
3.630469e+06	-2.649774e+01	1.751570e+02	-3.134747e+01	-4.950300e+00	-9.350752e+01	-3.156350e+01	-2.654749e+01	1.699236e+02
3.630500e+06	-2.649651e+01	1.751632e+02	-3.134723e+01	-4.961916e+00	-9.604596e+01	-2.534177e+01	-2.654564e+01	1.699244e+02
3.630531e+06	-2.649525e+01	1.751696e+02	-3.134700e+01	-4.973638e+00	-9.935938e+01	-1.277219e+01	-2.654378e+01	1.699252e+02
3.630562e+06	-2.649400e+01	1.751760e+02	-3.134677e+01	-4.985360e+00	-1.030528e+02	1.640997e+01	-2.654191e+01	1.699259e+02
3.630594e+06	-2.649274e+01	1.751824e+02	-3.134653e+01	-4.997081e+00	-1.030628e+02	6.472656e+01	-2.654005e+01	1.699267e+02
3.630625e+06	-2.649149e+01	1.751888e+02	-3.134630e+01	-5.008801e+00	-9.937211e+01	9.399236e+01	-2.653819e+01	1.699275e+02
3.630656e+06	-2.649337e+01	1.751865e+02	-3.134745e+01	-5.004504e+00	-1.019647e+02	7.024231e+01	-2.653941e+01	1.699306e+02
3.630688e+06	-2.649525e+01	1.751842e+02	-3.134860e+01	-5.000205e+00	-1.025104e+02	3.493056e+01	-2.654062e+01	1.699337e+02
3.630719e+06	-2.649713e+01	1.751818e+02	-3.134974e+01	-4.995906e+00	-1.003141e+02	6.376516e+00	-2.654184e+01	1.699369e+02
3.630750e+06	-2.649901e+01	1.751795e+02	-3.135089e+01	-4.991605e+00	-9.758504e+01	-9.353954e+00	-2.654305e+01	1.699400e+02
3.630781e+06	-2.650087e+01	1.751772e+02	-3.135201e+01	-4.987253e+00	-9.525211e+01	-1.778266e+01	-2.654426e+01	1.699431e+02
3.630812e+06	-2.650020e+01	1.751795e+02	-3.134965e+01	-4.976574e+00	-9.544398e+01	8.591904e+00	-2.654372e+01	1.699419e+02
3.630844e+06	-2.649952e+01	1.751818e+02	-3.134729e+01	-4.965900e+00	-9.404050e+01	3.132245e+01	-2.654318e+01	1.699408e+02
3.630875e+06	-2.649885e+01	1.751841e+02	-3.134493e+01	-4.955233e+00	-9.204025e+01	4.645926e+01	-2.654264e+01	1.699396e+02
3.630906e+06	-2.649818e+01	1.751865e+02	-3.134258e+01	-4.944571e+00	-9.009806e+01	5.600612e+01	-2.654211e+01	1.699385e+02
3.630938e+06	-2.649750e+01	1.751888e+02	-3.134022e+01	-4.933915e+00	-8.838028e+01	6.225369e+01	-2.654157e+01	1.699373e+02
3.630969e+06	-2.649759e+01	1.751891e+02	-3.134179e+01	-4.925086e+00	-8.934893e+01	6.711128e+01	-2.654246e+01	1.699283e+02
3.631000e+06	-2.649770e+01	1.751894e+02	-3.134342e+01	-4.916282e+00	-9.040217e+01	7.325981e+01	-2.654338e+01	1.699192e+02
3.631031e+06	-2.649780e+01	1.751898e+02	-3.134505e+01	-4.907476e+00	-9.145479e+01	8.110473e+01	-2.654430e+01	1.699100e+02
3.631062e+06	-2.649790e+01	1.751901e+02	-3.134668e+01	-4.898666e+00	-9.241747e+01	9.101678e+01	-2.654522e+01	1.699009e+02
3.631094e+06	-2.649801e+01	1.751904e+02	-3.134832e+01	-4.889853e+00	-9.314361e+01	1.030853e+02	-2.654613e+01	1.698918e+02
3.631125e+06	-2.649742e+01	1.752025e+02	-3.134820e+01	-4.914452e+00	-9.572897e+01	8.003981e+01	-2.654584e+01	1.698964e+02
3.631156e+06	-2.649682e+01	1.752147e+02	-3.134808e+01	-4.939320e+00	-9.636969e+01	4.499141e+01	-2.654553e+01	1.699011e+02
3.631188e+06	-2.649622e+01	1.752268e+02	-3.134795e+01	-4.964188e+00	-9.423821e+01	1.606403e+01	-2.654523e+01	1.699058e+02
3.631219e+06	-2.649563e+01	1.752390e+02	-3.134781e+01	-4.989055e+00	-9.151276e+01	1.126925e-02	-2.654492e+01	1.699106e+02
3.631250e+06	-2.649503e+01	1.752512e+02	-3.134768e+01	-5.013921e+00	-8.914453e+01	-8.837785e+00	-2.654462e+01	1.699153e+02
3.631281e+06	-2.649364e+01	1.752377e+02	-3.134858e+01	-4.999935e+00	-9.157008e+01	-2.555549e-01	-2.654462e+01	1.699154e+02
3.631312e+06	-2.649226e+01	1.752241e+02	-3.134949e+01	-4.985946e+00	-9.442081e+01	1.564371e+01	-2.654461e+01	1.699155e+02
