# Hz S dB R 50.000
3.625469e+06	-2.650019e+01	1.753877e+02	-3.131085e+01	-4.713449e+00	-1.022839e+02	1.449325e+02	-2.651914e+01	1.700910e+02
3.625500e+06	-2.650019e+01	1.753833e+02	-3.131202e+01	-4.732027e+00	-1.066929e+02	1.536023e+02	-2.652027e+01	1.700886e+02
3.625532e+06	-2.650019e+01	1.753790e+02	-3.131320e+01	-4.750610e+00	-1.138907e+02	-1.713996e+02	-2.652139e+01	1.700863e+02
3.625563e+06	-2.650019e+01	1.753746e+02	-3.131437e+01	-4.769198e+00	-1.114831e+02	-8.678602e+01	-2.652252e+01	1.700839e+02
3.625594e+06	-2.650019e+01	1.753702e+02	-3.131554e+01	-4.787791e+00	-1.051587e+02	-6.542077e+01	-2.652364e+01	1.700815e+02
3.625625e+06	-2.650019e+01	1.753659e+02	-3.131673e+01	-4.806382e+00	-1.013085e+02	-5.885157e+01	-2.652476e+01	1.700792e+02
3.625656e+06	-2.650070e+01	1.753663e+02	-3.132097e+01	-4.824090e+00	-9.976376e+01	-4.517146e+01	-2.652469e+01	1.700854e+02
3.625688e+06	-2.650122e+01	1.753667e+02	-3.132521e+01	-4.841816e+00	-9.815788e+01	-3.570033e+01	-2.652461e+01	1.700916e+02
3.625719e+06	-2.650173e+01	1.753671e+02	-3.132945e+01	-4.859559e+00	-9.666134e+01	-2.908936e+01	-2.652454e+01	1.700978e+02
3.625750e+06	-2.650224e+01	1.753675e+02	-3.133369e+01	-4.877320e+00	-9.531327e+01	-2.432975e+01	-2.652446e+01	1.701040e+02
3.625782e+06	-2.650275e+01	1.753680e+02	-3.133785e+01	-4.895095e+00	-9.413144e+01	-2.083412e+01	-2.652437e+01	1.701100e+02
3.625813e+06	-2.650310e+01	1.753716e+02	-3.133630e+01	-4.912706e+00	-9.448999e+01	-2.085176e+01	-2.652313e+01	1.701064e+02
3.625844e+06	-2.650345e+01	1.753752e+02	-3.133476e+01	-4.930312e+00	-9.486398e+01	-2.087096e+01	-2.652189e+01	1.701028e+02
3.625875e+06	-2.650380e+01	1.753788e+02	-3.133322e+01	-4.947911e+00	-9.525480e+01	-2.089192e+01	-2.652066e+01	1.700991e+02
3.625906e+06	-2.650415e+01	1.753824e+02	-3.133168e+01	-4.965504e+00	-9.566403e+01	-2.091490e+01	-2.651942e+01	1.700955e+02
3.625938e+06	-2.650451e+01	1.753861e+02	-3.133013e+01	-4.983090e+00	-9.609351e+01	-2.094022e+01	-2.651818e+01	1.700918e+02
3.625969e+06	-2.650438e+01	1.753842e+02	-3.133124e+01	-4.982511e+00	-9.878061e+01	1.659680e+01	-2.651873e+01	1.700963e+02
3.626000e+06	-2.650426e+01	1.753822e+02	-3.133238e+01	-4.981785e+00	-9.689140e+01	5.889659e+01	-2.651930e+01	1.701009e+02
3.626032e+06	-2.650413e+01	1.753802e+02	-3.133351e+01	-4.981059e+00	-9.333680e+01	7.997279e+01	-2.651986e+01	1.701055e+02
3.626063e+06	-2.650401e+01	1.753783e+02	-3.133465e+01	-4.980333e+00	-9.040936e+01	8.978979e+01	-2.652043e+01	1.701101e+02
3.626094e+06	-2.650388e+01	1.753763e+02	-3.133578e+01	-4.979607e+00	-8.811535e+01	9.515286e+01	-2.652099e+01	1.701147e+02
3.626125e+06	-2.650472e+01	1.753708e+02	-3.133483e+01	-4.985123e+00	-8.850021e+01	8.735467e+01	-2.652097e+01	1.701118e+02
3.626156e+06	-2.650557e+01	1.753653e+02	-3.133389e+01	-4.990637e+00	-8.872247e+01	7.898799e+01	-2.652095e+01	1.701088e+02
3.626188e+06	-2.650641e+01	1.753598e+02	-3.133294e+01	-4.996151e+00	-8.875513e+01	7.037026e+01	-2.652093e+01	1.701059e+02
3.626219e+06	-2.650725e+01	1.753543e+02	-3.133200e+01	-5.001663e+00	-8.859395e+01	6.188004e+01	-2.652091e+01	1.701029e+02
3.626250e+06	-2.650809e+01	1.753488e+02	-3.133107e+01	-5.007000e+00	-8.826826e+01	5.389312e+01	-2.652089e+01	1.701000e+02
3.626282e+06	-2.650771e+01	1.753545e+02	-3.133262e+01	-4.990748e+00	-8.900312e+01	4.944554e+01	-2.652095e+01	1.701049e+02
3.626313e+06	-2.650733e+01	1.753601e+02	-3.133416e+01	-4.974490e+00	-8.973799e+01	4.417583e+01	-2.652102e+01	1.701097e+02
3.626344e+06	-2.650695e+01	1.753657e+02	-3.133570e+01	-4.958226e+00	-9.044575e+01	3.795053e+01	-2.652108e+01	1.701145e+02
3.626375e+06	-2.650656e+01	1.753713e+02	-3.133724e+01	-4.941957e+00	-9.108561e+01	3.067517e+01	-2.652115e+01	1.701193e+02
3.626406e+06	-2.650619e+01	1.753768e+02	-3.133881e+01	-4.926380e+00	-9.161458e+01	2.260640e+01	-2.652122e+01	1.701240e+02
3.626438e+06	-2.650588e+01	1.753775e+02	-3.134179e+01	-4.953770e+00	-9.275305e+01	3.048545e+01	-2.652153e+01	1.701175e+02
3.626469e+06	-2.650558e+01	1.753782e+02	-3.134477e+01	-4.981179e+00	-9.381785e+01	4.066089e+01	-2.652185e+01	1.701110e+02
3.626500e+06	-2.650527e+01	1.753790e+02	-3.134775e+01	-5.008607e+00	-9.464127e+01	5.334417e+01	-2.652216e+01	1.701045e+02
3.626532e+06	-2.650497e+01	1.753797e+02	-3.135073e+01	-5.036054e+00	-9.501133e+01	6.793421e+01	-2.652248e+01	1.700980e+02
3.626563e+06	-2.650466e+01	1.753804e+02	-3.135371e+01	-5.063519e+00	-9.480172e+01	8.280249e+01	-2.652280e+01	1.700916e+02
3.626594e+06	-2.650490e+01	1.753793e+02	-3.135496e+01	-5.062764e+00	-9.674705e+01	8.013282e+01	-2.652307e+01	1.700919e+02
3.626625e+06	-2.650515e+01	1.753782e+02	-3.135619e+01	-5.061780e+00	-9.924151e+01	7.544767e+01	-2.652333e+01	1.700923e+02
3.626656e+06	-2.650540e+01	1.753770e+02	-3.135743e+01	-5.060796e+00	-1.025844e+02	6.624369e+01	-2.652360e+01	1.700927e+02
3.626688e+06	-2.650564e+01	1.753759e+02	-3.135866e+01	-5.059812e+00	-1.070553e+02	4.308665e+01	-2.652387e+01	1.700931e+02
3.626719e+06	-2.650589e+01	1.753748e+02	-3.135990e+01	-5.058828e+00	-1.089527e+02	-1.186132e+01	-2.652414e+01	1.700935e+02
3.626750e+06	-2.650512e+01	1.753734e+02	-3.135810e+01	-5.053829e+00	-1.083097e+02	1.522712e+01	-2.652345e+01	1.700886e+02
3.626782e+06	-2.650436e+01	1.753720e+02	-3.135629e+01	-5.048831e+00	-1.063916e+02	3.504803e+01	-2.652276e+01	1.700836e+02
3.626813e+06	-2.650359e+01	1.753705e+02	-3.135449e+01	-5.043836e+00	-1.042815e+02	4.736114e+01	-2.652207e+01	1.700787e+02
3.626844e+06	-2.650282e+01	1.753691e+02	-3.135269e+01	-5.038843e+00	-1.023781e+02	5.508194e+01	-2.652138e+01	1.700738e+02
3.626875e+06	-2.650207e+01	1.753677e+02	-3.135091e+01	-5.033913e+00	-1.007679e+02	6.008462e+01	-2.652069e+01	1.700690e+02
3.626906e+06	-2.650309e+01	1.753697e+02	-3.135174e+01	-5.036522e+00	-1.043448e+02	4.386418e+01	-2.652077e+01	1.700849e+02
3.626938e+06	-2.650411e+01	1.753716e+02	-3.135257e+01	-5.039133e+00	-1.075243e+02	6.414772e+00	-2.652086e+01	1.701008e+02
3.626969e+06	-2.650513e+01	1.753736e+02	-3.135341e+01	-5.041743e+00	-1.057629e+02	-3.930170e+01	-2.652094e+01	1.701167e+02
3.627000e+06	-2.650615e+01	1.753756e+02	-3.135424e+01	-5.044354e+00	-1.019855e+02	-6.153380e+01	-2.652102e+01	1.701326e+02
3.627032e+06	-2.650713e+01	1.753775e+02	-3.135509e+01	-5.046790e+00	-9.893862e+01	-7.146127e+01	-2.652110e+01	1.701482e+02
3.627063e+06	-2.650608e+01	1.753755e+02	-3.135677e+01	-5.038409e+00	-9.712114e+01	-7.759736e+01	-2.652116e+01	1.701417e+02
3.627094e+06	-2.650502e+01	1.753735e+02	-3.135846e+01	-5.030025e+00	-9.556219e+01	-8.175283e+01	-2.652122e+01	1.701352e+02
3.627125e+06	-2.650396e+01	1.753716e+02	-3.136015e+01	-5.021638e+00	-9.421285e+01	-8.472463e+01	-2.652127e+01	1.701287e+02
3.627156e+06	-2.650291e+01	1.753696e+02	-3.136184e+01	-5.013247e+00	-9.302996e+01	-8.694448e+01	-2.652133e+01	1.701222e+02
3.627188e+06	-2.650185e+01	1.753676e+02	-3.136353e+01	-5.004853e+00	-9.198009e+01	-8.866096e+01	-2.652139e+01	1.701158e+02
3.627219e+06	-2.650220e+01	1.753692e+02	-3.136052e+01	-5.015492e+00	-9.570715e+01	-8.433123e+01	-2.652150e+01	1.701130e+02
3.627250e+06	-2.650256e+01	1.753708e+02	-3.135747e+01	-5.026276e+00	-1.021280e+02	-7.010746e+01	-2.652161e+01	1.701102e+02
3.627282e+06	-2.650292e+01	1.753724e+02	-3.135442e+01	-5.037054e+00	-1.078839e+02	2.324155e+01	-2.652171e+01	1.701074e+02
3.627313e+06	-2.650328e+01	1.753740e+02	-3.135138e+01	-5.047823e+00	-9.873686e+01	6.574362e+01	-2.652182e+01	1.701047e+02
3.627344e+06	-2.650364e+01	1.753756e+02	-3.134833e+01	-5.058585e+00	-9.383318e+01	7.344551e+01	-2.652193e+01	1.701019e+02
3.627375e+06	-2.650258e+01	1.753767e+02	-3.134944e+01	-5.060806e+00	-9.605344e+01	7.349288e+01	-2.652069e+01	1.701049e+02
3.627406e+06	-2.650153e+01	1.753778e+02	-3.135055e+01	-5.063027e+00	-9.904367e+01	7.357919e+01	-2.651945e+01	1.701078e+02
3.627438e+06	-2.650047e+01	1.753790e+02	-3.135165e+01	-5.065249e+00	-1.036405e+02	7.378592e+01	-2.651821e+01	1.701108e+02
3.627469e+06	-2.649942e+01	1.753801e+02	-3.135276e+01	-5.067472e+00	-1.140277e+02	7.494637e+01	-2.651697e+01	1.701138e+02
3.627500e+06	-2.649838e+01	1.753812e+02	-3.135386e+01	-5.069603e+00	-1.118982e+02	-1.080923e+02	-2.651575e+01	1.701167e+02
3.627532e+06	-2.649953e+01	1.753868e+02	-3.135421e+01	-5.060334e+00	-1.255391e+02	1.356490e+02	-2.651642e+01	1.701224e+02
3.627563e+06	-2.650069e+01	1.753923e+02	-3.135456e+01	-5.051065e+00	-1.100202e+02	8.939279e+01	-2.651710e+01	1.701280e+02
3.627594e+06	-2.650185e+01	1.753979e+02	-3.135491e+01	-5.041794e+00	-1.044999e+02	8.571775e+01	-2.651777e+01	1.701337e+02
3.627625e+06	-2.650300e+01	1.754034e+02	-3.135526e+01	-5.032523e+00	-1.011427e+02	8.439606e+01	-2.651845e+01	1.701393e+02
3.627656e+06	-2.650415e+01	1.754088e+02	-3.135562e+01	-5.023475e+00	-9.876879e+01	8.392228e+01	-2.651913e+01	1.701449e+02
3.627688e+06	-2.650457e+01	1.754030e+02	-3.135689e+01	-5.028191e+00	-9.914108e+01	9.694903e+01	-2.652069e+01	1.701422e+02
3.627719e+06	-2.650500e+01	1.753971e+02	-3.135816e+01	-5.032907e+00	-9.904750e+01	1.104084e+02	-2.652224e+01	1.701395e+02
3.627750e+06	-2.650542e+01	1.753913e+02	-3.135942e+01	-5.037625e+00	-9.851584e+01	1.229172e+02	-2.652380e+01	1.701369e+02
3.627782e+06	-2.650585e+01	1.753855e+02	-3.136069e+01	-5.042345e+00	-9.768230e+01	1.335835e+02	-2.652535e+01	1.701342e+02
3.627813e+06	-2.650628e+01	1.753796e+02	-3.136196e+01	-5.047065e+00	-9.669873e+01	1.422191e+02	-2.652691e+01	1.701315e+02
3.627844e+06	-2.650539e+01	1.753840e+02	-3.136100e+01	-5.046223e+00	-9.765807e+01	1.251114e+02	-2.652600e+01	1.701272e+02
3.627875e+06	-2.650450e+01	1.753884e+02	-3.136002e+01	-5.045336e+00	-9.775368e+01	1.054587e+02	-2.652507e+01	1.701230e+02
3.627906e+06	-2.650360e+01	1.753928e+02	-3.135904e+01	-5.044449e+00	-9.691303e+01	8.747943e+01	-2.652414e+01	1.701187e+02
3.627938e+06	-2.650271e+01	1.753972e+02	-3.135806e+01	-5.043562e+00	-9.554484e+01	7.363053e+01	-2.652321e+01	1.701144e+02
3.627969e+06	-2.650181e+01	1.754016e+02	-3.135708e+01	-5.042676e+00	-9.404633e+01	6.372198e+01	-2.652228e+01	1.701101e+02
3.628000e+06	-2.650215e+01	1.753916e+02	-3.135816e+01	-5.044904e+00	-9.377255e+01	4.224707e+01	-2.652140e+01	1.701062e+02
3.628032e+06	-2.650250e+01	1.753817e+02	-3.135924e+01	-5.047133e+00	-9.252722e+01	2.434732e+01	-2.652052e+01	1.701023e+02
3.628063e+06	-2.650284e+01	1.753717e+02	-3.136032e+01	-5.049362e+00	-9.090534e+01	1.158302e+01	-2.651964e+01	1.700984e+02
3.628094e+06	-2.650318e+01	1.753617e+02	-3.136141e+01	-5.051592e+00	-8.928663e+01	2.831991e+00	-2.651876e+01	1.700946e+02
3.628125e+06	-2.650352e+01	1.753519e+02	-3.136249e+01	-5.053805e+00	-8.782280e+01	-3.216890e+00	-2.651790e+01	1.700907e+02
3.628156e+06	-2.650329e+01	1.753586e+02	-3.136322e+01	-5.053893e+00	-8.912441e+01	-3.684011e-01	-2.651860e+01	1.700941e+02
3.628188e+06	-2.650307e+01	1.753653e+02	-3.136396e+01	-5.053981e+00	-9.062072e+01	3.564135e+00	-2.651931e+01	1.700974e+02
3.628219e+06	-2.650284e+01	1.753720e+02	-3.136469e+01	-5.054069e+00	-9.235649e+01	9.274378e+00	-2.652002e+01	1.701008e+02
3.628250e+06	-2.650261e+01	1.753788e+02	-3.136543e+01	-5.054157e+00	-9.435784e+01	1.807473e+01	-2.652072e+01	1.701041e+02
3.628282e+06	-2.650239e+01	1.753854e+02	-3.136611e+01	-5.054311e+00	-9.644626e+01	3.201725e+01	-2.652142e+01	1.701075e+02
3.628313e+06	-2.650229e+01	1.753861e+02	-3.136378e+01	-5.058481e+00	-9.436488e+01	2.864047e+01	-2.652126e+01	1.701149e+02
3.628344e+06	-2.650219e+01	1.753869e+02	-3.136145e+01	-5.062650e+00	-9.267099e+01	2.645476e+01	-2.652110e+01	1.701223e+02
3.628375e+06	-2.650208e+01	1.753876e+02	-3.135912e+01	-5.066816e+00	-9.124665e+01	2.492851e+01	-2.652094e+01	1.701297e+02
3.628406e+06	-2.650198e+01	1.753884e+02	-3.135680e+01	-5.070980e+00	-9.001935e+01	2.380385e+01	-2.652078e+01	1.701371e+02
3.628438e+06	-2.650188e+01	1.753891e+02	-3.135447e+01	-5.075142e+00	-8.894193e+01	2.294132e+01	-2.652062e+01	1.701445e+02
3.628469e+06	-2.650219e+01	1.753829e+02	-3.135614e+01	-5.066908e+00	-9.081419e+01	2.241118e+01	-2.652056e+01	1.701337e+02
3.628500e+06	-2.650249e+01	1.753767e+02	-3.135785e+01	-5.058570e+00	-9.323818e+01	2.154404e+01	-2.652051e+01	1.701227e+02
3.628532e+06	-2.650280e+01	1.753705e+02	-3.135955e+01	-5.050230e+00	-9.660663e+01	1.985453e+01	-2.652045e+01	1.701117e+02
3.628563e+06	-2.650311e+01	1.753643e+02	-3.136125e+01	-5.041886e+00	-1.021427e+02	1.514028e+01	-2.652039e+01	1.701007e+02
3.628594e+06	-2.650342e+01	1.753581e+02	-3.136296e+01	-5.033539e+00	-1.164175e+02	-3.838915e+01	-2.652033e+01	1.700897e+02
3.628625e+06	-2.650370e+01	1.753715e+02	-3.136190e+01	-5.032597e+00	-1.043986e+02	-7.247629e+01	-2.651958e+01	1.700940e+02
3.628656e+06	-2.650399e+01	1.753849e+02	-3.136085e+01	-5.031656e+00	-9.930321e+01	-7.695745e+01	-2.651883e+01	1.700983e+02
3.628688e+06	-2.650427e+01	1.753983e+02	-3.135979e+01	-5.030714e+00	-9.609892e+01	-7.867943e+01	-2.651808e+01	1.701026e+02
3.628719e+06	-2.650455e+01	1.754117e+02	-3.135874e+01	-5.029773e+00	-9.376020e+01	-7.958899e+01	-2.651733e+01	1.701068e+02
3.628750e+06	-2.650483e+01	1.754249e+02	-3.135769e+01	-5.028983e+00	-9.194257e+01	-8.005711e+01	-2.651660e+01	1.701112e+02
3.628782e+06	-2.650489e+01	1.754174e+02	-3.135761e+01	-5.046909e+00	-9.319276e+01	-6.688846e+01	-2.651827e+01	1.701186e+02
3.628813e+06	-2.650494e+01	1.754098e+02	-3.135753e+01	-5.064835e+00	-9.397164e+01	-5.016411e+01	-2.651993e+01	1.701260e+02
3.628844e+06	-2.650500e+01	1.754023e+02	-3.135745e+01	-5.082760e+00	-9.394461e+01	-3.187653e+01	-2.652160e+01	1.701334e+02
3.628875e+06	-2.650506e+01	1.753947e+02	-3.135736e+01	-5.100684e+00	-9.312530e+01	-1.533835e+01	-2.652326e+01	1.701408e+02
3.628906e+06	-2.650508e+01	1.753874e+02	-3.135724e+01	-5.118049e+00	-9.188090e+01	-2.497699e+00	-2.652491e+01	1.701481e+02
3.628938e+06	-2.650351e+01	1.753931e+02	-3.135476e+01	-5.100978e+00	-9.188183e+01	2.615054e+00	-2.652541e+01	1.701480e+02
3.628969e+06	-2.650193e+01	1.753989e+02	-3.135228e+01	-5.083916e+00	-9.181418e+01	7.688581e+00	-2.652591e+01	1.701479e+02
3.629000e+06	-2.650035e+01	1.754046e+02	-3.134980e+01	-5.066864e+00	-9.168105e+01	1.264588e+01	-2.652641e+01	1.701478e+02
3.629032e+06	-2.649877e+01	1.754103e+02	-3.134732e+01	-5.049822e+00	-9.148828e+01	1.742019e+01	-2.652691e+01	1.701477e+02
3.629063e+06	-2.649719e+01	1.754161e+02	-3.134484e+01	-5.032790e+00	-9.124361e+01	2.195951e+01	-2.652742e+01	1.701476e+02
3.629094e+06	-2.649879e+01	1.754172e+02	-3.134938e+01	-5.036582e+00	-9.298278e+01	2.421093e+01	-2.652602e+01	1.701478e+02
3.629125e+06	-2.650040e+01	1.754183e+02	-3.135397e+01	-5.040547e+00	-9.515642e+01	2.771845e+01	-2.652461e+01	1.701479e+02
3.629156e+06	-2.650202e+01	1.754194e+02	-3.135857e+01	-5.044515e+00	-9.798152e+01	3.396336e+01	-2.652319e+01	1.701481e+02
3.629188e+06	-2.650364e+01	1.754205e+02	-3.136318e+01	-5.048488e+00	-1.018341e+02	4.753463e+01	-2.652178e+01	1.701482e+02
3.629219e+06	-2.650526e+01	1.754216e+02	-3.136778e+01	-5.052465e+00	-1.061616e+02	8.453167e+01	-2.652037e+01	1.701484e+02
3.629250e+06	-2.650449e+01	1.754159e+02	-3.136593e+01	-5.063165e+00	-1.008636e+02	6.899534e+01	-2.652149e+01	1.701391e+02
3.629282e+06	-2.650373e+01	1.754103e+02	-3.136408e+01	-5.073860e+00	-9.743703e+01	6.336566e+01	-2.652261e+01	1.701299e+02
3.629313e+06	-2.650296e+01	1.754046e+02	-3.136223e+01	-5.084551e+00	-9.495428e+01	6.051793e+01	-2.652374e+01	1.701206e+02
3.629344e+06	-2.650220e+01	1.753990e+02	-3.136038e+01	-5.095237e+00	-9.301539e+01	5.880673e+01	-2.652486e+01	1.701113e+02
3.629375e+06	-2.650145e+01	1.753934e+02	-3.135853e+01	-5.105805e+00	-9.144870e+01	5.771443e+01	-2.652596e+01	1.701021e+02
3.629406e+06	-2.650225e+01	1.753920e+02	-3.135639e+01	-5.102292e+00	-9.276314e+01	6.356106e+01	-2.652502e+01	1.701065e+02
3.629438e+06	-2.650306e+01	1.753906e+02	-3.135425e+01	-5.098782e+00	-9.416492e+01	7.156635e+01	-2.652408e+01	1.701108e+02
3.629469e+06	-2.650387e+01	1.753892e+02	-3.135211e+01	-5.095273e+00	-9.555435e+01	8.263845e+01	-2.652314e+01	1.701151e+02
3.629500e+06	-2.650468e+01	1.753878e+02	-3.134997e+01	-5.091765e+00	-9.668649e+01	9.751468e+01	-2.652220e+01	1.701194e+02
3.629532e+06	-2.650548e+01	1.753864e+02	-3.134788e+01	-5.088196e+00	-9.719529e+01	1.150839e+02	-2.652126e+01	1.701238e+02
3.629563e+06	-2.650594e+01	1.753892e+02	-3.134849e+01	-5.080667e+00	-9.849252e+01	1.038945e+02	-2.652010e+01	1.701270e+02
3.629594e+06	-2.650640e+01	1.753919e+02	-3.134910e+01	-5.073138e+00	-9.950488e+01	8.922981e+01	-2.651894e+01	1.701303e+02
3.629625e+06	-2.650687e+01	1.753946e+02	-3.134971e+01	-5.065608e+00	-9.989323e+01	7.192451e+01	-2.651778e+01	1.701336e+02
3.629656e+06	-2.650733e+01	1.753974e+02	-3.135032e+01	-5.058077e+00	-9.947935e+01	5.467159e+01	-2.651662e+01	1.701369e+02
3.629688e+06	-2.650780e+01	1.754001e+02	-3.135093e+01	-5.050544e+00	-9.845215e+01	4.012020e+01	-2.651546e+01	1.701402e+02
3.629719e+06	-2.650789e+01	1.754011e+02	-3.134977e+01	-5.053781e+00	-9.768271e+01	2.203155e+01	-2.651743e+01	1.701414e+02
3.629750e+06	-2.650797e+01	1.754020e+02	-3.134859e+01	-5.057104e+00	-9.635609e+01	7.860648e+00	-2.651942e+01	1.701426e+02
3.629782e+06	-2.650806e+01	1.754030e+02	-3.134742e+01	-5.060426e+00	-9.487060e+01	-2.340578e+00	-2.652141e+01	1.701438e+02
3.629813e+06	-2.650814e+01	1.754039e+02	-3.134624e+01	-5.063747e+00	-9.343296e+01	-9.607731e+00	-2.652341e+01	1.701450e+02
3.629844e+06	-2.650823e+01	1.754049e+02	-3.134507e+01	-5.067067e+00	-9.211170e+01	-1.489060e+01	-2.652540e+01	1.701462e+02
3.629875e+06	-2.650808e+01	1.754133e+02	-3.134842e+01	-5.063852e+00	-9.186632e+01	-1.238282e+01	-2.652489e+01	1.701400e+02
3.629906e+06	-2.650794e+01	1.754217e+02	-3.135177e+01	-5.060634e+00	-9.161240e+01	-1.001522e+01	-2.652438e+01	1.701338e+02
3.629938e+06	-2.650779e+01	1.754301e+02	-3.135513e+01	-5.057414e+00	-9.135211e+01	-7.783788e+00	-2.652387e+01	1.701276e+02
3.629969e+06	-2.650765e+01	1.754385e+02	-3.135848e+01	-5.054191e+00	-9.108734e+01	-5.683307e+00	-2.652336e+01	1.701214e+02
3.630000e+06	-2.650750e+01	1.754467e+02	-3.136179e+01	-5.050999e+00	-9.083183e+01	-3.716853e+00	-2.652287e+01	1.701152e+02
3.630032e+06	-2.650734e+01	1.754368e+02	-3.135969e+01	-5.051822e+00	-9.217147e+01	-2.808413e+00	-2.652408e+01	1.701175e+02
3.630063e+06	-2.650718e+01	1.754270e+02	-3.135759e+01	-5.052645e+00	-9.375242e+01	-1.536835e+00	-2.652529e+01	1.701197e+02
3.630094e+06	-2.650702e+01	1.754171e+02	-3.135549e+01	-5.053468e+00	-9.567859e+01	3.674983e-01	-2.652649e+01	1.701219e+02
3.630125e+06	-2.650686e+01	1.754072e+02	-3.135339e+01	-5.054290e+00	-9.813622e+01	3.523031e+00	-2.652770e+01	1.701242e+02
3.630156e+06	-2.650670e+01	1.753975e+02	-3.135132e+01	-5.055131e+00	-1.013324e+02	1.006202e+01	-2.652884e+01	1.701264e+02
3.630188e+06	-2.650688e+01	1.753958e+02	-3.135112e+01	-5.057147e+00	-9.611279e+01	2.748156e+01	-2.652599e+01	1.701295e+02
3.630219e+06	-2.650706e+01	1.753940e+02	-3.135093e+01	-5.059163e+00	-9.267279e+01	3.382367e+01	-2.652314e+01	1.701325e+02
3.630250e+06	-2.650724e+01	1.753923e+02	-3.135073e+01	-5.061179e+00	-9.017478e+01	3.702015e+01	-2.652029e+01	1.701355e+02
3.630282e+06	-2.650742e+01	1.753906e+02	-3.135054e+01	-5.063195e+00	-8.822408e+01	3.893481e+01	-2.651744e+01	1.701385e+02
3.630313e+06	-2.650760e+01	1.753889e+02	-3.135034e+01	-5.065211e+00	-8.662677e+01	4.020727e+01	-2.651459e+01	1.701415e+02
3.630344e+06	-2.650686e+01	1.753938e+02	-3.135240e+01	-5.065646e+00	-8.892997e+01	3.276126e+01	-2.651618e+01	1.701407e+02
3.630375e+06	-2.650612e+01	1.753986e+02	-3.135448e+01	-5.066068e+00	-9.173899e+01	1.911582e+01	-2.651781e+01	1.701399e+02
3.630406e+06	-2.650537e+01	1.754035e+02	-3.135656e+01	-5.066491e+00	-9.442987e+01	-7.267347e+00	-2.651943e+01	1.701391e+02
3.630438e+06	-2.650463e+01	1.754084e+02	-3.135864e+01	-5.066914e+00	-9.454648e+01	-4.514181e+01	-2.652105e+01	1.701383e+02
3.630469e+06	-2.650388e+01	1.754133e+02	-3.136072e+01	-5.067337e+00	-9.192884e+01	-7.255025e+01	-2.652268e+01	1.701375e+02
3.630500e+06	-2.650537e+01	1.754050e+02	-3.135945e+01	-5.066323e+00	-9.438042e+01	-7.730434e+01	-2.652296e+01	1.701355e+02
3.630532e+06	-2.650685e+01	1.753966e+02	-3.135818e+01	-5.065308e+00	-9.763752e+01	-8.650611e+01	-2.652325e+01	1.701335e+02
