# Hz S dB R 50.000
3.627813e+06	-2.648036e+01	1.755785e+02	-3.134901e+01	-4.690735e+00	-8.869927e+01	-2.470832e+01	-2.656584e+01	1.700825e+02
3.627844e+06	-2.648116e+01	1.755763e+02	-3.134826e+01	-4.687414e+00	-9.130769e+01	-2.842398e+01	-2.656772e+01	1.700815e+02
3.627876e+06	-2.648195e+01	1.755741e+02	-3.134752e+01	-4.684093e+00	-9.493778e+01	-3.606136e+01	-2.656959e+01	1.700805e+02
3.627907e+06	-2.648275e+01	1.755718e+02	-3.134677e+01	-4.680773e+00	-1.003827e+02	-5.826017e+01	-2.657147e+01	1.700796e+02
3.627938e+06	-2.648354e+01	1.755696e+02	-3.134602e+01	-4.677453e+00	-1.028134e+02	-1.275769e+02	-2.657335e+01	1.700786e+02
3.627969e+06	-2.648433e+01	1.755674e+02	-3.134529e+01	-4.674118e+00	-9.701148e+01	-1.661926e+02	-2.657521e+01	1.700776e+02
3.628000e+06	-2.648399e+01	1.755717e+02	-3.134629e+01	-4.668742e+00	-1.032641e+02	-1.210769e+02	-2.657526e+01	1.700822e+02
3.628032e+06	-2.648365e+01	1.755759e+02	-3.134730e+01	-4.663365e+00	-9.942368e+01	-5.179352e+01	-2.657530e+01	1.700869e+02
3.628063e+06	-2.648331e+01	1.755802e+02	-3.134830e+01	-4.657987e+00	-9.397846e+01	-3.306185e+01	-2.657535e+01	1.700915e+02
3.628094e+06	-2.648297e+01	1.755844e+02	-3.134930e+01	-4.652608e+00	-9.043424e+01	-2.651116e+01	-2.657539e+01	1.700961e+02
3.628126e+06	-2.648264e+01	1.755886e+02	-3.135028e+01	-4.647411e+00	-8.795124e+01	-2.341458e+01	-2.657543e+01	1.701004e+02
3.628157e+06	-2.648253e+01	1.755872e+02	-3.134960e+01	-4.653549e+00	-9.024538e+01	-3.212660e+01	-2.657455e+01	1.700904e+02
3.628188e+06	-2.648243e+01	1.755858e+02	-3.134892e+01	-4.659686e+00	-9.286628e+01	-4.759641e+01	-2.657367e+01	1.700804e+02
3.628219e+06	-2.648233e+01	1.755844e+02	-3.134824e+01	-4.665823e+00	-9.497338e+01	-7.496405e+01	-2.657279e+01	1.700704e+02
3.628250e+06	-2.648222e+01	1.755830e+02	-3.134756e+01	-4.671958e+00	-9.457172e+01	-1.089804e+02	-2.657191e+01	1.700604e+02
3.628282e+06	-2.648212e+01	1.755816e+02	-3.134689e+01	-4.678171e+00	-9.233512e+01	-1.325696e+02	-2.657104e+01	1.700507e+02
3.628313e+06	-2.648204e+01	1.755827e+02	-3.134636e+01	-4.687566e+00	-9.945706e+01	-1.490330e+02	-2.657083e+01	1.700535e+02
3.628344e+06	-2.648195e+01	1.755837e+02	-3.134584e+01	-4.696961e+00	-1.029692e+02	1.055621e+02	-2.657061e+01	1.700564e+02
3.628376e+06	-2.648187e+01	1.755848e+02	-3.134532e+01	-4.706354e+00	-9.402770e+01	7.449840e+01	-2.657039e+01	1.700592e+02
3.628407e+06	-2.648179e+01	1.755858e+02	-3.134479e+01	-4.715747e+00	-8.939824e+01	6.828879e+01	-2.657017e+01	1.700621e+02
3.628438e+06	-2.648171e+01	1.755869e+02	-3.134427e+01	-4.725138e+00	-8.636462e+01	6.572309e+01	-2.656995e+01	1.700649e+02
3.628469e+06	-2.648152e+01	1.755813e+02	-3.134468e+01	-4.711740e+00	-8.661768e+01	7.220139e+01	-2.657102e+01	1.700624e+02
3.628500e+06	-2.648133e+01	1.755757e+02	-3.134509e+01	-4.698341e+00	-8.675874e+01	7.898180e+01	-2.657210e+01	1.700599e+02
3.628532e+06	-2.648113e+01	1.755701e+02	-3.134550e+01	-4.684941e+00	-8.677632e+01	8.588778e+01	-2.657317e+01	1.700573e+02
3.628563e+06	-2.648094e+01	1.755645e+02	-3.134591e+01	-4.671540e+00	-8.666896e+01	9.272240e+01	-2.657424e+01	1.700548e+02
3.628594e+06	-2.648074e+01	1.755589e+02	-3.134631e+01	-4.658253e+00	-8.645765e+01	9.924290e+01	-2.657530e+01	1.700524e+02
3.628626e+06	-2.648003e+01	1.755591e+02	-3.134577e+01	-4.659375e+00	-8.779712e+01	9.831170e+01	-2.657376e+01	1.700635e+02
3.628657e+06	-2.647931e+01	1.755594e+02	-3.134524e+01	-4.660497e+00	-8.937763e+01	9.700836e+01	-2.657222e+01	1.700746e+02
3.628688e+06	-2.647859e+01	1.755596e+02	-3.134471e+01	-4.661619e+00	-9.130276e+01	9.505677e+01	-2.657068e+01	1.700856e+02
3.628719e+06	-2.647788e+01	1.755599e+02	-3.134417e+01	-4.662740e+00	-9.375760e+01	9.182430e+01	-2.656914e+01	1.700967e+02
3.628750e+06	-2.647717e+01	1.755602e+02	-3.134372e+01	-4.663673e+00	-9.703728e+01	8.553634e+01	-2.656766e+01	1.701075e+02
3.628782e+06	-2.647729e+01	1.755639e+02	-3.134825e+01	-4.652970e+00	-9.632895e+01	7.883033e+01	-2.656937e+01	1.700987e+02
3.628813e+06	-2.647740e+01	1.755677e+02	-3.135278e+01	-4.642256e+00	-9.558086e+01	7.316326e+01	-2.657108e+01	1.700900e+02
3.628844e+06	-2.647751e+01	1.755714e+02	-3.135731e+01	-4.631531e+00	-9.482614e+01	6.839883e+01	-2.657279e+01	1.700812e+02
3.628876e+06	-2.647763e+01	1.755751e+02	-3.136184e+01	-4.620795e+00	-9.408514e+01	6.438944e+01	-2.657450e+01	1.700725e+02
3.628907e+06	-2.647774e+01	1.755790e+02	-3.136622e+01	-4.610442e+00	-9.338688e+01	6.102432e+01	-2.657617e+01	1.700639e+02
3.628938e+06	-2.647770e+01	1.755854e+02	-3.136425e+01	-4.616146e+00	-9.341622e+01	5.890510e+01	-2.657605e+01	1.700652e+02
3.628969e+06	-2.647766e+01	1.755919e+02	-3.136227e+01	-4.621847e+00	-9.343367e+01	5.677444e+01	-2.657592e+01	1.700664e+02
3.629000e+06	-2.647762e+01	1.755983e+02	-3.136030e+01	-4.627546e+00	-9.343908e+01	5.463816e+01	-2.657580e+01	1.700677e+02
3.629032e+06	-2.647758e+01	1.756048e+02	-3.135832e+01	-4.633242e+00	-9.343243e+01	5.250218e+01	-2.657568e+01	1.700689e+02
3.629063e+06	-2.647754e+01	1.756112e+02	-3.135635e+01	-4.638935e+00	-9.341375e+01	5.037242e+01	-2.657556e+01	1.700702e+02
3.629094e+06	-2.647781e+01	1.755964e+02	-3.135654e+01	-4.642825e+00	-9.627915e+01	4.384238e+01	-2.657507e+01	1.700740e+02
3.629126e+06	-2.647808e+01	1.755816e+02	-3.135674e+01	-4.646716e+00	-1.001811e+02	2.949099e+01	-2.657458e+01	1.700779e+02
3.629157e+06	-2.647835e+01	1.755668e+02	-3.135693e+01	-4.650606e+00	-1.043490e+02	-9.385414e+00	-2.657409e+01	1.700817e+02
3.629188e+06	-2.647861e+01	1.755520e+02	-3.135713e+01	-4.654497e+00	-1.023646e+02	-6.319179e+01	-2.657360e+01	1.700855e+02
3.629219e+06	-2.647888e+01	1.755374e+02	-3.135730e+01	-4.658416e+00	-9.805401e+01	-8.582964e+01	-2.657311e+01	1.700892e+02
3.629250e+06	-2.647907e+01	1.755515e+02	-3.135468e+01	-4.665737e+00	-1.130727e+02	-6.910557e+01	-2.657212e+01	1.700810e+02
3.629282e+06	-2.647926e+01	1.755657e+02	-3.135206e+01	-4.673054e+00	-1.015588e+02	8.537605e+01	-2.657113e+01	1.700727e+02
3.629313e+06	-2.647945e+01	1.755798e+02	-3.134944e+01	-4.680366e+00	-9.454359e+01	8.830110e+01	-2.657014e+01	1.700645e+02
3.629344e+06	-2.647964e+01	1.755939e+02	-3.134682e+01	-4.687674e+00	-9.070983e+01	8.913961e+01	-2.656915e+01	1.700562e+02
3.629376e+06	-2.647982e+01	1.756077e+02	-3.134425e+01	-4.694797e+00	-8.811858e+01	8.943880e+01	-2.656819e+01	1.700482e+02
3.629407e+06	-2.647959e+01	1.756013e+02	-3.134488e+01	-4.690815e+00	-8.965594e+01	8.242576e+01	-2.656913e+01	1.700519e+02
3.629438e+06	-2.647937e+01	1.755949e+02	-3.134551e+01	-4.686833e+00	-9.129295e+01	7.229115e+01	-2.657007e+01	1.700556e+02
3.629469e+06	-2.647915e+01	1.755885e+02	-3.134614e+01	-4.682850e+00	-9.281985e+01	5.761904e+01	-2.657101e+01	1.700594e+02
3.629500e+06	-2.647893e+01	1.755821e+02	-3.134677e+01	-4.678867e+00	-9.374540e+01	3.799056e+01	-2.657195e+01	1.700631e+02
3.629532e+06	-2.647872e+01	1.755758e+02	-3.134744e+01	-4.674789e+00	-9.356494e+01	1.688854e+01	-2.657290e+01	1.700669e+02
3.629563e+06	-2.647929e+01	1.755746e+02	-3.134936e+01	-4.666922e+00	-9.340955e+01	1.005421e+01	-2.657436e+01	1.700705e+02
3.629594e+06	-2.647987e+01	1.755734e+02	-3.135129e+01	-4.659050e+00	-9.314138e+01	3.546588e+00	-2.657582e+01	1.700741e+02
3.629626e+06	-2.648044e+01	1.755722e+02	-3.135322e+01	-4.651176e+00	-9.278021e+01	-2.504431e+00	-2.657728e+01	1.700777e+02
3.629657e+06	-2.648101e+01	1.755710e+02	-3.135514e+01	-4.643298e+00	-9.234858e+01	-8.025880e+00	-2.657873e+01	1.700813e+02
3.629688e+06	-2.648158e+01	1.755698e+02	-3.135707e+01	-4.635416e+00	-9.186817e+01	-1.299550e+01	-2.658019e+01	1.700849e+02
3.629719e+06	-2.648221e+01	1.755701e+02	-3.135583e+01	-4.635975e+00	-9.434693e+01	-1.426159e+01	-2.657993e+01	1.700832e+02
3.629750e+06	-2.648285e+01	1.755704e+02	-3.135459e+01	-4.636533e+00	-9.781631e+01	-1.677334e+01	-2.657967e+01	1.700815e+02
3.629782e+06	-2.648348e+01	1.755706e+02	-3.135336e+01	-4.637092e+00	-1.035864e+02	-2.406768e+01	-2.657941e+01	1.700797e+02
3.629813e+06	-2.648411e+01	1.755709e+02	-3.135212e+01	-4.637650e+00	-1.153821e+02	-9.767614e+01	-2.657916e+01	1.700780e+02
3.629844e+06	-2.648473e+01	1.755713e+02	-3.135089e+01	-4.638271e+00	-1.037367e+02	-1.741040e+02	-2.657890e+01	1.700763e+02
3.629876e+06	-2.648393e+01	1.755821e+02	-3.135111e+01	-4.646695e+00	-1.005369e+02	1.730937e+02	-2.657904e+01	1.700788e+02
3.629907e+06	-2.648314e+01	1.755930e+02	-3.135133e+01	-4.655118e+00	-9.803257e+01	1.664955e+02	-2.657917e+01	1.700813e+02
3.629938e+06	-2.648234e+01	1.756039e+02	-3.135155e+01	-4.663542e+00	-9.603622e+01	1.625712e+02	-2.657930e+01	1.700838e+02
3.629969e+06	-2.648154e+01	1.756147e+02	-3.135177e+01	-4.671967e+00	-9.439182e+01	1.599917e+02	-2.657944e+01	1.700863e+02
3.630000e+06	-2.648075e+01	1.756253e+02	-3.135198e+01	-4.680292e+00	-9.305627e+01	1.580912e+02	-2.657955e+01	1.700886e+02
3.630032e+06	-2.648071e+01	1.756180e+02	-3.135143e+01	-4.682462e+00	-9.559447e+01	1.490339e+02	-2.657834e+01	1.700807e+02
3.630063e+06	-2.648067e+01	1.756107e+02	-3.135088e+01	-4.684631e+00	-9.857711e+01	1.317419e+02	-2.657714e+01	1.700728e+02
3.630094e+06	-2.648064e+01	1.756033e+02	-3.135033e+01	-4.686801e+00	-1.007718e+02	9.909369e+01	-2.657593e+01	1.700649e+02
3.630126e+06	-2.648060e+01	1.755960e+02	-3.134979e+01	-4.688970e+00	-9.956149e+01	6.192108e+01	-2.657473e+01	1.700571e+02
3.630157e+06	-2.648058e+01	1.755889e+02	-3.134924e+01	-4.690970e+00	-9.668408e+01	4.043210e+01	-2.657356e+01	1.700497e+02
3.630188e+06	-2.648121e+01	1.755874e+02	-3.134862e+01	-4.686080e+00	-9.787683e+01	4.304892e+01	-2.657379e+01	1.700614e+02
3.630219e+06	-2.648185e+01	1.755859e+02	-3.134801e+01	-4.681191e+00	-9.923136e+01	4.655853e+01	-2.657401e+01	1.700730e+02
3.630250e+06	-2.648248e+01	1.755844e+02	-3.134740e+01	-4.676302e+00	-1.007821e+02	5.146515e+01	-2.657424e+01	1.700847e+02
3.630282e+06	-2.648311e+01	1.755830e+02	-3.134679e+01	-4.671414e+00	-1.025552e+02	5.866938e+01	-2.657447e+01	1.700964e+02
3.630313e+06	-2.648375e+01	1.755815e+02	-3.134618e+01	-4.666527e+00	-1.045132e+02	6.977961e+01	-2.657470e+01	1.701081e+02
3.630344e+06	-2.648243e+01	1.755809e+02	-3.134632e+01	-4.654111e+00	-1.015395e+02	-8.957330e+01	-2.657476e+01	1.701069e+02
3.630376e+06	-2.648111e+01	1.755804e+02	-3.134646e+01	-4.641695e+00	-9.298903e+01	-9.494171e+01	-2.657482e+01	1.701057e+02
3.630407e+06	-2.647979e+01	1.755798e+02	-3.134660e+01	-4.629279e+00	-8.875406e+01	-9.617190e+01	-2.657489e+01	1.701044e+02
3.630438e+06	-2.647847e+01	1.755793e+02	-3.134673e+01	-4.616862e+00	-8.591825e+01	-9.671691e+01	-2.657495e+01	1.701032e+02
3.630469e+06	-2.647717e+01	1.755788e+02	-3.134686e+01	-4.604722e+00	-8.381531e+01	-9.704061e+01	-2.657501e+01	1.701020e+02
3.630500e+06	-2.647838e+01	1.755880e+02	-3.134594e+01	-4.627011e+00	-8.617225e+01	-1.000153e+02	-2.657482e+01	1.701068e+02
3.630532e+06	-2.647958e+01	1.755972e+02	-3.134502e+01	-4.649295e+00	-8.935284e+01	-1.056495e+02	-2.657464e+01	1.701116e+02
3.630563e+06	-2.648079e+01	1.756064e+02	-3.134410e+01	-4.671574e+00	-9.405090e+01	-1.197241e+02	-2.657445e+01	1.701164e+02
3.630594e+06	-2.648199e+01	1.756156e+02	-3.134317e+01	-4.693848e+00	-9.948674e+01	-1.710731e+02	-2.657426e+01	1.701212e+02
3.630626e+06	-2.648315e+01	1.756247e+02	-3.134227e+01	-4.715399e+00	-9.510833e+01	1.287940e+02	-2.657409e+01	1.701256e+02
3.630657e+06	-2.648126e+01	1.756277e+02	-3.134302e+01	-4.692800e+00	-9.677708e+01	1.061060e+02	-2.657489e+01	1.701088e+02
3.630688e+06	-2.647938e+01	1.756306e+02	-3.134377e+01	-4.670196e+00	-9.679310e+01	7.818355e+01	-2.657569e+01	1.700919e+02
3.630719e+06	-2.647749e+01	1.756336e+02	-3.134451e+01	-4.647589e+00	-9.514112e+01	5.536051e+01	-2.657649e+01	1.700750e+02
3.630750e+06	-2.647561e+01	1.756365e+02	-3.134526e+01	-4.624977e+00	-9.300508e+01	4.083648e+01	-2.657729e+01	1.700582e+02
3.630782e+06	-2.647381e+01	1.756391e+02	-3.134598e+01	-4.603150e+00	-9.106071e+01	3.207388e+01	-2.657805e+01	1.700420e+02
3.630813e+06	-2.647544e+01	1.756250e+02	-3.134580e+01	-4.613358e+00	-9.135373e+01	3.345193e+01	-2.657719e+01	1.700543e+02
3.630844e+06	-2.647706e+01	1.756110e+02	-3.134562e+01	-4.623566e+00	-9.165140e+01	3.492698e+01	-2.657633e+01	1.700666e+02
3.630876e+06	-2.647869e+01	1.755970e+02	-3.134544e+01	-4.633774e+00	-9.195325e+01	3.650747e+01	-2.657547e+01	1.700790e+02
3.630907e+06	-2.648031e+01	1.755829e+02	-3.134526e+01	-4.643981e+00	-9.225862e+01	3.820243e+01	-2.657461e+01	1.700913e+02
3.630938e+06	-2.648194e+01	1.755689e+02	-3.134508e+01	-4.654188e+00	-9.256666e+01	4.002146e+01	-2.657375e+01	1.701036e+02
3.630969e+06	-2.648157e+01	1.755751e+02	-3.134360e+01	-4.657017e+00	-9.366356e+01	5.522626e+01	-2.657436e+01	1.701028e+02
3.631000e+06	-2.648120e+01	1.755813e+02	-3.134212e+01	-4.659845e+00	-9.408378e+01	7.342556e+01	-2.657498e+01	1.701020e+02
3.631032e+06	-2.648082e+01	1.755875e+02	-3.134064e+01	-4.662672e+00	-9.361751e+01	9.152529e+01	-2.657559e+01	1.701011e+02
3.631063e+06	-2.648045e+01	1.755937e+02	-3.133917e+01	-4.665498e+00	-9.249533e+01	1.065212e+02	-2.657621e+01	1.701003e+02
3.631094e+06	-2.648007e+01	1.755998e+02	-3.133772e+01	-4.668334e+00	-9.112688e+01	1.175610e+02	-2.657683e+01	1.700995e+02
3.631126e+06	-2.647921e+01	1.756004e+02	-3.134010e+01	-4.672617e+00	-9.222038e+01	1.092303e+02	-2.657766e+01	1.700960e+02
3.631157e+06	-2.647835e+01	1.756010e+02	-3.134248e+01	-4.676903e+00	-9.320284e+01	9.862737e+01	-2.657849e+01	1.700925e+02
3.631188e+06	-2.647748e+01	1.756015e+02	-3.134486e+01	-4.681191e+00	-9.390198e+01	8.572399e+01	-2.657931e+01	1.700890e+02
3.631219e+06	-2.647662e+01	1.756021e+02	-3.134724e+01	-4.685481e+00	-9.412995e+01	7.133751e+01	-2.658014e+01	1.700855e+02
3.631250e+06	-2.647578e+01	1.756026e+02	-3.134952e+01	-4.689378e+00	-9.381538e+01	5.732922e+01	-2.658095e+01	1.700820e+02
3.631282e+06	-2.647654e+01	1.755994e+02	-3.134583e+01	-4.668969e+00	-9.354765e+01	5.775625e+01	-2.658030e+01	1.700781e+02
3.631313e+06	-2.647729e+01	1.755962e+02	-3.134214e+01	-4.648577e+00	-9.328748e+01	5.815810e+01	-2.657965e+01	1.700742e+02
3.631344e+06	-2.647805e+01	1.755930e+02	-3.133844e+01	-4.628202e+00	-9.303449e+01	5.853690e+01	-2.657900e+01	1.700703e+02
3.631376e+06	-2.647880e+01	1.755898e+02	-3.133475e+01	-4.607845e+00	-9.278831e+01	5.889455e+01	-2.657835e+01	1.700663e+02
3.631407e+06	-2.647953e+01	1.755868e+02	-3.133121e+01	-4.588512e+00	-9.257428e+01	5.893763e+01	-2.657774e+01	1.700628e+02
3.631438e+06	-2.647909e+01	1.755892e+02	-3.133391e+01	-4.610149e+00	-9.321922e+01	4.590673e+01	-2.657882e+01	1.700761e+02
3.631469e+06	-2.647865e+01	1.755917e+02	-3.133660e+01	-4.631799e+00	-9.338417e+01	3.157642e+01	-2.657990e+01	1.700894e+02
3.631500e+06	-2.647820e+01	1.755942e+02	-3.133929e+01	-4.653463e+00	-9.301441e+01	1.758695e+01	-2.658098e+01	1.701026e+02
3.631532e+06	-2.647776e+01	1.755966e+02	-3.134198e+01	-4.675140e+00	-9.222700e+01	5.371359e+00	-2.658206e+01	1.701159e+02
3.631563e+06	-2.647732e+01	1.755991e+02	-3.134467e+01	-4.696831e+00	-9.121103e+01	-4.528138e+00	-2.658314e+01	1.701292e+02
3.631594e+06	-2.647892e+01	1.756052e+02	-3.134536e+01	-4.685979e+00	-9.128449e+01	-7.011112e+00	-2.658153e+01	1.701205e+02
3.631626e+06	-2.648051e+01	1.756114e+02	-3.134605e+01	-4.675125e+00	-9.134188e+01	-9.531798e+00	-2.657992e+01	1.701118e+02
3.631657e+06	-2.648211e+01	1.756175e+02	-3.134674e+01	-4.664269e+00	-9.138254e+01	-1.208112e+01	-2.657831e+01	1.701030e+02
3.631688e+06	-2.648371e+01	1.756237e+02	-3.134743e+01	-4.653411e+00	-9.140598e+01	-1.464933e+01	-2.657671e+01	1.700943e+02
3.631719e+06	-2.648529e+01	1.756297e+02	-3.134808e+01	-4.642583e+00	-9.142588e+01	-1.726278e+01	-2.657511e+01	1.700857e+02
3.631750e+06	-2.648562e+01	1.756215e+02	-3.134474e+01	-4.635575e+00	-9.326368e+01	-2.613812e+01	-2.657486e+01	1.700847e+02
3.631782e+06	-2.648595e+01	1.756132e+02	-3.134139e+01	-4.628572e+00	-9.517863e+01	-3.988678e+01	-2.657461e+01	1.700838e+02
3.631813e+06	-2.648628e+01	1.756049e+02	-3.133804e+01	-4.621575e+00	-9.666360e+01	-6.046748e+01	-2.657436e+01	1.700828e+02
3.631844e+06	-2.648662e+01	1.755966e+02	-3.133470e+01	-4.614584e+00	-9.681943e+01	-8.559391e+01	-2.657411e+01	1.700818e+02
3.631876e+06	-2.648693e+01	1.755886e+02	-3.133141e+01	-4.607926e+00	-9.558020e+01	-1.068616e+02	-2.657387e+01	1.700811e+02
3.631907e+06	-2.648660e+01	1.755953e+02	-3.133126e+01	-4.621508e+00	-9.736918e+01	-8.428262e+01	-2.657441e+01	1.700926e+02
3.631938e+06	-2.648626e+01	1.756021e+02	-3.133111e+01	-4.635088e+00	-9.749429e+01	-5.568765e+01	-2.657495e+01	1.701041e+02
3.631969e+06	-2.648593e+01	1.756088e+02	-3.133096e+01	-4.648669e+00	-9.583243e+01	-3.204670e+01	-2.657549e+01	1.701156e+02
3.632000e+06	-2.648559e+01	1.756155e+02	-3.133081e+01	-4.662249e+00	-9.364225e+01	-1.713303e+01	-2.657602e+01	1.701271e+02
3.632032e+06	-2.648526e+01	1.756222e+02	-3.133068e+01	-4.675486e+00	-9.170039e+01	-7.752279e+00	-2.657655e+01	1.701382e+02
3.632063e+06	-2.648506e+01	1.756283e+02	-3.133164e+01	-4.674803e+00	-9.349076e+01	1.647344e+01	-2.657660e+01	1.701335e+02
3.632094e+06	-2.648487e+01	1.756344e+02	-3.133260e+01	-4.674119e+00	-9.337304e+01	4.630631e+01	-2.657664e+01	1.701288e+02
3.632126e+06	-2.648467e+01	1.756405e+02	-3.133356e+01	-4.673436e+00	-9.146959e+01	6.952203e+01	-2.657669e+01	1.701241e+02
3.632157e+06	-2.648448e+01	1.756465e+02	-3.133452e+01	-4.672753e+00	-8.918439e+01	8.360790e+01	-2.657673e+01	1.701194e+02
3.632188e+06	-2.648428e+01	1.756526e+02	-3.133548e+01	-4.672069e+00	-8.711985e+01	9.208995e+01	-2.657678e+01	1.701147e+02
3.632219e+06	-2.648424e+01	1.756456e+02	-3.133594e+01	-4.667535e+00	-8.868340e+01	9.280006e+01	-2.657623e+01	1.701152e+02
3.632250e+06	-2.648419e+01	1.756387e+02	-3.133639e+01	-4.663002e+00	-9.058910e+01	9.385884e+01	-2.657567e+01	1.701158e+02
3.632282e+06	-2.648415e+01	1.756317e+02	-3.133685e+01	-4.658467e+00	-9.302750e+01	9.560487e+01	-2.657512e+01	1.701163e+02
3.632313e+06	-2.648410e+01	1.756248e+02	-3.133731e+01	-4.653932e+00	-9.640651e+01	9.901767e+01	-2.657457e+01	1.701169e+02
3.632344e+06	-2.648406e+01	1.756180e+02	-3.133776e+01	-4.649459e+00	-1.017970e+02	1.083184e+02	-2.657402e+01	1.701174e+02
3.632376e+06	-2.648400e+01	1.756262e+02	-3.133802e+01	-4.652698e+00	-1.025133e+02	1.055232e+02	-2.657387e+01	1.701232e+02
3.632407e+06	-2.648395e+01	1.756344e+02	-3.133828e+01	-4.655938e+00	-1.032673e+02	1.022118e+02	-2.657373e+01	1.701289e+02
3.632438e+06	-2.648389e+01	1.756426e+02	-3.133854e+01	-4.659178e+00	-1.040549e+02	9.825640e+01	-2.657358e+01	1.701347e+02
3.632469e+06	-2.648384e+01	1.756508e+02	-3.133880e+01	-4.662418e+00	-1.048661e+02	9.349993e+01	-2.657343e+01	1.701404e+02
3.632500e+06	-2.648378e+01	1.756588e+02	-3.133903e+01	-4.665549e+00	-1.053815e+02	8.769022e+01	-2.657329e+01	1.701459e+02
3.632532e+06	-2.648382e+01	1.756506e+02	-3.133751e+01	-4.661983e+00	-9.574057e+01	8.427109e+01	-2.657356e+01	1.701337e+02
3.632563e+06	-2.648387e+01	1.756424e+02	-3.133599e+01	-4.658418e+00	-9.128037e+01	8.359716e+01	-2.657383e+01	1.701216e+02
3.632594e+06	-2.648391e+01	1.756342e+02	-3.133448e+01	-4.654855e+00	-8.834752e+01	8.330946e+01	-2.657410e+01	1.701094e+02
3.632626e+06	-2.648395e+01	1.756260e+02	-3.133296e+01	-4.651293e+00	-8.615882e+01	8.314992e+01	-2.657437e+01	1.700973e+02
3.632657e+06	-2.648398e+01	1.756181e+02	-3.133149e+01	-4.647933e+00	-8.447297e+01	8.309167e+01	-2.657464e+01	1.700855e+02
3.632688e+06	-2.648357e+01	1.756237e+02	-3.133181e+01	-4.652747e+00	-8.547697e+01	8.502269e+01	-2.657519e+01	1.700907e+02
3.632719e+06	-2.648317e+01	1.756292e+02	-3.133214e+01	-4.657562e+00	-8.659801e+01	8.748925e+01	-2.657574e+01	1.700958e+02
3.632750e+06	-2.648276e+01	1.756348e+02	-3.133246e+01	-4.662377e+00	-8.786092e+01	9.073553e+01	-2.657629e+01	1.701009e+02
3.632782e+06	-2.648236e+01	1.756403e+02	-3.133279e+01	-4.667193e+00	-8.929413e+01	9.516542e+01	-2.657683e+01	1.701061e+02
3.632813e+06	-2.648195e+01	1.756459e+02	-3.133311e+01	-4.672009e+00	-9.092154e+01	1.014731e+02	-2.657738e+01	1.701112e+02
3.632844e+06	-2.648283e+01	1.756372e+02	-3.133338e+01	-4.672856e+00	-9.113392e+01	9.931533e+01	-2.657753e+01	1.701127e+02
3.632876e+06	-2.648371e+01	1.756286e+02	-3.133365e+01	-4.673704e+00	-9.133837e+01	9.705142e+01	-2.657768e+01	1.701142e+02
