!CETC41,AV3656A,ZGL00048,1.3.2
!Calibration ON (Full Solt 2-Port(Omit Isolation))
!Measurements: S11 S21 S12 S22
!2025-04-18 01:28
# Hz  S  dB  R 50.000
9.990000e+006	-3.575616e+001	1.564160e+002	-3.055490e+001	-2.552283e+001	-9.543766e+001	-4.624832e+001	-3.280678e+001	1.396374e+002
9.990005e+006	-3.574813e+001	1.565002e+002	-3.055342e+001	-2.553514e+001	-9.552634e+001	9.209759e+001	-3.282062e+001	1.395866e+002
9.990009e+006	-3.573095e+001	1.565017e+002	-3.055380e+001	-2.548162e+001	-9.232929e+001	1.754624e+002	-3.283099e+001	1.395425e+002
9.990014e+006	-3.575068e+001	1.564494e+002	-3.055684e+001	-2.554504e+001	-1.004067e+002	2.479591e+001	-3.282835e+001	1.395928e+002
9.990019e+006	-3.575107e+001	1.563708e+002	-3.055012e+001	-2.549681e+001	-9.916937e+001	8.194283e+001	-3.281835e+001	1.395765e+002
9.990023e+006	-3.574753e+001	1.563451e+002	-3.055689e+001	-2.549863e+001	-9.673965e+001	-7.507103e+001	-3.282193e+001	1.395598e+002
9.990028e+006	-3.575693e+001	1.563929e+002	-3.054589e+001	-2.556928e+001	-9.496315e+001	-1.316445e+002	-3.282919e+001	1.395621e+002
9.990033e+006	-3.575008e+001	1.563280e+002	-3.055691e+001	-2.561573e+001	-9.820950e+001	7.091453e+001	-3.281788e+001	1.395434e+002
9.990038e+006	-3.573130e+001	1.563091e+002	-3.055460e+001	-2.552089e+001	-8.986839e+001	1.182646e+002	-3.281733e+001	1.395266e+002
9.990042e+006	-3.574954e+001	1.564235e+002	-3.055287e+001	-2.553389e+001	-8.746052e+001	1.424479e+002	-3.282571e+001	1.395917e+002
9.990047e+006	-3.574669e+001	1.563291e+002	-3.054424e+001	-2.554362e+001	-8.990733e+001	2.635510e+001	-3.281815e+001	1.395795e+002
9.990052e+006	-3.575941e+001	1.565137e+002	-3.054468e+001	-2.551767e+001	-1.038228e+002	1.786896e+002	-3.281418e+001	1.395343e+002
9.990056e+006	-3.574022e+001	1.564566e+002	-3.055391e+001	-2.555866e+001	-9.457465e+001	1.574853e+001	-3.281466e+001	1.395331e+002
9.990061e+006	-3.574235e+001	1.564939e+002	-3.054538e+001	-2.552728e+001	-9.225801e+001	1.559101e+002	-3.281701e+001	1.394684e+002
9.990066e+006	-3.574750e+001	1.563648e+002	-3.055440e+001	-2.554909e+001	-1.045315e+002	-7.586283e+001	-3.280164e+001	1.394761e+002
9.990070e+006	-3.574231e+001	1.564159e+002	-3.056975e+001	-2.552021e+001	-1.146058e+002	-1.110697e+002	-3.281351e+001	1.394947e+002
9.990075e+006	-3.573996e+001	1.564532e+002	-3.057225e+001	-2.547695e+001	-9.028308e+001	8.327203e+001	-3.282029e+001	1.394989e+002
9.990080e+006	-3.573412e+001	1.563603e+002	-3.055959e+001	-2.553102e+001	-9.008675e+001	4.867309e+001	-3.282016e+001	1.394899e+002
9.990084e+006	-3.574983e+001	1.564679e+002	-3.056537e+001	-2.547984e+001	-8.257360e+001	1.382579e+002	-3.281984e+001	1.394025e+002
9.990089e+006	-3.573909e+001	1.563862e+002	-3.057053e+001	-2.539449e+001	-8.958624e+001	1.125420e+002	-3.282414e+001	1.395235e+002
9.990094e+006	-3.574783e+001	1.564119e+002	-3.056015e+001	-2.530752e+001	-8.795440e+001	-1.649356e+002	-3.282045e+001	1.394482e+002
9.990098e+006	-3.573400e+001	1.564046e+002	-3.054909e+001	-2.538326e+001	-9.576028e+001	5.770606e+001	-3.282117e+001	1.394937e+002
9.990103e+006	-3.574529e+001	1.563124e+002	-3.053902e+001	-2.538893e+001	-9.254763e+001	6.305374e+001	-3.281527e+001	1.395825e+002
9.990108e+006	-3.573987e+001	1.564915e+002	-3.054428e+001	-2.544073e+001	-9.152873e+001	4.465249e+001	-3.282012e+001	1.394935e+002
9.990113e+006	-3.575040e+001	1.564676e+002	-3.055052e+001	-2.554469e+001	-9.027975e+001	1.641711e+002	-3.283451e+001	1.395443e+002
9.990117e+006	-3.574151e+001	1.564475e+002	-3.054675e+001	-2.555328e+001	-9.063678e+001	1.191907e+002	-3.280866e+001	1.394942e+002
9.990122e+006	-3.573761e+001	1.565063e+002	-3.054403e+001	-2.551726e+001	-9.277592e+001	8.773510e+001	-3.281124e+001	1.395902e+002
9.990127e+006	-3.573923e+001	1.563992e+002	-3.055911e+001	-2.556633e+001	-9.358290e+001	1.574239e+002	-3.282501e+001	1.395003e+002
9.990131e+006	-3.574563e+001	1.563784e+002	-3.055571e+001	-2.548630e+001	-1.016197e+002	1.452996e+002	-3.281679e+001	1.395876e+002
9.990136e+006	-3.575278e+001	1.565014e+002	-3.056835e+001	-2.551125e+001	-9.114218e+001	1.450330e+002	-3.281751e+001	1.394951e+002
9.990141e+006	-3.574400e+001	1.563912e+002	-3.055579e+001	-2.541850e+001	-9.556414e+001	8.055478e+001	-3.280845e+001	1.395673e+002
9.990145e+006	-3.574535e+001	1.563930e+002	-3.055907e+001	-2.546490e+001	-9.537669e+001	-1.481265e+002	-3.281302e+001	1.395067e+002
9.990150e+006	-3.575599e+001	1.565577e+002	-3.056752e+001	-2.548585e+001	-9.633245e+001	-1.063061e+002	-3.281795e+001	1.395998e+002
9.990155e+006	-3.575952e+001	1.564460e+002	-3.056040e+001	-2.549557e+001	-8.963326e+001	1.230365e+002	-3.279815e+001	1.394948e+002
9.990159e+006	-3.574228e+001	1.564708e+002	-3.054813e+001	-2.546398e+001	-9.246346e+001	1.194359e+002	-3.282100e+001	1.395119e+002
9.990164e+006	-3.574518e+001	1.564866e+002	-3.054222e+001	-2.548997e+001	-1.000524e+002	9.208127e+001	-3.281028e+001	1.395487e+002
9.990169e+006	-3.576621e+001	1.564567e+002	-3.054538e+001	-2.549552e+001	-9.666962e+001	-7.907306e+000	-3.281869e+001	1.395919e+002
9.990173e+006	-3.575176e+001	1.564113e+002	-3.055376e+001	-2.551764e+001	-9.268944e+001	-1.688174e+002	-3.281920e+001	1.395458e+002
9.990178e+006	-3.575144e+001	1.563855e+002	-3.055982e+001	-2.553988e+001	-1.034242e+002	1.564564e+002	-3.282482e+001	1.395499e+002
9.990183e+006	-3.574214e+001	1.563623e+002	-3.056021e+001	-2.556244e+001	-9.326240e+001	1.366664e+002	-3.281920e+001	1.394813e+002
9.990188e+006	-3.576181e+001	1.564756e+002	-3.054630e+001	-2.545880e+001	-9.618974e+001	1.746271e+001	-3.281128e+001	1.395685e+002
9.990192e+006	-3.573741e+001	1.563659e+002	-3.053647e+001	-2.547991e+001	-1.093148e+002	-1.303794e+002	-3.282451e+001	1.394969e+002
9.990197e+006	-3.575636e+001	1.563722e+002	-3.054979e+001	-2.549364e+001	-9.348729e+001	1.027989e+002	-3.282513e+001	1.395202e+002
9.990202e+006	-3.575226e+001	1.563569e+002	-3.055610e+001	-2.553679e+001	-8.738622e+001	1.693438e+002	-3.281399e+001	1.395822e+002
9.990206e+006	-3.573713e+001	1.564315e+002	-3.055044e+001	-2.548861e+001	-9.361149e+001	6.717810e+000	-3.282154e+001	1.395376e+002
9.990211e+006	-3.576058e+001	1.564894e+002	-3.054579e+001	-2.554156e+001	-9.785770e+001	1.431429e+002	-3.281671e+001	1.395315e+002
9.990216e+006	-3.575842e+001	1.564194e+002	-3.054653e+001	-2.549636e+001	-9.007969e+001	-5.129298e+001	-3.282194e+001	1.394583e+002
9.990220e+006	-3.573875e+001	1.564203e+002	-3.054854e+001	-2.540164e+001	-9.007339e+001	1.759922e+002	-3.282363e+001	1.395144e+002
9.990225e+006	-3.574755e+001	1.564752e+002	-3.054560e+001	-2.550077e+001	-9.195114e+001	-1.016047e+002	-3.281780e+001	1.394818e+002
9.990230e+006	-3.575170e+001	1.564241e+002	-3.054375e+001	-2.543775e+001	-1.012300e+002	1.428783e+002	-3.282160e+001	1.395540e+002
9.990234e+006	-3.575241e+001	1.565028e+002	-3.054217e+001	-2.545260e+001	-9.603193e+001	-1.341659e+002	-3.281985e+001	1.395461e+002
9.990239e+006	-3.574279e+001	1.563570e+002	-3.055840e+001	-2.549015e+001	-9.166776e+001	-6.905483e+001	-3.282183e+001	1.395434e+002
9.990244e+006	-3.574881e+001	1.562941e+002	-3.054773e+001	-2.549554e+001	-9.253987e+001	8.678084e+001	-3.281240e+001	1.394722e+002
9.990248e+006	-3.575910e+001	1.564732e+002	-3.056048e+001	-2.550612e+001	-9.422211e+001	1.471821e+002	-3.281218e+001	1.394835e+002
9.990253e+006	-3.573949e+001	1.563595e+002	-3.054607e+001	-2.548059e+001	-9.182705e+001	3.399252e+001	-3.280890e+001	1.394668e+002
9.990258e+006	-3.576434e+001	1.563339e+002	-3.055303e+001	-2.545648e+001	-1.004635e+002	-9.362509e+001	-3.280709e+001	1.395853e+002
9.990263e+006	-3.574087e+001	1.564929e+002	-3.055697e+001	-2.547704e+001	-9.434799e+001	-4.650838e+000	-3.282034e+001	1.394924e+002
9.990267e+006	-3.574588e+001	1.564362e+002	-3.055625e+001	-2.545526e+001	-9.709309e+001	2.454270e+001	-3.281326e+001	1.395336e+002
9.990272e+006	-3.573952e+001	1.564710e+002	-3.055538e+001	-2.547635e+001	-8.890532e+001	1.152346e+002	-3.280420e+001	1.395638e+002
9.990277e+006	-3.573773e+001	1.563783e+002	-3.056254e+001	-2.545245e+001	-9.318633e+001	-1.477839e+002	-3.281136e+001	1.395706e+002
9.990281e+006	-3.573476e+001	1.565146e+002	-3.054615e+001	-2.541985e+001	-1.007859e+002	-5.145457e+001	-3.281947e+001	1.395719e+002
9.990286e+006	-3.575282e+001	1.563518e+002	-3.055300e+001	-2.551319e+001	-9.347054e+001	5.223554e+001	-3.280564e+001	1.394790e+002
9.990291e+006	-3.575447e+001	1.563916e+002	-3.055400e+001	-2.545755e+001	-9.525709e+001	1.168572e+002	-3.281192e+001	1.395196e+002
9.990295e+006	-3.574531e+001	1.565261e+002	-3.055091e+001	-2.546401e+001	-9.798318e+001	-1.360579e+001	-3.281679e+001	1.395509e+002
9.990300e+006	-3.573466e+001	1.565009e+002	-3.054319e+001	-2.548910e+001	-9.366056e+001	1.574460e+002	-3.281548e+001	1.394885e+002
9.990305e+006	-3.572988e+001	1.563787e+002	-3.054927e+001	-2.546818e+001	-9.232758e+001	1.755572e+002	-3.280965e+001	1.394826e+002
9.990309e+006	-3.574692e+001	1.565299e+002	-3.055701e+001	-2.546707e+001	-8.744379e+001	1.612859e+002	-3.281656e+001	1.395788e+002
9.990314e+006	-3.573874e+001	1.564385e+002	-3.054493e+001	-2.543753e+001	-8.969022e+001	1.270267e+002	-3.282103e+001	1.395117e+002
9.990319e+006	-3.574125e+001	1.564655e+002	-3.054028e+001	-2.550772e+001	-9.464896e+001	1.928499e+001	-3.282253e+001	1.395148e+002
9.990323e+006	-3.575117e+001	1.563265e+002	-3.055061e+001	-2.544605e+001	-9.391053e+001	-1.584363e+002	-3.282237e+001	1.395524e+002
9.990328e+006	-3.574694e+001	1.564510e+002	-3.054980e+001	-2.541213e+001	-9.667481e+001	-1.709895e+002	-3.282152e+001	1.395268e+002
9.990333e+006	-3.576251e+001	1.564732e+002	-3.055429e+001	-2.547159e+001	-1.077684e+002	-1.439007e+002	-3.281781e+001	1.395244e+002
9.990338e+006	-3.575381e+001	1.563818e+002	-3.054939e+001	-2.541046e+001	-9.983384e+001	-3.179785e+001	-3.281859e+001	1.395661e+002
9.990342e+006	-3.574832e+001	1.565093e+002	-3.054192e+001	-2.542589e+001	-8.776251e+001	9.020742e+001	-3.281161e+001	1.395178e+002
9.990347e+006	-3.574247e+001	1.564001e+002	-3.054376e+001	-2.547845e+001	-9.000840e+001	-1.566044e+002	-3.281111e+001	1.395441e+002
9.990352e+006	-3.575056e+001	1.563275e+002	-3.054452e+001	-2.547133e+001	-9.025394e+001	-1.459005e+002	-3.281344e+001	1.396109e+002
9.990356e+006	-3.573122e+001	1.564940e+002	-3.054796e+001	-2.551914e+001	-9.514640e+001	1.196628e+002	-3.281228e+001	1.396096e+002
9.990361e+006	-3.575773e+001	1.564710e+002	-3.055005e+001	-2.546444e+001	-9.193912e+001	1.229293e+002	-3.282699e+001	1.394934e+002
9.990366e+006	-3.574487e+001	1.564818e+002	-3.054416e+001	-2.544083e+001	-8.928758e+001	6.019819e+001	-3.280904e+001	1.395404e+002
9.990370e+006	-3.573267e+001	1.565322e+002	-3.054459e+001	-2.552901e+001	-9.351741e+001	-3.312277e+001	-3.281985e+001	1.394894e+002
9.990375e+006	-3.574370e+001	1.564655e+002	-3.054477e+001	-2.548224e+001	-1.014777e+002	1.379010e+002	-3.281880e+001	1.395218e+002
9.990380e+006	-3.574756e+001	1.564549e+002	-3.054215e+001	-2.549926e+001	-9.161033e+001	-1.737215e+002	-3.281293e+001	1.395121e+002
9.990384e+006	-3.573480e+001	1.563585e+002	-3.055631e+001	-2.546410e+001	-8.881091e+001	1.720641e+002	-3.280776e+001	1.395220e+002
9.990389e+006	-3.575415e+001	1.564459e+002	-3.054088e+001	-2.550155e+001	-9.273312e+001	-8.613696e+001	-3.280092e+001	1.395930e+002
9.990394e+006	-3.575837e+001	1.565456e+002	-3.054095e+001	-2.549321e+001	-9.237203e+001	-1.018073e+001	-3.282068e+001	1.395098e+002
9.990398e+006	-3.572881e+001	1.565318e+002	-3.054148e+001	-2.544638e+001	-9.205774e+001	-1.518385e+002	-3.281401e+001	1.395574e+002
9.990403e+006	-3.575952e+001	1.564315e+002	-3.054458e+001	-2.543700e+001	-9.240521e+001	5.550467e+001	-3.281218e+001	1.395638e+002
9.990408e+006	-3.574498e+001	1.564474e+002	-3.054485e+001	-2.542045e+001	-9.783073e+001	1.087444e+002	-3.280981e+001	1.395201e+002
9.990413e+006	-3.574870e+001	1.563592e+002	-3.055021e+001	-2.554659e+001	-9.219000e+001	-3.528115e+001	-3.282248e+001	1.395576e+002
9.990417e+006	-3.574754e+001	1.564465e+002	-3.055956e+001	-2.545430e+001	-9.227624e+001	1.610474e+002	-3.282393e+001	1.395462e+002
9.990422e+006	-3.575143e+001	1.564566e+002	-3.055272e+001	-2.545887e+001	-9.324310e+001	1.700871e+002	-3.282043e+001	1.395958e+002
9.990427e+006	-3.573826e+001	1.563907e+002	-3.055164e+001	-2.549389e+001	-9.346804e+001	-1.188794e+002	-3.281976e+001	1.395410e+002
9.990431e+006	-3.574462e+001	1.564962e+002	-3.054628e+001	-2.546948e+001	-9.100251e+001	6.361309e+001	-3.281353e+001	1.395165e+002
9.990436e+006	-3.573258e+001	1.564527e+002	-3.054806e+001	-2.548130e+001	-9.159749e+001	7.050423e+001	-3.280086e+001	1.394636e+002
9.990441e+006	-3.575281e+001	1.564653e+002	-3.054262e+001	-2.547991e+001	-8.796700e+001	1.201467e+002	-3.281535e+001	1.395329e+002
9.990445e+006	-3.574131e+001	1.563729e+002	-3.055310e+001	-2.548789e+001	-1.025765e+002	1.345032e+002	-3.281176e+001	1.393931e+002
9.990450e+006	-3.573229e+001	1.564249e+002	-3.054951e+001	-2.551715e+001	-9.353205e+001	-1.416076e+002	-3.280602e+001	1.394697e+002
9.990455e+006	-3.574796e+001	1.564124e+002	-3.055700e+001	-2.539918e+001	-1.024468e+002	8.292602e+001	-3.282370e+001	1.394485e+002
9.990459e+006	-3.575272e+001	1.563980e+002	-3.054214e+001	-2.549017e+001	-9.043258e+001	5.279293e+000	-3.280747e+001	1.395409e+002
9.990464e+006	-3.575556e+001	1.564281e+002	-3.054897e+001	-2.550069e+001	-8.606184e+001	1.730595e+002	-3.282343e+001	1.394739e+002
9.990469e+006	-3.573897e+001	1.563653e+002	-3.054830e+001	-2.544751e+001	-9.534324e+001	9.523446e+001	-3.280726e+001	1.395118e+002
9.990473e+006	-3.574544e+001	1.564578e+002	-3.055806e+001	-2.553639e+001	-9.000020e+001	5.091322e+001	-3.282377e+001	1.395350e+002
9.990478e+006	-3.574212e+001	1.564531e+002	-3.054687e+001	-2.546515e+001	-9.683400e+001	3.183441e+001	-3.281065e+001	1.395195e+002
9.990483e+006	-3.575117e+001	1.565258e+002	-3.054512e+001	-2.550194e+001	-9.897746e+001	1.001692e+002	-3.281804e+001	1.395011e+002
9.990488e+006	-3.574918e+001	1.564070e+002	-3.054300e+001	-2.549229e+001	-9.995550e+001	9.189943e+001	-3.282224e+001	1.395275e+002
9.990492e+006	-3.576060e+001	1.563537e+002	-3.055343e+001	-2.543172e+001	-8.927568e+001	2.656732e+001	-3.281668e+001	1.394768e+002
9.990497e+006	-3.574946e+001	1.563903e+002	-3.053528e+001	-2.549022e+001	-9.045137e+001	1.000100e+002	-3.282030e+001	1.394990e+002
9.990502e+006	-3.574977e+001	1.564538e+002	-3.054762e+001	-2.542115e+001	-9.359321e+001	7.081105e+001	-3.281093e+001	1.394554e+002
9.990506e+006	-3.576537e+001	1.563779e+002	-3.054564e+001	-2.542368e+001	-8.963366e+001	1.120657e+002	-3.281299e+001	1.394618e+002
9.990511e+006	-3.574904e+001	1.565236e+002	-3.053863e+001	-2.546245e+001	-8.925905e+001	-1.739957e+002	-3.280230e+001	1.395504e+002
9.990516e+006	-3.573076e+001	1.563416e+002	-3.054450e+001	-2.554837e+001	-9.332274e+001	6.497818e+001	-3.281041e+001	1.395201e+002
9.990520e+006	-3.574153e+001	1.563590e+002	-3.055105e+001	-2.545693e+001	-9.257422e+001	-1.692299e+002	-3.281686e+001	1.395034e+002
9.990525e+006	-3.573189e+001	1.565189e+002	-3.054127e+001	-2.546940e+001	-9.175125e+001	-9.055734e+001	-3.281623e+001	1.395043e+002
9.990530e+006	-3.574618e+001	1.563857e+002	-3.054769e+001	-2.548447e+001	-9.297618e+001	1.371587e+002	-3.281768e+001	1.396542e+002
9.990534e+006	-3.573005e+001	1.563384e+002	-3.055214e+001	-2.546642e+001	-1.087082e+002	-1.750824e+002	-3.281348e+001	1.395598e+002
9.990539e+006	-3.575143e+001	1.564769e+002	-3.054878e+001	-2.548283e+001	-1.024796e+002	-5.081380e+001	-3.281156e+001	1.395145e+002
9.990544e+006	-3.575421e+001	1.563987e+002	-3.055701e+001	-2.543336e+001	-8.601488e+001	1.109822e+002	-3.280687e+001	1.395107e+002
9.990548e+006	-3.574307e+001	1.564812e+002	-3.054643e+001	-2.552026e+001	-9.299381e+001	1.183108e+002	-3.280531e+001	1.395377e+002
9.990553e+006	-3.575275e+001	1.564721e+002	-3.054279e+001	-2.545685e+001	-9.950898e+001	9.995673e+001	-3.281260e+001	1.394378e+002
9.990558e+006	-3.573748e+001	1.564543e+002	-3.054392e+001	-2.550385e+001	-9.359550e+001	1.288433e+002	-3.282502e+001	1.395290e+002
9.990563e+006	-3.574019e+001	1.563813e+002	-3.055099e+001	-2.548635e+001	-8.885010e+001	2.854139e+001	-3.281338e+001	1.394903e+002
9.990567e+006	-3.574280e+001	1.564563e+002	-3.054328e+001	-2.546900e+001	-9.237061e+001	-1.584786e+002	-3.280306e+001	1.395572e+002
9.990572e+006	-3.573572e+001	1.564217e+002	-3.054328e+001	-2.543678e+001	-9.906502e+001	-1.592712e+002	-3.280911e+001	1.395712e+002
9.990577e+006	-3.574163e+001	1.563470e+002	-3.053311e+001	-2.546934e+001	-9.514052e+001	6.346531e+001	-3.281560e+001	1.394799e+002
9.990581e+006	-3.574544e+001	1.564259e+002	-3.055139e+001	-2.545244e+001	-1.010935e+002	9.885535e+001	-3.280682e+001	1.394609e+002
9.990586e+006	-3.573790e+001	1.563980e+002	-3.054052e+001	-2.547277e+001	-9.420122e+001	8.044663e+001	-3.281902e+001	1.394794e+002
9.990591e+006	-3.573889e+001	1.564244e+002	-3.055403e+001	-2.546625e+001	-9.126161e+001	9.109386e+001	-3.281694e+001	1.394561e+002
9.990595e+006	-3.576167e+001	1.564540e+002	-3.053584e+001	-2.549414e+001	-1.048245e+002	-1.522121e+002	-3.281267e+001	1.394603e+002
9.990600e+006	-3.576220e+001	1.564521e+002	-3.054011e+001	-2.547310e+001	-1.018300e+002	1.232959e+002	-3.280895e+001	1.394102e+002
9.990605e+006	-3.576244e+001	1.565677e+002	-3.055558e+001	-2.550298e+001	-8.554440e+001	1.225889e+002	-3.281078e+001	1.395396e+002
9.990609e+006	-3.574742e+001	1.564035e+002	-3.053376e+001	-2.547872e+001	-9.018648e+001	1.133747e+002	-3.280139e+001	1.394790e+002
9.990614e+006	-3.574798e+001	1.564918e+002	-3.053659e+001	-2.543840e+001	-9.366939e+001	4.745245e+001	-3.281356e+001	1.395061e+002
9.990619e+006	-3.574240e+001	1.565525e+002	-3.054323e+001	-2.544511e+001	-9.622294e+001	1.742883e+002	-3.281500e+001	1.394046e+002
9.990623e+006	-3.576167e+001	1.565114e+002	-3.053562e+001	-2.550123e+001	-9.148483e+001	-6.755007e+001	-3.280702e+001	1.395388e+002
9.990628e+006	-3.573162e+001	1.564340e+002	-3.053802e+001	-2.548731e+001	-9.407405e+001	1.439828e+002	-3.281904e+001	1.394830e+002
9.990633e+006	-3.574547e+001	1.564277e+002	-3.054552e+001	-2.548814e+001	-8.488165e+001	4.246183e+001	-3.282506e+001	1.394688e+002
9.990638e+006	-3.574263e+001	1.565015e+002	-3.055743e+001	-2.551500e+001	-9.058706e+001	4.335500e+000	-3.281401e+001	1.393673e+002
9.990642e+006	-3.575058e+001	1.564708e+002	-3.053788e+001	-2.553610e+001	-9.259843e+001	-3.888728e+001	-3.280846e+001	1.395524e+002
9.990647e+006	-3.574830e+001	1.564911e+002	-3.054196e+001	-2.544065e+001	-9.721042e+001	4.068774e+001	-3.280510e+001	1.394848e+002
9.990652e+006	-3.572974e+001	1.564259e+002	-3.055238e+001	-2.545733e+001	-9.787107e+001	-1.608089e+002	-3.281017e+001	1.395065e+002
9.990656e+006	-3.576072e+001	1.564481e+002	-3.053683e+001	-2.554505e+001	-9.256698e+001	-1.029405e+002	-3.282650e+001	1.394644e+002
9.990661e+006	-3.575111e+001	1.565259e+002	-3.054415e+001	-2.547376e+001	-8.770351e+001	1.042370e+002	-3.281285e+001	1.394644e+002
9.990666e+006	-3.574019e+001	1.564384e+002	-3.054669e+001	-2.552470e+001	-8.629903e+001	8.362094e+001	-3.280828e+001	1.395237e+002
9.990670e+006	-3.574550e+001	1.564730e+002	-3.054042e+001	-2.557168e+001	-9.647322e+001	1.398385e+002	-3.281373e+001	1.395211e+002
9.990675e+006	-3.574340e+001	1.564279e+002	-3.052978e+001	-2.545051e+001	-9.245233e+001	-1.728399e+001	-3.281394e+001	1.396362e+002
9.990680e+006	-3.574050e+001	1.563761e+002	-3.054722e+001	-2.545796e+001	-8.766480e+001	4.843944e+001	-3.281616e+001	1.394875e+002
9.990684e+006	-3.575963e+001	1.563153e+002	-3.053082e+001	-2.552697e+001	-9.223706e+001	1.422842e+002	-3.281266e+001	1.395336e+002
9.990689e+006	-3.573932e+001	1.564026e+002	-3.054631e+001	-2.553826e+001	-8.601989e+001	9.926585e+001	-3.282574e+001	1.394936e+002
9.990694e+006	-3.574530e+001	1.564960e+002	-3.053638e+001	-2.551563e+001	-9.546828e+001	1.462631e+002	-3.281558e+001	1.395352e+002
