!CETC41,AV3656A,ZGL00048,1.3.2
!Calibration ON (Full Solt 2-Port(Omit Isolation))
!Measurements: S11 S21 S12 S22
!2025-04-18 01:48
# Hz  S  dB  R 50.000
9.990000e+006	-3.572962e+001	1.565472e+002	-3.056116e+001	-2.574293e+001	-9.804809e+001	1.798662e+002	-3.278437e+001	1.389687e+002
9.990005e+006	-3.574085e+001	1.565254e+002	-3.055866e+001	-2.583652e+001	-8.644489e+001	8.497291e+001	-3.278239e+001	1.389498e+002
9.990009e+006	-3.575228e+001	1.564575e+002	-3.054942e+001	-2.577781e+001	-8.803051e+001	-1.194338e+002	-3.278554e+001	1.389625e+002
9.990014e+006	-3.575479e+001	1.564926e+002	-3.055750e+001	-2.582031e+001	-9.783063e+001	-1.586346e+001	-3.278054e+001	1.390002e+002
9.990019e+006	-3.576775e+001	1.564379e+002	-3.055243e+001	-2.593366e+001	-8.970108e+001	1.279099e+002	-3.277492e+001	1.389525e+002
9.990023e+006	-3.574557e+001	1.564977e+002	-3.056034e+001	-2.586501e+001	-9.169729e+001	1.401398e+002	-3.280062e+001	1.389321e+002
9.990028e+006	-3.573953e+001	1.563927e+002	-3.055371e+001	-2.586057e+001	-9.128348e+001	1.144332e+002	-3.278771e+001	1.389848e+002
9.990033e+006	-3.573122e+001	1.564315e+002	-3.055934e+001	-2.585910e+001	-8.951137e+001	4.052785e+001	-3.278735e+001	1.388725e+002
9.990038e+006	-3.574328e+001	1.565113e+002	-3.055025e+001	-2.587615e+001	-8.958954e+001	1.082017e+002	-3.278357e+001	1.389102e+002
9.990042e+006	-3.575750e+001	1.565124e+002	-3.055022e+001	-2.588428e+001	-9.333535e+001	1.454549e+002	-3.278129e+001	1.388903e+002
9.990047e+006	-3.574870e+001	1.565286e+002	-3.056411e+001	-2.590406e+001	-9.449311e+001	1.106578e+002	-3.276737e+001	1.388758e+002
9.990052e+006	-3.576097e+001	1.564173e+002	-3.054152e+001	-2.588512e+001	-9.308910e+001	-5.917847e+001	-3.277608e+001	1.389042e+002
9.990056e+006	-3.574524e+001	1.564543e+002	-3.056340e+001	-2.587083e+001	-9.152027e+001	6.519377e+001	-3.278280e+001	1.389173e+002
9.990061e+006	-3.573749e+001	1.564189e+002	-3.055950e+001	-2.579840e+001	-1.007007e+002	1.536512e+002	-3.276332e+001	1.389655e+002
9.990066e+006	-3.574174e+001	1.564364e+002	-3.057696e+001	-2.581825e+001	-9.664453e+001	1.739606e+002	-3.278249e+001	1.389230e+002
9.990070e+006	-3.574737e+001	1.564536e+002	-3.057486e+001	-2.578551e+001	-9.040485e+001	1.408598e+002	-3.277742e+001	1.389845e+002
9.990075e+006	-3.575369e+001	1.565103e+002	-3.055536e+001	-2.574283e+001	-9.859044e+001	1.072293e+002	-3.277860e+001	1.389328e+002
9.990080e+006	-3.574178e+001	1.564720e+002	-3.054270e+001	-2.565191e+001	-9.998021e+001	1.676292e+002	-3.277139e+001	1.389744e+002
9.990084e+006	-3.574202e+001	1.565438e+002	-3.054418e+001	-2.578263e+001	-8.584314e+001	1.539489e+002	-3.277121e+001	1.389820e+002
9.990089e+006	-3.574474e+001	1.563877e+002	-3.055561e+001	-2.574459e+001	-9.511891e+001	2.968981e+001	-3.278163e+001	1.390256e+002
9.990094e+006	-3.575346e+001	1.564369e+002	-3.055011e+001	-2.588731e+001	-9.654483e+001	-1.284404e+002	-3.277542e+001	1.389668e+002
9.990098e+006	-3.573091e+001	1.564248e+002	-3.054799e+001	-2.584536e+001	-9.252970e+001	4.096438e+001	-3.276676e+001	1.389600e+002
9.990103e+006	-3.575415e+001	1.563903e+002	-3.055446e+001	-2.582364e+001	-9.197925e+001	1.055365e+002	-3.278637e+001	1.389460e+002
9.990108e+006	-3.574726e+001	1.564745e+002	-3.057367e+001	-2.581302e+001	-9.374644e+001	-1.152375e+002	-3.278821e+001	1.389299e+002
9.990113e+006	-3.573381e+001	1.564277e+002	-3.055643e+001	-2.576551e+001	-8.871565e+001	-1.751476e+002	-3.278814e+001	1.389545e+002
9.990117e+006	-3.575169e+001	1.564735e+002	-3.055996e+001	-2.576918e+001	-1.008658e+002	7.047382e+001	-3.279525e+001	1.389300e+002
9.990122e+006	-3.575632e+001	1.565036e+002	-3.055700e+001	-2.576287e+001	-9.286756e+001	-1.025774e+002	-3.278145e+001	1.389494e+002
9.990127e+006	-3.574106e+001	1.565381e+002	-3.056003e+001	-2.568397e+001	-1.073706e+002	5.369084e+001	-3.277681e+001	1.389723e+002
9.990131e+006	-3.574779e+001	1.563430e+002	-3.055249e+001	-2.572952e+001	-1.019743e+002	-3.342301e+001	-3.278077e+001	1.389928e+002
9.990136e+006	-3.576386e+001	1.565095e+002	-3.054917e+001	-2.578890e+001	-9.928902e+001	1.417568e+001	-3.279906e+001	1.389637e+002
9.990141e+006	-3.573360e+001	1.564689e+002	-3.054848e+001	-2.574737e+001	-9.594967e+001	1.456693e+002	-3.278104e+001	1.389583e+002
9.990145e+006	-3.574180e+001	1.565128e+002	-3.055358e+001	-2.576019e+001	-1.028093e+002	-8.308127e+001	-3.278110e+001	1.389853e+002
9.990150e+006	-3.575255e+001	1.564376e+002	-3.054313e+001	-2.577136e+001	-1.026195e+002	-6.441622e+001	-3.277184e+001	1.389496e+002
9.990155e+006	-3.575817e+001	1.563692e+002	-3.055447e+001	-2.576790e+001	-9.404095e+001	1.130031e+002	-3.279076e+001	1.389178e+002
9.990159e+006	-3.574759e+001	1.564494e+002	-3.054916e+001	-2.573472e+001	-1.082765e+002	1.011799e+002	-3.279132e+001	1.389886e+002
9.990164e+006	-3.575547e+001	1.564249e+002	-3.054807e+001	-2.576788e+001	-9.507450e+001	1.265829e+002	-3.277441e+001	1.390071e+002
9.990169e+006	-3.574522e+001	1.563976e+002	-3.054983e+001	-2.567179e+001	-9.641946e+001	3.159287e+001	-3.278153e+001	1.389053e+002
9.990173e+006	-3.574656e+001	1.565271e+002	-3.054669e+001	-2.576526e+001	-9.959247e+001	5.753509e+001	-3.277962e+001	1.389186e+002
9.990178e+006	-3.572498e+001	1.563784e+002	-3.055071e+001	-2.577953e+001	-9.083139e+001	9.336153e+001	-3.277387e+001	1.389620e+002
9.990183e+006	-3.574172e+001	1.564249e+002	-3.055911e+001	-2.581123e+001	-1.065712e+002	1.636530e+002	-3.278275e+001	1.390153e+002
9.990188e+006	-3.575678e+001	1.564323e+002	-3.054965e+001	-2.579131e+001	-9.646004e+001	1.414168e+002	-3.278280e+001	1.389044e+002
9.990192e+006	-3.574248e+001	1.565343e+002	-3.054860e+001	-2.580519e+001	-9.192560e+001	1.026320e+002	-3.279012e+001	1.389238e+002
9.990197e+006	-3.575210e+001	1.565204e+002	-3.055072e+001	-2.576458e+001	-9.228033e+001	9.000958e+001	-3.278870e+001	1.389462e+002
9.990202e+006	-3.575610e+001	1.564606e+002	-3.055455e+001	-2.573735e+001	-9.679864e+001	6.649517e+001	-3.279759e+001	1.388820e+002
9.990206e+006	-3.574064e+001	1.565258e+002	-3.055579e+001	-2.573566e+001	-8.955819e+001	9.768790e+001	-3.279440e+001	1.390284e+002
9.990211e+006	-3.574149e+001	1.564742e+002	-3.054595e+001	-2.578608e+001	-1.080062e+002	9.660118e+001	-3.277754e+001	1.388628e+002
9.990216e+006	-3.572778e+001	1.564805e+002	-3.055175e+001	-2.580557e+001	-8.943108e+001	1.296705e+002	-3.279093e+001	1.390126e+002
9.990220e+006	-3.574848e+001	1.563751e+002	-3.055643e+001	-2.575123e+001	-9.416806e+001	1.448445e+001	-3.278911e+001	1.389090e+002
9.990225e+006	-3.575208e+001	1.565430e+002	-3.056747e+001	-2.576465e+001	-1.056387e+002	1.281446e+002	-3.278826e+001	1.389981e+002
9.990230e+006	-3.573544e+001	1.564866e+002	-3.055627e+001	-2.582691e+001	-9.377301e+001	1.092571e+002	-3.280048e+001	1.389021e+002
9.990234e+006	-3.575000e+001	1.565224e+002	-3.056198e+001	-2.580222e+001	-9.456026e+001	6.632677e+001	-3.279630e+001	1.389663e+002
9.990239e+006	-3.574999e+001	1.564822e+002	-3.055289e+001	-2.579330e+001	-9.201062e+001	1.254003e+002	-3.278255e+001	1.389456e+002
9.990244e+006	-3.575019e+001	1.565361e+002	-3.054780e+001	-2.577977e+001	-8.934279e+001	7.405443e+001	-3.279497e+001	1.390258e+002
9.990248e+006	-3.573925e+001	1.564107e+002	-3.054571e+001	-2.578791e+001	-9.897936e+001	9.922075e+001	-3.278382e+001	1.389832e+002
9.990253e+006	-3.573822e+001	1.565318e+002	-3.054456e+001	-2.576365e+001	-8.942341e+001	1.707751e+002	-3.278510e+001	1.390042e+002
9.990258e+006	-3.574865e+001	1.564200e+002	-3.053862e+001	-2.578459e+001	-9.685283e+001	1.214753e+002	-3.277651e+001	1.388769e+002
9.990263e+006	-3.575121e+001	1.564703e+002	-3.054397e+001	-2.579324e+001	-9.067173e+001	1.470626e+002	-3.277850e+001	1.390149e+002
9.990267e+006	-3.574100e+001	1.564593e+002	-3.053521e+001	-2.577167e+001	-9.691093e+001	-7.742646e+001	-3.278804e+001	1.389760e+002
9.990272e+006	-3.574621e+001	1.565124e+002	-3.053828e+001	-2.580059e+001	-9.857367e+001	9.448714e+001	-3.278281e+001	1.389577e+002
9.990277e+006	-3.573328e+001	1.565170e+002	-3.054986e+001	-2.576719e+001	-1.026567e+002	5.623285e+001	-3.277808e+001	1.390530e+002
9.990281e+006	-3.573968e+001	1.563898e+002	-3.054474e+001	-2.573186e+001	-9.295156e+001	-1.196746e+001	-3.277669e+001	1.388869e+002
9.990286e+006	-3.574768e+001	1.565175e+002	-3.055290e+001	-2.580261e+001	-1.055954e+002	1.611239e+001	-3.279763e+001	1.389614e+002
9.990291e+006	-3.573664e+001	1.565100e+002	-3.055241e+001	-2.582417e+001	-8.938742e+001	3.853486e+001	-3.279502e+001	1.390218e+002
9.990295e+006	-3.575099e+001	1.564415e+002	-3.054738e+001	-2.571124e+001	-9.836742e+001	1.079529e+002	-3.277953e+001	1.390268e+002
9.990300e+006	-3.574056e+001	1.564468e+002	-3.054324e+001	-2.580424e+001	-9.620226e+001	-1.438941e+001	-3.277875e+001	1.389431e+002
9.990305e+006	-3.575318e+001	1.563843e+002	-3.055291e+001	-2.575979e+001	-1.022657e+002	-7.483373e+000	-3.278832e+001	1.389656e+002
9.990309e+006	-3.575419e+001	1.564850e+002	-3.054684e+001	-2.575457e+001	-9.386762e+001	-1.151916e+002	-3.279334e+001	1.389526e+002
9.990314e+006	-3.574059e+001	1.564636e+002	-3.054933e+001	-2.580615e+001	-9.560091e+001	-1.615451e+001	-3.278581e+001	1.388936e+002
9.990319e+006	-3.574464e+001	1.564052e+002	-3.053769e+001	-2.575927e+001	-1.019173e+002	-4.951377e+001	-3.279061e+001	1.389436e+002
9.990323e+006	-3.574438e+001	1.563993e+002	-3.055057e+001	-2.581086e+001	-9.885351e+001	-5.281522e+001	-3.279140e+001	1.389754e+002
9.990328e+006	-3.573761e+001	1.565329e+002	-3.055412e+001	-2.573604e+001	-8.864184e+001	9.693443e+001	-3.279438e+001	1.389246e+002
9.990333e+006	-3.575264e+001	1.564547e+002	-3.054332e+001	-2.579047e+001	-9.041342e+001	1.096543e+002	-3.279353e+001	1.390157e+002
9.990338e+006	-3.574173e+001	1.563839e+002	-3.054542e+001	-2.579877e+001	-9.120691e+001	1.633690e+002	-3.279539e+001	1.389354e+002
9.990342e+006	-3.573543e+001	1.565091e+002	-3.054792e+001	-2.573134e+001	-1.022436e+002	1.363788e+002	-3.279541e+001	1.389968e+002
9.990347e+006	-3.574968e+001	1.564588e+002	-3.054333e+001	-2.576328e+001	-8.731296e+001	9.948254e+001	-3.278655e+001	1.389560e+002
9.990352e+006	-3.576212e+001	1.564260e+002	-3.054531e+001	-2.569690e+001	-9.138487e+001	2.081990e+001	-3.277918e+001	1.389595e+002
9.990356e+006	-3.573837e+001	1.563534e+002	-3.054626e+001	-2.581641e+001	-8.825687e+001	1.333686e+002	-3.279885e+001	1.390016e+002
9.990361e+006	-3.574213e+001	1.563742e+002	-3.054775e+001	-2.572957e+001	-9.018126e+001	8.364109e+001	-3.278672e+001	1.389737e+002
9.990366e+006	-3.576529e+001	1.564937e+002	-3.054830e+001	-2.578033e+001	-8.894099e+001	8.189308e+001	-3.280618e+001	1.389701e+002
9.990370e+006	-3.576018e+001	1.565414e+002	-3.054438e+001	-2.573248e+001	-9.812661e+001	7.675312e+001	-3.280490e+001	1.390879e+002
9.990375e+006	-3.573649e+001	1.565513e+002	-3.054656e+001	-2.573278e+001	-9.974867e+001	4.683925e+001	-3.277879e+001	1.389747e+002
9.990380e+006	-3.573906e+001	1.564328e+002	-3.054401e+001	-2.573766e+001	-9.510211e+001	1.297870e+002	-3.279046e+001	1.389006e+002
9.990384e+006	-3.573948e+001	1.564961e+002	-3.054420e+001	-2.573301e+001	-9.138481e+001	2.987977e+001	-3.279177e+001	1.389026e+002
9.990389e+006	-3.574042e+001	1.564247e+002	-3.054981e+001	-2.583699e+001	-1.030770e+002	2.317888e+001	-3.278567e+001	1.390026e+002
9.990394e+006	-3.574685e+001	1.564254e+002	-3.055159e+001	-2.579914e+001	-9.602412e+001	8.156345e+001	-3.280281e+001	1.390668e+002
9.990398e+006	-3.576011e+001	1.564450e+002	-3.055447e+001	-2.572538e+001	-9.025616e+001	1.117459e+001	-3.281402e+001	1.389742e+002
9.990403e+006	-3.574283e+001	1.564689e+002	-3.054378e+001	-2.573490e+001	-9.520438e+001	1.335455e+002	-3.279184e+001	1.390569e+002
9.990408e+006	-3.574972e+001	1.564259e+002	-3.054951e+001	-2.570566e+001	-9.249277e+001	-8.171548e+001	-3.278046e+001	1.389821e+002
9.990413e+006	-3.573702e+001	1.564432e+002	-3.055019e+001	-2.584426e+001	-1.030260e+002	1.664318e+002	-3.279286e+001	1.390639e+002
9.990417e+006	-3.575547e+001	1.564755e+002	-3.054982e+001	-2.576967e+001	-8.764432e+001	1.642915e+002	-3.278620e+001	1.389996e+002
9.990422e+006	-3.574539e+001	1.565293e+002	-3.053980e+001	-2.580329e+001	-9.200886e+001	-8.289162e+001	-3.278199e+001	1.389017e+002
9.990427e+006	-3.574021e+001	1.564348e+002	-3.054647e+001	-2.571418e+001	-9.004884e+001	7.170713e+001	-3.279040e+001	1.389455e+002
9.990431e+006	-3.573903e+001	1.564779e+002	-3.053422e+001	-2.581666e+001	-9.762080e+001	1.342323e+002	-3.281140e+001	1.389951e+002
9.990436e+006	-3.575431e+001	1.564917e+002	-3.054223e+001	-2.581015e+001	-9.632490e+001	1.205536e+002	-3.280268e+001	1.389548e+002
9.990441e+006	-3.573379e+001	1.564961e+002	-3.054314e+001	-2.586611e+001	-1.016805e+002	-2.960899e+001	-3.279864e+001	1.389795e+002
9.990445e+006	-3.574644e+001	1.564373e+002	-3.054697e+001	-2.572273e+001	-9.010796e+001	7.342214e+001	-3.279467e+001	1.390660e+002
9.990450e+006	-3.574604e+001	1.564590e+002	-3.055013e+001	-2.585252e+001	-9.319640e+001	1.543609e+002	-3.279237e+001	1.389798e+002
9.990455e+006	-3.575540e+001	1.564779e+002	-3.054265e+001	-2.580425e+001	-9.227305e+001	1.021402e+002	-3.278708e+001	1.388379e+002
9.990459e+006	-3.574565e+001	1.564636e+002	-3.054355e+001	-2.584219e+001	-9.265375e+001	1.277536e+002	-3.279546e+001	1.389705e+002
9.990464e+006	-3.574437e+001	1.565396e+002	-3.054526e+001	-2.572572e+001	-8.947838e+001	8.237709e+001	-3.279237e+001	1.389661e+002
9.990469e+006	-3.575042e+001	1.566447e+002	-3.054752e+001	-2.578196e+001	-9.741477e+001	7.860881e+001	-3.278964e+001	1.389438e+002
9.990473e+006	-3.576126e+001	1.564103e+002	-3.055409e+001	-2.570795e+001	-9.440810e+001	1.053718e+002	-3.278184e+001	1.390042e+002
9.990478e+006	-3.576321e+001	1.563600e+002	-3.055177e+001	-2.585132e+001	-9.015091e+001	1.285792e+002	-3.278993e+001	1.390092e+002
9.990483e+006	-3.574913e+001	1.564504e+002	-3.053629e+001	-2.579153e+001	-8.862996e+001	1.359513e+002	-3.279245e+001	1.389147e+002
9.990488e+006	-3.574648e+001	1.564801e+002	-3.055314e+001	-2.579226e+001	-9.284015e+001	7.727557e+001	-3.279597e+001	1.389502e+002
9.990492e+006	-3.573644e+001	1.564421e+002	-3.053411e+001	-2.573941e+001	-9.240077e+001	1.092618e+002	-3.279376e+001	1.389862e+002
9.990497e+006	-3.574719e+001	1.565138e+002	-3.054199e+001	-2.580013e+001	-9.233107e+001	1.200906e+002	-3.279506e+001	1.390062e+002
9.990502e+006	-3.574097e+001	1.565238e+002	-3.054383e+001	-2.586684e+001	-9.109891e+001	-1.926738e+001	-3.280273e+001	1.388838e+002
9.990506e+006	-3.575096e+001	1.563674e+002	-3.054346e+001	-2.576754e+001	-1.051434e+002	-1.380017e+002	-3.277787e+001	1.390180e+002
9.990511e+006	-3.575294e+001	1.564088e+002	-3.053767e+001	-2.579538e+001	-9.328344e+001	-9.419280e+001	-3.280180e+001	1.390241e+002
9.990516e+006	-3.575634e+001	1.564881e+002	-3.053708e+001	-2.571301e+001	-1.133187e+002	-1.784668e+002	-3.279650e+001	1.389225e+002
9.990520e+006	-3.572495e+001	1.564575e+002	-3.054398e+001	-2.578552e+001	-9.713104e+001	1.633380e+002	-3.279523e+001	1.390215e+002
9.990525e+006	-3.574205e+001	1.563498e+002	-3.053317e+001	-2.575289e+001	-8.551631e+001	1.114881e+002	-3.280639e+001	1.390209e+002
9.990530e+006	-3.574208e+001	1.564476e+002	-3.055433e+001	-2.579294e+001	-8.810065e+001	6.584349e+001	-3.280971e+001	1.389385e+002
9.990534e+006	-3.574293e+001	1.564154e+002	-3.054206e+001	-2.576222e+001	-1.002311e+002	2.528925e+001	-3.280226e+001	1.389941e+002
9.990539e+006	-3.574423e+001	1.564640e+002	-3.055026e+001	-2.577394e+001	-8.694586e+001	1.040084e+002	-3.280176e+001	1.389099e+002
9.990544e+006	-3.574968e+001	1.564673e+002	-3.055161e+001	-2.582681e+001	-9.348976e+001	8.284827e+001	-3.279707e+001	1.389444e+002
9.990548e+006	-3.574489e+001	1.564884e+002	-3.054390e+001	-2.570753e+001	-1.071287e+002	-9.831521e+001	-3.278547e+001	1.390132e+002
9.990553e+006	-3.573735e+001	1.563754e+002	-3.055144e+001	-2.578607e+001	-1.000963e+002	-1.294000e+002	-3.278574e+001	1.389879e+002
9.990558e+006	-3.574903e+001	1.563990e+002	-3.055211e+001	-2.581226e+001	-9.577813e+001	1.232174e+002	-3.278735e+001	1.389830e+002
9.990563e+006	-3.574431e+001	1.564700e+002	-3.053877e+001	-2.577219e+001	-1.080338e+002	-5.339433e+001	-3.279080e+001	1.389512e+002
9.990567e+006	-3.575224e+001	1.565532e+002	-3.055986e+001	-2.578663e+001	-1.004416e+002	-1.737614e+002	-3.279320e+001	1.389794e+002
9.990572e+006	-3.573647e+001	1.564420e+002	-3.053515e+001	-2.569111e+001	-9.216011e+001	1.294275e+002	-3.279073e+001	1.389997e+002
9.990577e+006	-3.574104e+001	1.565039e+002	-3.055591e+001	-2.574614e+001	-8.690076e+001	6.176699e+001	-3.278226e+001	1.388769e+002
9.990581e+006	-3.574916e+001	1.565133e+002	-3.053280e+001	-2.583221e+001	-9.085521e+001	8.900836e+001	-3.278873e+001	1.390036e+002
9.990586e+006	-3.574203e+001	1.566264e+002	-3.054081e+001	-2.578341e+001	-9.792300e+001	1.203129e+002	-3.280559e+001	1.389387e+002
9.990591e+006	-3.574027e+001	1.563843e+002	-3.052894e+001	-2.576637e+001	-8.509849e+001	2.076117e+001	-3.279295e+001	1.389453e+002
9.990595e+006	-3.573168e+001	1.564804e+002	-3.054159e+001	-2.579107e+001	-9.313365e+001	7.695655e+001	-3.279812e+001	1.389272e+002
9.990600e+006	-3.573776e+001	1.565034e+002	-3.053997e+001	-2.581387e+001	-9.090938e+001	6.153915e+001	-3.278299e+001	1.389889e+002
9.990605e+006	-3.574000e+001	1.563302e+002	-3.054762e+001	-2.575135e+001	-9.281339e+001	1.066347e+002	-3.278642e+001	1.390292e+002
9.990609e+006	-3.574883e+001	1.565138e+002	-3.054412e+001	-2.581127e+001	-9.610270e+001	3.100655e+001	-3.278938e+001	1.389637e+002
9.990614e+006	-3.573954e+001	1.564344e+002	-3.054962e+001	-2.574981e+001	-1.043732e+002	5.115876e-002	-3.278156e+001	1.389599e+002
9.990619e+006	-3.572288e+001	1.564312e+002	-3.054584e+001	-2.584479e+001	-1.017436e+002	1.224762e+002	-3.278702e+001	1.389463e+002
9.990623e+006	-3.574582e+001	1.565034e+002	-3.053914e+001	-2.579048e+001	-9.532099e+001	-1.029599e+002	-3.279341e+001	1.389154e+002
9.990628e+006	-3.576278e+001	1.565039e+002	-3.054114e+001	-2.582067e+001	-1.048932e+002	-1.571051e+002	-3.278988e+001	1.389824e+002
9.990633e+006	-3.574290e+001	1.564617e+002	-3.053556e+001	-2.577908e+001	-9.105338e+001	7.077731e+001	-3.279150e+001	1.390308e+002
9.990638e+006	-3.573555e+001	1.564436e+002	-3.054411e+001	-2.576960e+001	-1.009787e+002	1.434489e+002	-3.279153e+001	1.389349e+002
9.990642e+006	-3.575249e+001	1.564300e+002	-3.054352e+001	-2.586281e+001	-9.142680e+001	1.511720e+002	-3.278028e+001	1.389603e+002
9.990647e+006	-3.575475e+001	1.564964e+002	-3.053706e+001	-2.575612e+001	-9.694328e+001	4.983463e+001	-3.278032e+001	1.390054e+002
9.990652e+006	-3.574320e+001	1.564829e+002	-3.054114e+001	-2.573225e+001	-8.548328e+001	6.266730e+001	-3.277943e+001	1.390309e+002
9.990656e+006	-3.573557e+001	1.564660e+002	-3.054267e+001	-2.585049e+001	-9.931876e+001	1.376470e+002	-3.277289e+001	1.389812e+002
9.990661e+006	-3.572048e+001	1.565698e+002	-3.053589e+001	-2.579191e+001	-9.821754e+001	9.168998e+001	-3.277187e+001	1.389692e+002
9.990666e+006	-3.573945e+001	1.564650e+002	-3.054855e+001	-2.575018e+001	-9.235736e+001	1.232763e+002	-3.277469e+001	1.390074e+002
9.990670e+006	-3.575621e+001	1.565537e+002	-3.054605e+001	-2.579077e+001	-9.135980e+001	1.652538e+002	-3.279183e+001	1.390126e+002
9.990675e+006	-3.575168e+001	1.564632e+002	-3.054349e+001	-2.578993e+001	-9.292358e+001	-8.492858e+001	-3.277235e+001	1.389462e+002
9.990680e+006	-3.574080e+001	1.565208e+002	-3.055211e+001	-2.582143e+001	-9.226535e+001	-3.091363e+001	-3.277373e+001	1.390676e+002
9.990684e+006	-3.576124e+001	1.564832e+002	-3.053837e+001	-2.587176e+001	-1.012715e+002	-1.386487e+002	-3.277802e+001	1.389379e+002
9.990689e+006	-3.575045e+001	1.564577e+002	-3.053367e+001	-2.575565e+001	-8.931006e+001	1.191922e+002	-3.277019e+001	1.389483e+002
9.990694e+006	-3.575843e+001	1.564819e+002	-3.054752e+001	-2.577147e+001	-9.255319e+001	-1.331734e+002	-3.276239e+001	1.390268e+002
9.990698e+006	-3.574433e+001	1.564589e+002	-3.054783e+001	-2.577819e+001	-8.854213e+001	1.515105e+002	-3.275882e+001	1.389630e+002
