!CETC41,AV3656A,ZGL00048,1.3.2
!Calibration ON (Full Solt 2-Port(Omit Isolation))
!Measurements: S11 S21 S12 S22
!2025-04-18 01:03
# Hz  S  dB  R 50.000
9.990000e+006	-3.574337e+001	1.568564e+002	-3.055823e+001	-2.523985e+001	-9.184191e+001	1.301898e+002	-3.288697e+001	1.387490e+002
9.990005e+006	-3.573446e+001	1.568410e+002	-3.055158e+001	-2.529595e+001	-9.949845e+001	1.003604e+002	-3.290384e+001	1.387849e+002
9.990009e+006	-3.573042e+001	1.568707e+002	-3.055588e+001	-2.527373e+001	-9.738252e+001	-5.314950e+001	-3.289740e+001	1.388068e+002
9.990014e+006	-3.574119e+001	1.568863e+002	-3.054746e+001	-2.529924e+001	-8.930779e+001	1.439251e+002	-3.289866e+001	1.387840e+002
9.990019e+006	-3.573343e+001	1.569551e+002	-3.055512e+001	-2.526787e+001	-1.084806e+002	7.879803e+001	-3.289502e+001	1.387369e+002
9.990023e+006	-3.574755e+001	1.568103e+002	-3.054890e+001	-2.533901e+001	-9.314742e+001	1.383456e+002	-3.289050e+001	1.387278e+002
9.990028e+006	-3.573987e+001	1.568034e+002	-3.054603e+001	-2.526513e+001	-9.733594e+001	1.272312e+002	-3.290875e+001	1.386881e+002
9.990033e+006	-3.573311e+001	1.568861e+002	-3.053730e+001	-2.517342e+001	-1.004502e+002	-6.448470e+001	-3.289823e+001	1.387347e+002
9.990038e+006	-3.574910e+001	1.569180e+002	-3.054470e+001	-2.514748e+001	-9.709376e+001	9.648455e+001	-3.290112e+001	1.387526e+002
9.990042e+006	-3.573995e+001	1.568226e+002	-3.054411e+001	-2.513375e+001	-9.260356e+001	9.922293e+001	-3.289274e+001	1.387756e+002
9.990047e+006	-3.573477e+001	1.568376e+002	-3.053777e+001	-2.516232e+001	-9.133144e+001	4.776137e+001	-3.287738e+001	1.388087e+002
9.990052e+006	-3.575995e+001	1.569651e+002	-3.055294e+001	-2.512892e+001	-9.101851e+001	5.117987e+001	-3.289078e+001	1.386867e+002
9.990056e+006	-3.574540e+001	1.568612e+002	-3.054126e+001	-2.519889e+001	-9.349663e+001	-5.839017e+001	-3.290389e+001	1.387460e+002
9.990061e+006	-3.573945e+001	1.568989e+002	-3.054598e+001	-2.516472e+001	-9.081248e+001	5.779370e+001	-3.289589e+001	1.387176e+002
9.990066e+006	-3.573815e+001	1.567489e+002	-3.055189e+001	-2.515243e+001	-9.233969e+001	-1.297565e+001	-3.289347e+001	1.387896e+002
9.990070e+006	-3.574414e+001	1.569758e+002	-3.055258e+001	-2.521186e+001	-9.176853e+001	8.637638e+001	-3.289865e+001	1.387947e+002
9.990075e+006	-3.574111e+001	1.568082e+002	-3.054403e+001	-2.529985e+001	-9.292658e+001	9.618273e+001	-3.289400e+001	1.387777e+002
9.990080e+006	-3.573861e+001	1.569590e+002	-3.054546e+001	-2.528097e+001	-9.137060e+001	-5.265541e+001	-3.290050e+001	1.387218e+002
9.990084e+006	-3.573277e+001	1.568907e+002	-3.055640e+001	-2.523890e+001	-9.042422e+001	3.026732e+001	-3.289650e+001	1.387678e+002
9.990089e+006	-3.574786e+001	1.568702e+002	-3.056370e+001	-2.526094e+001	-9.152666e+001	1.414159e+002	-3.289343e+001	1.387626e+002
9.990094e+006	-3.573402e+001	1.569346e+002	-3.056733e+001	-2.521458e+001	-8.899026e+001	3.159002e+001	-3.289730e+001	1.387636e+002
9.990098e+006	-3.573726e+001	1.567529e+002	-3.056295e+001	-2.524906e+001	-1.025437e+002	-1.566012e+002	-3.289941e+001	1.386844e+002
9.990103e+006	-3.574691e+001	1.569038e+002	-3.056208e+001	-2.525719e+001	-8.825398e+001	4.551370e+001	-3.288637e+001	1.387900e+002
9.990108e+006	-3.574035e+001	1.568341e+002	-3.057033e+001	-2.518449e+001	-9.250853e+001	6.087801e+001	-3.289389e+001	1.386717e+002
9.990113e+006	-3.574323e+001	1.569062e+002	-3.056580e+001	-2.521482e+001	-9.401111e+001	-1.427712e+002	-3.290611e+001	1.388102e+002
9.990117e+006	-3.573649e+001	1.568696e+002	-3.055534e+001	-2.510769e+001	-8.991162e+001	2.146404e+001	-3.289601e+001	1.387102e+002
9.990122e+006	-3.573291e+001	1.568836e+002	-3.055206e+001	-2.510631e+001	-9.209490e+001	1.769787e+002	-3.288536e+001	1.387946e+002
9.990127e+006	-3.574064e+001	1.568904e+002	-3.054787e+001	-2.517973e+001	-9.155330e+001	1.579752e+002	-3.289663e+001	1.387255e+002
9.990131e+006	-3.575021e+001	1.568988e+002	-3.055003e+001	-2.524983e+001	-1.013012e+002	1.279712e+002	-3.289177e+001	1.387563e+002
9.990136e+006	-3.575692e+001	1.569277e+002	-3.054628e+001	-2.529588e+001	-9.267031e+001	1.641914e+002	-3.287982e+001	1.387859e+002
9.990141e+006	-3.574296e+001	1.568946e+002	-3.056547e+001	-2.526679e+001	-8.923860e+001	9.556766e+001	-3.289285e+001	1.387333e+002
9.990145e+006	-3.573475e+001	1.569253e+002	-3.055312e+001	-2.518169e+001	-1.018913e+002	-8.485997e+001	-3.288735e+001	1.387345e+002
9.990150e+006	-3.573805e+001	1.569742e+002	-3.056405e+001	-2.516390e+001	-8.878312e+001	1.720406e+002	-3.289872e+001	1.387442e+002
9.990155e+006	-3.573850e+001	1.568931e+002	-3.055952e+001	-2.518065e+001	-9.858128e+001	1.116561e+002	-3.290255e+001	1.386886e+002
9.990159e+006	-3.574805e+001	1.567780e+002	-3.056318e+001	-2.517066e+001	-9.262546e+001	5.613328e+001	-3.289845e+001	1.387093e+002
9.990164e+006	-3.574732e+001	1.569474e+002	-3.057181e+001	-2.516393e+001	-9.147271e+001	1.569107e+002	-3.289099e+001	1.387143e+002
9.990169e+006	-3.573571e+001	1.569181e+002	-3.054891e+001	-2.517247e+001	-9.036323e+001	1.176859e+002	-3.289386e+001	1.387155e+002
9.990173e+006	-3.575282e+001	1.568313e+002	-3.055165e+001	-2.520617e+001	-9.088208e+001	-1.343642e+002	-3.289032e+001	1.387424e+002
9.990178e+006	-3.575661e+001	1.568843e+002	-3.056252e+001	-2.516239e+001	-1.009376e+002	-6.265331e+001	-3.289256e+001	1.387256e+002
9.990183e+006	-3.573910e+001	1.568655e+002	-3.055807e+001	-2.519819e+001	-9.784452e+001	1.475140e+002	-3.289509e+001	1.387358e+002
9.990188e+006	-3.575071e+001	1.569773e+002	-3.055569e+001	-2.518132e+001	-9.198862e+001	-8.827444e+001	-3.290128e+001	1.386871e+002
9.990192e+006	-3.574017e+001	1.568950e+002	-3.054342e+001	-2.519445e+001	-9.109249e+001	4.832626e+001	-3.290717e+001	1.387291e+002
9.990197e+006	-3.574765e+001	1.568159e+002	-3.055782e+001	-2.515129e+001	-8.975002e+001	-4.536222e+001	-3.290195e+001	1.387104e+002
9.990202e+006	-3.574650e+001	1.568598e+002	-3.055335e+001	-2.521032e+001	-9.155374e+001	5.712020e+001	-3.289539e+001	1.386712e+002
9.990206e+006	-3.572522e+001	1.568418e+002	-3.054963e+001	-2.512922e+001	-9.475792e+001	5.895861e+001	-3.289645e+001	1.387743e+002
9.990211e+006	-3.575834e+001	1.568507e+002	-3.055071e+001	-2.520273e+001	-9.080538e+001	9.566533e+001	-3.291169e+001	1.387178e+002
9.990216e+006	-3.574427e+001	1.568772e+002	-3.054460e+001	-2.516755e+001	-8.928055e+001	9.951098e+001	-3.290050e+001	1.386481e+002
9.990220e+006	-3.575108e+001	1.569080e+002	-3.055559e+001	-2.521999e+001	-9.416435e+001	1.785695e+002	-3.289632e+001	1.386973e+002
9.990225e+006	-3.575580e+001	1.568906e+002	-3.055159e+001	-2.517580e+001	-9.721513e+001	2.200434e+001	-3.289426e+001	1.387548e+002
9.990230e+006	-3.575104e+001	1.568349e+002	-3.055837e+001	-2.519004e+001	-1.035685e+002	-1.193399e+001	-3.289299e+001	1.387046e+002
9.990234e+006	-3.573293e+001	1.569058e+002	-3.056429e+001	-2.516773e+001	-9.236697e+001	9.642995e+001	-3.289407e+001	1.386459e+002
9.990239e+006	-3.573898e+001	1.569297e+002	-3.055325e+001	-2.517736e+001	-8.879429e+001	6.672598e+001	-3.288503e+001	1.387260e+002
9.990244e+006	-3.574754e+001	1.569000e+002	-3.055216e+001	-2.520935e+001	-9.309095e+001	-4.190812e+000	-3.289214e+001	1.387431e+002
9.990248e+006	-3.574314e+001	1.567846e+002	-3.055864e+001	-2.516108e+001	-9.230614e+001	2.535199e+001	-3.289276e+001	1.386925e+002
9.990253e+006	-3.573729e+001	1.568281e+002	-3.055417e+001	-2.528468e+001	-8.824763e+001	6.416246e+001	-3.289995e+001	1.387464e+002
9.990258e+006	-3.574840e+001	1.569873e+002	-3.054867e+001	-2.523713e+001	-9.226306e+001	5.734558e+001	-3.289298e+001	1.386932e+002
9.990263e+006	-3.574768e+001	1.570014e+002	-3.056046e+001	-2.518380e+001	-9.210837e+001	1.186877e+002	-3.289434e+001	1.387574e+002
9.990267e+006	-3.573232e+001	1.568136e+002	-3.055746e+001	-2.518777e+001	-9.628012e+001	1.561435e+002	-3.289658e+001	1.387260e+002
9.990272e+006	-3.573733e+001	1.568432e+002	-3.055055e+001	-2.515782e+001	-1.044614e+002	1.459938e+002	-3.290191e+001	1.386975e+002
9.990277e+006	-3.573111e+001	1.568917e+002	-3.055075e+001	-2.520393e+001	-9.509927e+001	4.560532e+001	-3.289733e+001	1.387556e+002
9.990281e+006	-3.574406e+001	1.568491e+002	-3.055305e+001	-2.519115e+001	-9.639217e+001	-1.409325e+002	-3.289543e+001	1.387481e+002
9.990286e+006	-3.571822e+001	1.568133e+002	-3.054741e+001	-2.526509e+001	-9.528155e+001	1.736427e+001	-3.290185e+001	1.387542e+002
9.990291e+006	-3.573277e+001	1.568665e+002	-3.054090e+001	-2.521503e+001	-9.691330e+001	1.505388e+002	-3.289621e+001	1.386776e+002
9.990295e+006	-3.573802e+001	1.568067e+002	-3.055414e+001	-2.518265e+001	-9.293222e+001	7.856093e+001	-3.288711e+001	1.387395e+002
9.990300e+006	-3.573420e+001	1.568644e+002	-3.055406e+001	-2.514257e+001	-9.028598e+001	3.431448e+001	-3.289379e+001	1.387706e+002
9.990305e+006	-3.573692e+001	1.568110e+002	-3.054754e+001	-2.522781e+001	-8.904465e+001	7.827604e+001	-3.289296e+001	1.387701e+002
9.990309e+006	-3.574660e+001	1.569312e+002	-3.054957e+001	-2.524295e+001	-9.870578e+001	1.131056e+002	-3.290184e+001	1.386651e+002
9.990314e+006	-3.574123e+001	1.569069e+002	-3.055571e+001	-2.521697e+001	-9.263648e+001	9.789579e+001	-3.289737e+001	1.386907e+002
9.990319e+006	-3.574712e+001	1.568540e+002	-3.055544e+001	-2.520491e+001	-9.479495e+001	7.556729e+001	-3.289121e+001	1.387649e+002
9.990323e+006	-3.574856e+001	1.569092e+002	-3.054371e+001	-2.517451e+001	-9.195886e+001	9.764010e+001	-3.290083e+001	1.387445e+002
9.990328e+006	-3.575410e+001	1.570087e+002	-3.055621e+001	-2.515129e+001	-9.606964e+001	6.280765e+001	-3.290585e+001	1.387729e+002
9.990333e+006	-3.574281e+001	1.568155e+002	-3.055616e+001	-2.518526e+001	-9.865150e+001	1.024327e+002	-3.289293e+001	1.387643e+002
9.990338e+006	-3.574989e+001	1.569114e+002	-3.055828e+001	-2.519027e+001	-9.400963e+001	-1.522061e+000	-3.288370e+001	1.386263e+002
9.990342e+006	-3.574641e+001	1.568563e+002	-3.054519e+001	-2.522926e+001	-9.502968e+001	1.259324e+002	-3.289610e+001	1.387203e+002
9.990347e+006	-3.575135e+001	1.568859e+002	-3.055604e+001	-2.528647e+001	-8.993634e+001	1.670968e+002	-3.288525e+001	1.387377e+002
9.990352e+006	-3.575842e+001	1.568626e+002	-3.054906e+001	-2.523077e+001	-9.942082e+001	8.878334e+001	-3.288772e+001	1.387020e+002
9.990356e+006	-3.573777e+001	1.569035e+002	-3.055648e+001	-2.519192e+001	-1.050934e+002	-1.134026e+002	-3.289244e+001	1.386813e+002
9.990361e+006	-3.573946e+001	1.568548e+002	-3.054782e+001	-2.515410e+001	-9.302474e+001	-1.005148e+002	-3.288289e+001	1.386981e+002
9.990366e+006	-3.574079e+001	1.568328e+002	-3.055417e+001	-2.516925e+001	-9.504314e+001	-8.869967e+001	-3.290655e+001	1.387163e+002
9.990370e+006	-3.573908e+001	1.568423e+002	-3.054377e+001	-2.515206e+001	-9.200823e+001	-1.705521e+002	-3.290238e+001	1.386209e+002
9.990375e+006	-3.573096e+001	1.567859e+002	-3.055784e+001	-2.528602e+001	-9.298815e+001	-1.499456e+001	-3.289228e+001	1.387373e+002
9.990380e+006	-3.573821e+001	1.569049e+002	-3.055206e+001	-2.515181e+001	-9.182169e+001	2.625472e+001	-3.288691e+001	1.387138e+002
9.990384e+006	-3.574976e+001	1.569058e+002	-3.054901e+001	-2.522106e+001	-9.351162e+001	-1.617628e+002	-3.289726e+001	1.387917e+002
9.990389e+006	-3.573945e+001	1.568017e+002	-3.056170e+001	-2.515472e+001	-9.309530e+001	-4.419775e+001	-3.290352e+001	1.387636e+002
9.990394e+006	-3.571235e+001	1.568875e+002	-3.055266e+001	-2.520192e+001	-9.442231e+001	-1.542089e+002	-3.290081e+001	1.388008e+002
9.990398e+006	-3.573218e+001	1.568554e+002	-3.055454e+001	-2.513557e+001	-9.240090e+001	1.152478e+002	-3.289757e+001	1.387735e+002
9.990403e+006	-3.573327e+001	1.568692e+002	-3.054909e+001	-2.526839e+001	-9.374082e+001	-1.402822e+002	-3.288924e+001	1.386908e+002
9.990408e+006	-3.574896e+001	1.569045e+002	-3.055119e+001	-2.520731e+001	-8.635620e+001	1.195434e+002	-3.290228e+001	1.387212e+002
9.990413e+006	-3.574000e+001	1.568299e+002	-3.055730e+001	-2.520315e+001	-8.986245e+001	9.102857e+001	-3.289874e+001	1.387870e+002
9.990417e+006	-3.573307e+001	1.568457e+002	-3.054476e+001	-2.516458e+001	-9.532856e+001	8.075340e+001	-3.289837e+001	1.387807e+002
9.990422e+006	-3.574360e+001	1.568384e+002	-3.054650e+001	-2.522024e+001	-9.056824e+001	8.200153e+001	-3.289628e+001	1.387570e+002
9.990427e+006	-3.572305e+001	1.569276e+002	-3.054554e+001	-2.517636e+001	-8.898462e+001	5.402056e+001	-3.288833e+001	1.387302e+002
9.990431e+006	-3.573692e+001	1.569578e+002	-3.055582e+001	-2.521372e+001	-9.749609e+001	1.295284e+002	-3.289050e+001	1.387798e+002
9.990436e+006	-3.573437e+001	1.569492e+002	-3.055328e+001	-2.521944e+001	-9.528011e+001	1.266789e+002	-3.289647e+001	1.387619e+002
9.990441e+006	-3.573033e+001	1.569463e+002	-3.055390e+001	-2.520528e+001	-1.001912e+002	6.181407e+001	-3.288585e+001	1.387555e+002
9.990445e+006	-3.572673e+001	1.569273e+002	-3.055337e+001	-2.518434e+001	-9.019343e+001	7.648852e+001	-3.289432e+001	1.387663e+002
9.990450e+006	-3.574183e+001	1.569326e+002	-3.054263e+001	-2.520546e+001	-8.517807e+001	7.979610e+001	-3.289199e+001	1.387553e+002
9.990455e+006	-3.575797e+001	1.569849e+002	-3.055519e+001	-2.520742e+001	-9.324185e+001	1.736227e+002	-3.289681e+001	1.387016e+002
9.990459e+006	-3.574984e+001	1.568230e+002	-3.054784e+001	-2.521762e+001	-9.296505e+001	3.178761e+001	-3.289190e+001	1.387933e+002
9.990464e+006	-3.575179e+001	1.569241e+002	-3.055063e+001	-2.520328e+001	-9.385870e+001	1.007422e+002	-3.288706e+001	1.386563e+002
9.990469e+006	-3.573985e+001	1.569255e+002	-3.054790e+001	-2.517522e+001	-9.189296e+001	1.149242e+002	-3.288300e+001	1.386850e+002
9.990473e+006	-3.573864e+001	1.568724e+002	-3.055394e+001	-2.526027e+001	-1.007875e+002	9.098087e+001	-3.290017e+001	1.387050e+002
9.990478e+006	-3.574874e+001	1.568313e+002	-3.055901e+001	-2.522582e+001	-9.180298e+001	1.739045e+001	-3.289380e+001	1.387725e+002
9.990483e+006	-3.574195e+001	1.568818e+002	-3.055331e+001	-2.519714e+001	-9.418220e+001	-1.137686e+001	-3.289774e+001	1.388047e+002
9.990488e+006	-3.572737e+001	1.569282e+002	-3.055250e+001	-2.510744e+001	-8.893651e+001	9.876662e+001	-3.289259e+001	1.387035e+002
9.990492e+006	-3.574214e+001	1.568043e+002	-3.055739e+001	-2.524321e+001	-9.219868e+001	6.776000e+001	-3.290118e+001	1.387713e+002
9.990497e+006	-3.572572e+001	1.568388e+002	-3.055893e+001	-2.514302e+001	-9.697991e+001	8.704624e+001	-3.288999e+001	1.387877e+002
9.990502e+006	-3.573273e+001	1.568490e+002	-3.053894e+001	-2.513726e+001	-9.404158e+001	-2.033589e+001	-3.289058e+001	1.387410e+002
9.990506e+006	-3.573472e+001	1.568700e+002	-3.055367e+001	-2.516935e+001	-1.002891e+002	5.469181e+001	-3.289282e+001	1.387879e+002
9.990511e+006	-3.574865e+001	1.568143e+002	-3.054798e+001	-2.513694e+001	-9.437204e+001	1.561122e+002	-3.289936e+001	1.387357e+002
9.990516e+006	-3.574066e+001	1.568708e+002	-3.055078e+001	-2.521397e+001	-1.052186e+002	2.825049e+001	-3.289892e+001	1.387237e+002
9.990520e+006	-3.574049e+001	1.568998e+002	-3.055414e+001	-2.521039e+001	-1.027036e+002	1.696833e+002	-3.289067e+001	1.386957e+002
9.990525e+006	-3.575276e+001	1.568263e+002	-3.055483e+001	-2.519475e+001	-9.425552e+001	2.212305e+001	-3.288940e+001	1.387577e+002
9.990530e+006	-3.572519e+001	1.569682e+002	-3.054025e+001	-2.523625e+001	-9.024853e+001	-1.545322e+002	-3.288570e+001	1.387231e+002
9.990534e+006	-3.574411e+001	1.569185e+002	-3.054243e+001	-2.517845e+001	-9.405172e+001	-1.763709e+002	-3.289490e+001	1.387411e+002
9.990539e+006	-3.574604e+001	1.568903e+002	-3.055338e+001	-2.519357e+001	-8.853834e+001	1.569643e+002	-3.288810e+001	1.386854e+002
9.990544e+006	-3.573034e+001	1.569746e+002	-3.055325e+001	-2.512280e+001	-9.459876e+001	7.141870e+001	-3.288719e+001	1.387562e+002
9.990548e+006	-3.573711e+001	1.568557e+002	-3.053623e+001	-2.522365e+001	-1.000201e+002	1.145937e+002	-3.288184e+001	1.387752e+002
9.990553e+006	-3.574464e+001	1.568361e+002	-3.055104e+001	-2.510393e+001	-9.914814e+001	-1.035339e+002	-3.289310e+001	1.386935e+002
9.990558e+006	-3.573413e+001	1.569113e+002	-3.053992e+001	-2.515517e+001	-9.274469e+001	1.402668e+002	-3.288808e+001	1.386686e+002
9.990563e+006	-3.573913e+001	1.569514e+002	-3.054615e+001	-2.518436e+001	-9.267426e+001	9.873262e+001	-3.289832e+001	1.387180e+002
9.990567e+006	-3.573908e+001	1.567791e+002	-3.054993e+001	-2.524277e+001	-9.622447e+001	8.647492e+001	-3.289451e+001	1.388524e+002
9.990572e+006	-3.575179e+001	1.568510e+002	-3.054056e+001	-2.522198e+001	-9.220574e+001	5.570653e+001	-3.289977e+001	1.387328e+002
9.990577e+006	-3.574404e+001	1.569399e+002	-3.055654e+001	-2.520926e+001	-8.722572e+001	3.910903e+001	-3.289007e+001	1.387787e+002
9.990581e+006	-3.574745e+001	1.569016e+002	-3.053921e+001	-2.523072e+001	-8.984530e+001	6.669031e+001	-3.289713e+001	1.387633e+002
9.990586e+006	-3.573295e+001	1.569226e+002	-3.054958e+001	-2.521482e+001	-8.903880e+001	-5.411091e+001	-3.289559e+001	1.387804e+002
9.990591e+006	-3.573612e+001	1.569042e+002	-3.054984e+001	-2.525437e+001	-1.025092e+002	-1.760268e+000	-3.288308e+001	1.387576e+002
9.990595e+006	-3.573736e+001	1.570202e+002	-3.054559e+001	-2.518338e+001	-8.737178e+001	1.721578e+002	-3.290681e+001	1.387548e+002
9.990600e+006	-3.573700e+001	1.570063e+002	-3.055160e+001	-2.520618e+001	-9.167401e+001	1.200165e+002	-3.289777e+001	1.386854e+002
9.990605e+006	-3.574103e+001	1.569372e+002	-3.054411e+001	-2.517669e+001	-8.987626e+001	-1.778147e+002	-3.289367e+001	1.387392e+002
9.990609e+006	-3.575088e+001	1.568704e+002	-3.054715e+001	-2.514230e+001	-9.306645e+001	1.649283e+002	-3.288882e+001	1.387678e+002
9.990614e+006	-3.573304e+001	1.567919e+002	-3.054428e+001	-2.520953e+001	-8.777018e+001	8.527594e+001	-3.289750e+001	1.386660e+002
9.990619e+006	-3.573708e+001	1.569118e+002	-3.054770e+001	-2.523349e+001	-9.857878e+001	7.843392e+001	-3.290360e+001	1.386830e+002
9.990623e+006	-3.574359e+001	1.568923e+002	-3.053857e+001	-2.520514e+001	-9.213800e+001	7.723962e+001	-3.289119e+001	1.387103e+002
9.990628e+006	-3.573958e+001	1.569190e+002	-3.055360e+001	-2.526565e+001	-9.018688e+001	3.901503e+001	-3.289807e+001	1.386638e+002
9.990633e+006	-3.573433e+001	1.568887e+002	-3.053877e+001	-2.525289e+001	-9.438582e+001	1.033547e+002	-3.287528e+001	1.386868e+002
9.990638e+006	-3.574937e+001	1.569231e+002	-3.054506e+001	-2.517432e+001	-8.960627e+001	1.252215e+002	-3.290077e+001	1.387399e+002
9.990642e+006	-3.575216e+001	1.569228e+002	-3.053486e+001	-2.522606e+001	-1.022177e+002	-2.776037e+001	-3.287503e+001	1.386926e+002
9.990647e+006	-3.574266e+001	1.568175e+002	-3.054804e+001	-2.527088e+001	-9.712395e+001	1.012760e+002	-3.289390e+001	1.386929e+002
9.990652e+006	-3.573861e+001	1.569115e+002	-3.054472e+001	-2.522168e+001	-8.754208e+001	4.169779e+001	-3.289417e+001	1.386754e+002
9.990656e+006	-3.575001e+001	1.569386e+002	-3.052888e+001	-2.517073e+001	-9.141913e+001	2.793450e+001	-3.289681e+001	1.386998e+002
9.990661e+006	-3.574025e+001	1.569266e+002	-3.056623e+001	-2.519858e+001	-9.271980e+001	-1.385775e+002	-3.290361e+001	1.387538e+002
9.990666e+006	-3.573994e+001	1.568676e+002	-3.054943e+001	-2.525905e+001	-9.020807e+001	1.718489e+002	-3.289346e+001	1.387277e+002
9.990670e+006	-3.573602e+001	1.567685e+002	-3.054182e+001	-2.523094e+001	-8.858765e+001	5.650635e+001	-3.288614e+001	1.387138e+002
9.990675e+006	-3.573354e+001	1.568996e+002	-3.053485e+001	-2.524786e+001	-9.350555e+001	8.436288e-001	-3.289664e+001	1.387493e+002
9.990680e+006	-3.573855e+001	1.569840e+002	-3.053980e+001	-2.515959e+001	-1.004434e+002	7.468379e+001	-3.289597e+001	1.387791e+002
9.990684e+006	-3.575330e+001	1.568584e+002	-3.055096e+001	-2.522405e+001	-1.105992e+002	-1.448385e+002	-3.286920e+001	1.387297e+002
9.990689e+006	-3.575834e+001	1.569252e+002	-3.054846e+001	-2.525239e+001	-9.093487e+001	9.510757e+001	-3.289391e+001	1.388415e+002
9.990694e+006	-3.572698e+001	1.568945e+002	-3.053579e+001	-2.520609e+001	-9.987581e+001	1.643130e+002	-3.288233e+001	1.387530e+002
9.990698e+006	-3.574191e+001	1.568617e+002	-3.054981e+001	-2.516296e+001	-8.687882e+001	1.307961e+002	-3.289247e+001	1.386611e+002
