!CETC41,AV3656A,ZGL00048,1.3.2
!Calibration ON (Full Solt 2-Port(Omit Isolation))
!Measurements: S11 S21 S12 S22
!2025-04-29 18:00
# Hz  S  dB  R 50.000
6.150000e+006	-4.486414e+001	-9.615971e+001	-3.080980e+001	-1.203479e+001	-9.203571e+001	8.017635e+000	-5.063992e+001	1.019723e+002
6.150039e+006	-4.492161e+001	-9.597291e+001	-3.080749e+001	-1.198153e+001	-8.790619e+001	7.094384e+001	-5.069054e+001	1.016111e+002
6.150078e+006	-4.488094e+001	-9.634235e+001	-3.081623e+001	-1.201839e+001	-1.129170e+002	-4.650289e+001	-5.077775e+001	1.018285e+002
6.150117e+006	-4.488350e+001	-9.614710e+001	-3.081397e+001	-1.201025e+001	-1.025729e+002	2.844339e+001	-5.078494e+001	1.018336e+002
6.150156e+006	-4.488060e+001	-9.596884e+001	-3.079784e+001	-1.198008e+001	-8.871594e+001	8.597672e+001	-5.081679e+001	1.017670e+002
6.150195e+006	-4.489772e+001	-9.601021e+001	-3.080811e+001	-1.197401e+001	-9.364915e+001	1.359869e+002	-5.076053e+001	1.023751e+002
6.150234e+006	-4.489499e+001	-9.622901e+001	-3.080901e+001	-1.196974e+001	-9.992184e+001	1.628946e+002	-5.073565e+001	1.036948e+002
6.150273e+006	-4.496138e+001	-9.584855e+001	-3.082100e+001	-1.200885e+001	-8.848653e+001	7.229707e+001	-5.078966e+001	1.026956e+002
6.150313e+006	-4.494725e+001	-9.628446e+001	-3.080619e+001	-1.204053e+001	-9.306123e+001	-7.652686e+000	-5.067894e+001	1.017242e+002
6.150352e+006	-4.492090e+001	-9.594905e+001	-3.081264e+001	-1.202021e+001	-9.188694e+001	1.566195e+002	-5.071576e+001	1.019189e+002
6.150391e+006	-4.488059e+001	-9.607893e+001	-3.079818e+001	-1.197341e+001	-1.085019e+002	-1.488697e+002	-5.082742e+001	1.027903e+002
6.150430e+006	-4.489524e+001	-9.617402e+001	-3.080952e+001	-1.204002e+001	-8.673695e+001	5.493297e+001	-5.074162e+001	1.020060e+002
6.150469e+006	-4.491014e+001	-9.605046e+001	-3.080451e+001	-1.196307e+001	-9.115012e+001	-1.178303e+001	-5.070662e+001	1.016996e+002
6.150508e+006	-4.489765e+001	-9.587589e+001	-3.081539e+001	-1.204024e+001	-9.237329e+001	1.131938e+002	-5.073146e+001	1.026067e+002
6.150547e+006	-4.485440e+001	-9.617921e+001	-3.080791e+001	-1.202199e+001	-9.462190e+001	6.140218e+001	-5.075939e+001	1.023241e+002
6.150586e+006	-4.496840e+001	-9.605121e+001	-3.081370e+001	-1.196443e+001	-1.000285e+002	1.530371e+002	-5.075853e+001	1.020247e+002
6.150625e+006	-4.489013e+001	-9.611917e+001	-3.080542e+001	-1.203511e+001	-1.056073e+002	3.456344e+001	-5.075644e+001	1.012882e+002
6.150664e+006	-4.489608e+001	-9.605717e+001	-3.080780e+001	-1.198962e+001	-1.012767e+002	-3.655811e+001	-5.072838e+001	1.025123e+002
6.150703e+006	-4.486436e+001	-9.584544e+001	-3.080926e+001	-1.203642e+001	-9.685054e+001	1.549231e+002	-5.065067e+001	1.024395e+002
6.150742e+006	-4.492679e+001	-9.602051e+001	-3.079991e+001	-1.196335e+001	-9.126421e+001	-1.472039e+002	-5.076053e+001	1.027673e+002
6.150781e+006	-4.491916e+001	-9.612101e+001	-3.081135e+001	-1.198692e+001	-9.369316e+001	-1.770461e+002	-5.065249e+001	1.018372e+002
6.150820e+006	-4.489620e+001	-9.615427e+001	-3.079811e+001	-1.198069e+001	-9.062043e+001	1.752900e+002	-5.061964e+001	1.016852e+002
6.150859e+006	-4.487788e+001	-9.588971e+001	-3.080636e+001	-1.200122e+001	-1.056645e+002	2.591065e+000	-5.069648e+001	1.021456e+002
6.150898e+006	-4.491581e+001	-9.590859e+001	-3.079796e+001	-1.202142e+001	-9.248021e+001	1.682885e+002	-5.062112e+001	1.023946e+002
6.150938e+006	-4.492425e+001	-9.596296e+001	-3.080594e+001	-1.200363e+001	-9.662533e+001	1.490100e+002	-5.083300e+001	1.022973e+002
6.150977e+006	-4.491410e+001	-9.587050e+001	-3.080906e+001	-1.201738e+001	-9.938961e+001	-1.607221e+002	-5.072124e+001	1.025227e+002
6.151016e+006	-4.487617e+001	-9.627759e+001	-3.080399e+001	-1.196772e+001	-9.297908e+001	-7.827692e+001	-5.079664e+001	1.022929e+002
6.151055e+006	-4.488842e+001	-9.603990e+001	-3.080537e+001	-1.200701e+001	-8.957592e+001	4.544750e+001	-5.073165e+001	1.026250e+002
6.151094e+006	-4.487916e+001	-9.627211e+001	-3.080136e+001	-1.207632e+001	-9.147379e+001	1.480280e+002	-5.071232e+001	1.021487e+002
6.151133e+006	-4.486510e+001	-9.645226e+001	-3.080619e+001	-1.200292e+001	-9.308724e+001	-1.221075e+002	-5.068282e+001	1.023165e+002
6.151172e+006	-4.489843e+001	-9.608129e+001	-3.080218e+001	-1.213065e+001	-9.718270e+001	-2.630091e+001	-5.071718e+001	1.021866e+002
6.151211e+006	-4.489163e+001	-9.598856e+001	-3.082209e+001	-1.202863e+001	-9.674734e+001	-1.296826e+002	-5.070656e+001	1.025911e+002
6.151250e+006	-4.492020e+001	-9.590669e+001	-3.080263e+001	-1.198074e+001	-9.683922e+001	1.127906e+001	-5.074331e+001	1.024458e+002
6.151289e+006	-4.486839e+001	-9.600110e+001	-3.079839e+001	-1.197468e+001	-9.131295e+001	1.511607e+002	-5.065559e+001	1.022078e+002
6.151328e+006	-4.493278e+001	-9.585373e+001	-3.081566e+001	-1.200861e+001	-9.415769e+001	1.468508e+002	-5.074932e+001	1.024515e+002
6.151367e+006	-4.493062e+001	-9.599058e+001	-3.079245e+001	-1.194682e+001	-9.198112e+001	-2.711177e+001	-5.064790e+001	1.025262e+002
6.151406e+006	-4.491090e+001	-9.613193e+001	-3.080767e+001	-1.201399e+001	-9.023977e+001	-1.733621e+002	-5.072612e+001	1.025563e+002
6.151445e+006	-4.488285e+001	-9.588061e+001	-3.080232e+001	-1.202130e+001	-9.208064e+001	2.438698e+001	-5.075390e+001	1.017964e+002
6.151484e+006	-4.490064e+001	-9.599848e+001	-3.081484e+001	-1.206838e+001	-8.771967e+001	3.589285e+000	-5.066302e+001	1.023967e+002
6.151523e+006	-4.486874e+001	-9.558933e+001	-3.080327e+001	-1.201125e+001	-8.912164e+001	5.620433e+001	-5.079829e+001	1.020129e+002
6.151563e+006	-4.485431e+001	-9.577236e+001	-3.081490e+001	-1.201394e+001	-1.048420e+002	5.422456e+001	-5.073625e+001	1.020453e+002
6.151602e+006	-4.489503e+001	-9.588705e+001	-3.080212e+001	-1.200800e+001	-1.236015e+002	-1.117896e+002	-5.066810e+001	1.022740e+002
6.151641e+006	-4.494103e+001	-9.589543e+001	-3.081100e+001	-1.198950e+001	-1.023166e+002	4.343522e+001	-5.060784e+001	1.019936e+002
6.151680e+006	-4.485495e+001	-9.624314e+001	-3.081033e+001	-1.199250e+001	-8.723935e+001	5.479230e+001	-5.076557e+001	1.020609e+002
6.151719e+006	-4.486278e+001	-9.594891e+001	-3.079360e+001	-1.205676e+001	-9.525439e+001	-1.028325e+002	-5.071934e+001	1.025608e+002
6.151758e+006	-4.491767e+001	-9.601951e+001	-3.080630e+001	-1.196238e+001	-9.436054e+001	-6.976719e+001	-5.075310e+001	1.012681e+002
6.151797e+006	-4.491478e+001	-9.634526e+001	-3.080951e+001	-1.197085e+001	-9.104319e+001	1.111951e+002	-5.068620e+001	1.027317e+002
6.151836e+006	-4.487588e+001	-9.600601e+001	-3.080389e+001	-1.201881e+001	-9.675051e+001	-1.790547e+002	-5.066694e+001	1.016236e+002
6.151875e+006	-4.493948e+001	-9.601469e+001	-3.080334e+001	-1.198807e+001	-8.793477e+001	3.588419e+001	-5.063251e+001	1.016125e+002
6.151914e+006	-4.487210e+001	-9.589007e+001	-3.080283e+001	-1.202377e+001	-9.187692e+001	1.375644e+002	-5.066820e+001	1.022330e+002
6.151953e+006	-4.485627e+001	-9.593447e+001	-3.080643e+001	-1.199243e+001	-1.021604e+002	-1.712081e+002	-5.076366e+001	1.018391e+002
6.151992e+006	-4.485776e+001	-9.604481e+001	-3.080655e+001	-1.200662e+001	-8.721078e+001	1.130531e+002	-5.070745e+001	1.025752e+002
6.152031e+006	-4.486928e+001	-9.614144e+001	-3.080422e+001	-1.199819e+001	-1.030145e+002	-9.571940e+001	-5.082553e+001	1.018089e+002
6.152070e+006	-4.490787e+001	-9.628373e+001	-3.080447e+001	-1.201533e+001	-9.185936e+001	8.978941e+001	-5.072273e+001	1.019962e+002
6.152109e+006	-4.491942e+001	-9.584151e+001	-3.080770e+001	-1.205063e+001	-9.310401e+001	8.678988e+000	-5.079520e+001	1.020311e+002
6.152148e+006	-4.489679e+001	-9.604438e+001	-3.080686e+001	-1.206100e+001	-9.281993e+001	7.280195e+001	-5.069992e+001	1.021201e+002
6.152188e+006	-4.490300e+001	-9.601708e+001	-3.080746e+001	-1.209024e+001	-1.007761e+002	7.694980e+001	-5.062396e+001	1.025320e+002
6.152227e+006	-4.490581e+001	-9.600530e+001	-3.080921e+001	-1.202670e+001	-8.512541e+001	1.064738e+002	-5.067974e+001	1.024628e+002
6.152266e+006	-4.493801e+001	-9.584501e+001	-3.080484e+001	-1.199834e+001	-9.456671e+001	-1.264404e+002	-5.061357e+001	1.017370e+002
6.152305e+006	-4.491799e+001	-9.591139e+001	-3.080122e+001	-1.203566e+001	-9.356910e+001	-1.342503e+002	-5.072338e+001	1.019120e+002
6.152344e+006	-4.489142e+001	-9.630755e+001	-3.080345e+001	-1.195499e+001	-9.430901e+001	-3.414263e+001	-5.069092e+001	1.023850e+002
6.152383e+006	-4.491002e+001	-9.596332e+001	-3.081081e+001	-1.203427e+001	-9.536210e+001	9.726029e-001	-5.072989e+001	1.028123e+002
6.152422e+006	-4.488823e+001	-9.602112e+001	-3.079789e+001	-1.196322e+001	-9.711378e+001	1.658288e+002	-5.067929e+001	1.025362e+002
6.152461e+006	-4.488581e+001	-9.611318e+001	-3.080503e+001	-1.198770e+001	-9.471527e+001	5.584330e+001	-5.069854e+001	1.019063e+002
6.152500e+006	-4.484871e+001	-9.562029e+001	-3.081092e+001	-1.198482e+001	-1.035495e+002	2.761261e+001	-5.067902e+001	1.018955e+002
6.152539e+006	-4.489576e+001	-9.586467e+001	-3.081279e+001	-1.191273e+001	-8.928681e+001	1.125633e+002	-5.071439e+001	1.020728e+002
6.152578e+006	-4.485728e+001	-9.620478e+001	-3.080064e+001	-1.201008e+001	-1.009617e+002	4.809793e+001	-5.070715e+001	1.022642e+002
6.152617e+006	-4.490151e+001	-9.580915e+001	-3.081473e+001	-1.198245e+001	-9.078718e+001	1.596498e+002	-5.079117e+001	1.024844e+002
6.152656e+006	-4.489359e+001	-9.587335e+001	-3.079641e+001	-1.194776e+001	-1.006339e+002	-8.981705e+001	-5.083585e+001	1.019542e+002
6.152695e+006	-4.491865e+001	-9.563391e+001	-3.080832e+001	-1.201582e+001	-9.249760e+001	1.114998e+002	-5.057537e+001	1.017533e+002
6.152734e+006	-4.488611e+001	-9.595912e+001	-3.080852e+001	-1.194634e+001	-9.750078e+001	-1.022868e+002	-5.063986e+001	1.021740e+002
6.152773e+006	-4.492134e+001	-9.591780e+001	-3.079358e+001	-1.190227e+001	-8.916474e+001	8.869643e+001	-5.084183e+001	1.023936e+002
6.152813e+006	-4.488106e+001	-9.574091e+001	-3.079841e+001	-1.202048e+001	-9.378026e+001	5.287748e+001	-5.074617e+001	1.023621e+002
6.152852e+006	-4.489295e+001	-9.599615e+001	-3.078816e+001	-1.200719e+001	-9.685092e+001	-7.829334e+000	-5.063913e+001	1.021559e+002
6.152891e+006	-4.490873e+001	-9.575179e+001	-3.079223e+001	-1.192514e+001	-9.540423e+001	1.314159e+002	-5.071620e+001	1.021773e+002
6.152930e+006	-4.487967e+001	-9.594593e+001	-3.081392e+001	-1.204886e+001	-9.403844e+001	1.060862e+002	-5.079075e+001	1.020367e+002
6.152969e+006	-4.491030e+001	-9.611499e+001	-3.080787e+001	-1.198147e+001	-8.851373e+001	9.383947e+001	-5.074626e+001	1.021599e+002
6.153008e+006	-4.493897e+001	-9.615924e+001	-3.080814e+001	-1.200023e+001	-8.949835e+001	-5.325038e+001	-5.065752e+001	1.025888e+002
6.153047e+006	-4.488785e+001	-9.624380e+001	-3.080631e+001	-1.202247e+001	-1.028475e+002	1.454974e+002	-5.071893e+001	1.021675e+002
6.153086e+006	-4.491949e+001	-9.641114e+001	-3.080795e+001	-1.202123e+001	-1.032633e+002	1.683114e+002	-5.075344e+001	1.022418e+002
6.153125e+006	-4.488323e+001	-9.617753e+001	-3.080260e+001	-1.199087e+001	-9.157534e+001	1.030433e+002	-5.073485e+001	1.026081e+002
6.153164e+006	-4.489952e+001	-9.604215e+001	-3.080349e+001	-1.197452e+001	-9.751383e+001	-1.426485e+002	-5.078608e+001	1.025175e+002
6.153203e+006	-4.492976e+001	-9.624373e+001	-3.079959e+001	-1.199335e+001	-9.988692e+001	1.142412e+002	-5.063624e+001	1.018765e+002
6.153242e+006	-4.492746e+001	-9.596321e+001	-3.081324e+001	-1.194457e+001	-9.183893e+001	1.025091e+002	-5.068358e+001	1.027676e+002
6.153281e+006	-4.488287e+001	-9.612593e+001	-3.080411e+001	-1.198162e+001	-9.102061e+001	1.196582e+002	-5.067060e+001	1.023398e+002
6.153320e+006	-4.486695e+001	-9.592669e+001	-3.079980e+001	-1.202683e+001	-1.005555e+002	-6.962286e+001	-5.067565e+001	1.027126e+002
6.153359e+006	-4.491663e+001	-9.582197e+001	-3.079890e+001	-1.199989e+001	-8.798659e+001	9.663915e+001	-5.063614e+001	1.021543e+002
6.153398e+006	-4.490762e+001	-9.628854e+001	-3.080276e+001	-1.201030e+001	-9.417704e+001	1.529656e+002	-5.074530e+001	1.021718e+002
6.153438e+006	-4.490151e+001	-9.622735e+001	-3.080648e+001	-1.203241e+001	-1.185360e+002	1.572835e+002	-5.071684e+001	1.028019e+002
6.153477e+006	-4.489628e+001	-9.609817e+001	-3.080485e+001	-1.193907e+001	-8.846138e+001	1.240372e-001	-5.062179e+001	1.018683e+002
6.153516e+006	-4.489098e+001	-9.591168e+001	-3.080265e+001	-1.197673e+001	-8.802165e+001	4.836469e+001	-5.077650e+001	1.024022e+002
6.153555e+006	-4.487295e+001	-9.589848e+001	-3.080168e+001	-1.197282e+001	-1.154497e+002	3.583398e+001	-5.063879e+001	1.020353e+002
6.153594e+006	-4.492167e+001	-9.604550e+001	-3.078758e+001	-1.207817e+001	-8.535168e+001	5.461857e+001	-5.064574e+001	1.024152e+002
6.153633e+006	-4.486335e+001	-9.595787e+001	-3.080419e+001	-1.192216e+001	-8.893682e+001	-1.286744e+002	-5.067978e+001	1.025165e+002
6.153672e+006	-4.486764e+001	-9.601750e+001	-3.080629e+001	-1.199725e+001	-1.038488e+002	-9.880134e+001	-5.075302e+001	1.027873e+002
6.153711e+006	-4.493640e+001	-9.594872e+001	-3.080973e+001	-1.193870e+001	-9.411159e+001	3.064472e+001	-5.070669e+001	1.023603e+002
6.153750e+006	-4.491897e+001	-9.602808e+001	-3.079582e+001	-1.196573e+001	-9.191484e+001	3.560524e+001	-5.048817e+001	1.020114e+002
6.153789e+006	-4.493399e+001	-9.597021e+001	-3.079521e+001	-1.206173e+001	-9.626743e+001	-7.001984e+001	-5.065712e+001	1.019808e+002
6.153828e+006	-4.491716e+001	-9.607895e+001	-3.080176e+001	-1.200960e+001	-9.303259e+001	1.099308e+002	-5.063275e+001	1.015868e+002
6.153867e+006	-4.491150e+001	-9.595921e+001	-3.080218e+001	-1.194100e+001	-9.642839e+001	7.443321e+001	-5.062869e+001	1.023594e+002
6.153906e+006	-4.488546e+001	-9.609036e+001	-3.080753e+001	-1.198906e+001	-9.253214e+001	-1.319852e+002	-5.063324e+001	1.024039e+002
6.153945e+006	-4.486609e+001	-9.592670e+001	-3.080972e+001	-1.196797e+001	-9.820456e+001	-3.653125e+001	-5.069616e+001	1.027320e+002
6.153984e+006	-4.486702e+001	-9.603725e+001	-3.079833e+001	-1.204108e+001	-9.721744e+001	-1.560133e+002	-5.074053e+001	1.022279e+002
6.154023e+006	-4.490965e+001	-9.593139e+001	-3.080797e+001	-1.193119e+001	-9.252176e+001	6.979798e+001	-5.073243e+001	1.028309e+002
6.154063e+006	-4.495096e+001	-9.602908e+001	-3.080295e+001	-1.200370e+001	-8.969622e+001	6.791101e+001	-5.076635e+001	1.021730e+002
6.154102e+006	-4.493153e+001	-9.620858e+001	-3.080877e+001	-1.195409e+001	-9.456938e+001	-1.245488e+002	-5.071802e+001	1.017642e+002
6.154141e+006	-4.489775e+001	-9.590822e+001	-3.080127e+001	-1.195208e+001	-9.423513e+001	-1.305758e+002	-5.067372e+001	1.022928e+002
6.154180e+006	-4.492304e+001	-9.595663e+001	-3.080339e+001	-1.197735e+001	-8.922454e+001	8.903480e+001	-5.059735e+001	1.019138e+002
6.154219e+006	-4.490058e+001	-9.572774e+001	-3.080176e+001	-1.199052e+001	-9.168974e+001	-1.125560e+001	-5.073409e+001	1.017299e+002
6.154258e+006	-4.486123e+001	-9.611116e+001	-3.080128e+001	-1.197332e+001	-8.701203e+001	6.658492e+001	-5.072096e+001	1.014546e+002
6.154297e+006	-4.487602e+001	-9.577259e+001	-3.080234e+001	-1.199751e+001	-9.642155e+001	-1.388634e+002	-5.077414e+001	1.031532e+002
6.154336e+006	-4.488116e+001	-9.599212e+001	-3.078896e+001	-1.198914e+001	-1.023457e+002	-1.326435e+002	-5.067469e+001	1.025916e+002
6.154375e+006	-4.482837e+001	-9.616433e+001	-3.080538e+001	-1.207169e+001	-9.127120e+001	-1.512184e+001	-5.080176e+001	1.021507e+002
6.154414e+006	-4.489985e+001	-9.608652e+001	-3.080526e+001	-1.205346e+001	-9.021876e+001	3.970145e+001	-5.069415e+001	1.017181e+002
6.154453e+006	-4.489211e+001	-9.590601e+001	-3.079633e+001	-1.194022e+001	-9.597989e+001	5.256222e+001	-5.070052e+001	1.022272e+002
6.154492e+006	-4.491053e+001	-9.602853e+001	-3.080869e+001	-1.197283e+001	-8.927885e+001	1.221960e+002	-5.069699e+001	1.020426e+002
6.154531e+006	-4.497053e+001	-9.589421e+001	-3.080137e+001	-1.199524e+001	-1.127509e+002	8.239287e+001	-5.065262e+001	1.021247e+002
6.154570e+006	-4.491409e+001	-9.590235e+001	-3.079960e+001	-1.199966e+001	-9.360438e+001	3.972818e+001	-5.066478e+001	1.018116e+002
6.154609e+006	-4.490244e+001	-9.596966e+001	-3.080714e+001	-1.210853e+001	-9.511924e+001	-1.249276e+002	-5.060216e+001	1.024813e+002
6.154648e+006	-4.487754e+001	-9.588796e+001	-3.080792e+001	-1.200771e+001	-8.986720e+001	1.343800e+002	-5.067399e+001	1.019891e+002
6.154688e+006	-4.484809e+001	-9.594512e+001	-3.079939e+001	-1.201739e+001	-9.580082e+001	9.547077e+001	-5.072769e+001	1.023177e+002
6.154727e+006	-4.488231e+001	-9.569889e+001	-3.080216e+001	-1.200191e+001	-9.352666e+001	6.019281e+001	-5.065882e+001	1.019670e+002
6.154766e+006	-4.488390e+001	-9.601235e+001	-3.079298e+001	-1.194159e+001	-9.613173e+001	4.115884e+001	-5.074228e+001	1.021571e+002
6.154805e+006	-4.487543e+001	-9.595460e+001	-3.080596e+001	-1.198045e+001	-9.123831e+001	9.807099e+001	-5.069626e+001	1.022574e+002
6.154844e+006	-4.489596e+001	-9.595393e+001	-3.079775e+001	-1.200298e+001	-9.873861e+001	4.396514e+001	-5.074132e+001	1.026287e+002
6.154883e+006	-4.493885e+001	-9.565837e+001	-3.079704e+001	-1.201395e+001	-9.856158e+001	-4.126001e+001	-5.069750e+001	1.017944e+002
6.154922e+006	-4.488891e+001	-9.608198e+001	-3.079370e+001	-1.196107e+001	-1.023540e+002	8.657985e+000	-5.074378e+001	1.018404e+002
6.154961e+006	-4.494539e+001	-9.578717e+001	-3.080690e+001	-1.204057e+001	-9.110075e+001	5.839538e+001	-5.074136e+001	1.029475e+002
6.155000e+006	-4.491748e+001	-9.589613e+001	-3.080226e+001	-1.198063e+001	-1.079939e+002	-4.325032e+001	-5.069081e+001	1.031428e+002
6.155039e+006	-4.492641e+001	-9.630339e+001	-3.079330e+001	-1.201456e+001	-1.033884e+002	-4.592070e+001	-5.061520e+001	1.019025e+002
6.155078e+006	-4.487797e+001	-9.586765e+001	-3.080799e+001	-1.197566e+001	-9.178443e+001	1.950313e+001	-5.068008e+001	1.021493e+002
6.155117e+006	-4.490636e+001	-9.597108e+001	-3.080117e+001	-1.193772e+001	-9.153492e+001	-9.615558e+001	-5.065682e+001	1.022928e+002
6.155156e+006	-4.490918e+001	-9.594704e+001	-3.079805e+001	-1.197995e+001	-9.140953e+001	1.738277e+002	-5.066718e+001	1.020232e+002
6.155195e+006	-4.486611e+001	-9.589763e+001	-3.079408e+001	-1.197529e+001	-9.637230e+001	1.251115e+002	-5.077935e+001	1.023762e+002
6.155234e+006	-4.486664e+001	-9.586060e+001	-3.079416e+001	-1.201885e+001	-9.131448e+001	8.180819e+001	-5.075471e+001	1.029409e+002
6.155273e+006	-4.488914e+001	-9.602824e+001	-3.079516e+001	-1.203726e+001	-1.000337e+002	3.633207e+001	-5.069087e+001	1.022804e+002
6.155313e+006	-4.489475e+001	-9.574200e+001	-3.080790e+001	-1.202916e+001	-1.040231e+002	-1.168297e+002	-5.057543e+001	1.021280e+002
6.155352e+006	-4.493122e+001	-9.617284e+001	-3.079825e+001	-1.201488e+001	-8.909851e+001	5.592725e+001	-5.075136e+001	1.027052e+002
6.155391e+006	-4.484342e+001	-9.596104e+001	-3.079184e+001	-1.199145e+001	-9.505311e+001	1.703067e+002	-5.065144e+001	1.018231e+002
6.155430e+006	-4.488308e+001	-9.572730e+001	-3.080134e+001	-1.195750e+001	-9.424394e+001	-1.681224e+002	-5.056313e+001	1.019886e+002
6.155469e+006	-4.487972e+001	-9.572974e+001	-3.080173e+001	-1.206477e+001	-1.101161e+002	-1.555793e+002	-5.071628e+001	1.020407e+002
6.155508e+006	-4.491820e+001	-9.578787e+001	-3.078733e+001	-1.199321e+001	-8.773606e+001	1.809501e+001	-5.073582e+001	1.021046e+002
6.155547e+006	-4.486822e+001	-9.596108e+001	-3.080653e+001	-1.198337e+001	-8.929231e+001	1.437095e+002	-5.075809e+001	1.021210e+002
6.155586e+006	-4.491067e+001	-9.611051e+001	-3.079782e+001	-1.203632e+001	-8.825986e+001	-4.779050e+001	-5.061753e+001	1.023044e+002
6.155625e+006	-4.489087e+001	-9.562913e+001	-3.079343e+001	-1.198686e+001	-1.031426e+002	5.097242e+001	-5.068757e+001	1.023725e+002
6.155664e+006	-4.490822e+001	-9.611456e+001	-3.080317e+001	-1.201998e+001	-9.204297e+001	1.154139e+002	-5.078158e+001	1.019792e+002
6.155703e+006	-4.487655e+001	-9.621041e+001	-3.080293e+001	-1.199270e+001	-9.934870e+001	5.387374e+001	-5.066487e+001	1.023102e+002
6.155742e+006	-4.487619e+001	-9.607261e+001	-3.079135e+001	-1.198269e+001	-9.825861e+001	6.343871e+001	-5.071459e+001	1.026078e+002
