!CETC41,AV3656A,ZGL00048,1.3.2
!Calibration ON (Full Solt 2-Port(Omit Isolation))
!Measurements: S11 S21 S12 S22
!2025-04-23 00:20
# Hz  S  dB  R 50.000
6.150000e+006	-4.526770e+001	-8.937825e+001	-3.079995e+001	-1.364206e+001	-9.871805e+001	5.388921e+001	-4.810549e+001	1.126714e+002
6.150039e+006	-4.527196e+001	-8.928312e+001	-3.079116e+001	-1.362702e+001	-9.187667e+001	1.432244e+002	-4.819601e+001	1.126476e+002
6.150078e+006	-4.530311e+001	-8.937234e+001	-3.079750e+001	-1.366231e+001	-8.909339e+001	3.676846e+001	-4.811934e+001	1.127922e+002
6.150117e+006	-4.527045e+001	-8.917766e+001	-3.079854e+001	-1.369038e+001	-9.789284e+001	1.236915e+002	-4.809313e+001	1.124316e+002
6.150156e+006	-4.529722e+001	-8.954274e+001	-3.080566e+001	-1.366552e+001	-8.881481e+001	1.245487e+001	-4.807127e+001	1.125005e+002
6.150195e+006	-4.530670e+001	-8.938242e+001	-3.080376e+001	-1.365774e+001	-9.647260e+001	4.344430e+001	-4.808539e+001	1.120933e+002
6.150234e+006	-4.532989e+001	-8.950974e+001	-3.081259e+001	-1.362185e+001	-9.912810e+001	-1.168257e-001	-4.816878e+001	1.125761e+002
6.150273e+006	-4.529865e+001	-8.966515e+001	-3.080283e+001	-1.358359e+001	-9.428441e+001	4.390002e+001	-4.812976e+001	1.125367e+002
6.150313e+006	-4.532485e+001	-8.944676e+001	-3.080849e+001	-1.354304e+001	-9.718045e+001	1.564215e+002	-4.820499e+001	1.124898e+002
6.150352e+006	-4.530197e+001	-8.925395e+001	-3.079492e+001	-1.361507e+001	-9.158853e+001	1.419266e+002	-4.809333e+001	1.129522e+002
6.150391e+006	-4.525440e+001	-8.928134e+001	-3.080607e+001	-1.354212e+001	-9.922425e+001	-3.235933e+001	-4.807745e+001	1.121415e+002
6.150430e+006	-4.527808e+001	-8.922295e+001	-3.081171e+001	-1.362254e+001	-9.445896e+001	1.618686e+002	-4.811397e+001	1.123833e+002
6.150469e+006	-4.529303e+001	-8.957791e+001	-3.080503e+001	-1.362775e+001	-9.112480e+001	1.085710e+002	-4.807845e+001	1.130056e+002
6.150508e+006	-4.529659e+001	-8.977195e+001	-3.080336e+001	-1.365626e+001	-1.091123e+002	2.282057e+001	-4.808732e+001	1.127053e+002
6.150547e+006	-4.527861e+001	-8.924270e+001	-3.080321e+001	-1.367103e+001	-8.514707e+001	7.856558e+001	-4.806112e+001	1.126167e+002
6.150586e+006	-4.528128e+001	-8.978012e+001	-3.080205e+001	-1.360545e+001	-9.079853e+001	8.901521e+001	-4.814308e+001	1.128666e+002
6.150625e+006	-4.528517e+001	-8.927431e+001	-3.079729e+001	-1.363550e+001	-8.965742e+001	-1.798012e+002	-4.816332e+001	1.126411e+002
6.150664e+006	-4.528627e+001	-8.951940e+001	-3.081945e+001	-1.362272e+001	-8.707817e+001	7.285734e+001	-4.809392e+001	1.130193e+002
6.150703e+006	-4.528974e+001	-8.939607e+001	-3.079928e+001	-1.360709e+001	-1.027342e+002	-4.165888e+001	-4.816335e+001	1.127668e+002
6.150742e+006	-4.525242e+001	-8.945884e+001	-3.080275e+001	-1.359999e+001	-9.275737e+001	2.446987e+001	-4.807920e+001	1.127052e+002
6.150781e+006	-4.527877e+001	-8.947668e+001	-3.080575e+001	-1.367159e+001	-9.398564e+001	-1.645989e+002	-4.809064e+001	1.123381e+002
6.150820e+006	-4.528716e+001	-8.939417e+001	-3.081008e+001	-1.365223e+001	-9.194493e+001	-1.795035e+002	-4.819819e+001	1.127395e+002
6.150859e+006	-4.523433e+001	-8.954156e+001	-3.080224e+001	-1.364708e+001	-1.024032e+002	1.502635e+002	-4.820832e+001	1.126245e+002
6.150898e+006	-4.530517e+001	-8.953357e+001	-3.080846e+001	-1.363901e+001	-9.464457e+001	1.308294e+002	-4.812293e+001	1.126248e+002
6.150938e+006	-4.528133e+001	-8.934409e+001	-3.079968e+001	-1.368484e+001	-9.488841e+001	7.435654e+001	-4.809020e+001	1.127243e+002
6.150977e+006	-4.530932e+001	-8.909434e+001	-3.080790e+001	-1.358259e+001	-1.010861e+002	7.575344e+001	-4.812688e+001	1.124131e+002
6.151016e+006	-4.526306e+001	-8.932952e+001	-3.080014e+001	-1.360109e+001	-9.196701e+001	1.241537e+002	-4.807783e+001	1.122685e+002
6.151055e+006	-4.527690e+001	-8.933573e+001	-3.079790e+001	-1.367607e+001	-9.739359e+001	-1.323238e+001	-4.813094e+001	1.128174e+002
6.151094e+006	-4.527931e+001	-8.962549e+001	-3.079525e+001	-1.362164e+001	-9.193799e+001	-8.162562e+001	-4.819271e+001	1.128547e+002
6.151133e+006	-4.525867e+001	-8.950769e+001	-3.079909e+001	-1.375642e+001	-9.273804e+001	1.757990e+002	-4.808627e+001	1.126517e+002
6.151172e+006	-4.533105e+001	-8.923421e+001	-3.079848e+001	-1.366461e+001	-8.702163e+001	-1.727210e+002	-4.817092e+001	1.129496e+002
6.151211e+006	-4.534037e+001	-8.928301e+001	-3.081006e+001	-1.359697e+001	-8.995544e+001	1.418200e+002	-4.817012e+001	1.122000e+002
6.151250e+006	-4.525173e+001	-8.906308e+001	-3.080039e+001	-1.362340e+001	-8.794468e+001	4.837707e+001	-4.806306e+001	1.122737e+002
6.151289e+006	-4.529194e+001	-8.970569e+001	-3.079795e+001	-1.361542e+001	-9.257997e+001	1.278059e+002	-4.815143e+001	1.126407e+002
6.151328e+006	-4.526534e+001	-8.934938e+001	-3.079718e+001	-1.363625e+001	-9.676939e+001	1.615012e+002	-4.812911e+001	1.130338e+002
6.151367e+006	-4.530218e+001	-8.913304e+001	-3.080410e+001	-1.363046e+001	-9.761306e+001	-1.124754e+002	-4.818675e+001	1.129721e+002
6.151406e+006	-4.527217e+001	-8.923077e+001	-3.080284e+001	-1.362303e+001	-9.934587e+001	1.177168e+002	-4.810076e+001	1.122278e+002
6.151445e+006	-4.529509e+001	-8.937549e+001	-3.080081e+001	-1.367580e+001	-1.043372e+002	4.537220e+000	-4.812405e+001	1.129623e+002
6.151484e+006	-4.530387e+001	-8.962590e+001	-3.080582e+001	-1.364745e+001	-9.302564e+001	-9.073344e+001	-4.815047e+001	1.125127e+002
6.151523e+006	-4.525523e+001	-8.927391e+001	-3.079207e+001	-1.359038e+001	-1.016839e+002	8.158689e+001	-4.808646e+001	1.131540e+002
6.151563e+006	-4.532138e+001	-8.920732e+001	-3.080753e+001	-1.365176e+001	-9.553439e+001	-1.345432e+002	-4.820697e+001	1.128361e+002
6.151602e+006	-4.527645e+001	-8.972899e+001	-3.079167e+001	-1.365374e+001	-9.063517e+001	1.768555e+002	-4.818497e+001	1.124462e+002
6.151641e+006	-4.532565e+001	-8.912054e+001	-3.080475e+001	-1.361716e+001	-8.977855e+001	-1.219341e+002	-4.816739e+001	1.120979e+002
6.151680e+006	-4.529007e+001	-8.969314e+001	-3.079697e+001	-1.365174e+001	-9.465898e+001	-1.683756e+002	-4.810364e+001	1.128455e+002
6.151719e+006	-4.530689e+001	-8.942214e+001	-3.079279e+001	-1.361315e+001	-8.529016e+001	8.453325e+001	-4.813363e+001	1.123906e+002
6.151758e+006	-4.524743e+001	-8.942535e+001	-3.079396e+001	-1.368429e+001	-8.834358e+001	4.555042e+001	-4.813138e+001	1.125304e+002
6.151797e+006	-4.527628e+001	-8.959547e+001	-3.079736e+001	-1.361727e+001	-8.871923e+001	1.328245e+002	-4.808632e+001	1.129401e+002
6.151836e+006	-4.526293e+001	-8.944089e+001	-3.080475e+001	-1.362560e+001	-9.095495e+001	-1.594234e+002	-4.817661e+001	1.132789e+002
6.151875e+006	-4.531380e+001	-8.943938e+001	-3.080819e+001	-1.363248e+001	-9.933408e+001	-1.485018e+002	-4.811391e+001	1.126334e+002
6.151914e+006	-4.527895e+001	-8.926433e+001	-3.081060e+001	-1.358090e+001	-9.402563e+001	7.797143e+001	-4.813365e+001	1.122388e+002
6.151953e+006	-4.529987e+001	-8.969250e+001	-3.080711e+001	-1.365213e+001	-9.185423e+001	1.017114e+002	-4.805575e+001	1.124773e+002
6.151992e+006	-4.533111e+001	-8.981976e+001	-3.079760e+001	-1.357868e+001	-9.610735e+001	1.104233e+002	-4.817905e+001	1.125804e+002
6.152031e+006	-4.527120e+001	-8.938995e+001	-3.079836e+001	-1.365314e+001	-8.880807e+001	6.474349e+001	-4.813083e+001	1.131358e+002
6.152070e+006	-4.532903e+001	-8.946142e+001	-3.079109e+001	-1.365780e+001	-9.705349e+001	1.300121e+002	-4.810438e+001	1.131407e+002
6.152109e+006	-4.530834e+001	-8.933213e+001	-3.080751e+001	-1.360108e+001	-8.906208e+001	1.392645e+002	-4.813301e+001	1.124216e+002
6.152148e+006	-4.530645e+001	-8.921821e+001	-3.079860e+001	-1.364658e+001	-9.667000e+001	2.071320e+001	-4.814803e+001	1.127313e+002
6.152188e+006	-4.531921e+001	-8.951154e+001	-3.080531e+001	-1.358327e+001	-9.974275e+001	8.239144e+001	-4.809251e+001	1.128858e+002
6.152227e+006	-4.529828e+001	-8.933707e+001	-3.080528e+001	-1.354267e+001	-9.481245e+001	-5.661075e+001	-4.811514e+001	1.128108e+002
6.152266e+006	-4.529932e+001	-8.970457e+001	-3.080564e+001	-1.359892e+001	-8.952652e+001	-1.344570e+002	-4.809840e+001	1.132558e+002
6.152305e+006	-4.535527e+001	-8.954912e+001	-3.080173e+001	-1.368006e+001	-9.374735e+001	-1.424836e+002	-4.807575e+001	1.123889e+002
6.152344e+006	-4.531991e+001	-8.907803e+001	-3.079379e+001	-1.359347e+001	-9.481834e+001	-8.317100e+001	-4.804669e+001	1.132154e+002
6.152383e+006	-4.528717e+001	-8.944275e+001	-3.079936e+001	-1.367432e+001	-9.423849e+001	-1.769898e+002	-4.816695e+001	1.128665e+002
6.152422e+006	-4.529377e+001	-8.922543e+001	-3.080052e+001	-1.364067e+001	-9.237304e+001	2.184315e+001	-4.819297e+001	1.123607e+002
6.152461e+006	-4.533609e+001	-8.946824e+001	-3.080577e+001	-1.367447e+001	-8.859967e+001	1.442316e+002	-4.814367e+001	1.133612e+002
6.152500e+006	-4.531769e+001	-8.933356e+001	-3.079901e+001	-1.361282e+001	-9.778424e+001	-1.436358e+002	-4.816274e+001	1.128365e+002
6.152539e+006	-4.528050e+001	-8.909543e+001	-3.081020e+001	-1.365766e+001	-9.406212e+001	1.029950e+002	-4.808994e+001	1.130561e+002
6.152578e+006	-4.530178e+001	-8.950243e+001	-3.080151e+001	-1.365207e+001	-8.613342e+001	9.184554e+001	-4.815978e+001	1.126940e+002
6.152617e+006	-4.530621e+001	-8.945631e+001	-3.079322e+001	-1.364383e+001	-9.993155e+001	1.688684e+000	-4.806646e+001	1.127694e+002
6.152656e+006	-4.528013e+001	-8.953756e+001	-3.080278e+001	-1.362280e+001	-9.324010e+001	1.580375e+002	-4.809110e+001	1.131811e+002
6.152695e+006	-4.531952e+001	-8.932519e+001	-3.079955e+001	-1.363101e+001	-9.644838e+001	5.406419e+001	-4.812883e+001	1.127084e+002
6.152734e+006	-4.532088e+001	-8.945080e+001	-3.080174e+001	-1.365828e+001	-9.578556e+001	5.660161e+001	-4.818817e+001	1.120992e+002
6.152773e+006	-4.526783e+001	-8.944086e+001	-3.080101e+001	-1.364986e+001	-9.594990e+001	-1.569460e+002	-4.802062e+001	1.130579e+002
6.152813e+006	-4.533569e+001	-8.940114e+001	-3.080493e+001	-1.363299e+001	-9.165882e+001	6.041783e+001	-4.809916e+001	1.124640e+002
6.152852e+006	-4.525007e+001	-8.971843e+001	-3.079918e+001	-1.361166e+001	-9.573935e+001	6.878162e+001	-4.815191e+001	1.126033e+002
6.152891e+006	-4.529873e+001	-8.931289e+001	-3.079925e+001	-1.367658e+001	-8.577907e+001	1.388817e+002	-4.810796e+001	1.130041e+002
6.152930e+006	-4.528430e+001	-8.967066e+001	-3.080137e+001	-1.361752e+001	-9.310676e+001	5.994723e+001	-4.809740e+001	1.131653e+002
6.152969e+006	-4.529346e+001	-8.949466e+001	-3.080057e+001	-1.363740e+001	-8.802095e+001	1.100893e+002	-4.805427e+001	1.128495e+002
6.153008e+006	-4.531991e+001	-8.933900e+001	-3.080300e+001	-1.365019e+001	-8.881282e+001	1.337359e+002	-4.808070e+001	1.129067e+002
6.153047e+006	-4.531592e+001	-8.973935e+001	-3.080484e+001	-1.367009e+001	-9.820204e+001	2.075409e+001	-4.810931e+001	1.123023e+002
6.153086e+006	-4.531671e+001	-8.940170e+001	-3.079996e+001	-1.360854e+001	-9.355417e+001	3.195253e+000	-4.809144e+001	1.128283e+002
6.153125e+006	-4.531558e+001	-8.929850e+001	-3.079196e+001	-1.365077e+001	-9.056650e+001	-1.455907e+002	-4.805354e+001	1.129075e+002
6.153164e+006	-4.532404e+001	-8.955886e+001	-3.081030e+001	-1.363968e+001	-8.840598e+001	-1.659848e+002	-4.802306e+001	1.119702e+002
6.153203e+006	-4.532045e+001	-8.919503e+001	-3.079860e+001	-1.364797e+001	-9.622389e+001	8.042961e+001	-4.815877e+001	1.127589e+002
6.153242e+006	-4.533007e+001	-8.936858e+001	-3.080314e+001	-1.361591e+001	-9.226329e+001	-1.187675e+000	-4.809670e+001	1.128779e+002
6.153281e+006	-4.536198e+001	-8.958546e+001	-3.080403e+001	-1.362709e+001	-9.043282e+001	7.072974e+000	-4.811409e+001	1.128838e+002
6.153320e+006	-4.528349e+001	-8.957362e+001	-3.078400e+001	-1.364581e+001	-9.194252e+001	1.560164e+002	-4.814421e+001	1.134434e+002
6.153359e+006	-4.531763e+001	-8.956287e+001	-3.078657e+001	-1.357817e+001	-9.206367e+001	-8.264858e+001	-4.810016e+001	1.129240e+002
6.153398e+006	-4.532817e+001	-8.940243e+001	-3.080731e+001	-1.355021e+001	-8.932038e+001	9.668598e+001	-4.811856e+001	1.129899e+002
6.153438e+006	-4.527731e+001	-8.914218e+001	-3.079801e+001	-1.367290e+001	-9.924280e+001	-1.166236e+002	-4.809727e+001	1.129635e+002
6.153477e+006	-4.528516e+001	-8.924792e+001	-3.080031e+001	-1.360251e+001	-9.498945e+001	1.102041e+002	-4.818121e+001	1.126993e+002
6.153516e+006	-4.527770e+001	-8.929720e+001	-3.079396e+001	-1.361171e+001	-9.190377e+001	1.736962e+002	-4.814693e+001	1.124987e+002
6.153555e+006	-4.531530e+001	-8.930888e+001	-3.079290e+001	-1.366264e+001	-9.958625e+001	-1.764149e+002	-4.807999e+001	1.131947e+002
6.153594e+006	-4.535073e+001	-8.937617e+001	-3.080183e+001	-1.362682e+001	-9.562989e+001	-1.197561e+002	-4.817229e+001	1.131559e+002
6.153633e+006	-4.533864e+001	-8.938252e+001	-3.079651e+001	-1.366818e+001	-9.178454e+001	1.317568e+002	-4.807439e+001	1.128412e+002
6.153672e+006	-4.529581e+001	-8.930564e+001	-3.079884e+001	-1.364029e+001	-1.016266e+002	7.346889e+001	-4.811838e+001	1.134258e+002
6.153711e+006	-4.530946e+001	-8.926743e+001	-3.079989e+001	-1.362735e+001	-9.395749e+001	-1.063495e+002	-4.811255e+001	1.129860e+002
6.153750e+006	-4.534465e+001	-8.922738e+001	-3.080101e+001	-1.358912e+001	-9.176078e+001	5.267383e+001	-4.804808e+001	1.128218e+002
6.153789e+006	-4.529289e+001	-8.931227e+001	-3.079910e+001	-1.365028e+001	-9.068199e+001	-2.862976e+001	-4.812438e+001	1.127163e+002
6.153828e+006	-4.528145e+001	-8.963400e+001	-3.079415e+001	-1.360389e+001	-8.996858e+001	1.149097e+002	-4.813403e+001	1.130831e+002
6.153867e+006	-4.530289e+001	-8.946647e+001	-3.079644e+001	-1.358761e+001	-8.952182e+001	8.913009e+001	-4.806658e+001	1.129297e+002
6.153906e+006	-4.529785e+001	-8.929823e+001	-3.080326e+001	-1.358850e+001	-9.263733e+001	-5.662724e+001	-4.809289e+001	1.132541e+002
6.153945e+006	-4.533042e+001	-8.951309e+001	-3.079545e+001	-1.365319e+001	-8.937877e+001	1.778662e+002	-4.807524e+001	1.130143e+002
6.153984e+006	-4.534098e+001	-8.939766e+001	-3.078696e+001	-1.365117e+001	-1.043093e+002	-5.920683e+001	-4.807542e+001	1.127191e+002
6.154023e+006	-4.529847e+001	-8.953460e+001	-3.080820e+001	-1.371789e+001	-9.435524e+001	1.617576e+002	-4.814264e+001	1.126268e+002
6.154063e+006	-4.530177e+001	-8.913443e+001	-3.079600e+001	-1.363383e+001	-9.932329e+001	1.092938e+002	-4.811260e+001	1.121925e+002
6.154102e+006	-4.530567e+001	-8.942984e+001	-3.080116e+001	-1.369763e+001	-9.290183e+001	-1.309347e+001	-4.809961e+001	1.127891e+002
6.154141e+006	-4.531889e+001	-8.934739e+001	-3.080558e+001	-1.362742e+001	-8.916508e+001	1.069438e+002	-4.816154e+001	1.124710e+002
6.154180e+006	-4.526729e+001	-8.937890e+001	-3.079712e+001	-1.360479e+001	-9.625834e+001	-1.506959e+002	-4.810111e+001	1.125301e+002
6.154219e+006	-4.532195e+001	-8.968830e+001	-3.078225e+001	-1.367329e+001	-1.007887e+002	-4.989057e+000	-4.815656e+001	1.120443e+002
6.154258e+006	-4.529785e+001	-8.933304e+001	-3.080218e+001	-1.368175e+001	-9.015944e+001	8.251800e+001	-4.815101e+001	1.130313e+002
6.154297e+006	-4.533229e+001	-8.935372e+001	-3.079347e+001	-1.362479e+001	-9.700363e+001	4.904130e+001	-4.813422e+001	1.134491e+002
6.154336e+006	-4.534249e+001	-8.935420e+001	-3.079508e+001	-1.358205e+001	-9.418725e+001	9.431253e+001	-4.805130e+001	1.127166e+002
6.154375e+006	-4.531201e+001	-8.932533e+001	-3.079845e+001	-1.374454e+001	-9.526004e+001	-2.115217e+001	-4.809788e+001	1.130568e+002
6.154414e+006	-4.528775e+001	-8.947606e+001	-3.080016e+001	-1.366922e+001	-1.056271e+002	1.694138e+002	-4.813173e+001	1.128031e+002
6.154453e+006	-4.529189e+001	-8.922984e+001	-3.078913e+001	-1.364089e+001	-9.576327e+001	3.514743e+001	-4.809926e+001	1.126246e+002
6.154492e+006	-4.535990e+001	-8.945294e+001	-3.078559e+001	-1.362163e+001	-9.237140e+001	1.370729e+002	-4.813906e+001	1.129980e+002
6.154531e+006	-4.533039e+001	-8.948330e+001	-3.080013e+001	-1.359717e+001	-9.492753e+001	-1.305413e+002	-4.813187e+001	1.127725e+002
6.154570e+006	-4.525231e+001	-8.953984e+001	-3.080185e+001	-1.363146e+001	-9.460922e+001	-4.647064e+001	-4.808994e+001	1.130323e+002
6.154609e+006	-4.530423e+001	-8.934927e+001	-3.080321e+001	-1.360448e+001	-1.071184e+002	7.886089e+001	-4.811342e+001	1.132648e+002
6.154648e+006	-4.527623e+001	-8.918224e+001	-3.079950e+001	-1.358637e+001	-9.734152e+001	1.313474e+002	-4.814128e+001	1.124287e+002
6.154688e+006	-4.533389e+001	-8.937223e+001	-3.079248e+001	-1.366342e+001	-1.030371e+002	-3.135609e+000	-4.813251e+001	1.128948e+002
6.154727e+006	-4.531066e+001	-8.949041e+001	-3.079758e+001	-1.367534e+001	-1.054484e+002	1.451157e+002	-4.812398e+001	1.132686e+002
6.154766e+006	-4.531352e+001	-8.909947e+001	-3.080573e+001	-1.364445e+001	-9.127499e+001	5.176322e+001	-4.811871e+001	1.128598e+002
6.154805e+006	-4.533710e+001	-8.956033e+001	-3.079881e+001	-1.368995e+001	-9.839121e+001	-4.607403e+001	-4.812911e+001	1.129190e+002
6.154844e+006	-4.530552e+001	-8.955183e+001	-3.080005e+001	-1.364784e+001	-9.621876e+001	2.379594e+001	-4.809821e+001	1.129502e+002
6.154883e+006	-4.529530e+001	-8.961835e+001	-3.079256e+001	-1.364060e+001	-9.786366e+001	-1.219170e+002	-4.819739e+001	1.129993e+002
6.154922e+006	-4.534353e+001	-8.943455e+001	-3.080435e+001	-1.363589e+001	-9.361061e+001	-1.155300e+002	-4.817141e+001	1.125546e+002
6.154961e+006	-4.533314e+001	-8.925678e+001	-3.078968e+001	-1.364481e+001	-9.374760e+001	8.757201e+001	-4.811735e+001	1.129331e+002
6.155000e+006	-4.535126e+001	-8.948071e+001	-3.079028e+001	-1.363818e+001	-9.541668e+001	-3.730953e+001	-4.805987e+001	1.132432e+002
6.155039e+006	-4.532081e+001	-8.950740e+001	-3.079625e+001	-1.362054e+001	-9.922298e+001	-1.491433e+000	-4.810173e+001	1.128086e+002
6.155078e+006	-4.535193e+001	-8.951673e+001	-3.079070e+001	-1.355258e+001	-9.255717e+001	8.687832e+001	-4.813472e+001	1.131673e+002
6.155117e+006	-4.530655e+001	-8.965160e+001	-3.079117e+001	-1.360350e+001	-9.754460e+001	1.462799e+002	-4.801617e+001	1.128980e+002
6.155156e+006	-4.540993e+001	-8.919583e+001	-3.080609e+001	-1.360123e+001	-1.026190e+002	8.308181e+001	-4.813869e+001	1.127962e+002
6.155195e+006	-4.532476e+001	-8.938286e+001	-3.078831e+001	-1.359993e+001	-9.477617e+001	1.115222e+002	-4.805181e+001	1.124969e+002
6.155234e+006	-4.532651e+001	-8.912187e+001	-3.079585e+001	-1.365098e+001	-8.803024e+001	1.199761e+002	-4.810508e+001	1.124520e+002
6.155273e+006	-4.534108e+001	-8.951894e+001	-3.080218e+001	-1.364885e+001	-9.369150e+001	7.040974e+001	-4.811483e+001	1.127718e+002
6.155313e+006	-4.534462e+001	-8.959534e+001	-3.079385e+001	-1.356146e+001	-9.454485e+001	8.805522e+001	-4.803076e+001	1.130063e+002
6.155352e+006	-4.535252e+001	-8.928614e+001	-3.079398e+001	-1.364564e+001	-9.708175e+001	9.018877e+001	-4.801527e+001	1.130623e+002
6.155391e+006	-4.536397e+001	-8.956410e+001	-3.079145e+001	-1.367196e+001	-8.665075e+001	6.042378e+001	-4.812941e+001	1.129394e+002
6.155430e+006	-4.533353e+001	-8.927339e+001	-3.079857e+001	-1.367871e+001	-9.444343e+001	1.719407e+002	-4.816766e+001	1.124486e+002
6.155469e+006	-4.527802e+001	-8.922949e+001	-3.080486e+001	-1.357690e+001	-8.870674e+001	9.607335e+001	-4.810686e+001	1.125117e+002
6.155508e+006	-4.531041e+001	-8.956579e+001	-3.081193e+001	-1.363592e+001	-9.637958e+001	4.692111e+001	-4.799803e+001	1.122630e+002
6.155547e+006	-4.537369e+001	-8.919016e+001	-3.080098e+001	-1.356532e+001	-9.020833e+001	-5.462088e+001	-4.808828e+001	1.131747e+002
6.155586e+006	-4.532758e+001	-8.947947e+001	-3.080187e+001	-1.361323e+001	-9.638829e+001	1.378797e+002	-4.810059e+001	1.123674e+002
6.155625e+006	-4.531165e+001	-8.901149e+001	-3.080824e+001	-1.366140e+001	-8.704989e+001	1.777248e+002	-4.807816e+001	1.129078e+002
6.155664e+006	-4.533711e+001	-8.944236e+001	-3.079569e+001	-1.371269e+001	-8.861318e+001	-1.794273e+002	-4.812813e+001	1.126757e+002
6.155703e+006	-4.537082e+001	-8.922912e+001	-3.079558e+001	-1.358639e+001	-9.821990e+001	1.192690e+002	-4.803307e+001	1.125680e+002
6.155742e+006	-4.534863e+001	-8.926715e+001	-3.078493e+001	-1.365041e+001	-9.620006e+001	1.048378e+002	-4.807927e+001	1.128983e+002
