!CETC41,AV3656A,ZGL00048,1.3.2
!Calibration ON (Full Solt 2-Port(Omit Isolation))
!Measurements: S11 S21 S12 S22
!2025-04-23 00:00
# Hz  S  dB  R 50.000
6.150000e+006	-4.541615e+001	-9.074552e+001	-3.080255e+001	-1.339222e+001	-9.727075e+001	-1.791504e+002	-4.840180e+001	1.087595e+002
6.150039e+006	-4.537851e+001	-9.079791e+001	-3.079803e+001	-1.340665e+001	-9.598334e+001	1.527462e+001	-4.845869e+001	1.086414e+002
6.150078e+006	-4.536366e+001	-9.090578e+001	-3.081470e+001	-1.339732e+001	-9.151477e+001	1.306748e+002	-4.838793e+001	1.083237e+002
6.150117e+006	-4.534464e+001	-9.046616e+001	-3.081164e+001	-1.341027e+001	-1.084921e+002	1.059257e+002	-4.845544e+001	1.091820e+002
6.150156e+006	-4.535480e+001	-9.074217e+001	-3.079941e+001	-1.336312e+001	-1.077503e+002	-1.065538e+002	-4.852647e+001	1.084816e+002
6.150195e+006	-4.538303e+001	-9.055305e+001	-3.080811e+001	-1.340045e+001	-9.835975e+001	-5.801345e+001	-4.838405e+001	1.088401e+002
6.150234e+006	-4.540394e+001	-9.060497e+001	-3.080757e+001	-1.334429e+001	-1.047350e+002	1.526343e+002	-4.839468e+001	1.091115e+002
6.150273e+006	-4.540467e+001	-9.042623e+001	-3.079878e+001	-1.341040e+001	-9.324723e+001	-7.076308e+001	-4.836796e+001	1.085827e+002
6.150313e+006	-4.539559e+001	-9.049579e+001	-3.080644e+001	-1.339834e+001	-9.569703e+001	1.119722e+002	-4.847409e+001	1.088808e+002
6.150352e+006	-4.537428e+001	-9.059848e+001	-3.080113e+001	-1.340847e+001	-8.876315e+001	7.324254e+001	-4.841424e+001	1.086550e+002
6.150391e+006	-4.534904e+001	-9.037257e+001	-3.080395e+001	-1.342844e+001	-9.345420e+001	1.024827e+002	-4.831943e+001	1.085724e+002
6.150430e+006	-4.540635e+001	-9.081365e+001	-3.081041e+001	-1.333027e+001	-9.631260e+001	-1.434104e+002	-4.847058e+001	1.084153e+002
6.150469e+006	-4.537510e+001	-9.034886e+001	-3.080618e+001	-1.331050e+001	-9.704893e+001	1.163379e+002	-4.839507e+001	1.091054e+002
6.150508e+006	-4.535780e+001	-9.058201e+001	-3.080346e+001	-1.339463e+001	-9.728096e+001	1.269880e+002	-4.840855e+001	1.080152e+002
6.150547e+006	-4.534684e+001	-9.065589e+001	-3.080903e+001	-1.334864e+001	-9.232766e+001	1.233270e+002	-4.838280e+001	1.082884e+002
6.150586e+006	-4.539541e+001	-9.063100e+001	-3.079842e+001	-1.333638e+001	-9.735857e+001	1.483762e+002	-4.842730e+001	1.085282e+002
6.150625e+006	-4.538348e+001	-9.070111e+001	-3.080659e+001	-1.336359e+001	-9.978569e+001	8.042444e+001	-4.845537e+001	1.090884e+002
6.150664e+006	-4.541628e+001	-9.039898e+001	-3.081163e+001	-1.337827e+001	-1.048443e+002	-1.121323e+002	-4.841529e+001	1.089056e+002
6.150703e+006	-4.538230e+001	-9.051990e+001	-3.080132e+001	-1.330865e+001	-9.146586e+001	6.272011e+001	-4.849628e+001	1.087119e+002
6.150742e+006	-4.535229e+001	-9.041466e+001	-3.080179e+001	-1.332055e+001	-9.499616e+001	4.750636e+001	-4.839093e+001	1.090411e+002
6.150781e+006	-4.536259e+001	-9.031333e+001	-3.080831e+001	-1.339070e+001	-1.069939e+002	1.492949e+002	-4.843042e+001	1.086897e+002
6.150820e+006	-4.538919e+001	-9.051322e+001	-3.081526e+001	-1.333373e+001	-9.011832e+001	8.062647e+001	-4.839284e+001	1.093520e+002
6.150859e+006	-4.538931e+001	-9.057807e+001	-3.080065e+001	-1.329673e+001	-9.083144e+001	6.932315e+001	-4.839683e+001	1.091511e+002
6.150898e+006	-4.543011e+001	-9.058060e+001	-3.080781e+001	-1.338371e+001	-1.004199e+002	1.319774e+002	-4.838074e+001	1.090470e+002
6.150938e+006	-4.539475e+001	-9.042819e+001	-3.081032e+001	-1.335997e+001	-1.003588e+002	-1.254423e+002	-4.836248e+001	1.091809e+002
6.150977e+006	-4.538443e+001	-9.054423e+001	-3.080839e+001	-1.333207e+001	-9.701273e+001	6.294075e+001	-4.835954e+001	1.089362e+002
6.151016e+006	-4.539421e+001	-9.059678e+001	-3.080021e+001	-1.329797e+001	-8.714603e+001	9.877686e+001	-4.845599e+001	1.087678e+002
6.151055e+006	-4.540389e+001	-9.059146e+001	-3.080790e+001	-1.336286e+001	-9.254190e+001	-1.667333e+002	-4.834564e+001	1.082268e+002
6.151094e+006	-4.540823e+001	-9.067920e+001	-3.079956e+001	-1.335127e+001	-9.718115e+001	-4.414267e+001	-4.848529e+001	1.088943e+002
6.151133e+006	-4.537142e+001	-9.079021e+001	-3.080702e+001	-1.339230e+001	-9.233242e+001	2.390189e+001	-4.838295e+001	1.088160e+002
6.151172e+006	-4.537765e+001	-9.074362e+001	-3.079881e+001	-1.342079e+001	-9.126934e+001	1.517627e+002	-4.836142e+001	1.087275e+002
6.151211e+006	-4.538127e+001	-9.052428e+001	-3.080207e+001	-1.336092e+001	-8.520119e+001	1.093938e+002	-4.844288e+001	1.089297e+002
6.151250e+006	-4.541702e+001	-9.066193e+001	-3.080940e+001	-1.335147e+001	-9.175599e+001	1.205794e+002	-4.835016e+001	1.084702e+002
6.151289e+006	-4.540296e+001	-9.064365e+001	-3.080581e+001	-1.333590e+001	-1.024208e+002	-1.740069e+002	-4.843698e+001	1.090353e+002
6.151328e+006	-4.535852e+001	-9.075381e+001	-3.080285e+001	-1.328155e+001	-9.447592e+001	-7.499412e+001	-4.844205e+001	1.087960e+002
6.151367e+006	-4.538523e+001	-9.055766e+001	-3.080418e+001	-1.346057e+001	-9.736636e+001	9.632197e+001	-4.840634e+001	1.084365e+002
6.151406e+006	-4.539977e+001	-9.047874e+001	-3.080728e+001	-1.334424e+001	-9.759602e+001	1.731238e+002	-4.844613e+001	1.088643e+002
6.151445e+006	-4.537804e+001	-9.044770e+001	-3.081038e+001	-1.334244e+001	-9.388594e+001	1.685574e+002	-4.837118e+001	1.086200e+002
6.151484e+006	-4.541008e+001	-9.049956e+001	-3.079983e+001	-1.334321e+001	-9.614061e+001	6.129287e+001	-4.836011e+001	1.086264e+002
6.151523e+006	-4.537080e+001	-9.049562e+001	-3.080494e+001	-1.329768e+001	-9.052352e+001	1.430494e+002	-4.837139e+001	1.085624e+002
6.151563e+006	-4.537898e+001	-9.049202e+001	-3.080562e+001	-1.332260e+001	-9.551120e+001	-1.725318e+002	-4.850688e+001	1.088709e+002
6.151602e+006	-4.536454e+001	-9.035905e+001	-3.080705e+001	-1.337641e+001	-9.499651e+001	1.760058e+002	-4.839460e+001	1.085499e+002
6.151641e+006	-4.533747e+001	-9.089294e+001	-3.080092e+001	-1.335715e+001	-9.086087e+001	4.927927e+001	-4.846725e+001	1.088225e+002
6.151680e+006	-4.537972e+001	-9.084251e+001	-3.080098e+001	-1.337003e+001	-8.860553e+001	-1.721326e+002	-4.838877e+001	1.083849e+002
6.151719e+006	-4.538355e+001	-9.045217e+001	-3.081625e+001	-1.341274e+001	-1.063374e+002	2.313975e+000	-4.845213e+001	1.090345e+002
6.151758e+006	-4.536475e+001	-9.045188e+001	-3.081988e+001	-1.334674e+001	-9.817276e+001	6.207317e+001	-4.845688e+001	1.085748e+002
6.151797e+006	-4.542256e+001	-9.018075e+001	-3.080810e+001	-1.335911e+001	-9.139747e+001	5.960495e+001	-4.836562e+001	1.085299e+002
6.151836e+006	-4.538304e+001	-9.045983e+001	-3.080352e+001	-1.336958e+001	-9.107024e+001	1.469156e+002	-4.837547e+001	1.084532e+002
6.151875e+006	-4.534148e+001	-9.078516e+001	-3.080383e+001	-1.334499e+001	-9.153964e+001	-1.588961e+002	-4.842147e+001	1.084903e+002
6.151914e+006	-4.542773e+001	-9.034818e+001	-3.080397e+001	-1.339089e+001	-9.304906e+001	4.835534e+001	-4.840993e+001	1.092947e+002
6.151953e+006	-4.537808e+001	-9.061283e+001	-3.081134e+001	-1.337561e+001	-9.282484e+001	1.051966e+002	-4.845251e+001	1.084960e+002
6.151992e+006	-4.543439e+001	-9.053802e+001	-3.081608e+001	-1.346669e+001	-9.148656e+001	1.371901e+002	-4.853805e+001	1.088376e+002
6.152031e+006	-4.535437e+001	-9.042112e+001	-3.080568e+001	-1.338348e+001	-9.914090e+001	-1.527553e+002	-4.843684e+001	1.090423e+002
6.152070e+006	-4.541003e+001	-9.066489e+001	-3.081203e+001	-1.337091e+001	-9.128755e+001	1.140959e+002	-4.835576e+001	1.090591e+002
6.152109e+006	-4.540416e+001	-9.079443e+001	-3.080926e+001	-1.345602e+001	-1.001399e+002	3.707998e+001	-4.842717e+001	1.086148e+002
6.152148e+006	-4.536439e+001	-9.052563e+001	-3.081301e+001	-1.337944e+001	-9.311785e+001	8.885705e+001	-4.837177e+001	1.090117e+002
6.152188e+006	-4.536778e+001	-9.058242e+001	-3.080642e+001	-1.335411e+001	-8.670267e+001	-1.783442e+002	-4.832922e+001	1.088072e+002
6.152227e+006	-4.539248e+001	-9.029316e+001	-3.080155e+001	-1.336749e+001	-9.434484e+001	5.911640e+001	-4.838471e+001	1.088788e+002
6.152266e+006	-4.540758e+001	-9.045699e+001	-3.080700e+001	-1.334415e+001	-8.950820e+001	-4.675946e+001	-4.838605e+001	1.090688e+002
6.152305e+006	-4.540315e+001	-9.087731e+001	-3.080001e+001	-1.335692e+001	-9.242177e+001	-4.219510e+001	-4.846221e+001	1.086838e+002
6.152344e+006	-4.541854e+001	-9.088055e+001	-3.079762e+001	-1.333443e+001	-9.278392e+001	-1.046219e+002	-4.837364e+001	1.091428e+002
6.152383e+006	-4.535592e+001	-9.028520e+001	-3.081186e+001	-1.339863e+001	-8.882665e+001	1.066578e+002	-4.836959e+001	1.088347e+002
6.152422e+006	-4.537808e+001	-9.051565e+001	-3.080131e+001	-1.334387e+001	-9.581487e+001	1.244913e+002	-4.833333e+001	1.088196e+002
6.152461e+006	-4.534875e+001	-9.058978e+001	-3.081189e+001	-1.340709e+001	-8.629206e+001	2.412382e+001	-4.839354e+001	1.084945e+002
6.152500e+006	-4.542170e+001	-9.059365e+001	-3.080640e+001	-1.332935e+001	-9.073061e+001	1.504375e+001	-4.836237e+001	1.088931e+002
6.152539e+006	-4.541520e+001	-9.060862e+001	-3.080395e+001	-1.337231e+001	-8.581781e+001	-2.391889e+001	-4.835194e+001	1.089776e+002
6.152578e+006	-4.538053e+001	-9.080583e+001	-3.080404e+001	-1.331405e+001	-9.589981e+001	1.168668e+002	-4.840326e+001	1.088139e+002
6.152617e+006	-4.537886e+001	-9.074955e+001	-3.080686e+001	-1.332428e+001	-9.879605e+001	1.102540e+002	-4.846603e+001	1.086960e+002
6.152656e+006	-4.539775e+001	-9.079907e+001	-3.080546e+001	-1.335159e+001	-9.228038e+001	-2.910272e+000	-4.837423e+001	1.089062e+002
6.152695e+006	-4.536861e+001	-9.052451e+001	-3.080020e+001	-1.338091e+001	-8.920603e+001	1.031398e+002	-4.842127e+001	1.093798e+002
6.152734e+006	-4.536726e+001	-9.073493e+001	-3.080145e+001	-1.341420e+001	-9.496485e+001	8.229670e+001	-4.847071e+001	1.092298e+002
6.152773e+006	-4.538384e+001	-9.094869e+001	-3.079709e+001	-1.339279e+001	-8.963450e+001	1.657719e+002	-4.846995e+001	1.088449e+002
6.152813e+006	-4.537588e+001	-9.067404e+001	-3.079590e+001	-1.335044e+001	-9.214700e+001	1.422595e+002	-4.833036e+001	1.086946e+002
6.152852e+006	-4.540475e+001	-9.069008e+001	-3.080336e+001	-1.332180e+001	-1.030130e+002	1.217799e+002	-4.842628e+001	1.083903e+002
6.152891e+006	-4.538731e+001	-9.025296e+001	-3.080945e+001	-1.344643e+001	-8.616312e+001	1.553843e+002	-4.836837e+001	1.088620e+002
6.152930e+006	-4.539079e+001	-9.078425e+001	-3.079334e+001	-1.340558e+001	-8.936859e+001	1.134851e+002	-4.840782e+001	1.095862e+002
6.152969e+006	-4.537860e+001	-9.036818e+001	-3.080629e+001	-1.343136e+001	-8.823743e+001	5.789662e+001	-4.838699e+001	1.092186e+002
6.153008e+006	-4.539980e+001	-9.049334e+001	-3.080874e+001	-1.343302e+001	-9.127677e+001	1.152067e+002	-4.842422e+001	1.091315e+002
6.153047e+006	-4.540659e+001	-9.041979e+001	-3.081773e+001	-1.338448e+001	-9.105688e+001	1.201708e+002	-4.838883e+001	1.089514e+002
6.153086e+006	-4.539930e+001	-9.059067e+001	-3.081668e+001	-1.332990e+001	-9.223215e+001	1.220585e+002	-4.845595e+001	1.092397e+002
6.153125e+006	-4.538206e+001	-9.038688e+001	-3.079900e+001	-1.332690e+001	-9.320296e+001	9.321596e+001	-4.839815e+001	1.089199e+002
6.153164e+006	-4.538443e+001	-9.085638e+001	-3.080856e+001	-1.336406e+001	-9.183189e+001	1.472047e+002	-4.841241e+001	1.092025e+002
6.153203e+006	-4.540162e+001	-9.066628e+001	-3.079622e+001	-1.337143e+001	-9.154735e+001	8.329591e+001	-4.844437e+001	1.090311e+002
6.153242e+006	-4.544128e+001	-9.053308e+001	-3.080654e+001	-1.331162e+001	-9.039594e+001	8.892347e+001	-4.842724e+001	1.085280e+002
6.153281e+006	-4.541492e+001	-9.051267e+001	-3.080502e+001	-1.340195e+001	-1.006020e+002	-1.589834e+002	-4.834490e+001	1.086958e+002
6.153320e+006	-4.538848e+001	-9.045475e+001	-3.080818e+001	-1.342888e+001	-1.102793e+002	-7.316588e+001	-4.836812e+001	1.093391e+002
6.153359e+006	-4.534220e+001	-9.065186e+001	-3.080945e+001	-1.333486e+001	-9.574109e+001	9.698638e+001	-4.838443e+001	1.090211e+002
6.153398e+006	-4.542535e+001	-9.045369e+001	-3.080804e+001	-1.334951e+001	-9.474240e+001	-1.905047e+001	-4.842794e+001	1.085497e+002
6.153438e+006	-4.536885e+001	-9.093837e+001	-3.081059e+001	-1.337141e+001	-9.490020e+001	9.735529e+001	-4.843463e+001	1.092911e+002
6.153477e+006	-4.540114e+001	-9.049698e+001	-3.080806e+001	-1.346707e+001	-9.583933e+001	5.272714e+001	-4.844995e+001	1.084848e+002
6.153516e+006	-4.538369e+001	-9.105625e+001	-3.080715e+001	-1.334047e+001	-8.853452e+001	1.302186e+002	-4.834133e+001	1.088180e+002
6.153555e+006	-4.536957e+001	-9.039379e+001	-3.081082e+001	-1.337961e+001	-9.302492e+001	1.727206e+002	-4.837710e+001	1.091011e+002
6.153594e+006	-4.537555e+001	-9.056727e+001	-3.081023e+001	-1.342615e+001	-1.007034e+002	9.418354e+001	-4.837954e+001	1.091342e+002
6.153633e+006	-4.536673e+001	-9.074607e+001	-3.081821e+001	-1.333899e+001	-9.503397e+001	-1.764564e+002	-4.838201e+001	1.088862e+002
6.153672e+006	-4.535537e+001	-9.039096e+001	-3.079407e+001	-1.332582e+001	-1.002188e+002	-1.646261e+002	-4.837907e+001	1.086208e+002
6.153711e+006	-4.541285e+001	-9.047010e+001	-3.081705e+001	-1.330182e+001	-1.013894e+002	1.005266e+002	-4.843878e+001	1.087810e+002
6.153750e+006	-4.537154e+001	-9.051584e+001	-3.079238e+001	-1.332667e+001	-8.887291e+001	1.414098e+002	-4.840124e+001	1.089251e+002
6.153789e+006	-4.541747e+001	-9.050632e+001	-3.079936e+001	-1.341598e+001	-8.845459e+001	-1.207102e+002	-4.841287e+001	1.084925e+002
6.153828e+006	-4.537700e+001	-9.047689e+001	-3.081291e+001	-1.333394e+001	-9.499924e+001	7.123588e+001	-4.847522e+001	1.089805e+002
6.153867e+006	-4.540259e+001	-9.043586e+001	-3.079092e+001	-1.332993e+001	-9.048931e+001	1.238791e+002	-4.845684e+001	1.093767e+002
6.153906e+006	-4.539048e+001	-9.090102e+001	-3.080764e+001	-1.336803e+001	-9.973589e+001	1.398465e+002	-4.840139e+001	1.087072e+002
6.153945e+006	-4.538403e+001	-9.023377e+001	-3.081573e+001	-1.337837e+001	-8.923293e+001	-1.609894e+002	-4.843300e+001	1.088770e+002
6.153984e+006	-4.539756e+001	-9.092500e+001	-3.080867e+001	-1.336140e+001	-9.782309e+001	-7.804664e+001	-4.846825e+001	1.089740e+002
6.154023e+006	-4.539598e+001	-9.072558e+001	-3.080132e+001	-1.342750e+001	-8.669438e+001	1.409508e+002	-4.838060e+001	1.089556e+002
6.154063e+006	-4.541433e+001	-9.043760e+001	-3.080560e+001	-1.336642e+001	-1.076025e+002	1.109864e+001	-4.832162e+001	1.086012e+002
6.154102e+006	-4.537499e+001	-9.065489e+001	-3.081002e+001	-1.340239e+001	-9.230197e+001	-3.871395e+001	-4.839613e+001	1.089070e+002
6.154141e+006	-4.539133e+001	-9.080089e+001	-3.080727e+001	-1.335016e+001	-9.494178e+001	5.516567e+001	-4.842330e+001	1.090097e+002
6.154180e+006	-4.539518e+001	-9.063592e+001	-3.080307e+001	-1.337984e+001	-9.279880e+001	1.188504e+000	-4.836414e+001	1.092176e+002
6.154219e+006	-4.540122e+001	-9.064928e+001	-3.080828e+001	-1.338890e+001	-9.773821e+001	-1.078011e+002	-4.840562e+001	1.088683e+002
6.154258e+006	-4.541163e+001	-9.047948e+001	-3.079831e+001	-1.340625e+001	-1.029013e+002	1.891664e+001	-4.837153e+001	1.087124e+002
6.154297e+006	-4.538422e+001	-9.043178e+001	-3.080729e+001	-1.340691e+001	-1.145642e+002	3.607274e+001	-4.842749e+001	1.087825e+002
6.154336e+006	-4.536936e+001	-9.068884e+001	-3.081563e+001	-1.333221e+001	-9.092249e+001	-1.795540e+002	-4.844417e+001	1.086362e+002
6.154375e+006	-4.540700e+001	-9.073792e+001	-3.079508e+001	-1.331831e+001	-1.033608e+002	-7.070526e+001	-4.839746e+001	1.087226e+002
6.154414e+006	-4.541581e+001	-9.069735e+001	-3.080629e+001	-1.342612e+001	-9.608423e+001	9.897262e+001	-4.841067e+001	1.088857e+002
6.154453e+006	-4.536024e+001	-9.065172e+001	-3.079913e+001	-1.334706e+001	-9.569093e+001	4.738138e+001	-4.835652e+001	1.084671e+002
6.154492e+006	-4.539703e+001	-9.052507e+001	-3.079818e+001	-1.338102e+001	-1.002777e+002	5.583813e+001	-4.838786e+001	1.086403e+002
6.154531e+006	-4.535406e+001	-9.093753e+001	-3.081163e+001	-1.334365e+001	-1.094682e+002	-3.501477e+001	-4.842935e+001	1.089102e+002
6.154570e+006	-4.539330e+001	-9.040232e+001	-3.079938e+001	-1.341016e+001	-9.644998e+001	1.236665e+002	-4.842827e+001	1.090337e+002
6.154609e+006	-4.542677e+001	-9.052756e+001	-3.081363e+001	-1.335223e+001	-9.194232e+001	1.040065e+002	-4.837952e+001	1.086977e+002
6.154648e+006	-4.544264e+001	-9.018630e+001	-3.079927e+001	-1.334837e+001	-9.007436e+001	8.311768e+001	-4.840021e+001	1.092858e+002
6.154688e+006	-4.543096e+001	-9.027738e+001	-3.079681e+001	-1.336245e+001	-9.391594e+001	-8.640709e+001	-4.843373e+001	1.095116e+002
6.154727e+006	-4.541749e+001	-9.044303e+001	-3.081153e+001	-1.334764e+001	-9.804036e+001	1.288063e+002	-4.844047e+001	1.091766e+002
6.154766e+006	-4.545528e+001	-9.009529e+001	-3.080587e+001	-1.344237e+001	-1.144780e+002	1.654623e+002	-4.834742e+001	1.087647e+002
6.154805e+006	-4.539343e+001	-9.028330e+001	-3.080877e+001	-1.339293e+001	-9.179321e+001	-6.420771e+001	-4.835913e+001	1.082751e+002
6.154844e+006	-4.539850e+001	-9.063242e+001	-3.079928e+001	-1.335809e+001	-1.024794e+002	-8.853345e+001	-4.841635e+001	1.091708e+002
6.154883e+006	-4.535078e+001	-9.049699e+001	-3.079537e+001	-1.342696e+001	-9.108284e+001	-1.603948e+001	-4.844997e+001	1.092571e+002
6.154922e+006	-4.539924e+001	-9.053106e+001	-3.080119e+001	-1.337700e+001	-9.618279e+001	-1.118147e+002	-4.838002e+001	1.088143e+002
6.154961e+006	-4.538345e+001	-9.057597e+001	-3.080050e+001	-1.343523e+001	-1.084531e+002	1.054655e+002	-4.843506e+001	1.091696e+002
6.155000e+006	-4.538834e+001	-9.050929e+001	-3.080257e+001	-1.337681e+001	-9.124861e+001	-9.645716e+001	-4.843079e+001	1.087547e+002
6.155039e+006	-4.542037e+001	-9.060891e+001	-3.080523e+001	-1.337324e+001	-9.110952e+001	1.382096e+002	-4.840512e+001	1.087897e+002
6.155078e+006	-4.538939e+001	-9.051473e+001	-3.080472e+001	-1.336192e+001	-9.775990e+001	8.705591e+001	-4.830977e+001	1.088017e+002
6.155117e+006	-4.542634e+001	-9.056850e+001	-3.080327e+001	-1.337067e+001	-8.797192e+001	8.873400e+001	-4.842079e+001	1.089134e+002
6.155156e+006	-4.542381e+001	-9.061747e+001	-3.081441e+001	-1.336145e+001	-9.728613e+001	1.545208e+002	-4.840359e+001	1.092585e+002
6.155195e+006	-4.538274e+001	-9.035623e+001	-3.080205e+001	-1.332351e+001	-9.255919e+001	-8.341180e+001	-4.844563e+001	1.090202e+002
6.155234e+006	-4.542142e+001	-9.079430e+001	-3.080679e+001	-1.332447e+001	-9.006880e+001	1.123800e+002	-4.841297e+001	1.089257e+002
6.155273e+006	-4.542968e+001	-9.066188e+001	-3.080250e+001	-1.337485e+001	-9.328604e+001	6.130241e+001	-4.847042e+001	1.095387e+002
6.155313e+006	-4.536367e+001	-9.045723e+001	-3.079162e+001	-1.337397e+001	-9.775101e+001	-1.743052e+002	-4.836747e+001	1.091785e+002
6.155352e+006	-4.541838e+001	-9.061718e+001	-3.080042e+001	-1.342271e+001	-9.212964e+001	-1.579700e+002	-4.841315e+001	1.090924e+002
6.155391e+006	-4.541244e+001	-9.026053e+001	-3.080580e+001	-1.337496e+001	-9.547082e+001	1.352544e+002	-4.839227e+001	1.094071e+002
6.155430e+006	-4.535565e+001	-9.055132e+001	-3.080775e+001	-1.342443e+001	-1.026897e+002	5.686007e+001	-4.846196e+001	1.092861e+002
6.155469e+006	-4.540482e+001	-9.080794e+001	-3.079848e+001	-1.332668e+001	-9.939811e+001	1.634837e+002	-4.842037e+001	1.089927e+002
6.155508e+006	-4.538677e+001	-9.072759e+001	-3.080177e+001	-1.336344e+001	-8.806254e+001	-2.660574e+001	-4.840679e+001	1.092694e+002
6.155547e+006	-4.541505e+001	-9.047004e+001	-3.080087e+001	-1.337594e+001	-9.905731e+001	3.548804e+001	-4.840295e+001	1.092992e+002
6.155586e+006	-4.543369e+001	-9.063015e+001	-3.079996e+001	-1.338578e+001	-1.041513e+002	6.051145e+001	-4.847425e+001	1.091052e+002
6.155625e+006	-4.534763e+001	-9.058967e+001	-3.080645e+001	-1.345039e+001	-9.331428e+001	6.813457e+001	-4.837374e+001	1.085084e+002
6.155664e+006	-4.539986e+001	-9.044211e+001	-3.080209e+001	-1.347403e+001	-9.710718e+001	1.742228e+002	-4.840379e+001	1.087369e+002
6.155703e+006	-4.541103e+001	-9.037179e+001	-3.079971e+001	-1.336085e+001	-9.222488e+001	1.067979e+002	-4.836674e+001	1.088494e+002
6.155742e+006	-4.538337e+001	-9.075611e+001	-3.080589e+001	-1.337548e+001	-8.427720e+001	1.432551e+002	-4.833380e+001	1.091662e+002
