!CETC41,AV3656A,ZGL00048,1.3.2
!Calibration ON (Full Solt 2-Port(Omit Isolation))
!Measurements: S11 S21 S12 S22
!2025-04-22 22:24
# Hz  S  dB  R 50.000
6.150000e+006	-4.628315e+001	-9.367964e+001	-3.077883e+001	-1.313489e+001	-1.032101e+002	1.341011e+002	-4.823650e+001	1.080337e+002
6.150039e+006	-4.631461e+001	-9.387847e+001	-3.077987e+001	-1.308449e+001	-9.502697e+001	1.178623e+002	-4.828506e+001	1.083225e+002
6.150078e+006	-4.630540e+001	-9.388836e+001	-3.077891e+001	-1.317247e+001	-8.907928e+001	1.493898e+002	-4.828135e+001	1.088943e+002
6.150117e+006	-4.631183e+001	-9.366673e+001	-3.078211e+001	-1.308871e+001	-8.971521e+001	1.069305e+002	-4.818636e+001	1.083005e+002
6.150156e+006	-4.628760e+001	-9.365303e+001	-3.077700e+001	-1.308428e+001	-9.456926e+001	9.530160e+001	-4.826814e+001	1.081180e+002
6.150195e+006	-4.623871e+001	-9.369006e+001	-3.078548e+001	-1.310787e+001	-9.156640e+001	-1.619370e+002	-4.825786e+001	1.089499e+002
6.150234e+006	-4.624426e+001	-9.380396e+001	-3.078369e+001	-1.308953e+001	-9.420967e+001	-6.791236e+001	-4.827083e+001	1.081487e+002
6.150273e+006	-4.622234e+001	-9.313490e+001	-3.077630e+001	-1.312272e+001	-9.238154e+001	1.291841e+002	-4.838112e+001	1.082834e+002
6.150313e+006	-4.627056e+001	-9.364225e+001	-3.077603e+001	-1.309919e+001	-9.067135e+001	1.020424e+002	-4.823233e+001	1.082829e+002
6.150352e+006	-4.630386e+001	-9.381016e+001	-3.077939e+001	-1.313993e+001	-9.991621e+001	1.296988e+002	-4.826826e+001	1.084423e+002
6.150391e+006	-4.624287e+001	-9.405658e+001	-3.077493e+001	-1.306493e+001	-9.344638e+001	1.374718e+002	-4.821644e+001	1.081767e+002
6.150430e+006	-4.627947e+001	-9.337097e+001	-3.077256e+001	-1.312211e+001	-1.007575e+002	-8.081286e+001	-4.829787e+001	1.084250e+002
6.150469e+006	-4.628543e+001	-9.379523e+001	-3.077464e+001	-1.313934e+001	-9.286196e+001	4.040063e+001	-4.829624e+001	1.084335e+002
6.150508e+006	-4.626856e+001	-9.361723e+001	-3.078415e+001	-1.313354e+001	-1.012825e+002	1.308137e+002	-4.820908e+001	1.085189e+002
6.150547e+006	-4.628226e+001	-9.391025e+001	-3.077678e+001	-1.313505e+001	-1.011943e+002	1.619668e+002	-4.829825e+001	1.084251e+002
6.150586e+006	-4.629316e+001	-9.371954e+001	-3.077256e+001	-1.309669e+001	-9.863283e+001	1.342157e+001	-4.829176e+001	1.085355e+002
6.150625e+006	-4.626538e+001	-9.406111e+001	-3.077142e+001	-1.311992e+001	-9.486405e+001	7.298239e-001	-4.832268e+001	1.082987e+002
6.150664e+006	-4.625844e+001	-9.332395e+001	-3.078226e+001	-1.308253e+001	-9.823757e+001	2.026366e+001	-4.832963e+001	1.086446e+002
6.150703e+006	-4.624712e+001	-9.390180e+001	-3.078819e+001	-1.306919e+001	-1.152345e+002	-1.195269e+002	-4.836087e+001	1.082485e+002
6.150742e+006	-4.630938e+001	-9.387344e+001	-3.077631e+001	-1.311262e+001	-9.118054e+001	6.789150e+001	-4.823215e+001	1.082643e+002
6.150781e+006	-4.624217e+001	-9.380290e+001	-3.076810e+001	-1.308504e+001	-9.104698e+001	1.622271e+002	-4.821379e+001	1.080916e+002
6.150820e+006	-4.632369e+001	-9.370350e+001	-3.077202e+001	-1.310419e+001	-9.102653e+001	1.701637e+002	-4.826120e+001	1.081566e+002
6.150859e+006	-4.626989e+001	-9.368568e+001	-3.078001e+001	-1.306785e+001	-9.175921e+001	4.943140e+001	-4.828337e+001	1.087639e+002
6.150898e+006	-4.622678e+001	-9.383510e+001	-3.078160e+001	-1.316168e+001	-8.995574e+001	-3.776657e+001	-4.830119e+001	1.085672e+002
6.150938e+006	-4.625485e+001	-9.376162e+001	-3.077707e+001	-1.309803e+001	-9.762698e+001	1.326642e+002	-4.824183e+001	1.081419e+002
6.150977e+006	-4.628862e+001	-9.364923e+001	-3.078233e+001	-1.306974e+001	-9.465557e+001	1.700979e+002	-4.824763e+001	1.089465e+002
6.151016e+006	-4.630726e+001	-9.345451e+001	-3.078122e+001	-1.310727e+001	-8.881108e+001	1.624321e+001	-4.828376e+001	1.082223e+002
6.151055e+006	-4.630671e+001	-9.347350e+001	-3.077613e+001	-1.304529e+001	-8.731269e+001	1.210545e+002	-4.834785e+001	1.088154e+002
6.151094e+006	-4.625730e+001	-9.406219e+001	-3.077539e+001	-1.307714e+001	-8.906369e+001	1.797044e+002	-4.815710e+001	1.084032e+002
6.151133e+006	-4.627906e+001	-9.335269e+001	-3.077331e+001	-1.308158e+001	-8.566122e+001	1.347995e+001	-4.830407e+001	1.083262e+002
6.151172e+006	-4.627008e+001	-9.352258e+001	-3.077822e+001	-1.310743e+001	-9.274964e+001	1.528203e+002	-4.822499e+001	1.083441e+002
6.151211e+006	-4.629578e+001	-9.349718e+001	-3.077267e+001	-1.308381e+001	-9.363061e+001	2.821740e+001	-4.821867e+001	1.086110e+002
6.151250e+006	-4.629480e+001	-9.372527e+001	-3.076761e+001	-1.310472e+001	-9.006800e+001	1.606585e+001	-4.824156e+001	1.084865e+002
6.151289e+006	-4.625728e+001	-9.350516e+001	-3.077906e+001	-1.311564e+001	-9.408526e+001	-1.626633e+002	-4.828495e+001	1.086161e+002
6.151328e+006	-4.626211e+001	-9.382670e+001	-3.076971e+001	-1.315054e+001	-9.658909e+001	8.141075e+001	-4.829968e+001	1.085098e+002
6.151367e+006	-4.623130e+001	-9.335387e+001	-3.077717e+001	-1.305237e+001	-9.002752e+001	1.151950e+002	-4.824809e+001	1.084436e+002
6.151406e+006	-4.624774e+001	-9.362179e+001	-3.077471e+001	-1.311122e+001	-9.079080e+001	8.004000e+001	-4.825856e+001	1.081623e+002
6.151445e+006	-4.627638e+001	-9.318828e+001	-3.078759e+001	-1.303190e+001	-9.087885e+001	1.146115e+002	-4.836805e+001	1.088539e+002
6.151484e+006	-4.629381e+001	-9.371043e+001	-3.078509e+001	-1.314902e+001	-9.171698e+001	1.279258e+002	-4.825881e+001	1.083529e+002
6.151523e+006	-4.625599e+001	-9.401088e+001	-3.077565e+001	-1.303872e+001	-9.388156e+001	5.789632e+001	-4.830929e+001	1.082638e+002
6.151563e+006	-4.629328e+001	-9.354688e+001	-3.076931e+001	-1.312486e+001	-1.020218e+002	1.040364e+001	-4.830444e+001	1.083919e+002
6.151602e+006	-4.628736e+001	-9.361300e+001	-3.078037e+001	-1.312844e+001	-9.759930e+001	1.445761e+001	-4.833127e+001	1.079929e+002
6.151641e+006	-4.623044e+001	-9.362187e+001	-3.077004e+001	-1.321706e+001	-9.021294e+001	4.356155e+001	-4.828559e+001	1.083969e+002
6.151680e+006	-4.628770e+001	-9.383914e+001	-3.076696e+001	-1.310311e+001	-8.889555e+001	1.011833e+002	-4.830158e+001	1.085254e+002
6.151719e+006	-4.632487e+001	-9.407368e+001	-3.077650e+001	-1.310344e+001	-9.234340e+001	-4.079569e+001	-4.830776e+001	1.084511e+002
6.151758e+006	-4.628296e+001	-9.380726e+001	-3.077473e+001	-1.314272e+001	-1.140116e+002	3.156287e+001	-4.821434e+001	1.078492e+002
6.151797e+006	-4.630249e+001	-9.329400e+001	-3.076739e+001	-1.311103e+001	-8.595475e+001	1.553449e+002	-4.828688e+001	1.084653e+002
6.151836e+006	-4.625309e+001	-9.377754e+001	-3.077464e+001	-1.314243e+001	-8.645515e+001	1.703414e+002	-4.823180e+001	1.085423e+002
6.151875e+006	-4.628618e+001	-9.370692e+001	-3.076896e+001	-1.314494e+001	-8.597139e+001	2.646418e+001	-4.822911e+001	1.082311e+002
6.151914e+006	-4.627674e+001	-9.379991e+001	-3.076380e+001	-1.313508e+001	-8.197261e+001	1.189155e+002	-4.832810e+001	1.085499e+002
6.151953e+006	-4.623782e+001	-9.377290e+001	-3.077640e+001	-1.312706e+001	-8.950104e+001	-1.153760e+001	-4.838212e+001	1.086477e+002
6.151992e+006	-4.622172e+001	-9.328475e+001	-3.076795e+001	-1.312458e+001	-9.497653e+001	-5.263898e+001	-4.825470e+001	1.083411e+002
6.152031e+006	-4.625651e+001	-9.360019e+001	-3.077610e+001	-1.310453e+001	-8.555672e+001	1.522172e+002	-4.818657e+001	1.089054e+002
6.152070e+006	-4.627151e+001	-9.369848e+001	-3.077094e+001	-1.312629e+001	-1.099267e+002	-1.655397e+002	-4.823721e+001	1.087214e+002
6.152109e+006	-4.627808e+001	-9.348892e+001	-3.078332e+001	-1.310800e+001	-9.061561e+001	-1.740823e+002	-4.825503e+001	1.083088e+002
6.152148e+006	-4.629533e+001	-9.387291e+001	-3.076621e+001	-1.315151e+001	-9.472774e+001	5.847328e+001	-4.823410e+001	1.085395e+002
6.152188e+006	-4.628498e+001	-9.367893e+001	-3.077526e+001	-1.310220e+001	-8.599282e+001	1.303077e+002	-4.824813e+001	1.085154e+002
6.152227e+006	-4.631458e+001	-9.377638e+001	-3.077337e+001	-1.309336e+001	-9.298969e+001	-1.790478e+002	-4.824770e+001	1.087497e+002
6.152266e+006	-4.620294e+001	-9.376127e+001	-3.077133e+001	-1.313741e+001	-9.000533e+001	9.527448e+001	-4.819737e+001	1.083278e+002
6.152305e+006	-4.625917e+001	-9.381692e+001	-3.077643e+001	-1.312153e+001	-1.010431e+002	1.610118e+000	-4.823684e+001	1.083044e+002
6.152344e+006	-4.629783e+001	-9.399493e+001	-3.076298e+001	-1.311869e+001	-1.012288e+002	-6.394541e+001	-4.826771e+001	1.082485e+002
6.152383e+006	-4.632582e+001	-9.378437e+001	-3.077836e+001	-1.313104e+001	-9.166901e+001	1.288617e+002	-4.834003e+001	1.084041e+002
6.152422e+006	-4.625668e+001	-9.381993e+001	-3.076898e+001	-1.303790e+001	-9.061695e+001	1.690232e+002	-4.829035e+001	1.084730e+002
6.152461e+006	-4.628486e+001	-9.390144e+001	-3.076108e+001	-1.315094e+001	-8.684751e+001	1.521115e+002	-4.826229e+001	1.084739e+002
6.152500e+006	-4.625926e+001	-9.382884e+001	-3.076903e+001	-1.308999e+001	-9.964112e+001	-1.391969e+002	-4.824922e+001	1.086107e+002
6.152539e+006	-4.624440e+001	-9.391837e+001	-3.076832e+001	-1.307755e+001	-9.738211e+001	-4.458971e+001	-4.827518e+001	1.087688e+002
6.152578e+006	-4.624045e+001	-9.353541e+001	-3.076944e+001	-1.308256e+001	-8.583852e+001	1.335072e+002	-4.828124e+001	1.084849e+002
6.152617e+006	-4.628057e+001	-9.391581e+001	-3.077550e+001	-1.307560e+001	-8.726240e+001	8.409824e+001	-4.816656e+001	1.088453e+002
6.152656e+006	-4.626282e+001	-9.386725e+001	-3.077178e+001	-1.308248e+001	-9.409797e+001	9.573130e+001	-4.827501e+001	1.086402e+002
6.152695e+006	-4.624198e+001	-9.376847e+001	-3.076974e+001	-1.309715e+001	-9.125527e+001	4.224596e+001	-4.827559e+001	1.085263e+002
6.152734e+006	-4.627910e+001	-9.402397e+001	-3.077737e+001	-1.317067e+001	-9.534964e+001	1.595363e+002	-4.831025e+001	1.081993e+002
6.152773e+006	-4.627274e+001	-9.388468e+001	-3.076747e+001	-1.308387e+001	-8.673875e+001	6.147894e+001	-4.835047e+001	1.085655e+002
6.152813e+006	-4.627759e+001	-9.343726e+001	-3.077077e+001	-1.307037e+001	-9.173664e+001	1.416781e+002	-4.831494e+001	1.086974e+002
6.152852e+006	-4.630840e+001	-9.372356e+001	-3.077424e+001	-1.308695e+001	-9.177031e+001	-3.061662e+001	-4.821808e+001	1.086912e+002
6.152891e+006	-4.629306e+001	-9.382718e+001	-3.077342e+001	-1.310300e+001	-1.008865e+002	-1.292309e+002	-4.827653e+001	1.085684e+002
6.152930e+006	-4.622844e+001	-9.352997e+001	-3.077159e+001	-1.305767e+001	-9.355371e+001	4.372916e+001	-4.823483e+001	1.081101e+002
6.152969e+006	-4.629705e+001	-9.400753e+001	-3.078235e+001	-1.310372e+001	-9.468250e+001	3.186813e+001	-4.824197e+001	1.084605e+002
6.153008e+006	-4.627210e+001	-9.372957e+001	-3.076806e+001	-1.309628e+001	-9.015506e+001	7.237617e+001	-4.829580e+001	1.087528e+002
6.153047e+006	-4.626442e+001	-9.373765e+001	-3.076471e+001	-1.310720e+001	-9.663121e+001	7.652781e+001	-4.830526e+001	1.080445e+002
6.153086e+006	-4.628933e+001	-9.364052e+001	-3.076091e+001	-1.309941e+001	-9.844541e+001	-8.815085e+001	-4.823778e+001	1.085720e+002
6.153125e+006	-4.629068e+001	-9.387671e+001	-3.077567e+001	-1.309632e+001	-9.901965e+001	-3.418249e+000	-4.823429e+001	1.086358e+002
6.153164e+006	-4.626216e+001	-9.357294e+001	-3.076126e+001	-1.302634e+001	-9.237573e+001	6.692423e+001	-4.827065e+001	1.084120e+002
6.153203e+006	-4.629375e+001	-9.342893e+001	-3.077598e+001	-1.307061e+001	-9.264402e+001	1.495603e+002	-4.832233e+001	1.089205e+002
6.153242e+006	-4.626792e+001	-9.386968e+001	-3.076660e+001	-1.305074e+001	-1.021673e+002	-1.674075e+002	-4.826036e+001	1.087220e+002
6.153281e+006	-4.628833e+001	-9.362266e+001	-3.077423e+001	-1.310659e+001	-9.376853e+001	1.390003e+002	-4.825230e+001	1.083313e+002
6.153320e+006	-4.628001e+001	-9.393587e+001	-3.076840e+001	-1.310106e+001	-9.856982e+001	2.596635e+001	-4.828552e+001	1.086126e+002
6.153359e+006	-4.623409e+001	-9.347999e+001	-3.076556e+001	-1.314041e+001	-9.789365e+001	2.875425e+001	-4.833973e+001	1.085451e+002
6.153398e+006	-4.626071e+001	-9.405946e+001	-3.077671e+001	-1.311586e+001	-9.484968e+001	-1.052995e+002	-4.824857e+001	1.085596e+002
6.153438e+006	-4.623737e+001	-9.375433e+001	-3.077799e+001	-1.305547e+001	-9.218635e+001	1.629234e+002	-4.824747e+001	1.082698e+002
6.153477e+006	-4.625967e+001	-9.383651e+001	-3.076764e+001	-1.313685e+001	-9.789854e+001	-1.149735e+002	-4.829481e+001	1.085265e+002
6.153516e+006	-4.625403e+001	-9.394203e+001	-3.077044e+001	-1.308340e+001	-9.697799e+001	7.114090e+001	-4.825377e+001	1.083677e+002
6.153555e+006	-4.630254e+001	-9.361049e+001	-3.076633e+001	-1.313532e+001	-1.010056e+002	-1.740238e+002	-4.823562e+001	1.085901e+002
6.153594e+006	-4.626780e+001	-9.388528e+001	-3.077213e+001	-1.314802e+001	-9.749154e+001	-8.105506e+001	-4.821796e+001	1.084961e+002
6.153633e+006	-4.625236e+001	-9.395344e+001	-3.077010e+001	-1.317790e+001	-9.743971e+001	-1.631159e+002	-4.823946e+001	1.080621e+002
6.153672e+006	-4.631532e+001	-9.373493e+001	-3.077050e+001	-1.310298e+001	-8.953290e+001	1.079902e+002	-4.830494e+001	1.084662e+002
6.153711e+006	-4.630300e+001	-9.355643e+001	-3.077100e+001	-1.308349e+001	-9.889550e+001	8.009869e+001	-4.828697e+001	1.086833e+002
6.153750e+006	-4.628224e+001	-9.393559e+001	-3.077000e+001	-1.301483e+001	-9.798188e+001	3.249561e+001	-4.828387e+001	1.086895e+002
6.153789e+006	-4.635102e+001	-9.366978e+001	-3.077686e+001	-1.307421e+001	-9.304434e+001	1.277456e+002	-4.831081e+001	1.090074e+002
6.153828e+006	-4.625633e+001	-9.420013e+001	-3.077695e+001	-1.320627e+001	-8.391914e+001	1.022617e+002	-4.826088e+001	1.083522e+002
6.153867e+006	-4.625743e+001	-9.377571e+001	-3.077098e+001	-1.308319e+001	-9.331814e+001	1.114538e+002	-4.825699e+001	1.078543e+002
6.153906e+006	-4.629781e+001	-9.354309e+001	-3.077144e+001	-1.318790e+001	-9.169700e+001	8.359882e+001	-4.828127e+001	1.086963e+002
6.153945e+006	-4.631784e+001	-9.394361e+001	-3.077430e+001	-1.312692e+001	-9.119679e+001	7.817038e+001	-4.820535e+001	1.082031e+002
6.153984e+006	-4.626320e+001	-9.390758e+001	-3.077622e+001	-1.311045e+001	-9.124279e+001	-1.785126e+002	-4.825401e+001	1.080339e+002
6.154023e+006	-4.628639e+001	-9.360951e+001	-3.078861e+001	-1.311504e+001	-9.390428e+001	3.953137e+001	-4.826552e+001	1.084117e+002
6.154063e+006	-4.625424e+001	-9.383188e+001	-3.076237e+001	-1.306129e+001	-9.688223e+001	1.028791e+002	-4.823599e+001	1.087681e+002
6.154102e+006	-4.632862e+001	-9.362130e+001	-3.077430e+001	-1.312055e+001	-9.168669e+001	-1.782845e+002	-4.824827e+001	1.081853e+002
6.154141e+006	-4.630055e+001	-9.355518e+001	-3.076587e+001	-1.311871e+001	-9.435518e+001	-2.814327e+001	-4.828999e+001	1.087110e+002
6.154180e+006	-4.627448e+001	-9.375033e+001	-3.076640e+001	-1.318176e+001	-9.547384e+001	1.227612e+002	-4.819311e+001	1.085846e+002
6.154219e+006	-4.628180e+001	-9.418029e+001	-3.076734e+001	-1.312434e+001	-9.903117e+001	9.933951e+001	-4.819408e+001	1.080006e+002
6.154258e+006	-4.627665e+001	-9.360420e+001	-3.076903e+001	-1.313822e+001	-9.548621e+001	2.880740e+001	-4.822041e+001	1.080891e+002
6.154297e+006	-4.625524e+001	-9.401980e+001	-3.076956e+001	-1.304820e+001	-8.880370e+001	-1.387743e+002	-4.823969e+001	1.085826e+002
6.154336e+006	-4.626449e+001	-9.371648e+001	-3.075850e+001	-1.317967e+001	-1.028470e+002	-3.006787e+001	-4.821047e+001	1.088308e+002
6.154375e+006	-4.628802e+001	-9.398080e+001	-3.076822e+001	-1.308497e+001	-9.375711e+001	1.401524e+002	-4.827174e+001	1.084419e+002
6.154414e+006	-4.627957e+001	-9.358547e+001	-3.076569e+001	-1.307688e+001	-1.035849e+002	-6.465416e+001	-4.822922e+001	1.084942e+002
6.154453e+006	-4.622442e+001	-9.371182e+001	-3.078244e+001	-1.310393e+001	-9.302902e+001	1.636035e+002	-4.824836e+001	1.084552e+002
6.154492e+006	-4.628198e+001	-9.366857e+001	-3.076291e+001	-1.311739e+001	-8.770800e+001	7.667323e+001	-4.827416e+001	1.081691e+002
6.154531e+006	-4.626498e+001	-9.401633e+001	-3.077214e+001	-1.309229e+001	-8.892398e+001	1.137816e+002	-4.825086e+001	1.085915e+002
6.154570e+006	-4.626910e+001	-9.365989e+001	-3.076585e+001	-1.313655e+001	-9.345918e+001	1.407962e+002	-4.825689e+001	1.086368e+002
6.154609e+006	-4.622515e+001	-9.372893e+001	-3.076929e+001	-1.312633e+001	-1.102272e+002	1.177340e+002	-4.826781e+001	1.084512e+002
6.154648e+006	-4.624193e+001	-9.379235e+001	-3.076411e+001	-1.304246e+001	-8.787632e+001	6.769101e+001	-4.823362e+001	1.081009e+002
6.154688e+006	-4.628296e+001	-9.377454e+001	-3.076742e+001	-1.310557e+001	-9.745361e+001	-1.182326e+002	-4.823278e+001	1.076422e+002
6.154727e+006	-4.626318e+001	-9.358896e+001	-3.077442e+001	-1.309584e+001	-9.444398e+001	2.999902e+001	-4.828012e+001	1.085486e+002
6.154766e+006	-4.627479e+001	-9.393461e+001	-3.076669e+001	-1.301485e+001	-8.834650e+001	6.931501e+001	-4.828351e+001	1.079544e+002
6.154805e+006	-4.623559e+001	-9.375854e+001	-3.078024e+001	-1.308241e+001	-9.598589e+001	1.389024e+002	-4.819925e+001	1.088778e+002
6.154844e+006	-4.626295e+001	-9.366163e+001	-3.077665e+001	-1.315512e+001	-9.257725e+001	-3.296951e+001	-4.825713e+001	1.083474e+002
6.154883e+006	-4.631490e+001	-9.357340e+001	-3.077006e+001	-1.316655e+001	-9.637326e+001	4.206682e+001	-4.828945e+001	1.088866e+002
6.154922e+006	-4.631334e+001	-9.345046e+001	-3.077046e+001	-1.306341e+001	-9.237638e+001	6.431061e+001	-4.823194e+001	1.090568e+002
6.154961e+006	-4.629814e+001	-9.340825e+001	-3.076531e+001	-1.307910e+001	-8.938915e+001	-1.761012e+002	-4.826283e+001	1.084846e+002
6.155000e+006	-4.624357e+001	-9.365798e+001	-3.076697e+001	-1.316874e+001	-9.710203e+001	-1.331230e+001	-4.827082e+001	1.086295e+002
6.155039e+006	-4.623042e+001	-9.365493e+001	-3.076171e+001	-1.313434e+001	-1.045913e+002	-8.069652e+001	-4.822194e+001	1.083458e+002
6.155078e+006	-4.624385e+001	-9.371095e+001	-3.076696e+001	-1.310539e+001	-8.931437e+001	-3.036174e+001	-4.826662e+001	1.087930e+002
6.155117e+006	-4.629177e+001	-9.375242e+001	-3.076422e+001	-1.306496e+001	-9.569304e+001	-2.185208e+001	-4.828114e+001	1.080549e+002
6.155156e+006	-4.634603e+001	-9.378768e+001	-3.075664e+001	-1.317583e+001	-9.162334e+001	1.477409e+002	-4.825286e+001	1.083727e+002
6.155195e+006	-4.625936e+001	-9.351630e+001	-3.076634e+001	-1.318025e+001	-9.327505e+001	4.816542e+001	-4.834323e+001	1.082796e+002
6.155234e+006	-4.625633e+001	-9.367116e+001	-3.076147e+001	-1.318345e+001	-9.671581e+001	6.990987e+001	-4.824423e+001	1.081155e+002
6.155273e+006	-4.625624e+001	-9.362307e+001	-3.077602e+001	-1.310428e+001	-9.523861e+001	5.670533e+001	-4.830319e+001	1.086172e+002
6.155313e+006	-4.621400e+001	-9.381385e+001	-3.076938e+001	-1.323910e+001	-9.758814e+001	9.808681e+001	-4.822706e+001	1.086359e+002
6.155352e+006	-4.628685e+001	-9.359089e+001	-3.078642e+001	-1.323478e+001	-9.616640e+001	-3.181352e+000	-4.824348e+001	1.085425e+002
6.155391e+006	-4.632321e+001	-9.391988e+001	-3.078701e+001	-1.319734e+001	-8.699253e+001	2.991751e+001	-4.822223e+001	1.085241e+002
6.155430e+006	-4.623451e+001	-9.379803e+001	-3.079078e+001	-1.308145e+001	-9.697893e+001	-6.007225e+001	-4.825918e+001	1.084762e+002
6.155469e+006	-4.626812e+001	-9.376682e+001	-3.077661e+001	-1.307139e+001	-9.058081e+001	1.354228e+002	-4.824604e+001	1.083467e+002
6.155508e+006	-4.627411e+001	-9.356028e+001	-3.076301e+001	-1.309451e+001	-9.089416e+001	-7.081658e+001	-4.824175e+001	1.087280e+002
6.155547e+006	-4.626287e+001	-9.352867e+001	-3.078563e+001	-1.317438e+001	-9.251727e+001	9.268691e+001	-4.829553e+001	1.083431e+002
6.155586e+006	-4.625608e+001	-9.367412e+001	-3.077458e+001	-1.308743e+001	-9.471558e+001	1.339546e+002	-4.827255e+001	1.085411e+002
6.155625e+006	-4.622795e+001	-9.375164e+001	-3.076103e+001	-1.308579e+001	-9.746793e+001	1.325069e+002	-4.826840e+001	1.079602e+002
6.155664e+006	-4.628553e+001	-9.394227e+001	-3.077676e+001	-1.311361e+001	-9.093680e+001	9.000381e+001	-4.830742e+001	1.086888e+002
6.155703e+006	-4.630532e+001	-9.356528e+001	-3.076795e+001	-1.305325e+001	-8.874432e+001	6.865538e+001	-4.828009e+001	1.080661e+002
6.155742e+006	-4.625376e+001	-9.396699e+001	-3.076290e+001	-1.305228e+001	-9.009851e+001	1.117158e+002	-4.824801e+001	1.084972e+002
