!CETC41,AV3656A,ZGL00048,1.3.2
!Calibration ON (Full Solt 2-Port(Omit Isolation))
!Measurements: S11 S21 S12 S22
!2025-04-22 21:00
# Hz  S  dB  R 50.000
6.150000e+006	-4.462748e+001	-9.269325e+001	-3.079187e+001	-1.237366e+001	-9.598867e+001	-1.698705e+002	-4.976213e+001	9.794769e+001
6.150039e+006	-4.465272e+001	-9.307162e+001	-3.078922e+001	-1.238167e+001	-9.372846e+001	2.100320e+001	-4.975653e+001	9.758660e+001
6.150078e+006	-4.468912e+001	-9.317224e+001	-3.078473e+001	-1.230572e+001	-9.735200e+001	-1.052240e+002	-4.976307e+001	9.731160e+001
6.150117e+006	-4.463970e+001	-9.287163e+001	-3.079193e+001	-1.229860e+001	-9.797219e+001	8.056643e+001	-4.985241e+001	9.758352e+001
6.150156e+006	-4.463893e+001	-9.318030e+001	-3.078538e+001	-1.239381e+001	-9.267093e+001	-8.574122e+001	-4.969175e+001	9.726877e+001
6.150195e+006	-4.464772e+001	-9.343204e+001	-3.080472e+001	-1.232965e+001	-9.055563e+001	5.420272e+000	-4.976637e+001	9.788275e+001
6.150234e+006	-4.468487e+001	-9.310903e+001	-3.078900e+001	-1.235730e+001	-9.419273e+001	-1.699897e+002	-4.979413e+001	9.777996e+001
6.150273e+006	-4.464339e+001	-9.309535e+001	-3.080295e+001	-1.232549e+001	-9.394122e+001	1.412357e+002	-4.985619e+001	9.746193e+001
6.150313e+006	-4.467109e+001	-9.292732e+001	-3.079159e+001	-1.237028e+001	-1.071694e+002	8.719730e+001	-4.969342e+001	9.748521e+001
6.150352e+006	-4.465820e+001	-9.302901e+001	-3.078429e+001	-1.233654e+001	-9.394961e+001	1.514294e+002	-4.986140e+001	9.758828e+001
6.150391e+006	-4.465675e+001	-9.301007e+001	-3.079066e+001	-1.233465e+001	-9.070863e+001	1.054423e+002	-4.974006e+001	9.757757e+001
6.150430e+006	-4.465612e+001	-9.340884e+001	-3.080093e+001	-1.235717e+001	-8.686014e+001	1.004103e+002	-4.983889e+001	9.747037e+001
6.150469e+006	-4.462954e+001	-9.293758e+001	-3.078480e+001	-1.231309e+001	-9.427661e+001	1.112609e+002	-4.973935e+001	9.754224e+001
6.150508e+006	-4.464875e+001	-9.324506e+001	-3.078629e+001	-1.230873e+001	-9.161347e+001	1.339120e+002	-4.976976e+001	9.703099e+001
6.150547e+006	-4.465340e+001	-9.330126e+001	-3.078521e+001	-1.234780e+001	-9.095023e+001	-1.049012e+002	-4.976796e+001	9.741463e+001
6.150586e+006	-4.463063e+001	-9.316338e+001	-3.079346e+001	-1.233803e+001	-8.742734e+001	8.395354e+001	-4.980368e+001	9.757531e+001
6.150625e+006	-4.470270e+001	-9.307002e+001	-3.079000e+001	-1.232984e+001	-9.164736e+001	3.859777e+001	-4.982004e+001	9.760395e+001
6.150664e+006	-4.461945e+001	-9.283627e+001	-3.079712e+001	-1.227698e+001	-9.134094e+001	9.823879e+001	-4.981407e+001	9.767591e+001
6.150703e+006	-4.462805e+001	-9.309475e+001	-3.079319e+001	-1.230445e+001	-9.347617e+001	8.557718e-001	-4.985521e+001	9.745466e+001
6.150742e+006	-4.460932e+001	-9.298642e+001	-3.079984e+001	-1.228582e+001	-9.143458e+001	4.304268e+001	-4.975882e+001	9.754032e+001
6.150781e+006	-4.463617e+001	-9.298842e+001	-3.079164e+001	-1.230088e+001	-9.834564e+001	-5.450182e+001	-4.980026e+001	9.680417e+001
6.150820e+006	-4.465067e+001	-9.304421e+001	-3.079086e+001	-1.231692e+001	-8.983194e+001	1.066618e+002	-4.983805e+001	9.739834e+001
6.150859e+006	-4.465160e+001	-9.314593e+001	-3.078789e+001	-1.230214e+001	-9.327785e+001	7.068192e+001	-4.990556e+001	9.738101e+001
6.150898e+006	-4.469905e+001	-9.293737e+001	-3.078319e+001	-1.226283e+001	-9.386518e+001	1.047484e+002	-4.974332e+001	9.776138e+001
6.150938e+006	-4.462926e+001	-9.293003e+001	-3.078369e+001	-1.235734e+001	-1.094281e+002	-1.826205e+001	-4.978042e+001	9.727945e+001
6.150977e+006	-4.463643e+001	-9.314773e+001	-3.078664e+001	-1.231318e+001	-9.230372e+001	4.127251e+000	-4.978304e+001	9.656874e+001
6.151016e+006	-4.462397e+001	-9.297600e+001	-3.078541e+001	-1.224335e+001	-9.337752e+001	-8.752171e+000	-4.974988e+001	9.707885e+001
6.151055e+006	-4.460316e+001	-9.324116e+001	-3.079645e+001	-1.235821e+001	-9.114153e+001	-1.018042e+002	-4.983820e+001	9.777010e+001
6.151094e+006	-4.466492e+001	-9.285706e+001	-3.077305e+001	-1.229949e+001	-8.939763e+001	8.752469e+001	-4.977209e+001	9.785766e+001
6.151133e+006	-4.462668e+001	-9.301098e+001	-3.078999e+001	-1.234802e+001	-9.276907e+001	4.951798e+000	-4.982687e+001	9.746551e+001
6.151172e+006	-4.461350e+001	-9.296236e+001	-3.078819e+001	-1.234882e+001	-8.995649e+001	-3.281610e+001	-4.977132e+001	9.788052e+001
6.151211e+006	-4.465172e+001	-9.305840e+001	-3.079033e+001	-1.231165e+001	-1.016100e+002	-1.027533e+002	-4.980128e+001	9.727979e+001
6.151250e+006	-4.462668e+001	-9.306255e+001	-3.079762e+001	-1.230656e+001	-9.772260e+001	-1.622800e+002	-4.991867e+001	9.763342e+001
6.151289e+006	-4.465498e+001	-9.287919e+001	-3.078701e+001	-1.233507e+001	-9.568557e+001	-2.606155e+000	-4.982334e+001	9.777380e+001
6.151328e+006	-4.463553e+001	-9.290560e+001	-3.079688e+001	-1.234608e+001	-9.473174e+001	3.501094e+001	-4.969111e+001	9.779447e+001
6.151367e+006	-4.465361e+001	-9.307603e+001	-3.079147e+001	-1.236716e+001	-8.748292e+001	8.656200e+001	-4.979427e+001	9.711612e+001
6.151406e+006	-4.460836e+001	-9.301771e+001	-3.078992e+001	-1.239258e+001	-8.958180e+001	8.352494e+001	-4.983326e+001	9.725965e+001
6.151445e+006	-4.466766e+001	-9.274704e+001	-3.078599e+001	-1.230498e+001	-9.098948e+001	1.029458e+002	-4.988045e+001	9.745854e+001
6.151484e+006	-4.465324e+001	-9.298586e+001	-3.078629e+001	-1.229646e+001	-8.962897e+001	-1.382525e+002	-4.973720e+001	9.789771e+001
6.151523e+006	-4.466173e+001	-9.311892e+001	-3.078685e+001	-1.227336e+001	-8.997586e+001	8.990698e+001	-4.971614e+001	9.756438e+001
6.151563e+006	-4.465517e+001	-9.337849e+001	-3.079220e+001	-1.229833e+001	-9.833937e+001	1.517465e+002	-4.983272e+001	9.759411e+001
6.151602e+006	-4.462004e+001	-9.293330e+001	-3.078492e+001	-1.229583e+001	-9.057661e+001	9.519636e+001	-4.980289e+001	9.620850e+001
6.151641e+006	-4.463731e+001	-9.279117e+001	-3.077869e+001	-1.229646e+001	-9.374347e+001	1.204795e+002	-4.974080e+001	9.768258e+001
6.151680e+006	-4.462527e+001	-9.311420e+001	-3.078889e+001	-1.230127e+001	-8.975584e+001	6.187425e+001	-4.983381e+001	9.776476e+001
6.151719e+006	-4.462490e+001	-9.289448e+001	-3.078705e+001	-1.234125e+001	-9.012305e+001	1.524179e+002	-4.976813e+001	9.679393e+001
6.151758e+006	-4.462881e+001	-9.332408e+001	-3.078686e+001	-1.229910e+001	-9.651655e+001	-5.572768e+001	-4.979498e+001	9.746548e+001
6.151797e+006	-4.469006e+001	-9.283330e+001	-3.079074e+001	-1.233890e+001	-9.191913e+001	3.923572e+001	-4.982192e+001	9.712502e+001
6.151836e+006	-4.468111e+001	-9.309380e+001	-3.078408e+001	-1.229676e+001	-9.960916e+001	1.553451e+001	-4.972473e+001	9.768901e+001
6.151875e+006	-4.465156e+001	-9.300853e+001	-3.078113e+001	-1.235863e+001	-9.985153e+001	1.275030e+002	-4.984246e+001	9.816653e+001
6.151914e+006	-4.462322e+001	-9.289862e+001	-3.078268e+001	-1.228889e+001	-9.407228e+001	2.246212e+001	-4.970249e+001	9.777404e+001
6.151953e+006	-4.458845e+001	-9.310404e+001	-3.079258e+001	-1.227441e+001	-1.000354e+002	-1.655945e+002	-4.976772e+001	9.767832e+001
6.151992e+006	-4.467229e+001	-9.306202e+001	-3.078958e+001	-1.233617e+001	-9.252276e+001	1.585273e+001	-4.977993e+001	9.713109e+001
6.152031e+006	-4.463510e+001	-9.300660e+001	-3.078432e+001	-1.231087e+001	-9.528885e+001	1.222128e+002	-4.977496e+001	9.772619e+001
6.152070e+006	-4.466218e+001	-9.348841e+001	-3.079115e+001	-1.234687e+001	-9.953336e+001	-1.634418e+001	-4.982211e+001	9.705887e+001
6.152109e+006	-4.464903e+001	-9.299234e+001	-3.078910e+001	-1.232867e+001	-9.404343e+001	1.190901e+002	-4.970353e+001	9.755293e+001
6.152148e+006	-4.464744e+001	-9.291974e+001	-3.078706e+001	-1.228524e+001	-9.543795e+001	7.914162e+001	-4.976113e+001	9.770870e+001
6.152188e+006	-4.468445e+001	-9.300009e+001	-3.078551e+001	-1.230408e+001	-9.883764e+001	-3.140437e+001	-4.980473e+001	9.742564e+001
6.152227e+006	-4.467192e+001	-9.305284e+001	-3.078726e+001	-1.234475e+001	-9.235972e+001	9.331078e+001	-4.974391e+001	9.726295e+001
6.152266e+006	-4.466225e+001	-9.298653e+001	-3.078542e+001	-1.223964e+001	-9.836308e+001	5.567517e+001	-4.988276e+001	9.784308e+001
6.152305e+006	-4.465046e+001	-9.272808e+001	-3.078587e+001	-1.234983e+001	-9.343643e+001	-1.328683e+001	-4.974430e+001	9.752949e+001
6.152344e+006	-4.462587e+001	-9.313231e+001	-3.078066e+001	-1.232461e+001	-9.375823e+001	1.232271e+002	-4.972425e+001	9.718121e+001
6.152383e+006	-4.465896e+001	-9.318061e+001	-3.078761e+001	-1.229208e+001	-1.029483e+002	-5.931503e+001	-4.974960e+001	9.761221e+001
6.152422e+006	-4.465754e+001	-9.310988e+001	-3.079390e+001	-1.230436e+001	-9.661132e+001	5.288474e+001	-4.979867e+001	9.734429e+001
6.152461e+006	-4.465546e+001	-9.321556e+001	-3.078892e+001	-1.231506e+001	-8.983471e+001	1.055652e+002	-4.973659e+001	9.775858e+001
6.152500e+006	-4.463068e+001	-9.304457e+001	-3.078862e+001	-1.235713e+001	-1.009946e+002	1.624586e+002	-4.990472e+001	9.805680e+001
6.152539e+006	-4.465998e+001	-9.319819e+001	-3.078485e+001	-1.235221e+001	-1.035573e+002	-4.568141e+001	-4.977014e+001	9.764458e+001
6.152578e+006	-4.466730e+001	-9.291371e+001	-3.079612e+001	-1.231801e+001	-9.329692e+001	1.392192e+002	-4.977620e+001	9.760637e+001
6.152617e+006	-4.463706e+001	-9.298709e+001	-3.078884e+001	-1.232048e+001	-8.932152e+001	5.021371e+001	-4.980114e+001	9.780085e+001
6.152656e+006	-4.463632e+001	-9.287103e+001	-3.077720e+001	-1.232770e+001	-9.550117e+001	1.321798e+002	-4.977101e+001	9.740410e+001
6.152695e+006	-4.464597e+001	-9.313090e+001	-3.078127e+001	-1.234703e+001	-8.881703e+001	4.143465e+001	-4.967864e+001	9.780069e+001
6.152734e+006	-4.463935e+001	-9.305326e+001	-3.078705e+001	-1.230745e+001	-9.380988e+001	-1.407639e+001	-4.976583e+001	9.774510e+001
6.152773e+006	-4.466946e+001	-9.339908e+001	-3.078538e+001	-1.226712e+001	-9.214903e+001	1.324497e+002	-4.971762e+001	9.777988e+001
6.152813e+006	-4.463372e+001	-9.322582e+001	-3.078549e+001	-1.233335e+001	-1.014082e+002	4.574553e+001	-4.978738e+001	9.725904e+001
6.152852e+006	-4.467068e+001	-9.323683e+001	-3.078300e+001	-1.231016e+001	-9.822487e+001	6.872010e+001	-4.981732e+001	9.739979e+001
6.152891e+006	-4.462581e+001	-9.319521e+001	-3.079073e+001	-1.225809e+001	-8.568942e+001	1.425602e+002	-4.975975e+001	9.782885e+001
6.152930e+006	-4.466287e+001	-9.304239e+001	-3.078289e+001	-1.224611e+001	-9.732670e+001	8.973562e+001	-4.974797e+001	9.751149e+001
6.152969e+006	-4.464816e+001	-9.311517e+001	-3.078659e+001	-1.229114e+001	-8.923510e+001	8.397685e+001	-4.986347e+001	9.792470e+001
6.153008e+006	-4.467142e+001	-9.315312e+001	-3.078660e+001	-1.236341e+001	-9.201075e+001	-1.692891e+002	-4.978749e+001	9.718944e+001
6.153047e+006	-4.461970e+001	-9.322926e+001	-3.079193e+001	-1.235281e+001	-9.347452e+001	1.880990e+001	-4.978639e+001	9.750736e+001
6.153086e+006	-4.465336e+001	-9.308883e+001	-3.079147e+001	-1.229105e+001	-9.337107e+001	5.117847e+001	-4.986315e+001	9.784609e+001
6.153125e+006	-4.463273e+001	-9.309090e+001	-3.078419e+001	-1.233814e+001	-9.276702e+001	1.368746e+002	-4.986950e+001	9.755756e+001
6.153164e+006	-4.463136e+001	-9.295757e+001	-3.077723e+001	-1.232696e+001	-9.966215e+001	-5.432382e+001	-4.979007e+001	9.784286e+001
6.153203e+006	-4.464116e+001	-9.296826e+001	-3.079040e+001	-1.240336e+001	-9.691530e+001	1.203440e+002	-4.978474e+001	9.731341e+001
6.153242e+006	-4.468075e+001	-9.300348e+001	-3.078000e+001	-1.227259e+001	-9.457456e+001	6.796450e+001	-4.976239e+001	9.712522e+001
6.153281e+006	-4.468774e+001	-9.313884e+001	-3.079474e+001	-1.239823e+001	-1.026276e+002	1.262415e+002	-4.972581e+001	9.711425e+001
6.153320e+006	-4.464583e+001	-9.296101e+001	-3.078516e+001	-1.230233e+001	-9.020271e+001	1.152311e+002	-4.973697e+001	9.741451e+001
6.153359e+006	-4.460168e+001	-9.320539e+001	-3.078202e+001	-1.235841e+001	-9.851100e+001	-2.155205e-001	-4.981284e+001	9.790521e+001
6.153398e+006	-4.464950e+001	-9.312010e+001	-3.078646e+001	-1.233737e+001	-9.581288e+001	6.539324e+001	-4.976840e+001	9.774152e+001
6.153438e+006	-4.466396e+001	-9.315736e+001	-3.077393e+001	-1.224968e+001	-8.979052e+001	8.846313e+001	-4.972059e+001	9.786653e+001
6.153477e+006	-4.465657e+001	-9.300886e+001	-3.079082e+001	-1.232765e+001	-9.155634e+001	7.352882e+001	-4.980252e+001	9.759755e+001
6.153516e+006	-4.465066e+001	-9.294214e+001	-3.078661e+001	-1.228125e+001	-1.028479e+002	4.017408e+001	-4.978932e+001	9.703855e+001
6.153555e+006	-4.464328e+001	-9.331181e+001	-3.078007e+001	-1.233439e+001	-8.719751e+001	1.104795e+002	-4.976926e+001	9.764880e+001
6.153594e+006	-4.466509e+001	-9.310450e+001	-3.078672e+001	-1.231202e+001	-8.800972e+001	1.191740e+002	-4.977386e+001	9.765261e+001
6.153633e+006	-4.464108e+001	-9.335628e+001	-3.078212e+001	-1.234603e+001	-1.000238e+002	-1.441335e+002	-4.974764e+001	9.781510e+001
6.153672e+006	-4.465112e+001	-9.311824e+001	-3.078576e+001	-1.234369e+001	-1.103860e+002	1.063156e+002	-4.970339e+001	9.766729e+001
6.153711e+006	-4.460460e+001	-9.328525e+001	-3.079249e+001	-1.233284e+001	-9.322487e+001	-8.814130e+001	-4.977039e+001	9.807353e+001
6.153750e+006	-4.459143e+001	-9.280628e+001	-3.079036e+001	-1.230976e+001	-9.353355e+001	8.688591e+001	-4.977244e+001	9.767549e+001
6.153789e+006	-4.465883e+001	-9.315497e+001	-3.078648e+001	-1.234653e+001	-9.303841e+001	1.136784e+001	-4.968442e+001	9.807440e+001
6.153828e+006	-4.461783e+001	-9.298179e+001	-3.079531e+001	-1.231027e+001	-8.917113e+001	1.047354e+002	-4.974353e+001	9.767196e+001
6.153867e+006	-4.464594e+001	-9.318219e+001	-3.077588e+001	-1.232624e+001	-9.981933e+001	1.473450e+002	-4.978310e+001	9.804936e+001
6.153906e+006	-4.466390e+001	-9.303845e+001	-3.078534e+001	-1.235550e+001	-1.000327e+002	1.499604e+001	-4.978362e+001	9.748878e+001
6.153945e+006	-4.464763e+001	-9.309845e+001	-3.077866e+001	-1.233687e+001	-9.300523e+001	4.705186e+001	-4.972881e+001	9.748955e+001
6.153984e+006	-4.463921e+001	-9.302037e+001	-3.078115e+001	-1.231726e+001	-1.028497e+002	1.641203e+002	-4.994719e+001	9.781338e+001
6.154023e+006	-4.466598e+001	-9.294634e+001	-3.078527e+001	-1.229969e+001	-9.580636e+001	1.104581e+002	-4.967863e+001	9.785460e+001
6.154063e+006	-4.461938e+001	-9.310448e+001	-3.079351e+001	-1.232631e+001	-9.329902e+001	-3.384681e+001	-4.978877e+001	9.716485e+001
6.154102e+006	-4.465961e+001	-9.308527e+001	-3.078808e+001	-1.232076e+001	-9.041605e+001	7.907545e+001	-4.975160e+001	9.793617e+001
6.154141e+006	-4.462453e+001	-9.304572e+001	-3.077609e+001	-1.234983e+001	-9.255800e+001	-1.787794e+002	-4.986084e+001	9.798565e+001
6.154180e+006	-4.467598e+001	-9.289347e+001	-3.077737e+001	-1.229496e+001	-9.409023e+001	1.460513e+002	-4.983269e+001	9.823228e+001
6.154219e+006	-4.467744e+001	-9.296220e+001	-3.077612e+001	-1.235690e+001	-8.967525e+001	1.094891e+002	-4.970575e+001	9.777808e+001
6.154258e+006	-4.465613e+001	-9.284081e+001	-3.078600e+001	-1.227914e+001	-9.682031e+001	-5.545653e+001	-4.983764e+001	9.774443e+001
6.154297e+006	-4.464754e+001	-9.342096e+001	-3.078300e+001	-1.232390e+001	-8.683395e+001	-5.207738e+001	-4.974938e+001	9.784712e+001
6.154336e+006	-4.469827e+001	-9.294368e+001	-3.078139e+001	-1.228436e+001	-8.773601e+001	8.409453e+001	-4.983022e+001	9.739629e+001
6.154375e+006	-4.466793e+001	-9.314693e+001	-3.078856e+001	-1.229879e+001	-1.010918e+002	7.586760e+001	-4.975549e+001	9.771955e+001
6.154414e+006	-4.465487e+001	-9.313350e+001	-3.078427e+001	-1.236218e+001	-1.062872e+002	7.055569e+001	-4.974174e+001	9.764656e+001
6.154453e+006	-4.465312e+001	-9.300219e+001	-3.077585e+001	-1.226264e+001	-9.826048e+001	1.426766e+002	-4.979373e+001	9.775778e+001
6.154492e+006	-4.461167e+001	-9.291518e+001	-3.079016e+001	-1.235274e+001	-8.720536e+001	9.964114e+001	-4.978320e+001	9.785143e+001
6.154531e+006	-4.460739e+001	-9.277526e+001	-3.077432e+001	-1.236633e+001	-9.130019e+001	-1.781982e+002	-4.984807e+001	9.760133e+001
6.154570e+006	-4.461473e+001	-9.281950e+001	-3.077911e+001	-1.228495e+001	-8.815957e+001	3.295309e+001	-4.984921e+001	9.727560e+001
6.154609e+006	-4.461290e+001	-9.312405e+001	-3.078103e+001	-1.224371e+001	-9.335207e+001	-1.280612e+002	-4.967834e+001	9.775548e+001
6.154648e+006	-4.464106e+001	-9.271452e+001	-3.078974e+001	-1.232559e+001	-9.598767e+001	1.554005e+002	-4.983914e+001	9.772425e+001
6.154688e+006	-4.460687e+001	-9.305453e+001	-3.077855e+001	-1.240237e+001	-8.656823e+001	6.462924e+001	-4.974168e+001	9.728368e+001
6.154727e+006	-4.463278e+001	-9.285816e+001	-3.078792e+001	-1.236224e+001	-9.824419e+001	1.714210e+002	-4.969812e+001	9.794940e+001
6.154766e+006	-4.461112e+001	-9.300535e+001	-3.077791e+001	-1.236316e+001	-8.860858e+001	-1.591627e+002	-4.971895e+001	9.811161e+001
6.154805e+006	-4.464449e+001	-9.302631e+001	-3.077772e+001	-1.238821e+001	-9.097733e+001	-1.593892e+002	-4.977835e+001	9.749079e+001
6.154844e+006	-4.464791e+001	-9.308656e+001	-3.078162e+001	-1.232822e+001	-1.076774e+002	7.303603e+001	-4.975470e+001	9.798232e+001
6.154883e+006	-4.463415e+001	-9.304040e+001	-3.079223e+001	-1.232708e+001	-1.002377e+002	-1.274742e+001	-4.971616e+001	9.741228e+001
6.154922e+006	-4.465523e+001	-9.327373e+001	-3.079032e+001	-1.232548e+001	-9.233290e+001	1.116163e+002	-4.978657e+001	9.707561e+001
6.154961e+006	-4.464342e+001	-9.275572e+001	-3.079437e+001	-1.235368e+001	-1.012298e+002	3.721698e+001	-4.980084e+001	9.826636e+001
6.155000e+006	-4.463957e+001	-9.296574e+001	-3.077822e+001	-1.232373e+001	-9.020363e+001	-1.779384e+002	-4.981001e+001	9.765180e+001
6.155039e+006	-4.464831e+001	-9.315715e+001	-3.078186e+001	-1.232569e+001	-9.288853e+001	-1.535038e+002	-4.970519e+001	9.829175e+001
6.155078e+006	-4.460914e+001	-9.300030e+001	-3.079219e+001	-1.232351e+001	-9.779079e+001	2.538671e+001	-4.970375e+001	9.794427e+001
6.155117e+006	-4.465448e+001	-9.302314e+001	-3.077883e+001	-1.227583e+001	-9.456774e+001	1.006962e+002	-4.973550e+001	9.791825e+001
6.155156e+006	-4.467470e+001	-9.287520e+001	-3.077797e+001	-1.231125e+001	-1.019912e+002	-1.253892e+001	-4.978430e+001	9.748954e+001
6.155195e+006	-4.465044e+001	-9.306213e+001	-3.078770e+001	-1.227887e+001	-9.016796e+001	1.756335e+002	-4.975664e+001	9.856760e+001
6.155234e+006	-4.460099e+001	-9.308448e+001	-3.078861e+001	-1.235750e+001	-9.622336e+001	-3.174198e+001	-4.971180e+001	9.768874e+001
6.155273e+006	-4.461249e+001	-9.312214e+001	-3.078148e+001	-1.233380e+001	-9.333005e+001	-1.620461e+002	-4.982149e+001	9.766751e+001
6.155313e+006	-4.461796e+001	-9.306084e+001	-3.079003e+001	-1.234968e+001	-9.241667e+001	1.175399e+001	-4.977871e+001	9.763698e+001
6.155352e+006	-4.469439e+001	-9.315444e+001	-3.077757e+001	-1.227288e+001	-1.030898e+002	-2.297420e+000	-4.985579e+001	9.805237e+001
6.155391e+006	-4.465671e+001	-9.289418e+001	-3.077565e+001	-1.231003e+001	-1.093447e+002	1.234847e+002	-4.980583e+001	9.810611e+001
6.155430e+006	-4.470147e+001	-9.318788e+001	-3.077883e+001	-1.231756e+001	-9.868304e+001	4.689130e+001	-4.974486e+001	9.777842e+001
6.155469e+006	-4.464445e+001	-9.314487e+001	-3.077868e+001	-1.236017e+001	-8.963836e+001	-5.024874e+001	-4.980658e+001	9.777877e+001
6.155508e+006	-4.466625e+001	-9.286423e+001	-3.078482e+001	-1.225973e+001	-8.897302e+001	4.296940e+001	-4.978134e+001	9.753013e+001
6.155547e+006	-4.461490e+001	-9.324720e+001	-3.078552e+001	-1.234581e+001	-1.012452e+002	1.040661e+002	-4.980278e+001	9.762520e+001
6.155586e+006	-4.465308e+001	-9.311208e+001	-3.077689e+001	-1.231279e+001	-9.018717e+001	1.376757e+002	-4.974019e+001	9.835281e+001
6.155625e+006	-4.461550e+001	-9.298758e+001	-3.077693e+001	-1.233813e+001	-9.085803e+001	1.097522e+002	-4.988191e+001	9.781754e+001
6.155664e+006	-4.463256e+001	-9.312882e+001	-3.078540e+001	-1.235760e+001	-1.127415e+002	-1.699306e+002	-4.974711e+001	9.780533e+001
6.155703e+006	-4.464965e+001	-9.278564e+001	-3.078123e+001	-1.229682e+001	-1.077627e+002	-1.400423e+002	-4.981261e+001	9.802359e+001
6.155742e+006	-4.463080e+001	-9.323424e+001	-3.077923e+001	-1.229486e+001	-1.007760e+002	-1.399795e+002	-4.967935e+001	9.761238e+001
