!CETC41,AV3656A,ZGL00048,1.3.2
!Calibration ON (Full Solt 2-Port(Omit Isolation))
!Measurements: S11 S21 S12 S22
!2025-04-22 22:12
# Hz  S  dB  R 50.000
6.150000e+006	-4.607950e+001	-9.307300e+001	-3.078545e+001	-1.309692e+001	-9.377550e+001	1.588534e+002	-4.860734e+001	1.087780e+002
6.150039e+006	-4.606941e+001	-9.292603e+001	-3.077779e+001	-1.308646e+001	-1.055311e+002	1.431142e+002	-4.863304e+001	1.084610e+002
6.150078e+006	-4.606415e+001	-9.316828e+001	-3.077819e+001	-1.304643e+001	-1.003842e+002	1.393692e+002	-4.859078e+001	1.088511e+002
6.150117e+006	-4.606987e+001	-9.319263e+001	-3.077772e+001	-1.306472e+001	-9.018247e+001	7.889437e+001	-4.849618e+001	1.087354e+002
6.150156e+006	-4.606163e+001	-9.304847e+001	-3.078653e+001	-1.302039e+001	-8.459131e+001	2.995371e+001	-4.863487e+001	1.087112e+002
6.150195e+006	-4.610326e+001	-9.281937e+001	-3.078492e+001	-1.302685e+001	-9.095372e+001	1.316151e+002	-4.858031e+001	1.087156e+002
6.150234e+006	-4.604217e+001	-9.291756e+001	-3.077896e+001	-1.307570e+001	-9.748262e+001	3.487251e+001	-4.854793e+001	1.090904e+002
6.150273e+006	-4.602543e+001	-9.276784e+001	-3.076534e+001	-1.306331e+001	-9.171676e+001	-3.401945e-001	-4.852801e+001	1.088236e+002
6.150313e+006	-4.601838e+001	-9.304253e+001	-3.077921e+001	-1.307766e+001	-8.798211e+001	1.249180e+002	-4.855462e+001	1.089522e+002
6.150352e+006	-4.604790e+001	-9.295098e+001	-3.078397e+001	-1.302457e+001	-8.675842e+001	1.758487e+002	-4.859225e+001	1.084460e+002
6.150391e+006	-4.608016e+001	-9.278430e+001	-3.078026e+001	-1.308615e+001	-9.643142e+001	5.097688e+001	-4.857475e+001	1.085861e+002
6.150430e+006	-4.607436e+001	-9.322750e+001	-3.078325e+001	-1.306980e+001	-9.725846e+001	1.378744e+002	-4.860965e+001	1.088669e+002
6.150469e+006	-4.603430e+001	-9.307829e+001	-3.077592e+001	-1.307614e+001	-9.666556e+001	-5.109615e+001	-4.861705e+001	1.086334e+002
6.150508e+006	-4.607941e+001	-9.295857e+001	-3.078252e+001	-1.306029e+001	-9.398260e+001	6.061963e+001	-4.853006e+001	1.090811e+002
6.150547e+006	-4.604054e+001	-9.303351e+001	-3.077195e+001	-1.303438e+001	-9.000865e+001	9.811981e+001	-4.850852e+001	1.090511e+002
6.150586e+006	-4.606153e+001	-9.295703e+001	-3.077452e+001	-1.304669e+001	-8.855240e+001	1.352681e+002	-4.860976e+001	1.086498e+002
6.150625e+006	-4.608310e+001	-9.308523e+001	-3.077965e+001	-1.307567e+001	-9.124968e+001	2.902986e+001	-4.854527e+001	1.091334e+002
6.150664e+006	-4.605828e+001	-9.285685e+001	-3.078697e+001	-1.296632e+001	-1.062103e+002	-1.523697e+002	-4.853176e+001	1.087172e+002
6.150703e+006	-4.606983e+001	-9.299333e+001	-3.077179e+001	-1.306758e+001	-8.971030e+001	1.298400e+002	-4.856591e+001	1.092125e+002
6.150742e+006	-4.607393e+001	-9.308683e+001	-3.078052e+001	-1.304854e+001	-9.846172e+001	-7.941560e+001	-4.853141e+001	1.087044e+002
6.150781e+006	-4.603467e+001	-9.317828e+001	-3.078322e+001	-1.302012e+001	-1.012090e+002	1.531328e+002	-4.860474e+001	1.092826e+002
6.150820e+006	-4.606016e+001	-9.297057e+001	-3.077371e+001	-1.302664e+001	-9.112300e+001	-1.043121e+001	-4.854755e+001	1.091835e+002
6.150859e+006	-4.607343e+001	-9.279899e+001	-3.077546e+001	-1.299160e+001	-1.036474e+002	3.486272e+001	-4.854754e+001	1.086404e+002
6.150898e+006	-4.606857e+001	-9.320042e+001	-3.078396e+001	-1.301938e+001	-9.295016e+001	4.938308e+001	-4.859712e+001	1.087413e+002
6.150938e+006	-4.601757e+001	-9.291656e+001	-3.077347e+001	-1.311417e+001	-9.814706e+001	-4.441793e+001	-4.855268e+001	1.087981e+002
6.150977e+006	-4.604823e+001	-9.319626e+001	-3.077819e+001	-1.308793e+001	-9.239406e+001	1.459722e+001	-4.863244e+001	1.089679e+002
6.151016e+006	-4.603481e+001	-9.300499e+001	-3.078585e+001	-1.302772e+001	-8.644730e+001	1.230939e+002	-4.854672e+001	1.086420e+002
6.151055e+006	-4.604567e+001	-9.281189e+001	-3.077871e+001	-1.306561e+001	-9.848889e+001	-8.229966e+001	-4.858422e+001	1.090910e+002
6.151094e+006	-4.602278e+001	-9.297194e+001	-3.077479e+001	-1.302991e+001	-1.000801e+002	-1.864285e+001	-4.851841e+001	1.083855e+002
6.151133e+006	-4.604655e+001	-9.308029e+001	-3.076779e+001	-1.302308e+001	-9.542381e+001	6.830000e+001	-4.852113e+001	1.087725e+002
6.151172e+006	-4.602575e+001	-9.271888e+001	-3.078104e+001	-1.309727e+001	-8.638607e+001	3.613568e+001	-4.862247e+001	1.088929e+002
6.151211e+006	-4.603775e+001	-9.309556e+001	-3.078209e+001	-1.307244e+001	-9.617920e+001	1.036536e+002	-4.856467e+001	1.090431e+002
6.151250e+006	-4.608395e+001	-9.272298e+001	-3.077761e+001	-1.302970e+001	-9.870062e+001	-6.325374e+001	-4.859574e+001	1.086839e+002
6.151289e+006	-4.608302e+001	-9.309783e+001	-3.078038e+001	-1.303504e+001	-8.826595e+001	1.694084e+002	-4.851539e+001	1.086860e+002
6.151328e+006	-4.605822e+001	-9.297972e+001	-3.077571e+001	-1.301728e+001	-9.206851e+001	5.538091e+000	-4.856306e+001	1.084993e+002
6.151367e+006	-4.608959e+001	-9.283192e+001	-3.078874e+001	-1.305823e+001	-9.075148e+001	9.734803e+001	-4.853180e+001	1.089778e+002
6.151406e+006	-4.603223e+001	-9.335983e+001	-3.077979e+001	-1.299286e+001	-8.975849e+001	6.674174e+001	-4.859153e+001	1.089541e+002
6.151445e+006	-4.607290e+001	-9.319098e+001	-3.076584e+001	-1.306929e+001	-1.126531e+002	1.614900e+002	-4.860340e+001	1.088110e+002
6.151484e+006	-4.606149e+001	-9.295391e+001	-3.077482e+001	-1.304889e+001	-9.790587e+001	2.669063e+001	-4.860132e+001	1.088286e+002
6.151523e+006	-4.606573e+001	-9.291789e+001	-3.076708e+001	-1.308738e+001	-9.425543e+001	6.059503e+001	-4.854355e+001	1.090201e+002
6.151563e+006	-4.603285e+001	-9.264825e+001	-3.077723e+001	-1.307572e+001	-1.037805e+002	1.349495e+002	-4.856131e+001	1.089188e+002
6.151602e+006	-4.605750e+001	-9.297913e+001	-3.078238e+001	-1.307306e+001	-8.891456e+001	5.560256e+001	-4.856182e+001	1.085252e+002
6.151641e+006	-4.607284e+001	-9.287698e+001	-3.077734e+001	-1.301902e+001	-8.926411e+001	8.669030e+001	-4.854988e+001	1.090766e+002
6.151680e+006	-4.606387e+001	-9.308260e+001	-3.077861e+001	-1.308650e+001	-8.690307e+001	3.951665e+001	-4.855577e+001	1.092065e+002
6.151719e+006	-4.600647e+001	-9.297858e+001	-3.077217e+001	-1.304691e+001	-1.011386e+002	-6.081885e+001	-4.855926e+001	1.089395e+002
6.151758e+006	-4.604527e+001	-9.297736e+001	-3.078312e+001	-1.313019e+001	-9.201059e+001	8.728419e+001	-4.853850e+001	1.083650e+002
6.151797e+006	-4.604735e+001	-9.310617e+001	-3.078282e+001	-1.312108e+001	-9.266210e+001	1.458914e+002	-4.859114e+001	1.091387e+002
6.151836e+006	-4.604439e+001	-9.275800e+001	-3.077732e+001	-1.306675e+001	-9.289638e+001	4.518525e+001	-4.864719e+001	1.087305e+002
6.151875e+006	-4.604845e+001	-9.314482e+001	-3.078311e+001	-1.304805e+001	-9.105427e+001	2.035955e+001	-4.858487e+001	1.086157e+002
6.151914e+006	-4.603747e+001	-9.282880e+001	-3.078015e+001	-1.310382e+001	-9.062771e+001	8.081186e+001	-4.858311e+001	1.088283e+002
6.151953e+006	-4.602010e+001	-9.306838e+001	-3.077020e+001	-1.305997e+001	-8.962563e+001	3.146346e+001	-4.859248e+001	1.085364e+002
6.151992e+006	-4.602673e+001	-9.291030e+001	-3.077561e+001	-1.309245e+001	-1.019358e+002	1.380578e+002	-4.862158e+001	1.093324e+002
6.152031e+006	-4.605549e+001	-9.314847e+001	-3.077531e+001	-1.306197e+001	-9.255654e+001	-1.366933e+002	-4.861178e+001	1.088716e+002
6.152070e+006	-4.607741e+001	-9.302675e+001	-3.078412e+001	-1.301181e+001	-9.362796e+001	1.275041e+002	-4.866072e+001	1.086571e+002
6.152109e+006	-4.602475e+001	-9.272487e+001	-3.077764e+001	-1.305859e+001	-9.926323e+001	-4.413053e+001	-4.856341e+001	1.090949e+002
6.152148e+006	-4.597998e+001	-9.315441e+001	-3.076727e+001	-1.310219e+001	-9.936158e+001	1.327305e+002	-4.855607e+001	1.094701e+002
6.152188e+006	-4.604312e+001	-9.300623e+001	-3.078510e+001	-1.308233e+001	-8.835105e+001	1.762405e+002	-4.856723e+001	1.089847e+002
6.152227e+006	-4.607684e+001	-9.307046e+001	-3.077116e+001	-1.306140e+001	-1.040501e+002	1.464298e+002	-4.855117e+001	1.089892e+002
6.152266e+006	-4.607230e+001	-9.322251e+001	-3.078275e+001	-1.310129e+001	-9.244708e+001	-5.143586e+001	-4.857697e+001	1.086826e+002
6.152305e+006	-4.602426e+001	-9.304660e+001	-3.078592e+001	-1.307020e+001	-8.837086e+001	1.497727e+002	-4.864591e+001	1.089167e+002
6.152344e+006	-4.605477e+001	-9.315013e+001	-3.076840e+001	-1.306190e+001	-1.140824e+002	-2.328276e+001	-4.856816e+001	1.088632e+002
6.152383e+006	-4.609515e+001	-9.294070e+001	-3.076912e+001	-1.312812e+001	-1.064459e+002	-1.486736e+002	-4.858630e+001	1.093689e+002
6.152422e+006	-4.606904e+001	-9.348524e+001	-3.078151e+001	-1.302323e+001	-9.470778e+001	-8.860861e+001	-4.863291e+001	1.088957e+002
6.152461e+006	-4.602942e+001	-9.320416e+001	-3.077629e+001	-1.303635e+001	-9.774804e+001	2.118804e+001	-4.850403e+001	1.085989e+002
6.152500e+006	-4.609157e+001	-9.261767e+001	-3.077048e+001	-1.304749e+001	-1.008956e+002	1.667260e+002	-4.854939e+001	1.089488e+002
6.152539e+006	-4.603053e+001	-9.336420e+001	-3.078397e+001	-1.302424e+001	-9.098813e+001	1.270777e+002	-4.853081e+001	1.091637e+002
6.152578e+006	-4.606168e+001	-9.301515e+001	-3.077274e+001	-1.305112e+001	-8.981328e+001	5.008469e+001	-4.860928e+001	1.088157e+002
6.152617e+006	-4.604627e+001	-9.299958e+001	-3.079030e+001	-1.308747e+001	-9.272538e+001	8.026374e+001	-4.857099e+001	1.089896e+002
6.152656e+006	-4.608708e+001	-9.302550e+001	-3.077372e+001	-1.313353e+001	-9.691512e+001	-2.427851e+001	-4.859368e+001	1.092431e+002
6.152695e+006	-4.607166e+001	-9.299362e+001	-3.077857e+001	-1.300875e+001	-8.855968e+001	9.030509e+001	-4.854403e+001	1.086657e+002
6.152734e+006	-4.600866e+001	-9.311687e+001	-3.077540e+001	-1.305959e+001	-8.808823e+001	8.906200e+001	-4.866593e+001	1.087700e+002
6.152773e+006	-4.607665e+001	-9.304272e+001	-3.078602e+001	-1.310884e+001	-8.673542e+001	9.082474e+001	-4.854203e+001	1.089827e+002
6.152813e+006	-4.604261e+001	-9.330507e+001	-3.077475e+001	-1.296097e+001	-9.013845e+001	9.883228e+001	-4.859911e+001	1.096631e+002
6.152852e+006	-4.601133e+001	-9.286293e+001	-3.076866e+001	-1.312390e+001	-9.207815e+001	1.010735e+002	-4.852754e+001	1.089521e+002
6.152891e+006	-4.605731e+001	-9.334942e+001	-3.077029e+001	-1.307612e+001	-9.208300e+001	1.256678e+002	-4.864100e+001	1.090998e+002
6.152930e+006	-4.610719e+001	-9.312484e+001	-3.077611e+001	-1.305246e+001	-9.627889e+001	-2.854464e+001	-4.852328e+001	1.090969e+002
6.152969e+006	-4.605202e+001	-9.289077e+001	-3.077219e+001	-1.300294e+001	-9.262016e+001	1.682798e+002	-4.848885e+001	1.098543e+002
6.153008e+006	-4.603730e+001	-9.343385e+001	-3.077264e+001	-1.299279e+001	-9.518573e+001	1.599301e+002	-4.856352e+001	1.089547e+002
6.153047e+006	-4.606349e+001	-9.285304e+001	-3.077636e+001	-1.305350e+001	-8.820571e+001	8.951603e+001	-4.855387e+001	1.085234e+002
6.153086e+006	-4.606703e+001	-9.287669e+001	-3.077375e+001	-1.300023e+001	-8.699898e+001	-1.266077e+002	-4.853564e+001	1.086771e+002
6.153125e+006	-4.603289e+001	-9.295546e+001	-3.076578e+001	-1.297239e+001	-8.874887e+001	3.781848e+001	-4.853248e+001	1.086252e+002
6.153164e+006	-4.602526e+001	-9.324926e+001	-3.078971e+001	-1.302270e+001	-8.783604e+001	1.288343e+002	-4.854327e+001	1.089308e+002
6.153203e+006	-4.608260e+001	-9.300955e+001	-3.077977e+001	-1.313949e+001	-9.925252e+001	5.101980e+001	-4.855897e+001	1.086194e+002
6.153242e+006	-4.603992e+001	-9.283944e+001	-3.077155e+001	-1.300415e+001	-1.067337e+002	2.550148e+001	-4.856770e+001	1.089608e+002
6.153281e+006	-4.611090e+001	-9.297905e+001	-3.077616e+001	-1.306355e+001	-9.433737e+001	1.377294e+002	-4.858121e+001	1.090504e+002
6.153320e+006	-4.602698e+001	-9.300075e+001	-3.077385e+001	-1.303268e+001	-8.898830e+001	1.118679e+002	-4.848022e+001	1.089768e+002
6.153359e+006	-4.598756e+001	-9.273262e+001	-3.076997e+001	-1.312353e+001	-1.036416e+002	-3.169902e+001	-4.858564e+001	1.083154e+002
6.153398e+006	-4.604246e+001	-9.290226e+001	-3.076907e+001	-1.306251e+001	-9.815374e+001	1.350688e+002	-4.854171e+001	1.087326e+002
6.153438e+006	-4.600851e+001	-9.297566e+001	-3.077275e+001	-1.307192e+001	-9.265096e+001	1.351808e+002	-4.851951e+001	1.088235e+002
6.153477e+006	-4.603226e+001	-9.323965e+001	-3.077997e+001	-1.300520e+001	-1.082346e+002	-8.004552e+001	-4.858592e+001	1.089451e+002
6.153516e+006	-4.605529e+001	-9.314562e+001	-3.076890e+001	-1.302391e+001	-9.368385e+001	4.961105e+001	-4.860749e+001	1.090154e+002
6.153555e+006	-4.606682e+001	-9.288235e+001	-3.077813e+001	-1.304840e+001	-8.799739e+001	9.351135e+001	-4.854898e+001	1.088569e+002
6.153594e+006	-4.602214e+001	-9.347264e+001	-3.076573e+001	-1.309515e+001	-8.708033e+001	7.021357e+001	-4.857911e+001	1.090120e+002
6.153633e+006	-4.604084e+001	-9.308866e+001	-3.077702e+001	-1.304807e+001	-1.014522e+002	-1.524785e+002	-4.856810e+001	1.083535e+002
6.153672e+006	-4.607081e+001	-9.313094e+001	-3.076696e+001	-1.301150e+001	-8.756434e+001	9.912304e+001	-4.855315e+001	1.083897e+002
6.153711e+006	-4.609006e+001	-9.283851e+001	-3.077626e+001	-1.302739e+001	-8.760756e+001	4.996856e+001	-4.860874e+001	1.088641e+002
6.153750e+006	-4.601625e+001	-9.304139e+001	-3.077344e+001	-1.306073e+001	-8.952359e+001	-1.573344e+002	-4.856429e+001	1.092334e+002
6.153789e+006	-4.608567e+001	-9.343048e+001	-3.077579e+001	-1.299880e+001	-9.006463e+001	5.027507e+001	-4.858695e+001	1.084533e+002
6.153828e+006	-4.608964e+001	-9.292877e+001	-3.077587e+001	-1.309490e+001	-9.832830e+001	6.817328e+001	-4.853292e+001	1.087420e+002
6.153867e+006	-4.606729e+001	-9.332732e+001	-3.076759e+001	-1.308167e+001	-1.017160e+002	1.562286e+002	-4.858953e+001	1.089129e+002
6.153906e+006	-4.604756e+001	-9.314666e+001	-3.077139e+001	-1.304566e+001	-9.679188e+001	-1.494036e+001	-4.864968e+001	1.088701e+002
6.153945e+006	-4.611187e+001	-9.307452e+001	-3.077051e+001	-1.307202e+001	-8.730320e+001	1.166139e+002	-4.857375e+001	1.090182e+002
6.153984e+006	-4.610014e+001	-9.314033e+001	-3.077653e+001	-1.304969e+001	-9.027160e+001	5.760106e+001	-4.856149e+001	1.086591e+002
6.154023e+006	-4.605067e+001	-9.302701e+001	-3.077494e+001	-1.306437e+001	-8.762474e+001	1.196634e+002	-4.852272e+001	1.084356e+002
6.154063e+006	-4.607342e+001	-9.296431e+001	-3.078342e+001	-1.305465e+001	-9.443737e+001	-1.585671e+002	-4.856135e+001	1.089733e+002
6.154102e+006	-4.605908e+001	-9.329163e+001	-3.076095e+001	-1.307784e+001	-8.961840e+001	4.237272e+001	-4.851925e+001	1.088651e+002
6.154141e+006	-4.609308e+001	-9.285184e+001	-3.077204e+001	-1.302744e+001	-8.977834e+001	-1.571191e+002	-4.852601e+001	1.087604e+002
6.154180e+006	-4.603456e+001	-9.302417e+001	-3.076383e+001	-1.310596e+001	-8.902881e+001	-1.698914e+002	-4.855537e+001	1.084377e+002
6.154219e+006	-4.607508e+001	-9.290779e+001	-3.077773e+001	-1.307563e+001	-9.439090e+001	-1.671047e+002	-4.855065e+001	1.086086e+002
6.154258e+006	-4.604874e+001	-9.298390e+001	-3.077509e+001	-1.307763e+001	-8.677701e+001	-8.980931e+001	-4.852944e+001	1.087597e+002
6.154297e+006	-4.602889e+001	-9.323790e+001	-3.077661e+001	-1.302564e+001	-9.106698e+001	1.038718e+002	-4.855644e+001	1.089436e+002
6.154336e+006	-4.605756e+001	-9.298400e+001	-3.077270e+001	-1.302349e+001	-1.032352e+002	9.654549e-001	-4.852883e+001	1.086320e+002
6.154375e+006	-4.602675e+001	-9.290539e+001	-3.076770e+001	-1.303535e+001	-9.045463e+001	1.790548e+002	-4.857244e+001	1.087762e+002
6.154414e+006	-4.600028e+001	-9.316409e+001	-3.077428e+001	-1.310543e+001	-9.263272e+001	7.688545e+001	-4.856408e+001	1.088954e+002
6.154453e+006	-4.610172e+001	-9.331763e+001	-3.077973e+001	-1.304166e+001	-9.270678e+001	1.604636e+001	-4.856387e+001	1.087008e+002
6.154492e+006	-4.599226e+001	-9.323138e+001	-3.075650e+001	-1.305963e+001	-9.264867e+001	4.639741e+001	-4.853679e+001	1.084022e+002
6.154531e+006	-4.597145e+001	-9.328783e+001	-3.077812e+001	-1.303962e+001	-8.870899e+001	1.179992e+002	-4.862197e+001	1.091193e+002
6.154570e+006	-4.602721e+001	-9.301185e+001	-3.077834e+001	-1.295652e+001	-9.603692e+001	7.524385e+001	-4.864440e+001	1.087693e+002
6.154609e+006	-4.608883e+001	-9.308411e+001	-3.075644e+001	-1.306285e+001	-9.618212e+001	9.554509e+001	-4.855716e+001	1.089041e+002
6.154648e+006	-4.599937e+001	-9.304477e+001	-3.076751e+001	-1.305763e+001	-9.079746e+001	4.713682e+001	-4.860805e+001	1.090408e+002
6.154688e+006	-4.606354e+001	-9.300697e+001	-3.077451e+001	-1.305511e+001	-9.678152e+001	1.425363e+002	-4.859850e+001	1.094639e+002
6.154727e+006	-4.599704e+001	-9.335369e+001	-3.077546e+001	-1.300028e+001	-9.719580e+001	4.908178e+001	-4.861361e+001	1.091671e+002
6.154766e+006	-4.604609e+001	-9.304465e+001	-3.076408e+001	-1.308845e+001	-9.939425e+001	1.562272e+002	-4.844289e+001	1.091797e+002
6.154805e+006	-4.602798e+001	-9.321839e+001	-3.077445e+001	-1.306339e+001	-9.325693e+001	-8.268854e+001	-4.853305e+001	1.086353e+002
6.154844e+006	-4.606811e+001	-9.309970e+001	-3.076751e+001	-1.304364e+001	-1.006833e+002	1.283361e+002	-4.851834e+001	1.089128e+002
6.154883e+006	-4.601853e+001	-9.304360e+001	-3.076677e+001	-1.308892e+001	-1.003840e+002	-1.023362e+002	-4.855195e+001	1.086214e+002
6.154922e+006	-4.604615e+001	-9.339583e+001	-3.077725e+001	-1.307858e+001	-9.317040e+001	1.926847e+001	-4.854439e+001	1.089771e+002
6.154961e+006	-4.604928e+001	-9.320112e+001	-3.077391e+001	-1.305085e+001	-9.108809e+001	1.380573e+002	-4.851277e+001	1.089363e+002
6.155000e+006	-4.607452e+001	-9.312275e+001	-3.077482e+001	-1.304984e+001	-9.114121e+001	1.578272e+001	-4.854569e+001	1.088939e+002
6.155039e+006	-4.606036e+001	-9.286101e+001	-3.077314e+001	-1.307838e+001	-1.002865e+002	2.493597e+001	-4.854218e+001	1.090057e+002
6.155078e+006	-4.604951e+001	-9.280546e+001	-3.077739e+001	-1.313065e+001	-1.085889e+002	-9.406883e+000	-4.860134e+001	1.091093e+002
6.155117e+006	-4.608150e+001	-9.296542e+001	-3.077202e+001	-1.309801e+001	-9.357290e+001	5.125580e+001	-4.854719e+001	1.088059e+002
6.155156e+006	-4.605697e+001	-9.277719e+001	-3.077323e+001	-1.307072e+001	-9.538204e+001	5.769464e+001	-4.854949e+001	1.086704e+002
6.155195e+006	-4.605584e+001	-9.298884e+001	-3.076496e+001	-1.302419e+001	-9.969527e+001	1.051206e+002	-4.855408e+001	1.089205e+002
6.155234e+006	-4.606900e+001	-9.321640e+001	-3.076614e+001	-1.304382e+001	-8.556462e+001	5.270730e+001	-4.855945e+001	1.092948e+002
6.155273e+006	-4.604159e+001	-9.320805e+001	-3.077066e+001	-1.299429e+001	-8.735798e+001	1.220629e+002	-4.857629e+001	1.092997e+002
6.155313e+006	-4.605665e+001	-9.293459e+001	-3.077225e+001	-1.304639e+001	-9.201846e+001	-1.760046e+002	-4.858841e+001	1.082371e+002
6.155352e+006	-4.609021e+001	-9.318538e+001	-3.076978e+001	-1.309965e+001	-8.849884e+001	9.794469e+001	-4.849488e+001	1.092506e+002
6.155391e+006	-4.606661e+001	-9.314876e+001	-3.076933e+001	-1.307598e+001	-9.008092e+001	-9.792924e+001	-4.863151e+001	1.091074e+002
6.155430e+006	-4.602444e+001	-9.315028e+001	-3.077184e+001	-1.304296e+001	-1.004202e+002	7.483184e+001	-4.858067e+001	1.088610e+002
6.155469e+006	-4.604301e+001	-9.305157e+001	-3.077166e+001	-1.307207e+001	-9.271441e+001	1.059171e+002	-4.859208e+001	1.092993e+002
6.155508e+006	-4.602533e+001	-9.278006e+001	-3.076063e+001	-1.312497e+001	-9.257071e+001	9.706304e+001	-4.863903e+001	1.090811e+002
6.155547e+006	-4.605293e+001	-9.283691e+001	-3.076273e+001	-1.318390e+001	-9.257186e+001	1.510753e+002	-4.853613e+001	1.091428e+002
6.155586e+006	-4.603426e+001	-9.290794e+001	-3.076791e+001	-1.313390e+001	-8.972122e+001	-1.747732e+002	-4.856302e+001	1.092318e+002
6.155625e+006	-4.614491e+001	-9.299689e+001	-3.078253e+001	-1.321623e+001	-9.187139e+001	1.176969e+002	-4.855892e+001	1.094996e+002
6.155664e+006	-4.601016e+001	-9.290766e+001	-3.077934e+001	-1.315592e+001	-1.035915e+002	-1.154163e+002	-4.859412e+001	1.088268e+002
6.155703e+006	-4.606451e+001	-9.318369e+001	-3.078879e+001	-1.309103e+001	-9.276749e+001	3.237852e+001	-4.852027e+001	1.091908e+002
6.155742e+006	-4.603489e+001	-9.344465e+001	-3.077891e+001	-1.297936e+001	-9.388988e+001	6.254747e+001	-4.859358e+001	1.089792e+002
