!CETC41,AV3656A,ZGL00048,1.3.2
!Calibration ON (Full Solt 2-Port(Omit Isolation))
!Measurements: S11 S21 S12 S22
!2025-04-18 23:14
# Hz  S  dB  R 50.000
6.150000e+006	-3.108454e+001	8.445904e+001	-3.068119e+001	-1.735938e+001	-9.713292e+001	1.459245e+002	-2.949138e+001	9.121990e+001
6.150039e+006	-3.108565e+001	8.450435e+001	-3.065990e+001	-1.731279e+001	-9.485117e+001	-3.473052e+001	-2.950104e+001	9.125352e+001
6.150078e+006	-3.107118e+001	8.452685e+001	-3.066588e+001	-1.727959e+001	-9.496863e+001	4.809446e+001	-2.949034e+001	9.123982e+001
6.150117e+006	-3.107631e+001	8.452046e+001	-3.066327e+001	-1.725282e+001	-9.417631e+001	1.319121e+002	-2.950285e+001	9.123232e+001
6.150156e+006	-3.106796e+001	8.440114e+001	-3.067194e+001	-1.739142e+001	-8.776022e+001	6.565091e+001	-2.949609e+001	9.125001e+001
6.150195e+006	-3.106932e+001	8.445843e+001	-3.067030e+001	-1.735249e+001	-9.232430e+001	1.345022e+002	-2.949407e+001	9.125651e+001
6.150234e+006	-3.107444e+001	8.442529e+001	-3.066966e+001	-1.732358e+001	-1.137054e+002	-8.780735e+000	-2.950115e+001	9.127474e+001
6.150273e+006	-3.108294e+001	8.443023e+001	-3.066960e+001	-1.729922e+001	-1.029835e+002	2.998333e+001	-2.948972e+001	9.128234e+001
6.150313e+006	-3.108107e+001	8.443312e+001	-3.067267e+001	-1.733340e+001	-9.068443e+001	5.261660e+001	-2.949951e+001	9.125001e+001
6.150352e+006	-3.108398e+001	8.445910e+001	-3.067167e+001	-1.735117e+001	-9.973630e+001	1.196819e+002	-2.949388e+001	9.128562e+001
6.150391e+006	-3.107334e+001	8.446159e+001	-3.066930e+001	-1.734276e+001	-9.894224e+001	1.741294e+002	-2.949844e+001	9.124481e+001
6.150430e+006	-3.108143e+001	8.449591e+001	-3.066906e+001	-1.736060e+001	-9.327353e+001	8.866891e+001	-2.949701e+001	9.128183e+001
6.150469e+006	-3.107513e+001	8.441181e+001	-3.066764e+001	-1.730979e+001	-9.984123e+001	1.668172e+002	-2.949036e+001	9.123552e+001
6.150508e+006	-3.107462e+001	8.448117e+001	-3.066669e+001	-1.733366e+001	-9.341811e+001	8.641318e+001	-2.949377e+001	9.122897e+001
6.150547e+006	-3.106946e+001	8.451636e+001	-3.067462e+001	-1.735641e+001	-9.728530e+001	6.975218e+001	-2.949834e+001	9.123323e+001
6.150586e+006	-3.107066e+001	8.448944e+001	-3.066424e+001	-1.731145e+001	-1.056523e+002	-1.075278e+002	-2.949206e+001	9.129355e+001
6.150625e+006	-3.107359e+001	8.447465e+001	-3.067131e+001	-1.737051e+001	-9.922238e+001	-3.265323e+001	-2.948982e+001	9.129457e+001
6.150664e+006	-3.107562e+001	8.449431e+001	-3.067010e+001	-1.735164e+001	-8.882932e+001	1.486126e+002	-2.949820e+001	9.124169e+001
6.150703e+006	-3.107549e+001	8.439684e+001	-3.066288e+001	-1.735664e+001	-9.317651e+001	-1.734010e+002	-2.949884e+001	9.127988e+001
6.150742e+006	-3.107563e+001	8.447124e+001	-3.066602e+001	-1.727428e+001	-9.105336e+001	4.230532e+001	-2.949538e+001	9.126981e+001
6.150781e+006	-3.107516e+001	8.451643e+001	-3.067092e+001	-1.730690e+001	-8.765653e+001	1.246211e+002	-2.949827e+001	9.127286e+001
6.150820e+006	-3.107943e+001	8.442064e+001	-3.066931e+001	-1.736910e+001	-8.960929e+001	-1.169331e+001	-2.949724e+001	9.126380e+001
6.150859e+006	-3.106451e+001	8.444746e+001	-3.067235e+001	-1.726817e+001	-9.400040e+001	8.033418e+000	-2.949481e+001	9.129345e+001
6.150898e+006	-3.108259e+001	8.452405e+001	-3.066518e+001	-1.733136e+001	-9.926411e+001	-5.685122e+001	-2.948658e+001	9.128541e+001
6.150938e+006	-3.107169e+001	8.443803e+001	-3.067245e+001	-1.735051e+001	-9.400576e+001	9.195283e+001	-2.950021e+001	9.129921e+001
6.150977e+006	-3.108011e+001	8.442968e+001	-3.067261e+001	-1.736835e+001	-9.418901e+001	-6.866780e+001	-2.949435e+001	9.125891e+001
6.151016e+006	-3.108063e+001	8.449757e+001	-3.067375e+001	-1.727950e+001	-9.123649e+001	8.564391e+001	-2.950276e+001	9.128457e+001
6.151055e+006	-3.107694e+001	8.455560e+001	-3.068077e+001	-1.733028e+001	-1.033829e+002	8.063789e+001	-2.949177e+001	9.126566e+001
6.151094e+006	-3.106786e+001	8.448252e+001	-3.066815e+001	-1.739054e+001	-9.423053e+001	1.633896e+002	-2.949634e+001	9.119587e+001
6.151133e+006	-3.107628e+001	8.448913e+001	-3.066161e+001	-1.725668e+001	-9.178737e+001	-1.411061e+002	-2.949634e+001	9.127489e+001
6.151172e+006	-3.107783e+001	8.444986e+001	-3.066040e+001	-1.733557e+001	-1.028817e+002	4.012195e+001	-2.949961e+001	9.131656e+001
6.151211e+006	-3.107164e+001	8.451853e+001	-3.067084e+001	-1.735512e+001	-9.103306e+001	-1.731336e+002	-2.949414e+001	9.127652e+001
6.151250e+006	-3.107646e+001	8.453200e+001	-3.067068e+001	-1.730466e+001	-9.899698e+001	1.339633e+002	-2.950198e+001	9.129458e+001
6.151289e+006	-3.107919e+001	8.452698e+001	-3.065877e+001	-1.730330e+001	-9.022460e+001	1.059115e+002	-2.949146e+001	9.125841e+001
6.151328e+006	-3.108285e+001	8.449323e+001	-3.066390e+001	-1.730937e+001	-9.933422e+001	7.692144e+000	-2.949606e+001	9.128013e+001
6.151367e+006	-3.108085e+001	8.444230e+001	-3.067351e+001	-1.729300e+001	-9.258604e+001	-1.168412e+002	-2.950177e+001	9.129850e+001
6.151406e+006	-3.108375e+001	8.447968e+001	-3.066253e+001	-1.731308e+001	-9.027535e+001	-4.268723e+001	-2.950142e+001	9.127333e+001
6.151445e+006	-3.107930e+001	8.452479e+001	-3.066906e+001	-1.740018e+001	-9.415286e+001	1.861579e+001	-2.949840e+001	9.131181e+001
6.151484e+006	-3.108685e+001	8.454879e+001	-3.067470e+001	-1.731236e+001	-1.018226e+002	6.136714e+001	-2.949622e+001	9.130116e+001
6.151523e+006	-3.107501e+001	8.450689e+001	-3.066580e+001	-1.728001e+001	-9.553158e+001	5.397182e+001	-2.950385e+001	9.125461e+001
6.151563e+006	-3.107604e+001	8.447613e+001	-3.067100e+001	-1.729245e+001	-9.891453e+001	6.923651e+001	-2.949314e+001	9.121104e+001
6.151602e+006	-3.108190e+001	8.455442e+001	-3.066693e+001	-1.734662e+001	-9.128010e+001	1.006919e+002	-2.949315e+001	9.130196e+001
6.151641e+006	-3.107097e+001	8.448195e+001	-3.066868e+001	-1.728655e+001	-9.249074e+001	1.365198e+001	-2.948975e+001	9.130176e+001
6.151680e+006	-3.108045e+001	8.453804e+001	-3.066978e+001	-1.729994e+001	-9.735202e+001	-9.022353e+001	-2.949421e+001	9.127942e+001
6.151719e+006	-3.107539e+001	8.448655e+001	-3.067165e+001	-1.736684e+001	-9.540692e+001	-1.773074e+002	-2.949171e+001	9.124366e+001
6.151758e+006	-3.108508e+001	8.444270e+001	-3.066496e+001	-1.733129e+001	-9.411697e+001	-1.517984e+002	-2.949977e+001	9.131306e+001
6.151797e+006	-3.107962e+001	8.450907e+001	-3.066954e+001	-1.734764e+001	-9.723649e+001	1.793024e+002	-2.949480e+001	9.130724e+001
6.151836e+006	-3.108496e+001	8.452567e+001	-3.066694e+001	-1.737757e+001	-9.234632e+001	5.106812e+001	-2.949876e+001	9.124944e+001
6.151875e+006	-3.108057e+001	8.453800e+001	-3.067256e+001	-1.736867e+001	-9.139956e+001	-1.655911e+002	-2.949692e+001	9.123390e+001
6.151914e+006	-3.107694e+001	8.444757e+001	-3.066675e+001	-1.734268e+001	-9.205052e+001	1.712367e+002	-2.949998e+001	9.132969e+001
6.151953e+006	-3.108659e+001	8.450231e+001	-3.067013e+001	-1.737436e+001	-9.164876e+001	1.369725e+002	-2.949250e+001	9.135568e+001
6.151992e+006	-3.107071e+001	8.446485e+001	-3.066002e+001	-1.733814e+001	-1.056867e+002	1.747332e+002	-2.950005e+001	9.133404e+001
6.152031e+006	-3.108202e+001	8.452104e+001	-3.067393e+001	-1.732564e+001	-1.003202e+002	2.189568e+001	-2.949145e+001	9.131546e+001
6.152070e+006	-3.107701e+001	8.451875e+001	-3.066680e+001	-1.727027e+001	-9.219134e+001	-1.149860e+002	-2.949703e+001	9.129688e+001
6.152109e+006	-3.107463e+001	8.458287e+001	-3.066553e+001	-1.742438e+001	-9.053723e+001	-2.259451e+001	-2.949418e+001	9.126386e+001
6.152148e+006	-3.108058e+001	8.454000e+001	-3.066692e+001	-1.731333e+001	-9.339555e+001	4.706310e+000	-2.949876e+001	9.131776e+001
6.152188e+006	-3.108258e+001	8.452399e+001	-3.066433e+001	-1.734372e+001	-9.699976e+001	-1.670641e+002	-2.949999e+001	9.128045e+001
6.152227e+006	-3.107947e+001	8.453337e+001	-3.066586e+001	-1.733639e+001	-1.013045e+002	-1.611942e+001	-2.950007e+001	9.133958e+001
6.152266e+006	-3.108420e+001	8.455075e+001	-3.067184e+001	-1.728459e+001	-9.173704e+001	1.578824e+002	-2.949633e+001	9.125490e+001
6.152305e+006	-3.107332e+001	8.453170e+001	-3.066373e+001	-1.727806e+001	-9.662408e+001	3.378737e+001	-2.949680e+001	9.132099e+001
6.152344e+006	-3.107696e+001	8.446401e+001	-3.066601e+001	-1.734257e+001	-8.914664e+001	1.197170e+002	-2.949937e+001	9.127517e+001
6.152383e+006	-3.108556e+001	8.453692e+001	-3.066504e+001	-1.733920e+001	-8.816129e+001	9.325503e+001	-2.949322e+001	9.126370e+001
6.152422e+006	-3.107948e+001	8.450773e+001	-3.066569e+001	-1.732765e+001	-9.529612e+001	-1.613217e+002	-2.948961e+001	9.131373e+001
6.152461e+006	-3.108360e+001	8.448224e+001	-3.066405e+001	-1.736325e+001	-9.308906e+001	1.276041e+002	-2.949227e+001	9.125424e+001
6.152500e+006	-3.107839e+001	8.454840e+001	-3.065933e+001	-1.734954e+001	-9.103933e+001	-1.011025e+002	-2.949416e+001	9.126511e+001
6.152539e+006	-3.107804e+001	8.456085e+001	-3.066205e+001	-1.734800e+001	-9.962566e+001	-1.217299e+002	-2.949037e+001	9.131523e+001
6.152578e+006	-3.107814e+001	8.456403e+001	-3.067649e+001	-1.728509e+001	-8.797402e+001	1.180025e+002	-2.949654e+001	9.132209e+001
6.152617e+006	-3.108975e+001	8.461927e+001	-3.066510e+001	-1.735433e+001	-9.006191e+001	1.142962e+002	-2.950329e+001	9.131597e+001
6.152656e+006	-3.107201e+001	8.451274e+001	-3.066432e+001	-1.734422e+001	-1.036279e+002	1.022201e+002	-2.948639e+001	9.124422e+001
6.152695e+006	-3.108106e+001	8.455163e+001	-3.066729e+001	-1.739393e+001	-9.118941e+001	5.854684e+001	-2.948703e+001	9.131001e+001
6.152734e+006	-3.108248e+001	8.455704e+001	-3.066420e+001	-1.739204e+001	-9.645818e+001	-1.031379e+002	-2.950682e+001	9.127539e+001
6.152773e+006	-3.108203e+001	8.453512e+001	-3.066955e+001	-1.739291e+001	-8.812231e+001	7.632543e+001	-2.950127e+001	9.128669e+001
6.152813e+006	-3.108773e+001	8.454149e+001	-3.068485e+001	-1.729357e+001	-9.681697e+001	6.768059e+001	-2.949336e+001	9.133620e+001
6.152852e+006	-3.108890e+001	8.456680e+001	-3.067043e+001	-1.727857e+001	-8.994990e+001	1.642993e+002	-2.949663e+001	9.127621e+001
6.152891e+006	-3.108172e+001	8.455351e+001	-3.066816e+001	-1.728897e+001	-9.575948e+001	1.690856e+002	-2.949895e+001	9.130564e+001
6.152930e+006	-3.107988e+001	8.455007e+001	-3.066094e+001	-1.738633e+001	-1.000776e+002	-8.653897e+001	-2.948850e+001	9.131407e+001
6.152969e+006	-3.108811e+001	8.454170e+001	-3.067994e+001	-1.739099e+001	-8.897461e+001	-4.666080e+001	-2.949307e+001	9.126982e+001
6.153008e+006	-3.108015e+001	8.455599e+001	-3.066964e+001	-1.725783e+001	-9.380724e+001	-1.382624e+002	-2.948904e+001	9.132263e+001
6.153047e+006	-3.108074e+001	8.461570e+001	-3.066247e+001	-1.738653e+001	-9.729677e+001	7.540493e+001	-2.949407e+001	9.129282e+001
6.153086e+006	-3.107060e+001	8.452862e+001	-3.066515e+001	-1.732485e+001	-9.403732e+001	3.481389e+001	-2.949910e+001	9.126328e+001
6.153125e+006	-3.108498e+001	8.451553e+001	-3.066696e+001	-1.731159e+001	-9.255330e+001	-1.753932e+002	-2.949633e+001	9.135355e+001
6.153164e+006	-3.107543e+001	8.458404e+001	-3.067564e+001	-1.733207e+001	-9.358331e+001	1.247468e+002	-2.949833e+001	9.132985e+001
6.153203e+006	-3.108069e+001	8.454952e+001	-3.065827e+001	-1.733085e+001	-8.942077e+001	7.199270e+001	-2.949811e+001	9.133998e+001
6.153242e+006	-3.107848e+001	8.451115e+001	-3.066197e+001	-1.735250e+001	-9.241658e+001	7.149302e+001	-2.950121e+001	9.128190e+001
6.153281e+006	-3.107947e+001	8.451274e+001	-3.066302e+001	-1.732008e+001	-1.064167e+002	4.402601e+001	-2.949647e+001	9.137691e+001
6.153320e+006	-3.107787e+001	8.456338e+001	-3.066708e+001	-1.734424e+001	-9.582476e+001	-8.836321e+001	-2.950415e+001	9.133024e+001
6.153359e+006	-3.109232e+001	8.452399e+001	-3.066929e+001	-1.735288e+001	-1.007977e+002	4.291602e+001	-2.950454e+001	9.132618e+001
6.153398e+006	-3.107982e+001	8.448617e+001	-3.066556e+001	-1.737748e+001	-9.481196e+001	1.604865e+002	-2.948534e+001	9.129410e+001
6.153438e+006	-3.107752e+001	8.452360e+001	-3.067113e+001	-1.734528e+001	-8.811491e+001	7.906527e+001	-2.948917e+001	9.130713e+001
6.153477e+006	-3.107474e+001	8.455905e+001	-3.066458e+001	-1.727900e+001	-1.005117e+002	8.907185e+000	-2.949410e+001	9.132675e+001
6.153516e+006	-3.107868e+001	8.456012e+001	-3.066374e+001	-1.733965e+001	-8.891408e+001	1.535118e+002	-2.951041e+001	9.132848e+001
6.153555e+006	-3.108393e+001	8.458284e+001	-3.065676e+001	-1.732836e+001	-9.200261e+001	3.272845e+001	-2.949294e+001	9.134397e+001
6.153594e+006	-3.107498e+001	8.450777e+001	-3.067133e+001	-1.732356e+001	-9.836030e+001	1.241399e+002	-2.949837e+001	9.131951e+001
6.153633e+006	-3.108638e+001	8.454844e+001	-3.066938e+001	-1.733460e+001	-9.051637e+001	1.538740e+002	-2.950018e+001	9.133913e+001
6.153672e+006	-3.108426e+001	8.457819e+001	-3.066508e+001	-1.730625e+001	-9.496174e+001	7.453014e+001	-2.949454e+001	9.134671e+001
6.153711e+006	-3.108174e+001	8.458524e+001	-3.066723e+001	-1.730182e+001	-9.506470e+001	4.345985e+001	-2.949602e+001	9.127444e+001
6.153750e+006	-3.107582e+001	8.454931e+001	-3.065414e+001	-1.733060e+001	-9.594057e+001	-9.624650e+001	-2.949589e+001	9.132223e+001
6.153789e+006	-3.108594e+001	8.456273e+001	-3.066497e+001	-1.734693e+001	-8.724210e+001	4.468605e+001	-2.949420e+001	9.133682e+001
6.153828e+006	-3.107470e+001	8.457666e+001	-3.067096e+001	-1.736510e+001	-9.524053e+001	-1.426245e+002	-2.949809e+001	9.134116e+001
6.153867e+006	-3.108137e+001	8.456970e+001	-3.066280e+001	-1.731222e+001	-9.868508e+001	8.230093e+001	-2.949746e+001	9.132197e+001
6.153906e+006	-3.107704e+001	8.462475e+001	-3.065864e+001	-1.734361e+001	-8.832910e+001	6.248702e+001	-2.950128e+001	9.142565e+001
6.153945e+006	-3.107790e+001	8.453236e+001	-3.066071e+001	-1.731304e+001	-1.043238e+002	-9.919407e+001	-2.950338e+001	9.136594e+001
6.153984e+006	-3.108821e+001	8.456257e+001	-3.066513e+001	-1.735677e+001	-1.064540e+002	1.682589e+001	-2.949282e+001	9.133410e+001
6.154023e+006	-3.108810e+001	8.457632e+001	-3.066643e+001	-1.733281e+001	-9.111449e+001	3.747138e+001	-2.949578e+001	9.131348e+001
6.154063e+006	-3.108129e+001	8.456373e+001	-3.066635e+001	-1.731477e+001	-1.029282e+002	7.589981e+001	-2.949134e+001	9.135266e+001
6.154102e+006	-3.108401e+001	8.455573e+001	-3.067403e+001	-1.732358e+001	-8.875120e+001	1.504952e+002	-2.949800e+001	9.137416e+001
6.154141e+006	-3.107677e+001	8.457186e+001	-3.064924e+001	-1.732089e+001	-9.046994e+001	-1.672645e+002	-2.949450e+001	9.134686e+001
6.154180e+006	-3.108365e+001	8.458032e+001	-3.065830e+001	-1.730137e+001	-1.034617e+002	-1.391210e+002	-2.950206e+001	9.131547e+001
6.154219e+006	-3.107989e+001	8.460303e+001	-3.066198e+001	-1.730655e+001	-9.547525e+001	9.700709e+001	-2.948836e+001	9.133446e+001
6.154258e+006	-3.107524e+001	8.450615e+001	-3.066119e+001	-1.731523e+001	-9.421452e+001	6.509666e+001	-2.949493e+001	9.136021e+001
6.154297e+006	-3.107692e+001	8.456823e+001	-3.066967e+001	-1.737343e+001	-1.017700e+002	-1.464352e+002	-2.949028e+001	9.131974e+001
6.154336e+006	-3.107973e+001	8.456155e+001	-3.065587e+001	-1.740513e+001	-9.132947e+001	-1.506874e+002	-2.949335e+001	9.134970e+001
6.154375e+006	-3.107588e+001	8.462053e+001	-3.066771e+001	-1.727332e+001	-8.996468e+001	2.626646e+001	-2.950192e+001	9.134123e+001
6.154414e+006	-3.107940e+001	8.456705e+001	-3.066416e+001	-1.737101e+001	-9.911215e+001	1.441509e+002	-2.949599e+001	9.128824e+001
6.154453e+006	-3.107254e+001	8.455316e+001	-3.066745e+001	-1.729447e+001	-9.738695e+001	-6.430888e+001	-2.949768e+001	9.136699e+001
6.154492e+006	-3.108405e+001	8.458154e+001	-3.066573e+001	-1.727723e+001	-9.826609e+001	1.109788e+002	-2.949542e+001	9.135386e+001
6.154531e+006	-3.108335e+001	8.455120e+001	-3.065651e+001	-1.738208e+001	-9.677373e+001	1.117506e+002	-2.949681e+001	9.134425e+001
6.154570e+006	-3.108231e+001	8.452900e+001	-3.066585e+001	-1.731850e+001	-1.021799e+002	5.463156e+001	-2.949414e+001	9.137720e+001
6.154609e+006	-3.108054e+001	8.463130e+001	-3.068421e+001	-1.735235e+001	-9.463159e+001	1.241911e+002	-2.949232e+001	9.128754e+001
6.154648e+006	-3.107975e+001	8.453638e+001	-3.066387e+001	-1.738947e+001	-1.044495e+002	-1.711705e+002	-2.949866e+001	9.126970e+001
6.154688e+006	-3.107942e+001	8.455036e+001	-3.066310e+001	-1.735523e+001	-9.912430e+001	-1.685007e+002	-2.949972e+001	9.133658e+001
6.154727e+006	-3.108344e+001	8.461146e+001	-3.065904e+001	-1.731235e+001	-9.184509e+001	1.201913e+002	-2.949670e+001	9.136238e+001
6.154766e+006	-3.108335e+001	8.457337e+001	-3.065845e+001	-1.731034e+001	-8.957488e+001	5.273330e+001	-2.949729e+001	9.133944e+001
6.154805e+006	-3.108130e+001	8.459875e+001	-3.065775e+001	-1.735037e+001	-8.923933e+001	-1.123533e+002	-2.949066e+001	9.132179e+001
6.154844e+006	-3.108084e+001	8.452656e+001	-3.065841e+001	-1.731707e+001	-9.745609e+001	1.187756e+002	-2.949428e+001	9.137476e+001
6.154883e+006	-3.109067e+001	8.459606e+001	-3.067043e+001	-1.736320e+001	-9.145302e+001	1.242870e+002	-2.948813e+001	9.137908e+001
6.154922e+006	-3.109158e+001	8.460396e+001	-3.066574e+001	-1.738370e+001	-9.036447e+001	1.346287e+002	-2.950555e+001	9.137616e+001
6.154961e+006	-3.107093e+001	8.462634e+001	-3.065570e+001	-1.735344e+001	-1.005434e+002	-1.631428e+002	-2.949221e+001	9.135225e+001
6.155000e+006	-3.107927e+001	8.460805e+001	-3.066276e+001	-1.726803e+001	-9.737188e+001	6.186591e+001	-2.950395e+001	9.136362e+001
6.155039e+006	-3.107124e+001	8.459034e+001	-3.065546e+001	-1.735751e+001	-9.829970e+001	-5.920599e-001	-2.949479e+001	9.141057e+001
6.155078e+006	-3.106902e+001	8.461616e+001	-3.067126e+001	-1.731086e+001	-9.302575e+001	1.705044e+002	-2.949110e+001	9.134224e+001
6.155117e+006	-3.107877e+001	8.463232e+001	-3.066795e+001	-1.727870e+001	-1.073303e+002	4.363556e+001	-2.950719e+001	9.141679e+001
6.155156e+006	-3.108453e+001	8.461627e+001	-3.067132e+001	-1.732658e+001	-9.135324e+001	-1.782315e+002	-2.949781e+001	9.133742e+001
6.155195e+006	-3.107431e+001	8.457389e+001	-3.066114e+001	-1.730828e+001	-9.479344e+001	1.209610e+001	-2.949654e+001	9.137042e+001
6.155234e+006	-3.108742e+001	8.462265e+001	-3.066810e+001	-1.741059e+001	-9.269710e+001	1.723836e+002	-2.949719e+001	9.141416e+001
6.155273e+006	-3.108371e+001	8.463867e+001	-3.065714e+001	-1.736414e+001	-9.314102e+001	5.885919e+001	-2.949143e+001	9.139457e+001
6.155313e+006	-3.108543e+001	8.464820e+001	-3.065164e+001	-1.733518e+001	-9.843733e+001	-3.484043e+001	-2.950022e+001	9.133796e+001
6.155352e+006	-3.108019e+001	8.459946e+001	-3.065639e+001	-1.730656e+001	-1.013705e+002	5.707598e+001	-2.949949e+001	9.138451e+001
6.155391e+006	-3.107170e+001	8.462208e+001	-3.065843e+001	-1.734724e+001	-9.794055e+001	1.026909e+002	-2.949452e+001	9.137633e+001
6.155430e+006	-3.108562e+001	8.458388e+001	-3.066143e+001	-1.732569e+001	-9.369938e+001	-1.608499e+001	-2.949568e+001	9.137147e+001
6.155469e+006	-3.108207e+001	8.459031e+001	-3.065700e+001	-1.728498e+001	-9.613636e+001	-3.712236e+000	-2.949909e+001	9.140689e+001
6.155508e+006	-3.108941e+001	8.457705e+001	-3.066174e+001	-1.729965e+001	-1.006458e+002	1.140051e+002	-2.949527e+001	9.136612e+001
6.155547e+006	-3.108677e+001	8.459891e+001	-3.066628e+001	-1.739511e+001	-9.441713e+001	7.051081e+001	-2.950180e+001	9.135264e+001
6.155586e+006	-3.107722e+001	8.465148e+001	-3.067513e+001	-1.738702e+001	-9.622024e+001	-1.630535e+002	-2.949382e+001	9.136208e+001
6.155625e+006	-3.108117e+001	8.460969e+001	-3.066930e+001	-1.732958e+001	-1.052568e+002	-9.830317e+001	-2.949367e+001	9.137751e+001
6.155664e+006	-3.108276e+001	8.455785e+001	-3.065408e+001	-1.734114e+001	-1.037260e+002	6.859575e+001	-2.950214e+001	9.140217e+001
6.155703e+006	-3.107819e+001	8.452810e+001	-3.066499e+001	-1.742336e+001	-9.334450e+001	3.241790e+001	-2.949622e+001	9.138013e+001
6.155742e+006	-3.108929e+001	8.460460e+001	-3.067031e+001	-1.737389e+001	-9.263147e+001	2.212218e+001	-2.948861e+001	9.138708e+001
6.155781e+006	-3.109391e+001	8.456422e+001	-3.065795e+001	-1.731804e+001	-9.953921e+001	-6.231436e+001	-2.949546e+001	9.139378e+001
