# Hz S dB R 50.000
3.627031e+06	-4.415098e+01	-9.562099e+01	-3.078644e+01	-7.643736e+00	-8.892822e+01	2.303374e+01	-5.364638e+01	1.014090e+02
3.627062e+06	-4.414451e+01	-9.558424e+01	-3.078932e+01	-7.650330e+00	-9.134997e+01	3.344547e+01	-5.369049e+01	1.013692e+02
3.627094e+06	-4.413805e+01	-9.554754e+01	-3.079221e+01	-7.656929e+00	-9.396756e+01	5.227963e+01	-5.373482e+01	1.013290e+02
3.627125e+06	-4.413158e+01	-9.551090e+01	-3.079509e+01	-7.663531e+00	-9.545624e+01	8.347447e+01	-5.377937e+01	1.012885e+02
3.627156e+06	-4.412512e+01	-9.547431e+01	-3.079797e+01	-7.670139e+00	-9.416087e+01	1.154534e+02	-5.382414e+01	1.012474e+02
3.627187e+06	-4.411866e+01	-9.543778e+01	-3.080086e+01	-7.676750e+00	-9.156203e+01	1.352239e+02	-5.386915e+01	1.012060e+02
3.627218e+06	-4.412734e+01	-9.547170e+01	-3.079971e+01	-7.662303e+00	-9.090931e+01	1.312442e+02	-5.385378e+01	1.013682e+02
3.627250e+06	-4.413639e+01	-9.550744e+01	-3.079847e+01	-7.647341e+00	-9.030206e+01	1.273867e+02	-5.383689e+01	1.015348e+02
3.627281e+06	-4.414546e+01	-9.554324e+01	-3.079722e+01	-7.632384e+00	-8.970242e+01	1.240302e+02	-5.381996e+01	1.017008e+02
3.627312e+06	-4.415453e+01	-9.557913e+01	-3.079597e+01	-7.617432e+00	-8.911714e+01	1.211021e+02	-5.380299e+01	1.018661e+02
3.627344e+06	-4.416360e+01	-9.561508e+01	-3.079472e+01	-7.602483e+00	-8.855018e+01	1.185381e+02	-5.378598e+01	1.020308e+02
3.627375e+06	-4.416070e+01	-9.557769e+01	-3.079502e+01	-7.614865e+00	-9.117706e+01	1.127273e+02	-5.378232e+01	1.021305e+02
3.627406e+06	-4.415759e+01	-9.553914e+01	-3.079535e+01	-7.627693e+00	-9.476861e+01	1.006431e+02	-5.377886e+01	1.022291e+02
3.627437e+06	-4.415449e+01	-9.550061e+01	-3.079568e+01	-7.640521e+00	-9.906221e+01	6.938098e+01	-5.377536e+01	1.023276e+02
3.627468e+06	-4.415138e+01	-9.546211e+01	-3.079600e+01	-7.653350e+00	-9.871921e+01	1.451369e+01	-5.377185e+01	1.024260e+02
3.627500e+06	-4.414826e+01	-9.542364e+01	-3.079633e+01	-7.666180e+00	-9.438743e+01	-1.400468e+01	-5.376831e+01	1.025243e+02
3.627531e+06	-4.415774e+01	-9.545565e+01	-3.079428e+01	-7.675343e+00	-9.871686e+01	-1.612144e+01	-5.377644e+01	1.025083e+02
3.627562e+06	-4.416733e+01	-9.548831e+01	-3.079221e+01	-7.684472e+00	-1.078792e+02	-2.565452e+01	-5.378468e+01	1.024914e+02
3.627594e+06	-4.417693e+01	-9.552104e+01	-3.079014e+01	-7.693597e+00	-1.082497e+02	-1.758989e+02	-5.379292e+01	1.024744e+02
3.627625e+06	-4.418653e+01	-9.555384e+01	-3.078808e+01	-7.702717e+00	-9.884802e+01	1.739955e+02	-5.380117e+01	1.024574e+02
3.627656e+06	-4.419614e+01	-9.558671e+01	-3.078601e+01	-7.711833e+00	-9.440651e+01	1.719526e+02	-5.380943e+01	1.024404e+02
3.627687e+06	-4.418361e+01	-9.558560e+01	-3.078843e+01	-7.709544e+00	-9.273724e+01	1.569326e+02	-5.380428e+01	1.025051e+02
3.627718e+06	-4.417109e+01	-9.558450e+01	-3.079085e+01	-7.707253e+00	-9.099658e+01	1.468533e+02	-5.379912e+01	1.025697e+02
3.627750e+06	-4.415860e+01	-9.558340e+01	-3.079328e+01	-7.704961e+00	-8.939281e+01	1.400142e+02	-5.379396e+01	1.026342e+02
3.627781e+06	-4.414612e+01	-9.558230e+01	-3.079570e+01	-7.702668e+00	-8.796490e+01	1.351959e+02	-5.378879e+01	1.026986e+02
3.627812e+06	-4.413366e+01	-9.558121e+01	-3.079812e+01	-7.700373e+00	-8.669983e+01	1.316640e+02	-5.378360e+01	1.027630e+02
3.627844e+06	-4.413445e+01	-9.558166e+01	-3.079947e+01	-7.697546e+00	-8.922008e+01	1.370515e+02	-5.380067e+01	1.025616e+02
3.627875e+06	-4.413556e+01	-9.558215e+01	-3.080080e+01	-7.694705e+00	-9.270245e+01	1.483102e+02	-5.381821e+01	1.023529e+02
3.627906e+06	-4.413667e+01	-9.558263e+01	-3.080213e+01	-7.691862e+00	-9.699954e+01	1.768729e+02	-5.383566e+01	1.021433e+02
3.627937e+06	-4.413779e+01	-9.558312e+01	-3.080345e+01	-7.689019e+00	-9.732414e+01	-1.286389e+02	-5.385303e+01	1.019329e+02
3.627968e+06	-4.413890e+01	-9.558361e+01	-3.080478e+01	-7.686176e+00	-9.306611e+01	-9.747096e+01	-5.387032e+01	1.017217e+02
3.628000e+06	-4.414840e+01	-9.560504e+01	-3.080203e+01	-7.680898e+00	-9.660028e+01	-1.155588e+02	-5.385258e+01	1.018479e+02
3.628031e+06	-4.415805e+01	-9.562686e+01	-3.079922e+01	-7.675585e+00	-9.923757e+01	-1.566276e+02	-5.383427e+01	1.019790e+02
3.628062e+06	-4.416771e+01	-9.564872e+01	-3.079640e+01	-7.670274e+00	-9.680759e+01	1.610864e+02	-5.381595e+01	1.021096e+02
3.628094e+06	-4.417738e+01	-9.567063e+01	-3.079359e+01	-7.664968e+00	-9.312575e+01	1.416414e+02	-5.379762e+01	1.022396e+02
3.628125e+06	-4.418705e+01	-9.569259e+01	-3.079078e+01	-7.659664e+00	-9.020384e+01	1.326873e+02	-5.377929e+01	1.023691e+02
3.628156e+06	-4.417376e+01	-9.565400e+01	-3.079256e+01	-7.659818e+00	-9.331688e+01	1.218610e+02	-5.377450e+01	1.022776e+02
3.628187e+06	-4.416029e+01	-9.561504e+01	-3.079437e+01	-7.660015e+00	-9.710161e+01	9.715437e+01	-5.376981e+01	1.021845e+02
3.628218e+06	-4.414684e+01	-9.557620e+01	-3.079619e+01	-7.660213e+00	-9.822459e+01	4.981189e+01	-5.376510e+01	1.020915e+02
3.628250e+06	-4.413341e+01	-9.553748e+01	-3.079800e+01	-7.660410e+00	-9.477962e+01	1.555503e+01	-5.376036e+01	1.019985e+02
3.628281e+06	-4.412000e+01	-9.549888e+01	-3.079982e+01	-7.660608e+00	-9.129904e+01	8.641304e-01	-5.375561e+01	1.019057e+02
3.628312e+06	-4.412119e+01	-9.550341e+01	-3.080039e+01	-7.656432e+00	-9.343729e+01	-3.742912e+00	-5.374692e+01	1.018492e+02
3.628344e+06	-4.412238e+01	-9.550795e+01	-3.080096e+01	-7.652256e+00	-9.614407e+01	-1.180859e+01	-5.373823e+01	1.017929e+02
3.628375e+06	-4.412358e+01	-9.551248e+01	-3.080153e+01	-7.648079e+00	-9.955025e+01	-2.828474e+01	-5.372954e+01	1.017366e+02
3.628406e+06	-4.412477e+01	-9.551702e+01	-3.080211e+01	-7.643901e+00	-1.024461e+02	-6.415241e+01	-5.372086e+01	1.016805e+02
3.628437e+06	-4.412596e+01	-9.552156e+01	-3.080268e+01	-7.639723e+00	-1.009116e+02	-1.074141e+02	-5.371217e+01	1.016244e+02
3.628468e+06	-4.412533e+01	-9.549435e+01	-3.080225e+01	-7.651874e+00	-9.984897e+01	-1.119815e+02	-5.372011e+01	1.016899e+02
3.628500e+06	-4.412465e+01	-9.546637e+01	-3.080179e+01	-7.664424e+00	-9.891864e+01	-1.150929e+02	-5.372846e+01	1.017585e+02
3.628531e+06	-4.412398e+01	-9.543839e+01	-3.080133e+01	-7.676974e+00	-9.805948e+01	-1.176246e+02	-5.373680e+01	1.018272e+02
3.628562e+06	-4.412329e+01	-9.541041e+01	-3.080087e+01	-7.689522e+00	-9.726489e+01	-1.197172e+02	-5.374514e+01	1.018960e+02
3.628594e+06	-4.412261e+01	-9.538244e+01	-3.080042e+01	-7.702068e+00	-9.652801e+01	-1.214714e+02	-5.375348e+01	1.019650e+02
3.628625e+06	-4.413260e+01	-9.534374e+01	-3.080152e+01	-7.714587e+00	-9.934132e+01	-1.163928e+02	-5.372823e+01	1.020704e+02
3.628656e+06	-4.414277e+01	-9.530477e+01	-3.080264e+01	-7.727109e+00	-1.033873e+02	-1.048897e+02	-5.370247e+01	1.021757e+02
3.628687e+06	-4.415295e+01	-9.526571e+01	-3.080377e+01	-7.739635e+00	-1.087125e+02	-6.897484e+01	-5.367677e+01	1.022805e+02
3.628718e+06	-4.416313e+01	-9.522657e+01	-3.080490e+01	-7.752163e+00	-1.071666e+02	-3.969921e+00	-5.365111e+01	1.023846e+02
3.628750e+06	-4.417333e+01	-9.518732e+01	-3.080602e+01	-7.764695e+00	-1.020000e+02	2.076849e+01	-5.362550e+01	1.024881e+02
3.628781e+06	-4.416522e+01	-9.525436e+01	-3.080451e+01	-7.743560e+00	-1.026890e+02	4.512134e+01	-5.367234e+01	1.024982e+02
3.628812e+06	-4.415695e+01	-9.532212e+01	-3.080297e+01	-7.722162e+00	-1.018229e+02	6.915387e+01	-5.372001e+01	1.025078e+02
3.628844e+06	-4.414869e+01	-9.538976e+01	-3.080144e+01	-7.700772e+00	-1.000256e+02	8.659373e+01	-5.376795e+01	1.025174e+02
3.628875e+06	-4.414042e+01	-9.545726e+01	-3.079990e+01	-7.679389e+00	-9.809908e+01	9.785069e+01	-5.381616e+01	1.025272e+02
3.628906e+06	-4.413214e+01	-9.552464e+01	-3.079836e+01	-7.658013e+00	-9.634090e+01	1.051887e+02	-5.386463e+01	1.025370e+02
3.628937e+06	-4.413315e+01	-9.549514e+01	-3.079762e+01	-7.671050e+00	-9.868530e+01	9.208515e+01	-5.383699e+01	1.025171e+02
3.628968e+06	-4.413416e+01	-9.546562e+01	-3.079688e+01	-7.684084e+00	-1.008126e+02	6.979083e+01	-5.380944e+01	1.024973e+02
3.629000e+06	-4.413517e+01	-9.543611e+01	-3.079613e+01	-7.697116e+00	-1.012509e+02	3.914511e+01	-5.378198e+01	1.024776e+02
3.629031e+06	-4.413617e+01	-9.540658e+01	-3.079539e+01	-7.710146e+00	-9.952863e+01	1.306126e+01	-5.375460e+01	1.024580e+02
3.629062e+06	-4.413718e+01	-9.537705e+01	-3.079465e+01	-7.723173e+00	-9.715772e+01	-2.868667e+00	-5.372730e+01	1.024386e+02
3.629094e+06	-4.414486e+01	-9.540725e+01	-3.079564e+01	-7.708450e+00	-9.819065e+01	-1.173912e+01	-5.374226e+01	1.025229e+02
3.629125e+06	-4.415271e+01	-9.543898e+01	-3.079667e+01	-7.693040e+00	-9.917190e+01	-2.293175e+01	-5.375826e+01	1.026101e+02
3.629156e+06	-4.416057e+01	-9.547077e+01	-3.079771e+01	-7.677627e+00	-9.982549e+01	-3.648255e+01	-5.377427e+01	1.026977e+02
3.629187e+06	-4.416843e+01	-9.550262e+01	-3.079874e+01	-7.662209e+00	-9.995841e+01	-5.134586e+01	-5.379029e+01	1.027855e+02
3.629218e+06	-4.417629e+01	-9.553452e+01	-3.079977e+01	-7.646789e+00	-9.952361e+01	-6.569039e+01	-5.380632e+01	1.028737e+02
3.629250e+06	-4.416962e+01	-9.553165e+01	-3.079953e+01	-7.653274e+00	-1.081143e+02	-5.284240e+01	-5.377827e+01	1.028457e+02
3.629281e+06	-4.416271e+01	-9.552822e+01	-3.079927e+01	-7.660115e+00	-1.090656e+02	8.353038e+01	-5.374958e+01	1.028159e+02
3.629312e+06	-4.415580e+01	-9.552480e+01	-3.079900e+01	-7.666956e+00	-9.978398e+01	9.886342e+01	-5.372099e+01	1.027864e+02
3.629344e+06	-4.414891e+01	-9.552138e+01	-3.079874e+01	-7.673796e+00	-9.532341e+01	1.019790e+02	-5.369249e+01	1.027571e+02
3.629375e+06	-4.414202e+01	-9.551797e+01	-3.079847e+01	-7.680636e+00	-9.238294e+01	1.033073e+02	-5.366409e+01	1.027279e+02
3.629406e+06	-4.413196e+01	-9.547254e+01	-3.079749e+01	-7.673431e+00	-9.224587e+01	9.344472e+01	-5.367181e+01	1.025329e+02
3.629437e+06	-4.412189e+01	-9.542688e+01	-3.079649e+01	-7.666113e+00	-9.188635e+01	8.403044e+01	-5.367973e+01	1.023362e+02
3.629468e+06	-4.411183e+01	-9.538133e+01	-3.079550e+01	-7.658797e+00	-9.133858e+01	7.555718e+01	-5.368755e+01	1.021391e+02
3.629500e+06	-4.410177e+01	-9.533588e+01	-3.079451e+01	-7.651483e+00	-9.066802e+01	6.819944e+01	-5.369528e+01	1.019417e+02
3.629531e+06	-4.409172e+01	-9.529054e+01	-3.079352e+01	-7.644171e+00	-8.993229e+01	6.194630e+01	-5.370291e+01	1.017439e+02
3.629562e+06	-4.410726e+01	-9.534207e+01	-3.079375e+01	-7.652398e+00	-9.065838e+01	5.563106e+01	-5.370685e+01	1.019388e+02
3.629594e+06	-4.412283e+01	-9.539379e+01	-3.079397e+01	-7.660626e+00	-9.131534e+01	4.822010e+01	-5.371068e+01	1.021338e+02
3.629625e+06	-4.413841e+01	-9.544569e+01	-3.079420e+01	-7.668855e+00	-9.184555e+01	3.971623e+01	-5.371442e+01	1.023290e+02
3.629656e+06	-4.415402e+01	-9.549778e+01	-3.079442e+01	-7.677083e+00	-9.218498e+01	3.030913e+01	-5.371806e+01	1.025244e+02
3.629687e+06	-4.416964e+01	-9.555005e+01	-3.079464e+01	-7.685312e+00	-9.228239e+01	2.041205e+01	-5.372160e+01	1.027199e+02
3.629718e+06	-4.416159e+01	-9.549946e+01	-3.079443e+01	-7.676083e+00	-9.174224e+01	2.213567e+01	-5.374157e+01	1.027046e+02
3.629750e+06	-4.415295e+01	-9.544643e+01	-3.079420e+01	-7.666424e+00	-9.121356e+01	2.391383e+01	-5.376200e+01	1.026839e+02
3.629781e+06	-4.414431e+01	-9.539351e+01	-3.079397e+01	-7.656766e+00	-9.070821e+01	2.549237e+01	-5.378247e+01	1.026632e+02
3.629812e+06	-4.413567e+01	-9.534070e+01	-3.079374e+01	-7.647108e+00	-9.022508e+01	2.690107e+01	-5.380299e+01	1.026424e+02
3.629844e+06	-4.412704e+01	-9.528799e+01	-3.079351e+01	-7.637451e+00	-8.976295e+01	2.816449e+01	-5.382356e+01	1.026214e+02
3.629875e+06	-4.412784e+01	-9.523445e+01	-3.079157e+01	-7.636259e+00	-9.091119e+01	2.704818e+01	-5.378942e+01	1.024994e+02
3.629906e+06	-4.412878e+01	-9.518088e+01	-3.078960e+01	-7.635205e+00	-9.226230e+01	2.550814e+01	-5.375449e+01	1.023768e+02
3.629937e+06	-4.412971e+01	-9.512730e+01	-3.078763e+01	-7.634152e+00	-9.385243e+01	2.334719e+01	-5.371966e+01	1.022551e+02
3.629968e+06	-4.413064e+01	-9.507370e+01	-3.078566e+01	-7.633100e+00	-9.577721e+01	2.010739e+01	-5.368493e+01	1.021344e+02
3.630000e+06	-4.413156e+01	-9.502010e+01	-3.078370e+01	-7.632047e+00	-9.819282e+01	1.476254e+01	-5.365030e+01	1.020147e+02
3.630031e+06	-4.413079e+01	-9.508182e+01	-3.078559e+01	-7.644868e+00	-9.721108e+01	3.673220e+01	-5.368258e+01	1.022729e+02
3.630062e+06	-4.413000e+01	-9.514445e+01	-3.078752e+01	-7.657806e+00	-9.546364e+01	5.271945e+01	-5.371535e+01	1.025362e+02
3.630094e+06	-4.412920e+01	-9.520708e+01	-3.078945e+01	-7.670751e+00	-9.363323e+01	6.323109e+01	-5.374806e+01	1.028015e+02
3.630125e+06	-4.412838e+01	-9.526969e+01	-3.079138e+01	-7.683700e+00	-9.195859e+01	7.023047e+01	-5.378070e+01	1.030688e+02
3.630156e+06	-4.412756e+01	-9.533229e+01	-3.079331e+01	-7.696656e+00	-9.047862e+01	7.509196e+01	-5.381328e+01	1.033381e+02
3.630187e+06	-4.414508e+01	-9.537344e+01	-3.079466e+01	-7.687311e+00	-9.314724e+01	8.852024e+01	-5.380595e+01	1.032211e+02
3.630218e+06	-4.416262e+01	-9.541476e+01	-3.079602e+01	-7.677964e+00	-9.567532e+01	1.135080e+02	-5.379859e+01	1.031043e+02
3.630250e+06	-4.418020e+01	-9.545625e+01	-3.079737e+01	-7.668613e+00	-9.594702e+01	1.491764e+02	-5.379120e+01	1.029878e+02
3.630281e+06	-4.419781e+01	-9.549790e+01	-3.079872e+01	-7.659260e+00	-9.361278e+01	1.765536e+02	-5.378379e+01	1.028714e+02
3.630312e+06	-4.421545e+01	-9.553972e+01	-3.080008e+01	-7.649904e+00	-9.089605e+01	-1.685498e+02	-5.377634e+01	1.027552e+02
3.630344e+06	-4.419977e+01	-9.554198e+01	-3.079833e+01	-7.657648e+00	-9.518154e+01	-1.691232e+02	-5.378633e+01	1.028419e+02
3.630375e+06	-4.418330e+01	-9.554326e+01	-3.079651e+01	-7.665810e+00	-1.046622e+02	-1.733062e+02	-5.379673e+01	1.029339e+02
3.630406e+06	-4.416686e+01	-9.554454e+01	-3.079469e+01	-7.673968e+00	-1.047072e+02	1.930902e+01	-5.380713e+01	1.030261e+02
3.630437e+06	-4.415046e+01	-9.554581e+01	-3.079287e+01	-7.682122e+00	-9.519670e+01	1.509696e+01	-5.381752e+01	1.031185e+02
3.630468e+06	-4.413408e+01	-9.554707e+01	-3.079105e+01	-7.690274e+00	-9.076046e+01	1.425211e+01	-5.382789e+01	1.032111e+02
3.630500e+06	-4.413528e+01	-9.550506e+01	-3.079162e+01	-7.688894e+00	-9.246389e+01	2.659096e+01	-5.382910e+01	1.030508e+02
3.630531e+06	-4.413677e+01	-9.546233e+01	-3.079223e+01	-7.687359e+00	-9.393977e+01	4.497366e+01	-5.383008e+01	1.028864e+02
3.630562e+06	-4.413825e+01	-9.541958e+01	-3.079284e+01	-7.685823e+00	-9.436943e+01	6.809774e+01	-5.383099e+01	1.027219e+02
3.630594e+06	-4.413972e+01	-9.537683e+01	-3.079345e+01	-7.684288e+00	-9.343933e+01	8.985877e+01	-5.383183e+01	1.025574e+02
3.630625e+06	-4.414119e+01	-9.533405e+01	-3.079406e+01	-7.682752e+00	-9.176761e+01	1.058073e+02	-5.383259e+01	1.023929e+02
3.630656e+06	-4.414965e+01	-9.531439e+01	-3.079396e+01	-7.684171e+00	-9.382069e+01	1.103498e+02	-5.380848e+01	1.024778e+02
3.630687e+06	-4.415818e+01	-9.529487e+01	-3.079386e+01	-7.685614e+00	-9.644094e+01	1.180412e+02	-5.378420e+01	1.025642e+02
3.630718e+06	-4.416672e+01	-9.527531e+01	-3.079375e+01	-7.687056e+00	-9.973461e+01	1.333729e+02	-5.375998e+01	1.026501e+02
3.630750e+06	-4.417526e+01	-9.525571e+01	-3.079365e+01	-7.688499e+00	-1.027588e+02	1.665501e+02	-5.373581e+01	1.027355e+02
3.630781e+06	-4.418381e+01	-9.523608e+01	-3.079355e+01	-7.689941e+00	-1.017409e+02	-1.498657e+02	-5.371168e+01	1.028205e+02
3.630812e+06	-4.417775e+01	-9.527171e+01	-3.079320e+01	-7.671212e+00	-1.061033e+02	1.147170e+02	-5.372354e+01	1.029729e+02
3.630844e+06	-4.417169e+01	-9.530728e+01	-3.079285e+01	-7.652484e+00	-9.743775e+01	7.737332e+01	-5.373535e+01	1.031257e+02
3.630875e+06	-4.416563e+01	-9.534281e+01	-3.079250e+01	-7.633757e+00	-9.271992e+01	6.990740e+01	-5.374712e+01	1.032789e+02
3.630906e+06	-4.415957e+01	-9.537829e+01	-3.079214e+01	-7.615033e+00	-8.963744e+01	6.687322e+01	-5.375884e+01	1.034325e+02
3.630937e+06	-4.415352e+01	-9.541372e+01	-3.079179e+01	-7.596309e+00	-8.735685e+01	6.523737e+01	-5.377051e+01	1.035866e+02
3.630968e+06	-4.414440e+01	-9.540387e+01	-3.079235e+01	-7.609143e+00	-8.986899e+01	6.366903e+01	-5.378358e+01	1.033872e+02
3.631000e+06	-4.413522e+01	-9.539293e+01	-3.079293e+01	-7.622754e+00	-9.360645e+01	6.041320e+01	-5.379658e+01	1.031786e+02
3.631031e+06	-4.412605e+01	-9.538202e+01	-3.079351e+01	-7.636367e+00	-1.001109e+02	4.977122e+01	-5.380949e+01	1.029693e+02
3.631062e+06	-4.411689e+01	-9.537112e+01	-3.079409e+01	-7.649982e+00	-1.081077e+02	-5.155252e+01	-5.382230e+01	1.027594e+02
3.631094e+06	-4.410774e+01	-9.536025e+01	-3.079467e+01	-7.663599e+00	-9.721675e+01	-9.619466e+01	-5.383502e+01	1.025489e+02
3.631125e+06	-4.412314e+01	-9.533979e+01	-3.079502e+01	-7.662073e+00	-9.858582e+01	-7.888809e+01	-5.378610e+01	1.025724e+02
3.631156e+06	-4.413896e+01	-9.531909e+01	-3.079536e+01	-7.660300e+00	-9.912705e+01	-5.622125e+01	-5.373647e+01	1.025995e+02
3.631187e+06	-4.415482e+01	-9.529832e+01	-3.079570e+01	-7.658527e+00	-9.831946e+01	-3.427519e+01	-5.368712e+01	1.026263e+02
3.631218e+06	-4.417070e+01	-9.527747e+01	-3.079604e+01	-7.656754e+00	-9.670705e+01	-1.784457e+01	-5.363804e+01	1.026527e+02
3.631250e+06	-4.418661e+01	-9.525655e+01	-3.079638e+01	-7.654981e+00	-9.493682e+01	-6.797499e+00	-5.358924e+01	1.026789e+02
3.631281e+06	-4.418118e+01	-9.526524e+01	-3.079428e+01	-7.655035e+00	-9.770683e+01	-1.490785e+01	-5.363382e+01	1.027345e+02
3.631312e+06	-4.417558e+01	-9.527415e+01	-3.079216e+01	-7.655104e+00	-1.012713e+02	-3.224301e+01	-5.367938e+01	1.027909e+02
3.631344e+06	-4.416998e+01	-9.528306e+01	-3.079004e+01	-7.655173e+00	-1.041402e+02	-7.091993e+01	-5.372518e+01	1.028479e+02
3.631375e+06	-4.416438e+01	-9.529195e+01	-3.078793e+01	-7.655241e+00	-1.021235e+02	-1.144983e+02	-5.377121e+01	1.029055e+02
3.631406e+06	-4.415879e+01	-9.530083e+01	-3.078581e+01	-7.655310e+00	-9.844762e+01	-1.354718e+02	-5.381747e+01	1.029637e+02
3.631437e+06	-4.415789e+01	-9.531083e+01	-3.078731e+01	-7.659666e+00	-9.822297e+01	-1.184750e+02	-5.380821e+01	1.028992e+02
3.631468e+06	-4.415700e+01	-9.532083e+01	-3.078881e+01	-7.664024e+00	-9.735235e+01	-1.035422e+02	-5.379896e+01	1.028347e+02
3.631500e+06	-4.415610e+01	-9.533083e+01	-3.079031e+01	-7.668383e+00	-9.613989e+01	-9.184495e+01	-5.378970e+01	1.027705e+02
3.631531e+06	-4.415520e+01	-9.534083e+01	-3.079181e+01	-7.672744e+00	-9.483722e+01	-8.311551e+01	-5.378044e+01	1.027063e+02
3.631562e+06	-4.415430e+01	-9.535082e+01	-3.079331e+01	-7.677106e+00	-9.357325e+01	-7.663066e+01	-5.377118e+01	1.026423e+02
3.631594e+06	-4.415915e+01	-9.535375e+01	-3.079182e+01	-7.669169e+00	-9.562745e+01	-5.971346e+01	-5.376234e+01	1.027039e+02
3.631625e+06	-4.416414e+01	-9.535651e+01	-3.079026e+01	-7.660933e+00	-9.689854e+01	-3.390764e+01	-5.375351e+01	1.027684e+02
3.631656e+06	-4.416913e+01	-9.535927e+01	-3.078870e+01	-7.652699e+00	-9.621142e+01	-6.158818e+00	-5.374467e+01	1.028328e+02
3.631687e+06	-4.417413e+01	-9.536204e+01	-3.078714e+01	-7.644468e+00	-9.421681e+01	1.383500e+01	-5.373583e+01	1.028971e+02
3.631718e+06	-4.417913e+01	-9.536481e+01	-3.078557e+01	-7.636241e+00	-9.205760e+01	2.607160e+01	-5.372699e+01	1.029612e+02
3.631750e+06	-4.417517e+01	-9.541473e+01	-3.078613e+01	-7.635301e+00	-9.319356e+01	1.616637e+01	-5.375348e+01	1.029287e+02
3.631781e+06	-4.417106e+01	-9.546537e+01	-3.078672e+01	-7.634479e+00	-9.415910e+01	3.052501e+00	-5.378063e+01	1.028944e+02
3.631812e+06	-4.416694e+01	-9.551596e+01	-3.078731e+01	-7.633658e+00	-9.463964e+01	-1.249201e+01	-5.380786e+01	1.028599e+02
3.631844e+06	-4.416282e+01	-9.556651e+01	-3.078790e+01	-7.632836e+00	-9.445221e+01	-2.858426e+01	-5.383518e+01	1.028251e+02
3.631875e+06	-4.415869e+01	-9.561701e+01	-3.078850e+01	-7.632015e+00	-9.367295e+01	-4.294288e+01	-5.386257e+01	1.027902e+02
3.631906e+06	-4.416225e+01	-9.558789e+01	-3.078750e+01	-7.633767e+00	-9.486831e+01	-3.969672e+01	-5.381461e+01	1.027414e+02
3.631937e+06	-4.416587e+01	-9.555811e+01	-3.078649e+01	-7.635540e+00	-9.623032e+01	-3.515725e+01	-5.376631e+01	1.026931e+02
3.631968e+06	-4.416949e+01	-9.552831e+01	-3.078548e+01	-7.637312e+00	-9.775484e+01	-2.882203e+01	-5.371827e+01	1.026453e+02
3.632000e+06	-4.417311e+01	-9.549848e+01	-3.078448e+01	-7.639084e+00	-9.941572e+01	-1.965985e+01	-5.367049e+01	1.025980e+02
3.632031e+06	-4.417673e+01	-9.546862e+01	-3.078347e+01	-7.640856e+00	-1.010604e+02	-6.187804e+00	-5.362296e+01	1.025512e+02
