# Hz S dB R 50.000
3.627813e+06	-4.415102e+01	-9.566408e+01	-3.079475e+01	-7.498573e+00	-8.955332e+01	-1.617436e+01	-5.441469e+01	9.709957e+01
3.627844e+06	-4.415083e+01	-9.564568e+01	-3.079540e+01	-7.493135e+00	-9.213580e+01	-1.251468e+01	-5.440915e+01	9.735065e+01
3.627876e+06	-4.415065e+01	-9.562728e+01	-3.079604e+01	-7.487696e+00	-9.571732e+01	-5.057502e+00	-5.440346e+01	9.760141e+01
3.627907e+06	-4.415046e+01	-9.560889e+01	-3.079669e+01	-7.482256e+00	-1.010805e+02	1.625549e+01	-5.439760e+01	9.785183e+01
3.627938e+06	-4.415027e+01	-9.559049e+01	-3.079733e+01	-7.476815e+00	-1.038500e+02	8.423239e+01	-5.439157e+01	9.810191e+01
3.627969e+06	-4.415008e+01	-9.557219e+01	-3.079796e+01	-7.471488e+00	-9.808417e+01	1.246744e+02	-5.438560e+01	9.834732e+01
3.628000e+06	-4.414970e+01	-9.556637e+01	-3.079709e+01	-7.480364e+00	-1.012140e+02	1.114670e+02	-5.440528e+01	9.805680e+01
3.628032e+06	-4.414933e+01	-9.556055e+01	-3.079622e+01	-7.489239e+00	-1.044722e+02	8.299721e+01	-5.442478e+01	9.776497e+01
3.628063e+06	-4.414896e+01	-9.555473e+01	-3.079535e+01	-7.498111e+00	-1.044689e+02	3.909745e+01	-5.444410e+01	9.747183e+01
3.628094e+06	-4.414859e+01	-9.554892e+01	-3.079448e+01	-7.506982e+00	-1.012094e+02	1.065610e+01	-5.446324e+01	9.717739e+01
3.628126e+06	-4.414831e+01	-9.554405e+01	-3.079365e+01	-7.515686e+00	-9.813133e+01	-2.708812e+00	-5.448218e+01	9.688671e+01
3.628157e+06	-4.415411e+01	-9.559756e+01	-3.079570e+01	-7.514239e+00	-9.798709e+01	-2.262660e+01	-5.450088e+01	9.690638e+01
3.628188e+06	-4.415990e+01	-9.565115e+01	-3.079775e+01	-7.512792e+00	-9.695405e+01	-3.993349e+01	-5.451962e+01	9.692613e+01
3.628219e+06	-4.416569e+01	-9.570480e+01	-3.079981e+01	-7.511344e+00	-9.550012e+01	-5.284352e+01	-5.453840e+01	9.694596e+01
3.628250e+06	-4.417147e+01	-9.575853e+01	-3.080186e+01	-7.509896e+00	-9.398476e+01	-6.197671e+01	-5.455721e+01	9.696588e+01
3.628282e+06	-4.417707e+01	-9.580913e+01	-3.080384e+01	-7.508027e+00	-9.267359e+01	-6.819059e+01	-5.457442e+01	9.698447e+01
3.628313e+06	-4.417558e+01	-9.572959e+01	-3.080314e+01	-7.489108e+00	-9.684923e+01	-5.792034e+01	-5.452438e+01	9.694571e+01
3.628344e+06	-4.417407e+01	-9.565009e+01	-3.080244e+01	-7.470192e+00	-1.028675e+02	-2.271306e+01	-5.447463e+01	9.690738e+01
3.628376e+06	-4.417254e+01	-9.557061e+01	-3.080174e+01	-7.451279e+00	-1.012150e+02	4.965929e+01	-5.442516e+01	9.686949e+01
3.628407e+06	-4.417099e+01	-9.549115e+01	-3.080104e+01	-7.432369e+00	-9.555406e+01	7.390309e+01	-5.437597e+01	9.683203e+01
3.628438e+06	-4.416943e+01	-9.541173e+01	-3.080034e+01	-7.413462e+00	-9.180498e+01	8.189171e+01	-5.432705e+01	9.679499e+01
3.628469e+06	-4.416656e+01	-9.547718e+01	-3.079966e+01	-7.416030e+00	-9.294160e+01	6.327492e+01	-5.432093e+01	9.691384e+01
3.628500e+06	-4.416367e+01	-9.554259e+01	-3.079898e+01	-7.418597e+00	-9.303601e+01	4.169213e+01	-5.431477e+01	9.703251e+01
3.628532e+06	-4.416078e+01	-9.560795e+01	-3.079830e+01	-7.421163e+00	-9.202618e+01	2.235959e+01	-5.430858e+01	9.715102e+01
3.628563e+06	-4.415787e+01	-9.567327e+01	-3.079762e+01	-7.423730e+00	-9.046568e+01	8.103829e+00	-5.430236e+01	9.726936e+01
3.628594e+06	-4.415513e+01	-9.573807e+01	-3.079695e+01	-7.426450e+00	-8.883616e+01	-1.698597e+00	-5.429654e+01	9.738622e+01
3.628626e+06	-4.417404e+01	-9.574396e+01	-3.079638e+01	-7.448383e+00	-8.849690e+01	-8.794610e+00	-5.434552e+01	9.733971e+01
3.628657e+06	-4.419300e+01	-9.574988e+01	-3.079582e+01	-7.470313e+00	-8.805330e+01	-1.527629e+01	-5.439477e+01	9.729267e+01
3.628688e+06	-4.421199e+01	-9.575582e+01	-3.079525e+01	-7.492240e+00	-8.753656e+01	-2.107705e+01	-5.444430e+01	9.724510e+01
3.628719e+06	-4.423103e+01	-9.576179e+01	-3.079469e+01	-7.514164e+00	-8.697456e+01	-2.619841e+01	-5.449410e+01	9.719698e+01
3.628750e+06	-4.424947e+01	-9.576734e+01	-3.079412e+01	-7.535760e+00	-8.642888e+01	-3.055835e+01	-5.454335e+01	9.715358e+01
3.628782e+06	-4.422867e+01	-9.574571e+01	-3.079331e+01	-7.537337e+00	-8.850602e+01	-2.582468e+01	-5.454156e+01	9.743456e+01
3.628813e+06	-4.420792e+01	-9.572418e+01	-3.079250e+01	-7.538914e+00	-9.110239e+01	-1.769945e+01	-5.453956e+01	9.771542e+01
3.628844e+06	-4.418722e+01	-9.570276e+01	-3.079170e+01	-7.540491e+00	-9.430150e+01	-1.711076e+00	-5.453735e+01	9.799614e+01
3.628876e+06	-4.416656e+01	-9.568143e+01	-3.079089e+01	-7.542067e+00	-9.704786e+01	3.139153e+01	-5.453493e+01	9.827672e+01
3.628907e+06	-4.414663e+01	-9.566032e+01	-3.079016e+01	-7.543341e+00	-9.604814e+01	7.214051e+01	-5.453244e+01	9.854574e+01
3.628938e+06	-4.415419e+01	-9.564345e+01	-3.079270e+01	-7.532344e+00	-9.682749e+01	8.077569e+01	-5.453548e+01	9.835151e+01
3.628969e+06	-4.416175e+01	-9.562656e+01	-3.079525e+01	-7.521341e+00	-9.742899e+01	9.091333e+01	-5.453842e+01	9.815716e+01
3.629000e+06	-4.416931e+01	-9.560964e+01	-3.079779e+01	-7.510332e+00	-9.775042e+01	1.022016e+02	-5.454125e+01	9.796267e+01
3.629032e+06	-4.417688e+01	-9.559269e+01	-3.080034e+01	-7.499316e+00	-9.772306e+01	1.138840e+02	-5.454399e+01	9.776805e+01
3.629063e+06	-4.418446e+01	-9.557571e+01	-3.080288e+01	-7.488293e+00	-9.735318e+01	1.250373e+02	-5.454663e+01	9.757332e+01
3.629094e+06	-4.417992e+01	-9.566747e+01	-3.080128e+01	-7.493469e+00	-1.072872e+02	7.289303e+01	-5.453261e+01	9.763598e+01
3.629126e+06	-4.417536e+01	-9.575914e+01	-3.079968e+01	-7.498644e+00	-9.940161e+01	-1.539472e+01	-5.451859e+01	9.769843e+01
3.629157e+06	-4.417079e+01	-9.585072e+01	-3.079808e+01	-7.503816e+00	-9.325844e+01	-2.686021e+01	-5.450459e+01	9.776069e+01
3.629188e+06	-4.416619e+01	-9.594219e+01	-3.079649e+01	-7.508987e+00	-8.962153e+01	-3.055668e+01	-5.449060e+01	9.782274e+01
3.629219e+06	-4.416161e+01	-9.603175e+01	-3.079491e+01	-7.514140e+00	-8.708262e+01	-3.235626e+01	-5.447690e+01	9.788278e+01
3.629250e+06	-4.416164e+01	-9.589551e+01	-3.079650e+01	-7.517428e+00	-8.875934e+01	-3.267196e+01	-5.449637e+01	9.771787e+01
3.629282e+06	-4.416161e+01	-9.575928e+01	-3.079809e+01	-7.520716e+00	-9.083856e+01	-3.315846e+01	-5.451582e+01	9.755222e+01
3.629313e+06	-4.416154e+01	-9.562304e+01	-3.079968e+01	-7.524006e+00	-9.357608e+01	-3.400555e+01	-5.453524e+01	9.738582e+01
3.629344e+06	-4.416142e+01	-9.548681e+01	-3.080127e+01	-7.527297e+00	-9.758949e+01	-3.584859e+01	-5.455462e+01	9.721868e+01
3.629376e+06	-4.416127e+01	-9.535387e+01	-3.080284e+01	-7.530610e+00	-1.050170e+02	-4.164640e+01	-5.457313e+01	9.705249e+01
3.629407e+06	-4.416225e+01	-9.542318e+01	-3.080292e+01	-7.535220e+00	-1.020388e+02	7.586489e+00	-5.453968e+01	9.699083e+01
3.629438e+06	-4.416323e+01	-9.549251e+01	-3.080299e+01	-7.539830e+00	-9.780646e+01	2.686766e+01	-5.450634e+01	9.692964e+01
3.629469e+06	-4.416419e+01	-9.556185e+01	-3.080307e+01	-7.544441e+00	-9.467204e+01	3.499641e+01	-5.447312e+01	9.686892e+01
3.629500e+06	-4.416514e+01	-9.563120e+01	-3.080315e+01	-7.549051e+00	-9.230256e+01	3.929949e+01	-5.444002e+01	9.680866e+01
3.629532e+06	-4.416607e+01	-9.569918e+01	-3.080325e+01	-7.553532e+00	-9.046261e+01	4.187918e+01	-5.440804e+01	9.674780e+01
3.629563e+06	-4.416638e+01	-9.571057e+01	-3.080446e+01	-7.552722e+00	-9.059039e+01	4.168379e+01	-5.441708e+01	9.664376e+01
3.629594e+06	-4.416669e+01	-9.572196e+01	-3.080568e+01	-7.551912e+00	-9.071999e+01	4.148253e+01	-5.442610e+01	9.653950e+01
3.629626e+06	-4.416700e+01	-9.573334e+01	-3.080689e+01	-7.551101e+00	-9.085143e+01	4.127512e+01	-5.443511e+01	9.643503e+01
3.629657e+06	-4.416731e+01	-9.574473e+01	-3.080811e+01	-7.550291e+00	-9.098477e+01	4.106129e+01	-5.444409e+01	9.633034e+01
3.629688e+06	-4.416762e+01	-9.575612e+01	-3.080932e+01	-7.549480e+00	-9.112007e+01	4.084075e+01	-5.445306e+01	9.622543e+01
3.629719e+06	-4.417393e+01	-9.568705e+01	-3.080646e+01	-7.524693e+00	-9.238634e+01	3.855918e+01	-5.449586e+01	9.652373e+01
3.629750e+06	-4.418023e+01	-9.561787e+01	-3.080360e+01	-7.499922e+00	-9.384689e+01	3.543544e+01	-5.453864e+01	9.682497e+01
3.629782e+06	-4.418653e+01	-9.554860e+01	-3.080074e+01	-7.475168e+00	-9.555815e+01	3.093249e+01	-5.458138e+01	9.712920e+01
3.629813e+06	-4.419281e+01	-9.547922e+01	-3.079788e+01	-7.450430e+00	-9.758598e+01	2.399718e+01	-5.462409e+01	9.743644e+01
3.629844e+06	-4.419904e+01	-9.541037e+01	-3.079503e+01	-7.426113e+00	-9.995134e+01	1.243088e+01	-5.466621e+01	9.774418e+01
3.629876e+06	-4.419910e+01	-9.541882e+01	-3.079410e+01	-7.451926e+00	-1.023267e+02	-1.078819e+01	-5.464139e+01	9.773883e+01
3.629907e+06	-4.419916e+01	-9.542727e+01	-3.079316e+01	-7.477734e+00	-1.028048e+02	-4.398896e+01	-5.461664e+01	9.773351e+01
3.629938e+06	-4.419922e+01	-9.543572e+01	-3.079222e+01	-7.503536e+00	-1.008184e+02	-7.139439e+01	-5.459196e+01	9.772822e+01
3.629969e+06	-4.419928e+01	-9.544417e+01	-3.079129e+01	-7.529333e+00	-9.824688e+01	-8.719861e+01	-5.456735e+01	9.772296e+01
3.630000e+06	-4.419912e+01	-9.545336e+01	-3.079040e+01	-7.554640e+00	-9.600376e+01	-9.630460e+01	-5.454343e+01	9.771650e+01
3.630032e+06	-4.418535e+01	-9.550739e+01	-3.079265e+01	-7.550220e+00	-9.590778e+01	-1.122051e+02	-5.455808e+01	9.763471e+01
3.630063e+06	-4.417159e+01	-9.556126e+01	-3.079491e+01	-7.545797e+00	-9.521309e+01	-1.266903e+02	-5.457274e+01	9.755264e+01
3.630094e+06	-4.415784e+01	-9.561495e+01	-3.079717e+01	-7.541371e+00	-9.415113e+01	-1.384806e+02	-5.458740e+01	9.747030e+01
3.630126e+06	-4.414411e+01	-9.566847e+01	-3.079943e+01	-7.536944e+00	-9.295168e+01	-1.475420e+02	-5.460208e+01	9.738767e+01
3.630157e+06	-4.413092e+01	-9.571964e+01	-3.080158e+01	-7.532397e+00	-9.185258e+01	-1.544388e+02	-5.461476e+01	9.730580e+01
3.630188e+06	-4.413906e+01	-9.568188e+01	-3.079942e+01	-7.523089e+00	-9.538693e+01	-1.657417e+02	-5.454690e+01	9.726604e+01
3.630219e+06	-4.414720e+01	-9.564405e+01	-3.079726e+01	-7.513787e+00	-9.977140e+01	1.650663e+02	-5.447955e+01	9.722690e+01
3.630250e+06	-4.415535e+01	-9.560614e+01	-3.079510e+01	-7.504489e+00	-9.995078e+01	1.094923e+02	-5.441271e+01	9.718836e+01
3.630282e+06	-4.416350e+01	-9.556817e+01	-3.079294e+01	-7.495196e+00	-9.558340e+01	7.887466e+01	-5.434639e+01	9.715041e+01
3.630313e+06	-4.417166e+01	-9.553012e+01	-3.079078e+01	-7.485907e+00	-9.199683e+01	6.711327e+01	-5.428056e+01	9.711303e+01
3.630344e+06	-4.417376e+01	-9.548015e+01	-3.079086e+01	-7.478768e+00	-9.378048e+01	8.355352e+01	-5.432435e+01	9.714566e+01
3.630376e+06	-4.417585e+01	-9.543015e+01	-3.079094e+01	-7.471629e+00	-9.476660e+01	1.064652e+02	-5.436835e+01	9.717862e+01
3.630407e+06	-4.417794e+01	-9.538013e+01	-3.079102e+01	-7.464490e+00	-9.424536e+01	1.307151e+02	-5.441258e+01	9.721191e+01
3.630438e+06	-4.418002e+01	-9.533008e+01	-3.079110e+01	-7.457351e+00	-9.262488e+01	1.494363e+02	-5.445703e+01	9.724555e+01
3.630469e+06	-4.418207e+01	-9.528147e+01	-3.079119e+01	-7.450297e+00	-9.075898e+01	1.616460e+02	-5.450138e+01	9.728077e+01
3.630500e+06	-4.418027e+01	-9.541381e+01	-3.079262e+01	-7.453835e+00	-9.169450e+01	1.498263e+02	-5.450552e+01	9.747021e+01
3.630532e+06	-4.417843e+01	-9.554610e+01	-3.079405e+01	-7.457374e+00	-9.224993e+01	1.357514e+02	-5.450956e+01	9.765983e+01
3.630563e+06	-4.417655e+01	-9.567833e+01	-3.079548e+01	-7.460915e+00	-9.224859e+01	1.207282e+02	-5.451351e+01	9.784962e+01
3.630594e+06	-4.417462e+01	-9.581051e+01	-3.079691e+01	-7.464456e+00	-9.169098e+01	1.066613e+02	-5.451736e+01	9.803958e+01
3.630626e+06	-4.417270e+01	-9.593993e+01	-3.079829e+01	-7.468030e+00	-9.080404e+01	9.494528e+01	-5.452096e+01	9.822559e+01
3.630657e+06	-4.417447e+01	-9.590349e+01	-3.079657e+01	-7.473512e+00	-9.310772e+01	8.868041e+01	-5.451471e+01	9.815823e+01
3.630688e+06	-4.417623e+01	-9.586704e+01	-3.079484e+01	-7.478991e+00	-9.598164e+01	7.725670e+01	-5.450845e+01	9.809096e+01
3.630719e+06	-4.417799e+01	-9.583058e+01	-3.079312e+01	-7.484469e+00	-9.917137e+01	5.379758e+01	-5.450218e+01	9.802379e+01
3.630750e+06	-4.417975e+01	-9.579410e+01	-3.079139e+01	-7.489944e+00	-1.002129e+02	1.340934e+01	-5.449591e+01	9.795671e+01
3.630782e+06	-4.418137e+01	-9.575747e+01	-3.078975e+01	-7.495097e+00	-9.768955e+01	-1.835696e+01	-5.448952e+01	9.788645e+01
3.630813e+06	-4.417778e+01	-9.571533e+01	-3.079134e+01	-7.487228e+00	-9.907771e+01	-3.259733e+00	-5.447843e+01	9.768292e+01
3.630844e+06	-4.417418e+01	-9.567322e+01	-3.079294e+01	-7.479356e+00	-9.980699e+01	1.615238e+01	-5.446724e+01	9.747992e+01
3.630876e+06	-4.417058e+01	-9.563115e+01	-3.079454e+01	-7.471481e+00	-9.947353e+01	3.650866e+01	-5.445597e+01	9.727744e+01
3.630907e+06	-4.416697e+01	-9.558911e+01	-3.079613e+01	-7.463604e+00	-9.827720e+01	5.346738e+01	-5.444459e+01	9.707548e+01
3.630938e+06	-4.416336e+01	-9.554711e+01	-3.079773e+01	-7.455723e+00	-9.673767e+01	6.575807e+01	-5.443313e+01	9.687406e+01
3.630969e+06	-4.416456e+01	-9.555588e+01	-3.079566e+01	-7.456827e+00	-9.955644e+01	4.748615e+01	-5.443919e+01	9.692237e+01
3.631000e+06	-4.416577e+01	-9.556466e+01	-3.079359e+01	-7.457931e+00	-1.013660e+02	1.519730e+01	-5.444525e+01	9.697075e+01
3.631032e+06	-4.416697e+01	-9.557344e+01	-3.079151e+01	-7.459033e+00	-1.000556e+02	-1.925971e+01	-5.445130e+01	9.701919e+01
3.631063e+06	-4.416818e+01	-9.558222e+01	-3.078944e+01	-7.460136e+00	-9.726078e+01	-3.991150e+01	-5.445736e+01	9.706771e+01
3.631094e+06	-4.416937e+01	-9.559073e+01	-3.078742e+01	-7.461317e+00	-9.471772e+01	-5.076468e+01	-5.446345e+01	9.711636e+01
3.631126e+06	-4.416915e+01	-9.556614e+01	-3.079096e+01	-7.472334e+00	-9.770175e+01	-4.559691e+01	-5.447451e+01	9.717350e+01
3.631157e+06	-4.416893e+01	-9.554154e+01	-3.079450e+01	-7.483360e+00	-1.020069e+02	-3.356395e+01	-5.448558e+01	9.723080e+01
3.631188e+06	-4.416871e+01	-9.551694e+01	-3.079805e+01	-7.494394e+00	-1.076493e+02	7.377560e+00	-5.449666e+01	9.728824e+01
3.631219e+06	-4.416849e+01	-9.549235e+01	-3.080159e+01	-7.505438e+00	-1.049058e+02	7.356966e+01	-5.450774e+01	9.734582e+01
3.631250e+06	-4.416844e+01	-9.546775e+01	-3.080503e+01	-7.516280e+00	-9.973489e+01	9.500982e+01	-5.451876e+01	9.740234e+01
3.631282e+06	-4.417916e+01	-9.544294e+01	-3.080162e+01	-7.514145e+00	-1.003952e+02	1.130507e+02	-5.452576e+01	9.738437e+01
3.631313e+06	-4.418989e+01	-9.541806e+01	-3.079821e+01	-7.512012e+00	-1.001402e+02	1.319854e+02	-5.453277e+01	9.736637e+01
3.631344e+06	-4.420063e+01	-9.539312e+01	-3.079481e+01	-7.509881e+00	-9.910599e+01	1.482295e+02	-5.453978e+01	9.734834e+01
3.631376e+06	-4.421138e+01	-9.536811e+01	-3.079140e+01	-7.507751e+00	-9.771078e+01	1.604387e+02	-5.454680e+01	9.733028e+01
3.631407e+06	-4.422167e+01	-9.534463e+01	-3.078807e+01	-7.505634e+00	-9.636722e+01	1.690273e+02	-5.455272e+01	9.731308e+01
3.631438e+06	-4.421239e+01	-9.538543e+01	-3.078761e+01	-7.503975e+00	-9.998513e+01	1.689347e+02	-5.451385e+01	9.733206e+01
3.631469e+06	-4.420311e+01	-9.542614e+01	-3.078715e+01	-7.502315e+00	-1.063004e+02	1.686441e+02	-5.447516e+01	9.735087e+01
3.631500e+06	-4.419384e+01	-9.546676e+01	-3.078669e+01	-7.500656e+00	-1.294258e+02	-2.705252e+00	-5.443664e+01	9.736951e+01
3.631532e+06	-4.418458e+01	-9.550730e+01	-3.078623e+01	-7.498997e+00	-1.051763e+02	-1.029916e+01	-5.439829e+01	9.738799e+01
3.631563e+06	-4.417532e+01	-9.554775e+01	-3.078577e+01	-7.497338e+00	-9.942363e+01	-1.053854e+01	-5.436011e+01	9.740631e+01
3.631594e+06	-4.417703e+01	-9.549366e+01	-3.078544e+01	-7.502594e+00	-1.051227e+02	-3.161388e+01	-5.437565e+01	9.743417e+01
3.631626e+06	-4.417874e+01	-9.543955e+01	-3.078510e+01	-7.507850e+00	-1.079546e+02	-1.053944e+02	-5.439121e+01	9.746213e+01
3.631657e+06	-4.418044e+01	-9.538542e+01	-3.078477e+01	-7.513106e+00	-1.015482e+02	-1.449082e+02	-5.440679e+01	9.749020e+01
3.631688e+06	-4.418213e+01	-9.533126e+01	-3.078443e+01	-7.518361e+00	-9.715040e+01	-1.554767e+02	-5.442241e+01	9.751836e+01
3.631719e+06	-4.418377e+01	-9.527776e+01	-3.078413e+01	-7.523541e+00	-9.419705e+01	-1.599432e+02	-5.443816e+01	9.754755e+01
3.631750e+06	-4.418009e+01	-9.530717e+01	-3.078752e+01	-7.519386e+00	-9.750045e+01	-1.601558e+02	-5.446763e+01	9.769233e+01
3.631782e+06	-4.417641e+01	-9.533656e+01	-3.079091e+01	-7.515228e+00	-1.028963e+02	-1.607347e+02	-5.449715e+01	9.783810e+01
3.631813e+06	-4.417273e+01	-9.536592e+01	-3.079431e+01	-7.511067e+00	-1.199637e+02	-1.684446e+02	-5.452672e+01	9.798486e+01
3.631844e+06	-4.416905e+01	-9.539526e+01	-3.079771e+01	-7.506903e+00	-1.057113e+02	2.224623e+01	-5.455632e+01	9.813262e+01
3.631876e+06	-4.416546e+01	-9.542387e+01	-3.080099e+01	-7.502682e+00	-9.898108e+01	2.157481e+01	-5.458457e+01	9.827720e+01
3.631907e+06	-4.416713e+01	-9.540911e+01	-3.079707e+01	-7.495213e+00	-9.897264e+01	3.817730e+01	-5.452659e+01	9.816467e+01
3.631938e+06	-4.416880e+01	-9.539435e+01	-3.079316e+01	-7.487751e+00	-9.829620e+01	5.348873e+01	-5.446896e+01	9.805364e+01
3.631969e+06	-4.417048e+01	-9.537958e+01	-3.078925e+01	-7.480295e+00	-9.720107e+01	6.592446e+01	-5.441169e+01	9.794406e+01
3.632000e+06	-4.417215e+01	-9.536480e+01	-3.078534e+01	-7.472846e+00	-9.595058e+01	7.538576e+01	-5.435475e+01	9.783592e+01
3.632032e+06	-4.417373e+01	-9.535154e+01	-3.078156e+01	-7.465672e+00	-9.473201e+01	8.198592e+01	-5.430058e+01	9.773216e+01
3.632063e+06	-4.417179e+01	-9.540041e+01	-3.078280e+01	-7.469425e+00	-9.452828e+01	6.827619e+01	-5.434540e+01	9.775064e+01
3.632094e+06	-4.416983e+01	-9.544926e+01	-3.078403e+01	-7.473179e+00	-9.389035e+01	5.585391e+01	-5.439045e+01	9.776931e+01
3.632126e+06	-4.416787e+01	-9.549809e+01	-3.078527e+01	-7.476934e+00	-9.297842e+01	4.548642e+01	-5.443573e+01	9.778817e+01
3.632157e+06	-4.416591e+01	-9.554690e+01	-3.078650e+01	-7.480691e+00	-9.194702e+01	3.721378e+01	-5.448124e+01	9.780724e+01
3.632188e+06	-4.416394e+01	-9.559568e+01	-3.078774e+01	-7.484448e+00	-9.089727e+01	3.071235e+01	-5.452700e+01	9.782650e+01
3.632219e+06	-4.416220e+01	-9.557064e+01	-3.078721e+01	-7.483118e+00	-9.322622e+01	2.910013e+01	-5.452826e+01	9.767655e+01
3.632250e+06	-4.416045e+01	-9.554562e+01	-3.078667e+01	-7.481789e+00	-9.639933e+01	2.606154e+01	-5.452947e+01	9.752656e+01
3.632282e+06	-4.415870e+01	-9.552060e+01	-3.078614e+01	-7.480460e+00	-1.013395e+02	1.830873e+01	-5.453062e+01	9.737653e+01
3.632313e+06	-4.415696e+01	-9.549560e+01	-3.078561e+01	-7.479130e+00	-1.105732e+02	-2.530323e+01	-5.453170e+01	9.722646e+01
3.632344e+06	-4.415521e+01	-9.547092e+01	-3.078509e+01	-7.477822e+00	-1.045701e+02	-1.179456e+02	-5.453266e+01	9.707739e+01
3.632376e+06	-4.415399e+01	-9.548633e+01	-3.078679e+01	-7.479010e+00	-9.932454e+01	-1.257173e+02	-5.452538e+01	9.705615e+01
3.632407e+06	-4.415276e+01	-9.550173e+01	-3.078849e+01	-7.480198e+00	-9.603613e+01	-1.286192e+02	-5.451811e+01	9.703494e+01
3.632438e+06	-4.415154e+01	-9.551713e+01	-3.079019e+01	-7.481387e+00	-9.364765e+01	-1.301282e+02	-5.451084e+01	9.701376e+01
3.632469e+06	-4.415032e+01	-9.553253e+01	-3.079190e+01	-7.482577e+00	-9.177334e+01	-1.310519e+02	-5.450357e+01	9.699263e+01
3.632500e+06	-4.414919e+01	-9.554835e+01	-3.079356e+01	-7.483675e+00	-9.028778e+01	-1.317576e+02	-5.449660e+01	9.697738e+01
3.632532e+06	-4.415418e+01	-9.559077e+01	-3.079276e+01	-7.479090e+00	-9.264283e+01	-1.392529e+02	-5.450726e+01	9.732275e+01
3.632563e+06	-4.415918e+01	-9.563325e+01	-3.079197e+01	-7.474506e+00	-9.549181e+01	-1.529907e+02	-5.451762e+01	9.766896e+01
3.632594e+06	-4.416417e+01	-9.567577e+01	-3.079118e+01	-7.469923e+00	-9.822322e+01	-1.798299e+02	-5.452767e+01	9.801598e+01
3.632626e+06	-4.416915e+01	-9.571834e+01	-3.079038e+01	-7.465341e+00	-9.827735e+01	1.416938e+02	-5.453742e+01	9.836380e+01
3.632657e+06	-4.417408e+01	-9.575851e+01	-3.078955e+01	-7.461179e+00	-9.565761e+01	1.148519e+02	-5.454683e+01	9.870046e+01
3.632688e+06	-4.417639e+01	-9.569895e+01	-3.078690e+01	-7.474051e+00	-9.591854e+01	1.151333e+02	-5.455499e+01	9.855227e+01
3.632719e+06	-4.417870e+01	-9.563937e+01	-3.078425e+01	-7.486915e+00	-9.618733e+01	1.154323e+02	-5.456310e+01	9.840381e+01
3.632750e+06	-4.418100e+01	-9.557975e+01	-3.078160e+01	-7.499771e+00	-9.646444e+01	1.157507e+02	-5.457116e+01	9.825507e+01
3.632782e+06	-4.418329e+01	-9.552009e+01	-3.077895e+01	-7.512619e+00	-9.675039e+01	1.160904e+02	-5.457916e+01	9.810605e+01
3.632813e+06	-4.418557e+01	-9.546041e+01	-3.077630e+01	-7.525459e+00	-9.704574e+01	1.164537e+02	-5.458712e+01	9.795676e+01
