# Hz S dB R 50.000
3.625469e+06	-4.490411e+01	-9.499540e+01	-3.074835e+01	-7.646798e+00	-9.809340e+01	1.186581e+02	-5.248847e+01	1.074308e+02
3.625500e+06	-4.488231e+01	-9.493876e+01	-3.074797e+01	-7.671253e+00	-9.786183e+01	1.155469e+02	-5.247655e+01	1.072496e+02
3.625532e+06	-4.486056e+01	-9.488241e+01	-3.074760e+01	-7.695706e+00	-9.761266e+01	1.126033e+02	-5.246456e+01	1.070688e+02
3.625563e+06	-4.483886e+01	-9.482633e+01	-3.074722e+01	-7.720157e+00	-9.734944e+01	1.098285e+02	-5.245250e+01	1.068886e+02
3.625594e+06	-4.481720e+01	-9.477054e+01	-3.074684e+01	-7.744605e+00	-9.707536e+01	1.072203e+02	-5.244038e+01	1.067088e+02
3.625625e+06	-4.479581e+01	-9.471579e+01	-3.074649e+01	-7.768949e+00	-9.680488e+01	1.045799e+02	-5.242828e+01	1.065312e+02
3.625656e+06	-4.480197e+01	-9.475709e+01	-3.075055e+01	-7.780552e+00	-9.694635e+01	7.636366e+01	-5.242816e+01	1.065596e+02
3.625688e+06	-4.480813e+01	-9.479845e+01	-3.075461e+01	-7.792165e+00	-9.533100e+01	5.284734e+01	-5.242804e+01	1.065880e+02
3.625719e+06	-4.481428e+01	-9.483987e+01	-3.075868e+01	-7.803790e+00	-9.317186e+01	3.787335e+01	-5.242791e+01	1.066164e+02
3.625750e+06	-4.482044e+01	-9.488135e+01	-3.076274e+01	-7.815425e+00	-9.114546e+01	2.869073e+01	-5.242779e+01	1.066448e+02
3.625782e+06	-4.482637e+01	-9.492343e+01	-3.076674e+01	-7.827035e+00	-8.943496e+01	2.278893e+01	-5.242749e+01	1.066748e+02
3.625813e+06	-4.481833e+01	-9.499907e+01	-3.076673e+01	-7.836430e+00	-9.109284e+01	1.847844e+01	-5.241696e+01	1.068071e+02
3.625844e+06	-4.481029e+01	-9.507457e+01	-3.076672e+01	-7.845824e+00	-9.304929e+01	1.193543e+01	-5.240640e+01	1.069390e+02
3.625875e+06	-4.480223e+01	-9.514993e+01	-3.076671e+01	-7.855219e+00	-9.533196e+01	1.237111e+00	-5.239580e+01	1.070707e+02
3.625906e+06	-4.479417e+01	-9.522515e+01	-3.076670e+01	-7.864613e+00	-9.770046e+01	-1.725180e+01	-5.238518e+01	1.072020e+02
3.625938e+06	-4.478610e+01	-9.530023e+01	-3.076669e+01	-7.874008e+00	-9.899359e+01	-4.615949e+01	-5.237452e+01	1.073330e+02
3.625969e+06	-4.479419e+01	-9.523227e+01	-3.076540e+01	-7.880305e+00	-1.076336e+02	-1.300024e+02	-5.239262e+01	1.072832e+02
3.626000e+06	-4.480241e+01	-9.516303e+01	-3.076409e+01	-7.886576e+00	-9.753163e+01	1.721677e+02	-5.241099e+01	1.072318e+02
3.626032e+06	-4.481062e+01	-9.509365e+01	-3.076279e+01	-7.892844e+00	-9.217609e+01	1.639576e+02	-5.242939e+01	1.071802e+02
3.626063e+06	-4.481882e+01	-9.502415e+01	-3.076148e+01	-7.899111e+00	-8.884293e+01	1.609472e+02	-5.244782e+01	1.071284e+02
3.626094e+06	-4.482702e+01	-9.495451e+01	-3.076018e+01	-7.905376e+00	-8.643066e+01	1.593941e+02	-5.246628e+01	1.070763e+02
3.626125e+06	-4.482745e+01	-9.494310e+01	-3.076222e+01	-7.920622e+00	-8.913178e+01	1.616753e+02	-5.243764e+01	1.068996e+02
3.626156e+06	-4.482787e+01	-9.493168e+01	-3.076425e+01	-7.935874e+00	-9.302671e+01	1.665547e+02	-5.240901e+01	1.067241e+02
3.626188e+06	-4.482830e+01	-9.492027e+01	-3.076629e+01	-7.951134e+00	-9.977984e+01	-1.765983e+02	-5.238039e+01	1.065498e+02
3.626219e+06	-4.482873e+01	-9.490886e+01	-3.076832e+01	-7.966401e+00	-1.037104e+02	-7.913648e+01	-5.235179e+01	1.063766e+02
3.626250e+06	-4.482921e+01	-9.489765e+01	-3.077036e+01	-7.981457e+00	-9.515232e+01	-4.381214e+01	-5.232347e+01	1.062074e+02
3.626282e+06	-4.483680e+01	-9.491220e+01	-3.077254e+01	-7.969461e+00	-9.722526e+01	-1.880508e+01	-5.232780e+01	1.063891e+02
3.626313e+06	-4.484440e+01	-9.492679e+01	-3.077473e+01	-7.957460e+00	-9.718369e+01	1.347854e+01	-5.233205e+01	1.065709e+02
3.626344e+06	-4.485201e+01	-9.494140e+01	-3.077692e+01	-7.945452e+00	-9.507526e+01	3.812357e+01	-5.233621e+01	1.067530e+02
3.626375e+06	-4.485962e+01	-9.495603e+01	-3.077911e+01	-7.933438e+00	-9.261190e+01	5.238483e+01	-5.234028e+01	1.069352e+02
3.626406e+06	-4.486704e+01	-9.497070e+01	-3.078127e+01	-7.921756e+00	-9.048966e+01	6.058543e+01	-5.234466e+01	1.071158e+02
3.626438e+06	-4.486211e+01	-9.498553e+01	-3.078174e+01	-7.930810e+00	-9.145418e+01	6.020261e+01	-5.237314e+01	1.071821e+02
3.626469e+06	-4.485718e+01	-9.500035e+01	-3.078221e+01	-7.939864e+00	-9.253878e+01	5.971794e+01	-5.240170e+01	1.072488e+02
3.626500e+06	-4.485226e+01	-9.501515e+01	-3.078268e+01	-7.948920e+00	-9.377747e+01	5.908463e+01	-5.243033e+01	1.073160e+02
3.626532e+06	-4.484733e+01	-9.502993e+01	-3.078315e+01	-7.957977e+00	-9.522097e+01	5.822219e+01	-5.245906e+01	1.073837e+02
3.626563e+06	-4.484241e+01	-9.504470e+01	-3.078363e+01	-7.967035e+00	-9.694965e+01	5.697951e+01	-5.248786e+01	1.074518e+02
3.626594e+06	-4.484196e+01	-9.502659e+01	-3.078287e+01	-7.971435e+00	-9.923799e+01	6.212303e+01	-5.248262e+01	1.072355e+02
3.626625e+06	-4.484154e+01	-9.500821e+01	-3.078211e+01	-7.975796e+00	-1.021697e+02	7.161631e+01	-5.247698e+01	1.070173e+02
3.626656e+06	-4.484112e+01	-9.498983e+01	-3.078134e+01	-7.980157e+00	-1.057849e+02	9.213233e+01	-5.247122e+01	1.067994e+02
3.626688e+06	-4.484070e+01	-9.497145e+01	-3.078058e+01	-7.984518e+00	-1.078699e+02	1.346293e+02	-5.246534e+01	1.065817e+02
3.626719e+06	-4.484028e+01	-9.495308e+01	-3.077981e+01	-7.988877e+00	-1.051589e+02	1.735746e+02	-5.245934e+01	1.063644e+02
3.626750e+06	-4.483692e+01	-9.497365e+01	-3.078035e+01	-7.986482e+00	-1.090944e+02	8.725073e+01	-5.245649e+01	1.065592e+02
3.626782e+06	-4.483356e+01	-9.499420e+01	-3.078090e+01	-7.984087e+00	-1.012615e+02	4.767169e+01	-5.245354e+01	1.067539e+02
3.626813e+06	-4.483021e+01	-9.501474e+01	-3.078144e+01	-7.981692e+00	-9.661736e+01	3.895840e+01	-5.245050e+01	1.069485e+02
3.626844e+06	-4.482685e+01	-9.503526e+01	-3.078199e+01	-7.979297e+00	-9.354915e+01	3.538427e+01	-5.244735e+01	1.071429e+02
3.626875e+06	-4.482348e+01	-9.505560e+01	-3.078252e+01	-7.977128e+00	-9.129952e+01	3.360421e+01	-5.244408e+01	1.073364e+02
3.626906e+06	-4.481854e+01	-9.505613e+01	-3.078093e+01	-8.003151e+00	-9.228104e+01	5.344328e+01	-5.243753e+01	1.074367e+02
3.626938e+06	-4.481360e+01	-9.505666e+01	-3.077935e+01	-8.029165e+00	-9.210717e+01	7.531008e+01	-5.243096e+01	1.075369e+02
3.626969e+06	-4.480866e+01	-9.505719e+01	-3.077776e+01	-8.055169e+00	-9.089447e+01	9.382172e+01	-5.242436e+01	1.076369e+02
3.627000e+06	-4.480373e+01	-9.505772e+01	-3.077617e+01	-8.081164e+00	-8.925811e+01	1.070429e+02	-5.241775e+01	1.077368e+02
3.627032e+06	-4.479903e+01	-9.505816e+01	-3.077463e+01	-8.106518e+00	-8.767082e+01	1.159426e+02	-5.241130e+01	1.078320e+02
3.627063e+06	-4.480821e+01	-9.505312e+01	-3.077579e+01	-8.093095e+00	-9.002767e+01	1.160339e+02	-5.241634e+01	1.076497e+02
3.627094e+06	-4.481739e+01	-9.504807e+01	-3.077696e+01	-8.079668e+00	-9.327235e+01	1.162080e+02	-5.242130e+01	1.074672e+02
3.627125e+06	-4.482659e+01	-9.504301e+01	-3.077812e+01	-8.066237e+00	-9.851053e+01	1.166702e+02	-5.242617e+01	1.072844e+02
3.627156e+06	-4.483580e+01	-9.503793e+01	-3.077929e+01	-8.052803e+00	-1.137511e+02	1.215603e+02	-5.243095e+01	1.071015e+02
3.627188e+06	-4.484502e+01	-9.503285e+01	-3.078045e+01	-8.039366e+00	-1.021727e+02	-6.590635e+01	-5.243565e+01	1.069184e+02
3.627219e+06	-4.484345e+01	-9.502189e+01	-3.078117e+01	-8.027180e+00	-9.881463e+01	-4.329253e+01	-5.240279e+01	1.070783e+02
3.627250e+06	-4.484179e+01	-9.501088e+01	-3.078189e+01	-8.015002e+00	-9.592320e+01	-3.230771e+01	-5.236969e+01	1.072397e+02
3.627282e+06	-4.484014e+01	-9.499988e+01	-3.078260e+01	-8.002822e+00	-9.362123e+01	-2.629240e+01	-5.233664e+01	1.074000e+02
3.627313e+06	-4.483848e+01	-9.498888e+01	-3.078332e+01	-7.990641e+00	-9.175528e+01	-2.257389e+01	-5.230365e+01	1.075590e+02
3.627344e+06	-4.483683e+01	-9.497789e+01	-3.078403e+01	-7.978457e+00	-9.019949e+01	-2.006712e+01	-5.227072e+01	1.077168e+02
3.627375e+06	-4.483312e+01	-9.497973e+01	-3.078502e+01	-7.970447e+00	-9.198197e+01	-1.884545e+01	-5.230361e+01	1.077046e+02
3.627406e+06	-4.482942e+01	-9.498157e+01	-3.078601e+01	-7.962434e+00	-9.421913e+01	-1.690462e+01	-5.233663e+01	1.076924e+02
3.627438e+06	-4.482572e+01	-9.498341e+01	-3.078700e+01	-7.954420e+00	-9.721447e+01	-1.335806e+01	-5.236977e+01	1.076801e+02
3.627469e+06	-4.482202e+01	-9.498525e+01	-3.078799e+01	-7.946405e+00	-1.016900e+02	-4.951233e+00	-5.240304e+01	1.076676e+02
3.627500e+06	-4.481836e+01	-9.498747e+01	-3.078898e+01	-7.938382e+00	-1.091232e+02	3.015944e+01	-5.243613e+01	1.076535e+02
3.627532e+06	-4.481920e+01	-9.503775e+01	-3.078987e+01	-7.929723e+00	-1.081779e+02	6.570627e+01	-5.243094e+01	1.074384e+02
3.627563e+06	-4.482003e+01	-9.508803e+01	-3.079076e+01	-7.921062e+00	-1.054238e+02	8.802378e+01	-5.242564e+01	1.072237e+02
3.627594e+06	-4.482086e+01	-9.513832e+01	-3.079165e+01	-7.912400e+00	-1.027863e+02	9.980226e+01	-5.242021e+01	1.070092e+02
3.627625e+06	-4.482168e+01	-9.518862e+01	-3.079254e+01	-7.903736e+00	-1.005996e+02	1.065291e+02	-5.241467e+01	1.067949e+02
3.627656e+06	-4.482250e+01	-9.523647e+01	-3.079340e+01	-7.895393e+00	-9.875352e+01	1.103183e+02	-5.240919e+01	1.065868e+02
3.627688e+06	-4.482350e+01	-9.513264e+01	-3.079250e+01	-7.906902e+00	-9.505322e+01	9.401397e+01	-5.241505e+01	1.067340e+02
3.627719e+06	-4.482447e+01	-9.502879e+01	-3.079160e+01	-7.918409e+00	-9.222207e+01	8.640847e+01	-5.242084e+01	1.068814e+02
3.627750e+06	-4.482542e+01	-9.492491e+01	-3.079070e+01	-7.929913e+00	-9.002337e+01	8.215485e+01	-5.242659e+01	1.070290e+02
3.627782e+06	-4.482633e+01	-9.482101e+01	-3.078981e+01	-7.941415e+00	-8.824558e+01	7.946521e+01	-5.243228e+01	1.071768e+02
3.627813e+06	-4.482722e+01	-9.471709e+01	-3.078891e+01	-7.952915e+00	-8.675948e+01	7.761842e+01	-5.243792e+01	1.073248e+02
3.627844e+06	-4.482418e+01	-9.472315e+01	-3.079049e+01	-7.951391e+00	-8.760569e+01	6.820382e+01	-5.245889e+01	1.072674e+02
3.627875e+06	-4.482110e+01	-9.473009e+01	-3.079210e+01	-7.949762e+00	-8.825136e+01	5.691309e+01	-5.248004e+01	1.072080e+02
3.627906e+06	-4.481803e+01	-9.473702e+01	-3.079371e+01	-7.948132e+00	-8.854321e+01	4.431548e+01	-5.250123e+01	1.071484e+02
3.627938e+06	-4.481495e+01	-9.474395e+01	-3.079531e+01	-7.946501e+00	-8.840468e+01	3.148973e+01	-5.252246e+01	1.070884e+02
3.627969e+06	-4.481188e+01	-9.475088e+01	-3.079692e+01	-7.944870e+00	-8.787345e+01	1.963021e+01	-5.254373e+01	1.070282e+02
3.628000e+06	-4.481917e+01	-9.478377e+01	-3.079572e+01	-7.965002e+00	-8.818834e+01	2.293877e+01	-5.250701e+01	1.070634e+02
3.628032e+06	-4.482647e+01	-9.481672e+01	-3.079451e+01	-7.985128e+00	-8.848283e+01	2.648808e+01	-5.247045e+01	1.070982e+02
3.628063e+06	-4.483376e+01	-9.484972e+01	-3.079330e+01	-8.005248e+00	-8.875083e+01	3.027518e+01	-5.243403e+01	1.071328e+02
3.628094e+06	-4.484106e+01	-9.488278e+01	-3.079210e+01	-8.025363e+00	-8.898587e+01	3.428844e+01	-5.239776e+01	1.071671e+02
3.628125e+06	-4.484824e+01	-9.491526e+01	-3.079088e+01	-8.045208e+00	-8.918458e+01	3.841471e+01	-5.236196e+01	1.072018e+02
3.628156e+06	-4.483970e+01	-9.486958e+01	-3.078814e+01	-8.032248e+00	-8.969635e+01	3.085120e+01	-5.236568e+01	1.073247e+02
3.628188e+06	-4.483116e+01	-9.482398e+01	-3.078540e+01	-8.019295e+00	-9.006217e+01	2.247807e+01	-5.236935e+01	1.074477e+02
3.628219e+06	-4.482262e+01	-9.477847e+01	-3.078267e+01	-8.006351e+00	-9.023815e+01	1.356176e+01	-5.237299e+01	1.075708e+02
3.628250e+06	-4.481409e+01	-9.473305e+01	-3.077993e+01	-7.993415e+00	-9.020005e+01	4.501597e+00	-5.237659e+01	1.076941e+02
3.628282e+06	-4.480586e+01	-9.468998e+01	-3.077729e+01	-7.981026e+00	-8.997072e+01	-4.034395e+00	-5.238024e+01	1.078127e+02
3.628313e+06	-4.481652e+01	-9.478549e+01	-3.078015e+01	-8.001752e+00	-9.069870e+01	2.353002e+00	-5.238897e+01	1.076417e+02
3.628344e+06	-4.482716e+01	-9.488125e+01	-3.078302e+01	-8.022492e+00	-9.135474e+01	9.849611e+00	-5.239763e+01	1.074704e+02
3.628375e+06	-4.483780e+01	-9.497724e+01	-3.078589e+01	-8.043246e+00	-9.187984e+01	1.844593e+01	-5.240621e+01	1.072988e+02
3.628406e+06	-4.484842e+01	-9.507346e+01	-3.078876e+01	-8.064014e+00	-9.220912e+01	2.793862e+01	-5.241473e+01	1.071268e+02
3.628438e+06	-4.485904e+01	-9.516992e+01	-3.079163e+01	-8.084796e+00	-9.229195e+01	3.789715e+01	-5.242318e+01	1.069545e+02
3.628469e+06	-4.485452e+01	-9.506058e+01	-3.079067e+01	-8.064761e+00	-9.133152e+01	2.768165e+01	-5.242217e+01	1.068895e+02
3.628500e+06	-4.484985e+01	-9.494970e+01	-3.078967e+01	-8.044403e+00	-9.025788e+01	1.948578e+01	-5.242107e+01	1.068254e+02
3.628532e+06	-4.484515e+01	-9.483894e+01	-3.078868e+01	-8.024048e+00	-8.917842e+01	1.309787e+01	-5.241996e+01	1.067613e+02
3.628563e+06	-4.484042e+01	-9.472830e+01	-3.078769e+01	-8.003699e+00	-8.814271e+01	8.094622e+00	-5.241883e+01	1.066972e+02
3.628594e+06	-4.483566e+01	-9.461778e+01	-3.078669e+01	-7.983354e+00	-8.717023e+01	4.126018e+00	-5.241770e+01	1.066331e+02
3.628625e+06	-4.483374e+01	-9.469181e+01	-3.078698e+01	-7.986154e+00	-8.792767e+01	4.365683e+00	-5.242433e+01	1.068529e+02
3.628656e+06	-4.483181e+01	-9.476580e+01	-3.078727e+01	-7.988955e+00	-8.875732e+01	4.653396e+00	-5.243084e+01	1.070730e+02
3.628688e+06	-4.482987e+01	-9.483977e+01	-3.078756e+01	-7.991755e+00	-8.967437e+01	5.005197e+00	-5.243723e+01	1.072934e+02
3.628719e+06	-4.482791e+01	-9.491370e+01	-3.078784e+01	-7.994556e+00	-9.069934e+01	5.445142e+00	-5.244349e+01	1.075141e+02
3.628750e+06	-4.482597e+01	-9.498633e+01	-3.078813e+01	-7.997389e+00	-9.186229e+01	5.954200e+00	-5.244956e+01	1.077298e+02
3.628782e+06	-4.482855e+01	-9.490218e+01	-3.078777e+01	-8.004161e+00	-9.333110e+01	-1.725522e+00	-5.244643e+01	1.072793e+02
3.628813e+06	-4.483112e+01	-9.481798e+01	-3.078741e+01	-8.010932e+00	-9.483108e+01	-1.256675e+01	-5.244276e+01	1.068292e+02
3.628844e+06	-4.483366e+01	-9.473373e+01	-3.078705e+01	-8.017703e+00	-9.611896e+01	-2.759356e+01	-5.243856e+01	1.063794e+02
3.628875e+06	-4.483619e+01	-9.464943e+01	-3.078669e+01	-8.024473e+00	-9.675116e+01	-4.646304e+01	-5.243383e+01	1.059302e+02
3.628906e+06	-4.483877e+01	-9.456670e+01	-3.078635e+01	-8.030807e+00	-9.642911e+01	-6.575304e+01	-5.242845e+01	1.054921e+02
3.628938e+06	-4.484596e+01	-9.458347e+01	-3.078679e+01	-8.010339e+00	-9.792637e+01	-7.210467e+01	-5.241516e+01	1.057101e+02
3.628969e+06	-4.485315e+01	-9.460027e+01	-3.078724e+01	-7.989870e+00	-9.954852e+01	-8.122058e+01	-5.240177e+01	1.059274e+02
3.629000e+06	-4.486035e+01	-9.461709e+01	-3.078768e+01	-7.969398e+00	-1.011450e+02	-9.448804e+01	-5.238828e+01	1.061441e+02
3.629032e+06	-4.486755e+01	-9.463394e+01	-3.078812e+01	-7.948925e+00	-1.023058e+02	-1.128634e+02	-5.237468e+01	1.063601e+02
3.629063e+06	-4.487475e+01	-9.465082e+01	-3.078857e+01	-7.928449e+00	-1.024489e+02	-1.343509e+02	-5.236098e+01	1.065754e+02
3.629094e+06	-4.487312e+01	-9.469169e+01	-3.079093e+01	-7.933562e+00	-1.139156e+02	-1.372241e+02	-5.234191e+01	1.066314e+02
3.629125e+06	-4.487140e+01	-9.473273e+01	-3.079331e+01	-7.938884e+00	-1.089437e+02	4.854050e+01	-5.232284e+01	1.066859e+02
3.629156e+06	-4.486969e+01	-9.477375e+01	-3.079569e+01	-7.944210e+00	-1.007723e+02	4.727312e+01	-5.230380e+01	1.067402e+02
3.629188e+06	-4.486796e+01	-9.481476e+01	-3.079808e+01	-7.949538e+00	-9.663696e+01	4.696584e+01	-5.228479e+01	1.067942e+02
3.629219e+06	-4.486624e+01	-9.485575e+01	-3.080046e+01	-7.954869e+00	-9.384685e+01	4.682740e+01	-5.226582e+01	1.068480e+02
3.629250e+06	-4.484892e+01	-9.488912e+01	-3.079748e+01	-7.951976e+00	-9.476169e+01	2.958418e+01	-5.229282e+01	1.069105e+02
3.629282e+06	-4.483162e+01	-9.492235e+01	-3.079451e+01	-7.949084e+00	-9.480559e+01	1.025334e+01	-5.231990e+01	1.069734e+02
3.629313e+06	-4.481436e+01	-9.495546e+01	-3.079153e+01	-7.946195e+00	-9.395432e+01	-7.302769e+00	-5.234705e+01	1.070367e+02
3.629344e+06	-4.479713e+01	-9.498843e+01	-3.078856e+01	-7.943307e+00	-9.260507e+01	-2.084328e+01	-5.237427e+01	1.071004e+02
3.629375e+06	-4.478015e+01	-9.502035e+01	-3.078562e+01	-7.940427e+00	-9.114292e+01	-3.059868e+01	-5.240129e+01	1.071645e+02
3.629406e+06	-4.479077e+01	-9.493716e+01	-3.078690e+01	-7.938207e+00	-9.085519e+01	-4.034924e+01	-5.239379e+01	1.072280e+02
3.629438e+06	-4.480137e+01	-9.485378e+01	-3.078817e+01	-7.935986e+00	-9.035477e+01	-4.924681e+01	-5.238629e+01	1.072913e+02
3.629469e+06	-4.481197e+01	-9.477019e+01	-3.078945e+01	-7.933765e+00	-8.970815e+01	-5.703633e+01	-5.237879e+01	1.073546e+02
3.629500e+06	-4.482257e+01	-9.468640e+01	-3.079072e+01	-7.931542e+00	-8.897871e+01	-6.367900e+01	-5.237128e+01	1.074177e+02
3.629532e+06	-4.483289e+01	-9.460544e+01	-3.079194e+01	-7.929606e+00	-8.825791e+01	-6.915214e+01	-5.236403e+01	1.074780e+02
3.629563e+06	-4.482690e+01	-9.471080e+01	-3.078927e+01	-7.945290e+00	-9.041855e+01	-6.635369e+01	-5.237256e+01	1.073718e+02
3.629594e+06	-4.482087e+01	-9.481601e+01	-3.078661e+01	-7.960964e+00	-9.324990e+01	-6.137757e+01	-5.238107e+01	1.072653e+02
3.629625e+06	-4.481482e+01	-9.492108e+01	-3.078395e+01	-7.976629e+00	-9.724401e+01	-5.040585e+01	-5.238956e+01	1.071587e+02
3.629656e+06	-4.480875e+01	-9.502601e+01	-3.078128e+01	-7.992284e+00	-1.026349e+02	-1.630042e+01	-5.239803e+01	1.070518e+02
3.629688e+06	-4.480265e+01	-9.513078e+01	-3.077862e+01	-8.007929e+00	-1.014979e+02	4.990998e+01	-5.240647e+01	1.069448e+02
3.629719e+06	-4.480782e+01	-9.506871e+01	-3.077823e+01	-8.010305e+00	-9.935579e+01	6.553892e+01	-5.239658e+01	1.070009e+02
3.629750e+06	-4.481307e+01	-9.500522e+01	-3.077785e+01	-8.012575e+00	-9.733802e+01	7.504998e+01	-5.238655e+01	1.070583e+02
3.629782e+06	-4.481831e+01	-9.494165e+01	-3.077748e+01	-8.014844e+00	-9.557379e+01	8.118707e+01	-5.237652e+01	1.071155e+02
3.629813e+06	-4.482354e+01	-9.487800e+01	-3.077710e+01	-8.017113e+00	-9.405050e+01	8.538606e+01	-5.236649e+01	1.071726e+02
3.629844e+06	-4.482877e+01	-9.481428e+01	-3.077673e+01	-8.019382e+00	-9.272599e+01	8.840997e+01	-5.235647e+01	1.072295e+02
3.629875e+06	-4.483422e+01	-9.480017e+01	-3.077732e+01	-8.027020e+00	-9.319161e+01	8.817687e+01	-5.236889e+01	1.071632e+02
3.629906e+06	-4.483967e+01	-9.478604e+01	-3.077792e+01	-8.034660e+00	-9.368344e+01	8.791660e+01	-5.238132e+01	1.070967e+02
3.629938e+06	-4.484512e+01	-9.477190e+01	-3.077851e+01	-8.042300e+00	-9.420458e+01	8.762414e+01	-5.239375e+01	1.070300e+02
3.629969e+06	-4.485058e+01	-9.475774e+01	-3.077910e+01	-8.049942e+00	-9.475873e+01	8.729314e+01	-5.240619e+01	1.069631e+02
3.630000e+06	-4.485586e+01	-9.474375e+01	-3.077970e+01	-8.057428e+00	-9.536946e+01	8.675388e+01	-5.241842e+01	1.068976e+02
3.630032e+06	-4.483995e+01	-9.475311e+01	-3.078095e+01	-8.045585e+00	-9.790623e+01	5.788086e+01	-5.240346e+01	1.070260e+02
3.630063e+06	-4.482407e+01	-9.476244e+01	-3.078219e+01	-8.033739e+00	-9.748217e+01	1.986809e+01	-5.238849e+01	1.071539e+02
3.630094e+06	-4.480822e+01	-9.477174e+01	-3.078344e+01	-8.021890e+00	-9.468175e+01	-5.273489e+00	-5.237350e+01	1.072814e+02
3.630125e+06	-4.479239e+01	-9.478101e+01	-3.078468e+01	-8.010037e+00	-9.189041e+01	-1.816933e+01	-5.235849e+01	1.074084e+02
3.630156e+06	-4.477695e+01	-9.478999e+01	-3.078592e+01	-7.998446e+00	-8.965537e+01	-2.526612e+01	-5.234385e+01	1.075324e+02
3.630188e+06	-4.478303e+01	-9.478364e+01	-3.078647e+01	-8.003218e+00	-9.191897e+01	-2.940492e+01	-5.235288e+01	1.074947e+02
3.630219e+06	-4.478911e+01	-9.477729e+01	-3.078702e+01	-8.007990e+00	-9.487114e+01	-3.696536e+01	-5.236190e+01	1.074570e+02
3.630250e+06	-4.479520e+01	-9.477092e+01	-3.078757e+01	-8.012763e+00	-9.881662e+01	-5.388933e+01	-5.237094e+01	1.074192e+02
3.630282e+06	-4.480129e+01	-9.476455e+01	-3.078812e+01	-8.017536e+00	-1.022510e+02	-9.679805e+01	-5.237997e+01	1.073813e+02
3.630313e+06	-4.480738e+01	-9.475817e+01	-3.078868e+01	-8.022310e+00	-9.956867e+01	-1.447350e+02	-5.238902e+01	1.073433e+02
3.630344e+06	-4.480924e+01	-9.477916e+01	-3.078730e+01	-8.023345e+00	-1.010552e+02	-1.705351e+02	-5.243253e+01	1.072914e+02
3.630375e+06	-4.481107e+01	-9.480038e+01	-3.078590e+01	-8.024349e+00	-1.005515e+02	1.601985e+02	-5.247653e+01	1.072388e+02
3.630406e+06	-4.481289e+01	-9.482161e+01	-3.078451e+01	-8.025353e+00	-9.851668e+01	1.387921e+02	-5.252075e+01	1.071857e+02
3.630438e+06	-4.481472e+01	-9.484285e+01	-3.078311e+01	-8.026357e+00	-9.626455e+01	1.259184e+02	-5.256518e+01	1.071321e+02
3.630469e+06	-4.481654e+01	-9.486410e+01	-3.078172e+01	-8.027360e+00	-9.426003e+01	1.180738e+02	-5.260984e+01	1.070779e+02
3.630500e+06	-4.482010e+01	-9.482544e+01	-3.078185e+01	-8.025701e+00	-9.712314e+01	1.081970e+02	-5.258494e+01	1.072498e+02
