!CETC41,AV3656A,ZGL00048,1.3.2
!Calibration ON (Full Solt 2-Port(Omit Isolation))
!Measurements: S11 S21 S12 S22
!2025-04-22 21:19
# Hz  S  dB  R 50.000
1.095000e+007	-4.430191e+001	-8.470964e+001	-3.078161e+001	-2.293011e+001	-9.230988e+001	1.014551e+002	-4.464539e+001	1.127795e+002
1.095001e+007	-4.432070e+001	-8.487324e+001	-3.078631e+001	-2.301630e+001	-9.294279e+001	1.045746e+002	-4.465426e+001	1.127416e+002
1.095002e+007	-4.429350e+001	-8.474128e+001	-3.075802e+001	-2.310593e+001	-9.313437e+001	9.862106e+001	-4.473075e+001	1.126216e+002
1.095002e+007	-4.428347e+001	-8.488499e+001	-3.074162e+001	-2.316051e+001	-9.383561e+001	1.024373e+002	-4.470309e+001	1.127688e+002
1.095003e+007	-4.433907e+001	-8.458176e+001	-3.072567e+001	-2.323538e+001	-9.534567e+001	9.917437e+001	-4.471292e+001	1.125856e+002
1.095004e+007	-4.430311e+001	-8.464474e+001	-3.072232e+001	-2.334249e+001	-9.344513e+001	1.070127e+002	-4.469200e+001	1.128276e+002
1.095005e+007	-4.427983e+001	-8.500302e+001	-3.071696e+001	-2.327711e+001	-9.290334e+001	1.011335e+002	-4.471944e+001	1.126466e+002
1.095005e+007	-4.431797e+001	-8.480391e+001	-3.072984e+001	-2.325230e+001	-9.248252e+001	8.936205e+001	-4.471101e+001	1.128145e+002
1.095006e+007	-4.431786e+001	-8.479159e+001	-3.071391e+001	-2.314356e+001	-9.214686e+001	1.084342e+002	-4.469457e+001	1.126281e+002
1.095007e+007	-4.432436e+001	-8.480347e+001	-3.071617e+001	-2.314518e+001	-9.462076e+001	1.179247e+002	-4.470655e+001	1.126583e+002
1.095008e+007	-4.430580e+001	-8.520219e+001	-3.070374e+001	-2.320911e+001	-9.521440e+001	1.036022e+002	-4.467628e+001	1.125033e+002
1.095009e+007	-4.430426e+001	-8.491645e+001	-3.071957e+001	-2.316941e+001	-9.453491e+001	1.058354e+002	-4.470252e+001	1.127390e+002
1.095009e+007	-4.432306e+001	-8.497334e+001	-3.071324e+001	-2.318621e+001	-9.344910e+001	1.042851e+002	-4.470207e+001	1.125810e+002
1.095010e+007	-4.425048e+001	-8.472240e+001	-3.072333e+001	-2.315405e+001	-9.317881e+001	1.125169e+002	-4.468912e+001	1.126612e+002
1.095011e+007	-4.424700e+001	-8.484627e+001	-3.073131e+001	-2.319995e+001	-9.409936e+001	8.978522e+001	-4.471946e+001	1.127159e+002
1.095012e+007	-4.428145e+001	-8.475915e+001	-3.073680e+001	-2.303419e+001	-9.438516e+001	9.562032e+001	-4.469365e+001	1.123334e+002
1.095013e+007	-4.432674e+001	-8.497806e+001	-3.072843e+001	-2.294472e+001	-9.255448e+001	1.091571e+002	-4.471147e+001	1.125230e+002
1.095013e+007	-4.435124e+001	-8.472483e+001	-3.074865e+001	-2.279746e+001	-9.476890e+001	8.331401e+001	-4.468607e+001	1.126962e+002
1.095014e+007	-4.430274e+001	-8.480353e+001	-3.070584e+001	-2.288239e+001	-9.528854e+001	9.529332e+001	-4.472649e+001	1.127628e+002
1.095015e+007	-4.432224e+001	-8.497148e+001	-3.072279e+001	-2.280653e+001	-9.456506e+001	9.550593e+001	-4.470175e+001	1.124569e+002
1.095016e+007	-4.429681e+001	-8.476872e+001	-3.069471e+001	-2.293365e+001	-9.504053e+001	1.189209e+002	-4.472957e+001	1.124491e+002
1.095016e+007	-4.430404e+001	-8.461602e+001	-3.071037e+001	-2.291057e+001	-9.204456e+001	1.104553e+002	-4.468658e+001	1.123921e+002
1.095017e+007	-4.428230e+001	-8.489684e+001	-3.069462e+001	-2.298751e+001	-9.513114e+001	1.127023e+002	-4.466174e+001	1.130235e+002
1.095018e+007	-4.433185e+001	-8.445773e+001	-3.070665e+001	-2.293072e+001	-9.379882e+001	1.011387e+002	-4.471317e+001	1.126228e+002
1.095019e+007	-4.430575e+001	-8.499400e+001	-3.069492e+001	-2.295589e+001	-9.391359e+001	8.568790e+001	-4.472422e+001	1.125834e+002
1.095020e+007	-4.430321e+001	-8.455901e+001	-3.069628e+001	-2.292170e+001	-9.597503e+001	1.167461e+002	-4.470311e+001	1.129124e+002
1.095020e+007	-4.431085e+001	-8.484078e+001	-3.070286e+001	-2.292376e+001	-9.616718e+001	9.115091e+001	-4.469576e+001	1.126507e+002
1.095021e+007	-4.432418e+001	-8.511365e+001	-3.070199e+001	-2.296138e+001	-9.321456e+001	1.057221e+002	-4.468001e+001	1.124978e+002
1.095022e+007	-4.430867e+001	-8.477833e+001	-3.072350e+001	-2.290399e+001	-9.351561e+001	1.103605e+002	-4.468516e+001	1.127906e+002
1.095023e+007	-4.429891e+001	-8.472239e+001	-3.071087e+001	-2.294364e+001	-9.314805e+001	8.900836e+001	-4.471716e+001	1.125795e+002
1.095023e+007	-4.430080e+001	-8.477795e+001	-3.069945e+001	-2.286029e+001	-9.616207e+001	1.068207e+002	-4.472893e+001	1.127393e+002
1.095024e+007	-4.427521e+001	-8.486847e+001	-3.070675e+001	-2.280673e+001	-9.422157e+001	1.108225e+002	-4.469927e+001	1.126030e+002
1.095025e+007	-4.432116e+001	-8.479141e+001	-3.069138e+001	-2.291944e+001	-9.479248e+001	1.012153e+002	-4.465668e+001	1.125776e+002
1.095026e+007	-4.434198e+001	-8.482468e+001	-3.069629e+001	-2.301493e+001	-9.478979e+001	1.083275e+002	-4.470613e+001	1.125303e+002
1.095027e+007	-4.433811e+001	-8.472851e+001	-3.069930e+001	-2.304067e+001	-9.507762e+001	1.056376e+002	-4.469095e+001	1.126525e+002
1.095027e+007	-4.429496e+001	-8.493535e+001	-3.073404e+001	-2.309074e+001	-9.369091e+001	1.009166e+002	-4.470366e+001	1.126412e+002
1.095028e+007	-4.428134e+001	-8.487888e+001	-3.071783e+001	-2.280777e+001	-9.501832e+001	1.156331e+002	-4.466205e+001	1.129442e+002
1.095029e+007	-4.427058e+001	-8.464630e+001	-3.068739e+001	-2.281718e+001	-9.666452e+001	1.187481e+002	-4.470205e+001	1.128085e+002
1.095030e+007	-4.433902e+001	-8.482974e+001	-3.068524e+001	-2.301741e+001	-9.454578e+001	1.094758e+002	-4.467006e+001	1.124433e+002
1.095030e+007	-4.432463e+001	-8.508998e+001	-3.070969e+001	-2.299768e+001	-9.496331e+001	1.028487e+002	-4.472205e+001	1.128637e+002
1.095031e+007	-4.431263e+001	-8.484031e+001	-3.074588e+001	-2.291040e+001	-9.348963e+001	1.091594e+002	-4.470203e+001	1.127882e+002
1.095032e+007	-4.436862e+001	-8.498734e+001	-3.068804e+001	-2.277520e+001	-9.633976e+001	1.097185e+002	-4.470674e+001	1.129531e+002
1.095033e+007	-4.431022e+001	-8.506946e+001	-3.067213e+001	-2.308929e+001	-9.588588e+001	9.031073e+001	-4.471247e+001	1.127817e+002
1.095034e+007	-4.428382e+001	-8.496894e+001	-3.070772e+001	-2.303481e+001	-9.500716e+001	1.161878e+002	-4.469977e+001	1.127238e+002
1.095034e+007	-4.427844e+001	-8.489411e+001	-3.073799e+001	-2.281834e+001	-9.270103e+001	1.030946e+002	-4.468619e+001	1.128560e+002
1.095035e+007	-4.432872e+001	-8.489174e+001	-3.069344e+001	-2.271732e+001	-9.776875e+001	1.255471e+002	-4.470077e+001	1.128001e+002
1.095036e+007	-4.432113e+001	-8.476128e+001	-3.066090e+001	-2.298529e+001	-9.671914e+001	1.159191e+002	-4.468237e+001	1.124822e+002
1.095037e+007	-4.429885e+001	-8.484467e+001	-3.073206e+001	-2.304877e+001	-9.519844e+001	1.025502e+002	-4.468148e+001	1.126814e+002
1.095038e+007	-4.434816e+001	-8.472964e+001	-3.072649e+001	-2.263009e+001	-9.411223e+001	1.044080e+002	-4.467658e+001	1.129580e+002
1.095038e+007	-4.429741e+001	-8.478270e+001	-3.066584e+001	-2.292457e+001	-9.430629e+001	1.109965e+002	-4.470447e+001	1.125366e+002
1.095039e+007	-4.428438e+001	-8.519043e+001	-3.071615e+001	-2.310412e+001	-9.441289e+001	1.141581e+002	-4.468023e+001	1.128560e+002
1.095040e+007	-4.430133e+001	-8.519646e+001	-3.072507e+001	-2.268935e+001	-9.463474e+001	9.959286e+001	-4.471067e+001	1.127554e+002
1.095041e+007	-4.429092e+001	-8.528849e+001	-3.066397e+001	-2.276284e+001	-9.283692e+001	9.879145e+001	-4.469348e+001	1.126845e+002
1.095041e+007	-4.429271e+001	-8.477266e+001	-3.070742e+001	-2.319844e+001	-9.185458e+001	1.063013e+002	-4.470884e+001	1.128686e+002
1.095042e+007	-4.429322e+001	-8.485751e+001	-3.073428e+001	-2.273977e+001	-9.403549e+001	8.769385e+001	-4.469396e+001	1.124909e+002
1.095043e+007	-4.429386e+001	-8.460758e+001	-3.066982e+001	-2.279023e+001	-9.651321e+001	1.024247e+002	-4.470332e+001	1.127591e+002
1.095044e+007	-4.427176e+001	-8.471936e+001	-3.072369e+001	-2.320942e+001	-9.684927e+001	9.847320e+001	-4.471653e+001	1.125733e+002
1.095045e+007	-4.430705e+001	-8.469812e+001	-3.072503e+001	-2.267004e+001	-9.292174e+001	1.051302e+002	-4.470402e+001	1.126018e+002
1.095045e+007	-4.429528e+001	-8.476744e+001	-3.065329e+001	-2.295619e+001	-9.384245e+001	1.177667e+002	-4.471620e+001	1.129078e+002
1.095046e+007	-4.429357e+001	-8.493236e+001	-3.073575e+001	-2.323231e+001	-9.478238e+001	9.044581e+001	-4.469313e+001	1.127722e+002
1.095047e+007	-4.433122e+001	-8.476145e+001	-3.069508e+001	-2.258787e+001	-9.464176e+001	1.105346e+002	-4.470608e+001	1.128315e+002
1.095048e+007	-4.426764e+001	-8.498234e+001	-3.066620e+001	-2.312191e+001	-9.553920e+001	1.035326e+002	-4.468924e+001	1.124507e+002
1.095048e+007	-4.429278e+001	-8.497981e+001	-3.074060e+001	-2.284761e+001	-9.393155e+001	1.020577e+002	-4.474615e+001	1.123515e+002
1.095049e+007	-4.428371e+001	-8.478314e+001	-3.065587e+001	-2.278920e+001	-9.279539e+001	1.026181e+002	-4.468174e+001	1.125323e+002
1.095050e+007	-4.428890e+001	-8.482741e+001	-3.072662e+001	-2.312311e+001	-9.586244e+001	9.509207e+001	-4.469202e+001	1.129563e+002
1.095051e+007	-4.431644e+001	-8.478337e+001	-3.069604e+001	-2.259616e+001	-9.415240e+001	1.158495e+002	-4.470273e+001	1.127518e+002
1.095052e+007	-4.432428e+001	-8.495456e+001	-3.067694e+001	-2.321443e+001	-9.271786e+001	9.276958e+001	-4.473860e+001	1.127906e+002
1.095052e+007	-4.431949e+001	-8.525280e+001	-3.075755e+001	-2.278041e+001	-9.406575e+001	9.738511e+001	-4.469150e+001	1.124946e+002
1.095053e+007	-4.430326e+001	-8.458498e+001	-3.064740e+001	-2.292869e+001	-9.292390e+001	1.180636e+002	-4.468767e+001	1.128891e+002
1.095054e+007	-4.429506e+001	-8.468356e+001	-3.075761e+001	-2.297063e+001	-9.566656e+001	1.055430e+002	-4.466930e+001	1.124676e+002
1.095055e+007	-4.430854e+001	-8.488930e+001	-3.065519e+001	-2.278640e+001	-9.325719e+001	9.872313e+001	-4.472179e+001	1.129473e+002
1.095055e+007	-4.432504e+001	-8.461666e+001	-3.074160e+001	-2.311821e+001	-9.567198e+001	1.013235e+002	-4.465304e+001	1.126547e+002
1.095056e+007	-4.427364e+001	-8.470664e+001	-3.068409e+001	-2.263901e+001	-9.217965e+001	9.481901e+001	-4.469400e+001	1.125886e+002
1.095057e+007	-4.429730e+001	-8.493950e+001	-3.073823e+001	-2.328445e+001	-9.551721e+001	1.157714e+002	-4.470588e+001	1.128591e+002
1.095058e+007	-4.431058e+001	-8.479375e+001	-3.067261e+001	-2.260900e+001	-9.433175e+001	1.055169e+002	-4.471163e+001	1.127831e+002
1.095059e+007	-4.429792e+001	-8.475481e+001	-3.072905e+001	-2.327953e+001	-9.330794e+001	1.010672e+002	-4.468962e+001	1.126413e+002
1.095059e+007	-4.432110e+001	-8.513404e+001	-3.068445e+001	-2.259700e+001	-9.210442e+001	1.017920e+002	-4.469602e+001	1.127882e+002
1.095060e+007	-4.428293e+001	-8.490603e+001	-3.072121e+001	-2.321629e+001	-9.333517e+001	9.708911e+001	-4.467490e+001	1.129067e+002
1.095061e+007	-4.428267e+001	-8.497577e+001	-3.066993e+001	-2.252745e+001	-9.386141e+001	1.085899e+002	-4.468385e+001	1.126179e+002
1.095062e+007	-4.436342e+001	-8.510736e+001	-3.073340e+001	-2.317587e+001	-9.560142e+001	9.529409e+001	-4.466252e+001	1.126434e+002
1.095063e+007	-4.427731e+001	-8.472970e+001	-3.067022e+001	-2.271209e+001	-9.478039e+001	1.179776e+002	-4.470463e+001	1.131620e+002
1.095063e+007	-4.427309e+001	-8.484713e+001	-3.073887e+001	-2.309425e+001	-9.751925e+001	1.045628e+002	-4.470236e+001	1.126358e+002
1.095064e+007	-4.432129e+001	-8.490338e+001	-3.064417e+001	-2.279124e+001	-9.550882e+001	9.819390e+001	-4.470662e+001	1.126926e+002
1.095065e+007	-4.429919e+001	-8.491085e+001	-3.075923e+001	-2.285760e+001	-9.421437e+001	1.231749e+002	-4.466073e+001	1.125378e+002
1.095066e+007	-4.434542e+001	-8.494567e+001	-3.064649e+001	-2.309793e+001	-9.313955e+001	1.087491e+002	-4.466051e+001	1.126999e+002
1.095066e+007	-4.427451e+001	-8.477378e+001	-3.073465e+001	-2.269089e+001	-9.759355e+001	9.456566e+001	-4.468607e+001	1.126430e+002
1.095067e+007	-4.430268e+001	-8.502168e+001	-3.068738e+001	-2.324264e+001	-9.210715e+001	9.493934e+001	-4.472710e+001	1.126378e+002
1.095068e+007	-4.425940e+001	-8.479546e+001	-3.068753e+001	-2.259186e+001	-9.653122e+001	7.848091e+001	-4.468716e+001	1.128278e+002
1.095069e+007	-4.429954e+001	-8.458510e+001	-3.074209e+001	-2.316910e+001	-9.479328e+001	1.006171e+002	-4.474185e+001	1.126084e+002
1.095070e+007	-4.428490e+001	-8.507038e+001	-3.065645e+001	-2.280887e+001	-9.402871e+001	9.301460e+001	-4.467506e+001	1.126299e+002
1.095070e+007	-4.430853e+001	-8.468466e+001	-3.074400e+001	-2.280007e+001	-9.344618e+001	1.004868e+002	-4.471911e+001	1.127989e+002
1.095071e+007	-4.426721e+001	-8.514929e+001	-3.066551e+001	-2.328777e+001	-9.240761e+001	8.873711e+001	-4.473920e+001	1.125768e+002
1.095072e+007	-4.432980e+001	-8.491535e+001	-3.068175e+001	-2.251578e+001	-9.328555e+001	9.667328e+001	-4.469239e+001	1.128855e+002
1.095073e+007	-4.424936e+001	-8.498633e+001	-3.075059e+001	-2.317425e+001	-9.231459e+001	1.108790e+002	-4.470637e+001	1.127185e+002
1.095073e+007	-4.427434e+001	-8.508695e+001	-3.065626e+001	-2.305528e+001	-9.456791e+001	9.500436e+001	-4.470592e+001	1.125801e+002
1.095074e+007	-4.427028e+001	-8.469765e+001	-3.072638e+001	-2.264007e+001	-9.510589e+001	9.970528e+001	-4.472710e+001	1.127527e+002
1.095075e+007	-4.432168e+001	-8.492061e+001	-3.071991e+001	-2.327980e+001	-9.249169e+001	9.932915e+001	-4.469760e+001	1.127778e+002
1.095076e+007	-4.427141e+001	-8.480555e+001	-3.064799e+001	-2.281612e+001	-9.616358e+001	9.737444e+001	-4.472630e+001	1.127199e+002
1.095077e+007	-4.429559e+001	-8.494590e+001	-3.073410e+001	-2.269502e+001	-9.682051e+001	9.046362e+001	-4.470707e+001	1.125540e+002
1.095077e+007	-4.424371e+001	-8.488576e+001	-3.070045e+001	-2.320041e+001	-9.497549e+001	1.136732e+002	-4.469075e+001	1.125032e+002
1.095078e+007	-4.429891e+001	-8.471327e+001	-3.065511e+001	-2.289788e+001	-9.213813e+001	1.067626e+002	-4.470231e+001	1.128245e+002
1.095079e+007	-4.426000e+001	-8.488583e+001	-3.073830e+001	-2.266730e+001	-9.246477e+001	1.145439e+002	-4.465490e+001	1.128163e+002
1.095080e+007	-4.432418e+001	-8.477310e+001	-3.072482e+001	-2.318364e+001	-9.610096e+001	8.888154e+001	-4.472718e+001	1.126661e+002
1.095080e+007	-4.433303e+001	-8.473573e+001	-3.066158e+001	-2.297729e+001	-9.743413e+001	1.188215e+002	-4.468969e+001	1.125901e+002
1.095081e+007	-4.427910e+001	-8.492792e+001	-3.069837e+001	-2.261575e+001	-9.286565e+001	1.064384e+002	-4.473555e+001	1.125407e+002
1.095082e+007	-4.427618e+001	-8.486353e+001	-3.073735e+001	-2.300262e+001	-9.441524e+001	1.029394e+002	-4.467203e+001	1.128479e+002
1.095083e+007	-4.431066e+001	-8.514647e+001	-3.067734e+001	-2.322652e+001	-9.601040e+001	9.049299e+001	-4.468561e+001	1.127487e+002
1.095084e+007	-4.424515e+001	-8.485589e+001	-3.065946e+001	-2.270734e+001	-9.429358e+001	1.129097e+002	-4.465208e+001	1.127579e+002
1.095084e+007	-4.431066e+001	-8.463780e+001	-3.071857e+001	-2.277118e+001	-9.572371e+001	9.463894e+001	-4.467296e+001	1.126137e+002
1.095085e+007	-4.429909e+001	-8.504691e+001	-3.072768e+001	-2.310856e+001	-9.348984e+001	9.683667e+001	-4.467857e+001	1.124612e+002
1.095086e+007	-4.435817e+001	-8.458780e+001	-3.066597e+001	-2.311568e+001	-9.633797e+001	1.116464e+002	-4.469424e+001	1.126529e+002
1.095087e+007	-4.435932e+001	-8.486188e+001	-3.066615e+001	-2.273275e+001	-9.284378e+001	1.023575e+002	-4.468530e+001	1.125912e+002
1.095088e+007	-4.428753e+001	-8.514020e+001	-3.073318e+001	-2.274805e+001	-9.725638e+001	1.127956e+002	-4.466868e+001	1.127516e+002
1.095088e+007	-4.429205e+001	-8.505079e+001	-3.073035e+001	-2.309613e+001	-9.210213e+001	1.001579e+002	-4.468688e+001	1.125690e+002
1.095089e+007	-4.428687e+001	-8.513539e+001	-3.067340e+001	-2.311424e+001	-9.400692e+001	7.723103e+001	-4.470353e+001	1.127384e+002
1.095090e+007	-4.432921e+001	-8.502640e+001	-3.065870e+001	-2.292169e+001	-9.165565e+001	1.038850e+002	-4.467491e+001	1.126555e+002
1.095091e+007	-4.427990e+001	-8.491882e+001	-3.070246e+001	-2.265407e+001	-9.255207e+001	1.068595e+002	-4.463537e+001	1.126548e+002
1.095091e+007	-4.433012e+001	-8.472740e+001	-3.074084e+001	-2.283649e+001	-9.508780e+001	1.057927e+002	-4.467209e+001	1.127994e+002
1.095092e+007	-4.429063e+001	-8.477598e+001	-3.073083e+001	-2.308419e+001	-9.349494e+001	9.103979e+001	-4.466789e+001	1.128699e+002
1.095093e+007	-4.431465e+001	-8.483460e+001	-3.068846e+001	-2.309977e+001	-9.442400e+001	1.081863e+002	-4.467723e+001	1.127049e+002
1.095094e+007	-4.427048e+001	-8.488315e+001	-3.065161e+001	-2.294890e+001	-9.487266e+001	1.195190e+002	-4.473416e+001	1.127753e+002
1.095095e+007	-4.429639e+001	-8.505366e+001	-3.067121e+001	-2.269153e+001	-9.351322e+001	1.062153e+002	-4.470822e+001	1.127036e+002
1.095095e+007	-4.431384e+001	-8.507485e+001	-3.072584e+001	-2.273372e+001	-9.292219e+001	1.217923e+002	-4.464937e+001	1.127479e+002
1.095096e+007	-4.431607e+001	-8.500228e+001	-3.072177e+001	-2.293687e+001	-9.794134e+001	8.481764e+001	-4.470531e+001	1.128483e+002
1.095097e+007	-4.429639e+001	-8.480283e+001	-3.072191e+001	-2.312602e+001	-9.442174e+001	9.925546e+001	-4.467650e+001	1.125310e+002
1.095098e+007	-4.429654e+001	-8.488505e+001	-3.069162e+001	-2.316814e+001	-9.396842e+001	1.069724e+002	-4.470195e+001	1.128063e+002
1.095098e+007	-4.428093e+001	-8.476591e+001	-3.067602e+001	-2.306127e+001	-9.326532e+001	9.556764e+001	-4.470887e+001	1.126217e+002
1.095099e+007	-4.430526e+001	-8.501138e+001	-3.067415e+001	-2.290410e+001	-9.447077e+001	1.053612e+002	-4.469659e+001	1.129357e+002
1.095100e+007	-4.428760e+001	-8.465782e+001	-3.068395e+001	-2.274342e+001	-9.274349e+001	9.369892e+001	-4.468027e+001	1.128174e+002
1.095101e+007	-4.428698e+001	-8.496463e+001	-3.069331e+001	-2.273986e+001	-9.451623e+001	1.061639e+002	-4.470027e+001	1.126486e+002
1.095102e+007	-4.434538e+001	-8.492004e+001	-3.071362e+001	-2.276459e+001	-9.255996e+001	1.111978e+002	-4.467328e+001	1.126071e+002
1.095102e+007	-4.431595e+001	-8.482593e+001	-3.072590e+001	-2.287722e+001	-9.488565e+001	1.179084e+002	-4.469703e+001	1.128232e+002
1.095103e+007	-4.428217e+001	-8.489591e+001	-3.072334e+001	-2.296629e+001	-9.567061e+001	9.793239e+001	-4.468733e+001	1.124149e+002
1.095104e+007	-4.426790e+001	-8.497743e+001	-3.071477e+001	-2.305333e+001	-9.459148e+001	1.031073e+002	-4.469459e+001	1.126706e+002
1.095105e+007	-4.429378e+001	-8.477790e+001	-3.069340e+001	-2.312326e+001	-9.175555e+001	1.104702e+002	-4.468317e+001	1.127770e+002
1.095105e+007	-4.432449e+001	-8.505930e+001	-3.069797e+001	-2.311168e+001	-9.234184e+001	1.136386e+002	-4.468710e+001	1.127918e+002
1.095106e+007	-4.428512e+001	-8.484250e+001	-3.069813e+001	-2.304665e+001	-9.625913e+001	1.128838e+002	-4.471027e+001	1.128103e+002
1.095107e+007	-4.430715e+001	-8.495875e+001	-3.068699e+001	-2.302530e+001	-9.381007e+001	1.056577e+002	-4.471531e+001	1.126826e+002
1.095108e+007	-4.431898e+001	-8.497869e+001	-3.066809e+001	-2.304606e+001	-9.365646e+001	9.794788e+001	-4.471235e+001	1.127470e+002
1.095109e+007	-4.427371e+001	-8.469744e+001	-3.068151e+001	-2.298834e+001	-9.377881e+001	1.110994e+002	-4.472651e+001	1.128535e+002
1.095109e+007	-4.431642e+001	-8.471459e+001	-3.067003e+001	-2.292621e+001	-9.491151e+001	8.969922e+001	-4.467351e+001	1.128089e+002
1.095110e+007	-4.429689e+001	-8.468721e+001	-3.068042e+001	-2.289841e+001	-9.527537e+001	1.020984e+002	-4.470234e+001	1.127984e+002
1.095111e+007	-4.426665e+001	-8.472962e+001	-3.066910e+001	-2.289947e+001	-9.219177e+001	9.840155e+001	-4.469245e+001	1.126914e+002
1.095112e+007	-4.428428e+001	-8.483721e+001	-3.067817e+001	-2.290576e+001	-9.373420e+001	9.484981e+001	-4.462241e+001	1.128072e+002
1.095113e+007	-4.431989e+001	-8.479624e+001	-3.067875e+001	-2.292298e+001	-9.516962e+001	9.556512e+001	-4.466574e+001	1.126713e+002
1.095113e+007	-4.430363e+001	-8.527073e+001	-3.067271e+001	-2.287534e+001	-9.479566e+001	9.764343e+001	-4.467490e+001	1.125885e+002
1.095114e+007	-4.428676e+001	-8.472244e+001	-3.067820e+001	-2.298544e+001	-9.467339e+001	8.621814e+001	-4.468852e+001	1.128525e+002
1.095115e+007	-4.437656e+001	-8.479820e+001	-3.067257e+001	-2.302402e+001	-9.370766e+001	9.212929e+001	-4.468243e+001	1.127499e+002
1.095116e+007	-4.430479e+001	-8.473757e+001	-3.067641e+001	-2.298149e+001	-9.632742e+001	9.739052e+001	-4.470503e+001	1.126490e+002
