!CETC41,AV3656A,ZGL00048,1.3.2
!Calibration ON (Full Solt 2-Port(Omit Isolation))
!Measurements: S11 S21 S12 S22
!2025-04-22 21:03
# Hz  S  dB  R 50.000
1.095000e+007	-4.281105e+001	-8.398318e+001	-3.071308e+001	-2.270249e+001	-9.540636e+001	1.167560e+002	-4.500274e+001	1.116932e+002
1.095001e+007	-4.280316e+001	-8.419582e+001	-3.071509e+001	-2.267737e+001	-9.525013e+001	1.115807e+002	-4.496825e+001	1.121754e+002
1.095002e+007	-4.279943e+001	-8.405601e+001	-3.071904e+001	-2.267658e+001	-9.643949e+001	8.840025e+001	-4.504163e+001	1.118652e+002
1.095002e+007	-4.278439e+001	-8.407566e+001	-3.071888e+001	-2.270295e+001	-9.512317e+001	8.454384e+001	-4.501622e+001	1.120145e+002
1.095003e+007	-4.277566e+001	-8.388912e+001	-3.072701e+001	-2.265458e+001	-9.712386e+001	1.064401e+002	-4.501547e+001	1.116117e+002
1.095004e+007	-4.280023e+001	-8.389731e+001	-3.071124e+001	-2.274123e+001	-9.486104e+001	1.047368e+002	-4.504365e+001	1.119047e+002
1.095005e+007	-4.281065e+001	-8.399612e+001	-3.071253e+001	-2.268790e+001	-9.443822e+001	9.208378e+001	-4.508401e+001	1.119824e+002
1.095005e+007	-4.279204e+001	-8.399646e+001	-3.072344e+001	-2.275394e+001	-9.581667e+001	1.044542e+002	-4.502168e+001	1.119618e+002
1.095006e+007	-4.279559e+001	-8.392541e+001	-3.072129e+001	-2.269610e+001	-9.783388e+001	8.534619e+001	-4.499669e+001	1.120001e+002
1.095007e+007	-4.280149e+001	-8.410284e+001	-3.071414e+001	-2.271746e+001	-9.818299e+001	9.282652e+001	-4.500708e+001	1.119021e+002
1.095008e+007	-4.283323e+001	-8.402954e+001	-3.071068e+001	-2.264013e+001	-9.582360e+001	1.098379e+002	-4.499184e+001	1.117975e+002
1.095009e+007	-4.279321e+001	-8.400117e+001	-3.071456e+001	-2.262771e+001	-9.477027e+001	1.134379e+002	-4.501127e+001	1.114549e+002
1.095009e+007	-4.280079e+001	-8.401883e+001	-3.070963e+001	-2.271698e+001	-9.576092e+001	1.043560e+002	-4.502512e+001	1.117207e+002
1.095010e+007	-4.282482e+001	-8.406035e+001	-3.071635e+001	-2.268519e+001	-9.722547e+001	1.059118e+002	-4.500235e+001	1.121021e+002
1.095011e+007	-4.279578e+001	-8.389909e+001	-3.071737e+001	-2.275409e+001	-9.625054e+001	1.192471e+002	-4.504258e+001	1.119575e+002
1.095012e+007	-4.279126e+001	-8.391938e+001	-3.072621e+001	-2.267599e+001	-9.614274e+001	1.069374e+002	-4.503552e+001	1.118517e+002
1.095013e+007	-4.284994e+001	-8.407067e+001	-3.072699e+001	-2.270318e+001	-9.646081e+001	9.871276e+001	-4.506935e+001	1.119445e+002
1.095013e+007	-4.285519e+001	-8.395480e+001	-3.072046e+001	-2.264930e+001	-9.662197e+001	1.008651e+002	-4.502581e+001	1.119167e+002
1.095014e+007	-4.283524e+001	-8.384217e+001	-3.071724e+001	-2.261981e+001	-9.455076e+001	1.026345e+002	-4.501496e+001	1.118844e+002
1.095015e+007	-4.287065e+001	-8.414791e+001	-3.071609e+001	-2.273258e+001	-9.755462e+001	9.649750e+001	-4.501983e+001	1.119824e+002
1.095016e+007	-4.281565e+001	-8.410066e+001	-3.071445e+001	-2.265359e+001	-9.804315e+001	9.309238e+001	-4.503545e+001	1.118207e+002
1.095016e+007	-4.279998e+001	-8.408255e+001	-3.072171e+001	-2.265152e+001	-9.866168e+001	1.007430e+002	-4.502430e+001	1.119900e+002
1.095017e+007	-4.280844e+001	-8.418426e+001	-3.071101e+001	-2.265942e+001	-9.637204e+001	1.082568e+002	-4.501051e+001	1.119066e+002
1.095018e+007	-4.281408e+001	-8.423516e+001	-3.071977e+001	-2.270192e+001	-9.291520e+001	1.102417e+002	-4.502809e+001	1.115999e+002
1.095019e+007	-4.281626e+001	-8.398554e+001	-3.072000e+001	-2.268318e+001	-9.469679e+001	1.396770e+002	-4.503033e+001	1.117057e+002
1.095020e+007	-4.282397e+001	-8.416395e+001	-3.071403e+001	-2.264256e+001	-9.548892e+001	1.013541e+002	-4.502930e+001	1.118760e+002
1.095020e+007	-4.279794e+001	-8.396271e+001	-3.070198e+001	-2.259600e+001	-9.901679e+001	1.029441e+002	-4.506081e+001	1.118368e+002
1.095021e+007	-4.280543e+001	-8.398183e+001	-3.071528e+001	-2.270651e+001	-9.556794e+001	1.182340e+002	-4.503007e+001	1.120777e+002
1.095022e+007	-4.279451e+001	-8.406296e+001	-3.071716e+001	-2.269432e+001	-9.860354e+001	1.086542e+002	-4.502011e+001	1.116266e+002
1.095023e+007	-4.278770e+001	-8.397842e+001	-3.072260e+001	-2.266723e+001	-1.001949e+002	9.815778e+001	-4.504183e+001	1.118806e+002
1.095023e+007	-4.279093e+001	-8.387991e+001	-3.071352e+001	-2.269421e+001	-9.635835e+001	8.994234e+001	-4.507019e+001	1.118626e+002
1.095024e+007	-4.282256e+001	-8.388769e+001	-3.071353e+001	-2.263463e+001	-9.540435e+001	8.331325e+001	-4.500169e+001	1.121252e+002
1.095025e+007	-4.282091e+001	-8.426776e+001	-3.070818e+001	-2.264428e+001	-9.613689e+001	1.100512e+002	-4.502656e+001	1.119952e+002
1.095026e+007	-4.283715e+001	-8.402796e+001	-3.072395e+001	-2.269138e+001	-9.680406e+001	9.603996e+001	-4.506699e+001	1.118272e+002
1.095027e+007	-4.281533e+001	-8.405268e+001	-3.071821e+001	-2.265074e+001	-9.625100e+001	9.237805e+001	-4.506748e+001	1.119360e+002
1.095027e+007	-4.280523e+001	-8.416390e+001	-3.070551e+001	-2.268310e+001	-9.536643e+001	1.041023e+002	-4.501874e+001	1.121090e+002
1.095028e+007	-4.279013e+001	-8.417138e+001	-3.071821e+001	-2.274026e+001	-9.920490e+001	1.003129e+002	-4.502106e+001	1.120496e+002
1.095029e+007	-4.278777e+001	-8.414958e+001	-3.071417e+001	-2.270038e+001	-9.416195e+001	1.165050e+002	-4.502854e+001	1.120107e+002
1.095030e+007	-4.283981e+001	-8.405522e+001	-3.071809e+001	-2.263108e+001	-9.462387e+001	1.011972e+002	-4.501884e+001	1.119915e+002
1.095030e+007	-4.280893e+001	-8.421127e+001	-3.070116e+001	-2.267302e+001	-9.487774e+001	1.091881e+002	-4.504977e+001	1.121834e+002
1.095031e+007	-4.278839e+001	-8.408822e+001	-3.071491e+001	-2.272869e+001	-9.804539e+001	8.626793e+001	-4.497399e+001	1.118415e+002
1.095032e+007	-4.280889e+001	-8.415178e+001	-3.071957e+001	-2.260093e+001	-9.449522e+001	1.160521e+002	-4.502551e+001	1.121394e+002
1.095033e+007	-4.279787e+001	-8.397230e+001	-3.071740e+001	-2.270480e+001	-9.596384e+001	1.204406e+002	-4.501228e+001	1.118490e+002
1.095034e+007	-4.281687e+001	-8.412341e+001	-3.071985e+001	-2.274153e+001	-9.601682e+001	8.502484e+001	-4.496472e+001	1.118425e+002
1.095034e+007	-4.281373e+001	-8.393775e+001	-3.072620e+001	-2.266538e+001	-9.744744e+001	1.046853e+002	-4.505607e+001	1.117119e+002
1.095035e+007	-4.284399e+001	-8.394373e+001	-3.070452e+001	-2.266303e+001	-9.747089e+001	8.809304e+001	-4.504330e+001	1.120655e+002
1.095036e+007	-4.279760e+001	-8.403019e+001	-3.071153e+001	-2.271705e+001	-9.551606e+001	1.019907e+002	-4.505368e+001	1.117484e+002
1.095037e+007	-4.279670e+001	-8.417790e+001	-3.071687e+001	-2.264105e+001	-9.770042e+001	1.012384e+002	-4.503564e+001	1.117690e+002
1.095038e+007	-4.281015e+001	-8.407490e+001	-3.071118e+001	-2.261867e+001	-9.717471e+001	1.186463e+002	-4.504321e+001	1.119241e+002
1.095038e+007	-4.280948e+001	-8.414276e+001	-3.071415e+001	-2.276021e+001	-9.670319e+001	1.150391e+002	-4.502664e+001	1.118448e+002
1.095039e+007	-4.280411e+001	-8.404969e+001	-3.071720e+001	-2.265568e+001	-9.698028e+001	7.611358e+001	-4.503798e+001	1.118356e+002
1.095040e+007	-4.283960e+001	-8.426496e+001	-3.070844e+001	-2.268014e+001	-9.829552e+001	9.615191e+001	-4.502750e+001	1.119281e+002
1.095041e+007	-4.279781e+001	-8.399915e+001	-3.072435e+001	-2.272505e+001	-9.570366e+001	1.131177e+002	-4.499947e+001	1.118919e+002
1.095041e+007	-4.281006e+001	-8.413536e+001	-3.071844e+001	-2.265412e+001	-9.669933e+001	1.068051e+002	-4.499055e+001	1.119557e+002
1.095042e+007	-4.280724e+001	-8.413597e+001	-3.071300e+001	-2.273474e+001	-9.705284e+001	1.197203e+002	-4.503601e+001	1.121084e+002
1.095043e+007	-4.283039e+001	-8.400103e+001	-3.071854e+001	-2.274946e+001	-9.716192e+001	1.023225e+002	-4.497537e+001	1.119086e+002
1.095044e+007	-4.280178e+001	-8.398731e+001	-3.070835e+001	-2.268243e+001	-9.606335e+001	1.097994e+002	-4.498136e+001	1.121642e+002
1.095045e+007	-4.281051e+001	-8.395510e+001	-3.071965e+001	-2.269779e+001	-9.713608e+001	8.650961e+001	-4.498398e+001	1.116757e+002
1.095045e+007	-4.281969e+001	-8.413866e+001	-3.070353e+001	-2.264625e+001	-9.720609e+001	8.273987e+001	-4.502408e+001	1.118612e+002
1.095046e+007	-4.283004e+001	-8.411744e+001	-3.070763e+001	-2.269262e+001	-9.605464e+001	1.126436e+002	-4.498039e+001	1.120560e+002
1.095047e+007	-4.282689e+001	-8.397501e+001	-3.072148e+001	-2.260946e+001	-9.943050e+001	9.506250e+001	-4.506847e+001	1.117906e+002
1.095048e+007	-4.281894e+001	-8.400006e+001	-3.071669e+001	-2.274749e+001	-9.700300e+001	9.657893e+001	-4.499705e+001	1.121947e+002
1.095048e+007	-4.282301e+001	-8.393891e+001	-3.072285e+001	-2.265484e+001	-9.492684e+001	1.051571e+002	-4.500760e+001	1.115787e+002
1.095049e+007	-4.277633e+001	-8.393776e+001	-3.070996e+001	-2.274828e+001	-9.515003e+001	9.986545e+001	-4.503314e+001	1.121363e+002
1.095050e+007	-4.279511e+001	-8.413269e+001	-3.070574e+001	-2.266609e+001	-9.736949e+001	1.014816e+002	-4.498066e+001	1.118535e+002
1.095051e+007	-4.280939e+001	-8.386268e+001	-3.071363e+001	-2.264823e+001	-9.361516e+001	9.459398e+001	-4.500161e+001	1.119546e+002
1.095052e+007	-4.281396e+001	-8.391609e+001	-3.072633e+001	-2.272284e+001	-9.533123e+001	1.093435e+002	-4.499170e+001	1.117763e+002
1.095052e+007	-4.280803e+001	-8.409856e+001	-3.070681e+001	-2.276148e+001	-9.417636e+001	8.745622e+001	-4.503273e+001	1.119950e+002
1.095053e+007	-4.278515e+001	-8.404297e+001	-3.072196e+001	-2.265935e+001	-9.570018e+001	9.417982e+001	-4.499978e+001	1.119676e+002
1.095054e+007	-4.280623e+001	-8.410988e+001	-3.069548e+001	-2.266600e+001	-9.420561e+001	8.255673e+001	-4.502075e+001	1.120898e+002
1.095055e+007	-4.281050e+001	-8.394567e+001	-3.072975e+001	-2.273240e+001	-9.935965e+001	9.295740e+001	-4.505514e+001	1.120690e+002
1.095055e+007	-4.281247e+001	-8.412016e+001	-3.070861e+001	-2.262414e+001	-9.662960e+001	1.035554e+002	-4.503332e+001	1.121135e+002
1.095056e+007	-4.280467e+001	-8.408933e+001	-3.071651e+001	-2.265599e+001	-9.606515e+001	9.961315e+001	-4.501676e+001	1.118239e+002
1.095057e+007	-4.279789e+001	-8.418092e+001	-3.070826e+001	-2.275558e+001	-9.579718e+001	9.421256e+001	-4.501767e+001	1.122173e+002
1.095058e+007	-4.284443e+001	-8.406639e+001	-3.071645e+001	-2.259641e+001	-9.788893e+001	9.636185e+001	-4.502266e+001	1.118488e+002
1.095059e+007	-4.281657e+001	-8.383637e+001	-3.071510e+001	-2.276255e+001	-9.264147e+001	1.167769e+002	-4.505971e+001	1.117621e+002
1.095059e+007	-4.275544e+001	-8.411282e+001	-3.071569e+001	-2.258349e+001	-9.759038e+001	9.376415e+001	-4.501848e+001	1.116128e+002
1.095060e+007	-4.280065e+001	-8.408717e+001	-3.070535e+001	-2.271457e+001	-9.456604e+001	1.019516e+002	-4.500356e+001	1.117329e+002
1.095061e+007	-4.281326e+001	-8.401330e+001	-3.071124e+001	-2.265648e+001	-9.476827e+001	9.982064e+001	-4.501246e+001	1.118612e+002
1.095062e+007	-4.280092e+001	-8.387615e+001	-3.072409e+001	-2.270300e+001	-9.365596e+001	1.120121e+002	-4.500426e+001	1.120561e+002
1.095063e+007	-4.279462e+001	-8.419355e+001	-3.070905e+001	-2.266389e+001	-9.619668e+001	1.025102e+002	-4.499112e+001	1.119955e+002
1.095063e+007	-4.280571e+001	-8.398029e+001	-3.072365e+001	-2.266947e+001	-9.994895e+001	1.090448e+002	-4.501747e+001	1.117938e+002
1.095064e+007	-4.285315e+001	-8.408648e+001	-3.071311e+001	-2.277983e+001	-9.534269e+001	1.189687e+002	-4.501004e+001	1.121261e+002
1.095065e+007	-4.283141e+001	-8.397838e+001	-3.072637e+001	-2.263860e+001	-9.318627e+001	1.106357e+002	-4.499205e+001	1.119398e+002
1.095066e+007	-4.280737e+001	-8.404371e+001	-3.072635e+001	-2.272084e+001	-9.385870e+001	1.063976e+002	-4.497112e+001	1.119915e+002
1.095066e+007	-4.281862e+001	-8.410008e+001	-3.069913e+001	-2.264141e+001	-9.709007e+001	1.135004e+002	-4.499648e+001	1.119726e+002
1.095067e+007	-4.282362e+001	-8.388932e+001	-3.072752e+001	-2.262034e+001	-9.853158e+001	9.734928e+001	-4.500201e+001	1.118403e+002
1.095068e+007	-4.281123e+001	-8.416041e+001	-3.070457e+001	-2.272425e+001	-9.442027e+001	1.142646e+002	-4.502269e+001	1.118211e+002
1.095069e+007	-4.283518e+001	-8.399411e+001	-3.071535e+001	-2.261228e+001	-9.416753e+001	9.902555e+001	-4.500216e+001	1.119396e+002
1.095070e+007	-4.281188e+001	-8.417126e+001	-3.070649e+001	-2.271318e+001	-9.709399e+001	1.261352e+002	-4.499298e+001	1.118469e+002
1.095070e+007	-4.278820e+001	-8.419241e+001	-3.070277e+001	-2.267274e+001	-9.565267e+001	1.020002e+002	-4.496292e+001	1.120540e+002
1.095071e+007	-4.279302e+001	-8.411923e+001	-3.071320e+001	-2.264141e+001	-9.593926e+001	1.049132e+002	-4.495964e+001	1.119494e+002
1.095072e+007	-4.279187e+001	-8.400396e+001	-3.071591e+001	-2.269823e+001	-9.822749e+001	9.430028e+001	-4.499792e+001	1.123220e+002
1.095073e+007	-4.281978e+001	-8.401594e+001	-3.071788e+001	-2.275317e+001	-9.502465e+001	1.068370e+002	-4.502680e+001	1.117303e+002
1.095073e+007	-4.279815e+001	-8.410810e+001	-3.070342e+001	-2.267534e+001	-9.494583e+001	1.027470e+002	-4.503536e+001	1.116260e+002
1.095074e+007	-4.280795e+001	-8.417589e+001	-3.071313e+001	-2.263873e+001	-9.689082e+001	1.193542e+002	-4.500936e+001	1.116797e+002
1.095075e+007	-4.281379e+001	-8.417743e+001	-3.070409e+001	-2.270318e+001	-9.626832e+001	1.074862e+002	-4.503897e+001	1.116888e+002
1.095076e+007	-4.281301e+001	-8.407802e+001	-3.070065e+001	-2.271309e+001	-9.431655e+001	1.039459e+002	-4.500961e+001	1.119768e+002
1.095077e+007	-4.280471e+001	-8.408231e+001	-3.071145e+001	-2.263749e+001	-9.886902e+001	1.050638e+002	-4.499469e+001	1.119028e+002
1.095077e+007	-4.282556e+001	-8.410909e+001	-3.071254e+001	-2.270125e+001	-9.652875e+001	9.573054e+001	-4.498954e+001	1.116953e+002
1.095078e+007	-4.279407e+001	-8.401223e+001	-3.071020e+001	-2.269221e+001	-9.568823e+001	7.583330e+001	-4.498623e+001	1.119578e+002
1.095079e+007	-4.279625e+001	-8.416660e+001	-3.071386e+001	-2.264860e+001	-9.734453e+001	9.998957e+001	-4.503266e+001	1.118951e+002
1.095080e+007	-4.282830e+001	-8.417517e+001	-3.071931e+001	-2.261147e+001	-9.832538e+001	1.241602e+002	-4.498816e+001	1.118970e+002
1.095080e+007	-4.282002e+001	-8.393079e+001	-3.072182e+001	-2.273375e+001	-9.591520e+001	1.287704e+002	-4.499153e+001	1.119252e+002
1.095081e+007	-4.280161e+001	-8.395886e+001	-3.070312e+001	-2.266028e+001	-9.521453e+001	1.012003e+002	-4.502040e+001	1.120057e+002
1.095082e+007	-4.281583e+001	-8.412488e+001	-3.071126e+001	-2.259964e+001	-9.482940e+001	9.859387e+001	-4.503454e+001	1.118040e+002
1.095083e+007	-4.284561e+001	-8.417325e+001	-3.070470e+001	-2.259680e+001	-9.465675e+001	1.027451e+002	-4.500122e+001	1.121657e+002
1.095084e+007	-4.280430e+001	-8.389499e+001	-3.070775e+001	-2.271240e+001	-9.517326e+001	9.650427e+001	-4.503134e+001	1.119057e+002
1.095084e+007	-4.281109e+001	-8.407329e+001	-3.071028e+001	-2.270960e+001	-9.361164e+001	1.055327e+002	-4.503300e+001	1.119506e+002
1.095085e+007	-4.282314e+001	-8.409368e+001	-3.070607e+001	-2.270188e+001	-9.481296e+001	1.053912e+002	-4.504999e+001	1.118699e+002
1.095086e+007	-4.280540e+001	-8.409954e+001	-3.070433e+001	-2.267093e+001	-9.698423e+001	1.095564e+002	-4.499866e+001	1.118736e+002
1.095087e+007	-4.282535e+001	-8.429756e+001	-3.071334e+001	-2.259364e+001	-9.736561e+001	1.047184e+002	-4.506404e+001	1.120966e+002
1.095088e+007	-4.282990e+001	-8.397635e+001	-3.071754e+001	-2.264566e+001	-9.764322e+001	1.032498e+002	-4.497944e+001	1.120350e+002
1.095088e+007	-4.281950e+001	-8.397500e+001	-3.071878e+001	-2.272239e+001	-9.440341e+001	1.096212e+002	-4.498268e+001	1.121223e+002
1.095089e+007	-4.280902e+001	-8.399886e+001	-3.071253e+001	-2.269522e+001	-9.989132e+001	9.738949e+001	-4.502104e+001	1.119114e+002
1.095090e+007	-4.279074e+001	-8.415207e+001	-3.070175e+001	-2.270840e+001	-9.502381e+001	1.104822e+002	-4.502381e+001	1.117663e+002
1.095091e+007	-4.281327e+001	-8.428348e+001	-3.071648e+001	-2.263068e+001	-9.449368e+001	1.020067e+002	-4.505117e+001	1.118485e+002
1.095091e+007	-4.280694e+001	-8.384992e+001	-3.071197e+001	-2.267488e+001	-9.343548e+001	8.834739e+001	-4.496776e+001	1.119142e+002
1.095092e+007	-4.280700e+001	-8.396767e+001	-3.071781e+001	-2.268159e+001	-9.815694e+001	9.998997e+001	-4.497903e+001	1.116096e+002
1.095093e+007	-4.279774e+001	-8.404313e+001	-3.070633e+001	-2.271717e+001	-1.024321e+002	1.247447e+002	-4.500111e+001	1.117673e+002
1.095094e+007	-4.283885e+001	-8.408626e+001	-3.070777e+001	-2.268249e+001	-9.493833e+001	1.200684e+002	-4.503218e+001	1.119767e+002
1.095095e+007	-4.280745e+001	-8.402428e+001	-3.070469e+001	-2.267706e+001	-9.538316e+001	1.163252e+002	-4.500482e+001	1.120065e+002
1.095095e+007	-4.277631e+001	-8.414800e+001	-3.070477e+001	-2.271513e+001	-9.905495e+001	1.017442e+002	-4.502271e+001	1.121710e+002
1.095096e+007	-4.280489e+001	-8.423317e+001	-3.070614e+001	-2.272477e+001	-9.615565e+001	1.100545e+002	-4.502148e+001	1.120199e+002
1.095097e+007	-4.280377e+001	-8.413306e+001	-3.069527e+001	-2.268350e+001	-9.470539e+001	1.166197e+002	-4.499247e+001	1.117641e+002
1.095098e+007	-4.281127e+001	-8.401583e+001	-3.069959e+001	-2.262363e+001	-9.742451e+001	9.427275e+001	-4.500135e+001	1.121402e+002
1.095098e+007	-4.278634e+001	-8.412218e+001	-3.071954e+001	-2.270709e+001	-9.364825e+001	9.521560e+001	-4.501467e+001	1.120202e+002
1.095099e+007	-4.280977e+001	-8.397468e+001	-3.070966e+001	-2.264870e+001	-9.647564e+001	1.124649e+002	-4.501538e+001	1.119741e+002
1.095100e+007	-4.279969e+001	-8.404699e+001	-3.071021e+001	-2.267380e+001	-9.565791e+001	8.873067e+001	-4.500627e+001	1.118952e+002
1.095101e+007	-4.280991e+001	-8.405809e+001	-3.070882e+001	-2.264651e+001	-9.535040e+001	1.166603e+002	-4.499954e+001	1.119128e+002
1.095102e+007	-4.281018e+001	-8.391488e+001	-3.071298e+001	-2.264428e+001	-9.622539e+001	1.024727e+002	-4.502537e+001	1.119535e+002
1.095102e+007	-4.279461e+001	-8.399700e+001	-3.070848e+001	-2.267076e+001	-9.700586e+001	1.069364e+002	-4.502094e+001	1.120520e+002
1.095103e+007	-4.276758e+001	-8.407634e+001	-3.071819e+001	-2.268064e+001	-9.714098e+001	1.103718e+002	-4.503401e+001	1.120930e+002
1.095104e+007	-4.283218e+001	-8.404754e+001	-3.070545e+001	-2.273910e+001	-9.594592e+001	8.443302e+001	-4.499875e+001	1.116479e+002
1.095105e+007	-4.282042e+001	-8.412304e+001	-3.070234e+001	-2.265116e+001	-9.548743e+001	1.003146e+002	-4.496736e+001	1.122716e+002
1.095105e+007	-4.278866e+001	-8.389340e+001	-3.070241e+001	-2.277458e+001	-9.363842e+001	9.046525e+001	-4.500740e+001	1.117660e+002
1.095106e+007	-4.281243e+001	-8.405618e+001	-3.070020e+001	-2.268129e+001	-9.421160e+001	1.012348e+002	-4.501902e+001	1.119518e+002
1.095107e+007	-4.281067e+001	-8.408961e+001	-3.071139e+001	-2.273121e+001	-9.637127e+001	9.798452e+001	-4.501769e+001	1.118395e+002
1.095108e+007	-4.278041e+001	-8.375749e+001	-3.070209e+001	-2.269700e+001	-9.864147e+001	1.080972e+002	-4.500612e+001	1.118651e+002
1.095109e+007	-4.280981e+001	-8.410824e+001	-3.071103e+001	-2.269284e+001	-9.614108e+001	8.095700e+001	-4.496969e+001	1.119584e+002
1.095109e+007	-4.283323e+001	-8.410213e+001	-3.071514e+001	-2.272924e+001	-9.539376e+001	1.080419e+002	-4.497904e+001	1.121264e+002
1.095110e+007	-4.283346e+001	-8.409940e+001	-3.071193e+001	-2.276746e+001	-9.294254e+001	1.041787e+002	-4.497691e+001	1.118041e+002
1.095111e+007	-4.282211e+001	-8.396328e+001	-3.070858e+001	-2.274883e+001	-9.514333e+001	9.685030e+001	-4.500827e+001	1.118988e+002
1.095112e+007	-4.280767e+001	-8.405026e+001	-3.070934e+001	-2.272324e+001	-9.640346e+001	1.172050e+002	-4.505617e+001	1.116391e+002
1.095113e+007	-4.282671e+001	-8.385461e+001	-3.070957e+001	-2.266101e+001	-9.664679e+001	1.059652e+002	-4.500089e+001	1.121865e+002
1.095113e+007	-4.283192e+001	-8.408330e+001	-3.070367e+001	-2.265679e+001	-9.508875e+001	1.183950e+002	-4.504096e+001	1.117650e+002
1.095114e+007	-4.281581e+001	-8.396541e+001	-3.072074e+001	-2.273927e+001	-9.679980e+001	7.953414e+001	-4.497988e+001	1.121499e+002
1.095115e+007	-4.281031e+001	-8.388320e+001	-3.069872e+001	-2.262315e+001	-9.663571e+001	1.013326e+002	-4.499815e+001	1.122862e+002
1.095116e+007	-4.283198e+001	-8.414833e+001	-3.070590e+001	-2.269309e+001	-9.495450e+001	9.607751e+001	-4.497971e+001	1.118943e+002
