!CETC41,AV3656A,ZGL00048,1.3.2
!Calibration ON (Full Solt 2-Port(Omit Isolation))
!Measurements: S11 S21 S12 S22
!2025-04-22 21:31
# Hz  S  dB  R 50.000
1.095000e+007	-4.445939e+001	-8.403151e+001	-3.068335e+001	-2.340702e+001	-9.348614e+001	1.085240e+002	-4.424346e+001	1.142944e+002
1.095001e+007	-4.448227e+001	-8.419740e+001	-3.068207e+001	-2.332900e+001	-9.481886e+001	8.556331e+001	-4.424153e+001	1.145897e+002
1.095002e+007	-4.446385e+001	-8.408970e+001	-3.068801e+001	-2.325671e+001	-9.388132e+001	1.171454e+002	-4.429067e+001	1.143651e+002
1.095002e+007	-4.448157e+001	-8.398006e+001	-3.068422e+001	-2.337184e+001	-9.414362e+001	1.153553e+002	-4.433291e+001	1.144337e+002
1.095003e+007	-4.445462e+001	-8.394367e+001	-3.068241e+001	-2.342215e+001	-9.445469e+001	1.023190e+002	-4.425866e+001	1.143775e+002
1.095004e+007	-4.449607e+001	-8.430322e+001	-3.067248e+001	-2.329896e+001	-9.614928e+001	8.284337e+001	-4.423112e+001	1.145051e+002
1.095005e+007	-4.446463e+001	-8.433803e+001	-3.068231e+001	-2.328619e+001	-9.566588e+001	1.127116e+002	-4.422970e+001	1.146553e+002
1.095005e+007	-4.450449e+001	-8.408958e+001	-3.069243e+001	-2.332099e+001	-9.279223e+001	1.037700e+002	-4.431247e+001	1.144349e+002
1.095006e+007	-4.444697e+001	-8.418351e+001	-3.068750e+001	-2.333197e+001	-9.503250e+001	1.052085e+002	-4.428146e+001	1.143950e+002
1.095007e+007	-4.446361e+001	-8.399513e+001	-3.067830e+001	-2.335469e+001	-9.352876e+001	1.128556e+002	-4.427431e+001	1.143811e+002
1.095008e+007	-4.449166e+001	-8.421989e+001	-3.067866e+001	-2.331214e+001	-9.648857e+001	1.099075e+002	-4.423310e+001	1.144742e+002
1.095009e+007	-4.445513e+001	-8.441718e+001	-3.068023e+001	-2.331943e+001	-9.601511e+001	9.362996e+001	-4.426939e+001	1.144961e+002
1.095009e+007	-4.445236e+001	-8.402956e+001	-3.067847e+001	-2.329082e+001	-9.708089e+001	1.076702e+002	-4.426752e+001	1.146439e+002
1.095010e+007	-4.447394e+001	-8.439915e+001	-3.068952e+001	-2.337478e+001	-9.656840e+001	1.135840e+002	-4.430552e+001	1.146653e+002
1.095011e+007	-4.444924e+001	-8.408576e+001	-3.067738e+001	-2.337212e+001	-9.675021e+001	9.495369e+001	-4.427806e+001	1.141883e+002
1.095012e+007	-4.444747e+001	-8.439146e+001	-3.067830e+001	-2.334235e+001	-9.269806e+001	1.161247e+002	-4.424914e+001	1.142808e+002
1.095013e+007	-4.449697e+001	-8.421316e+001	-3.068894e+001	-2.328779e+001	-9.457580e+001	1.055039e+002	-4.423527e+001	1.145105e+002
1.095013e+007	-4.444591e+001	-8.418886e+001	-3.068348e+001	-2.328907e+001	-9.170929e+001	1.170036e+002	-4.421911e+001	1.143445e+002
1.095014e+007	-4.445525e+001	-8.413295e+001	-3.067828e+001	-2.326779e+001	-9.306487e+001	1.128523e+002	-4.425328e+001	1.145858e+002
1.095015e+007	-4.446142e+001	-8.410365e+001	-3.068495e+001	-2.334131e+001	-9.743248e+001	1.037113e+002	-4.428616e+001	1.146589e+002
1.095016e+007	-4.440311e+001	-8.375536e+001	-3.069120e+001	-2.333021e+001	-9.391272e+001	1.121974e+002	-4.432533e+001	1.145490e+002
1.095016e+007	-4.444434e+001	-8.386549e+001	-3.068882e+001	-2.332798e+001	-9.608740e+001	1.109511e+002	-4.428804e+001	1.143195e+002
1.095017e+007	-4.446684e+001	-8.418278e+001	-3.066699e+001	-2.331719e+001	-9.492322e+001	9.850666e+001	-4.429973e+001	1.144355e+002
1.095018e+007	-4.447945e+001	-8.402527e+001	-3.068147e+001	-2.329986e+001	-9.386041e+001	1.116485e+002	-4.425806e+001	1.144147e+002
1.095019e+007	-4.446513e+001	-8.427259e+001	-3.067696e+001	-2.333722e+001	-9.506916e+001	8.868715e+001	-4.430669e+001	1.141538e+002
1.095020e+007	-4.448432e+001	-8.422622e+001	-3.067546e+001	-2.327157e+001	-9.374812e+001	1.158673e+002	-4.421377e+001	1.144539e+002
1.095020e+007	-4.445696e+001	-8.385645e+001	-3.067444e+001	-2.328228e+001	-9.754523e+001	1.016969e+002	-4.422162e+001	1.144394e+002
1.095021e+007	-4.444411e+001	-8.417671e+001	-3.068377e+001	-2.330654e+001	-9.454599e+001	9.061863e+001	-4.425573e+001	1.144229e+002
1.095022e+007	-4.450413e+001	-8.381953e+001	-3.068081e+001	-2.325585e+001	-9.325929e+001	9.241611e+001	-4.425999e+001	1.145802e+002
1.095023e+007	-4.446906e+001	-8.392402e+001	-3.068394e+001	-2.330003e+001	-9.567807e+001	1.112777e+002	-4.422807e+001	1.146349e+002
1.095023e+007	-4.445784e+001	-8.388098e+001	-3.068315e+001	-2.334706e+001	-9.399139e+001	9.803795e+001	-4.426401e+001	1.147495e+002
1.095024e+007	-4.448323e+001	-8.401194e+001	-3.068109e+001	-2.327532e+001	-9.634448e+001	1.050285e+002	-4.426782e+001	1.144145e+002
1.095025e+007	-4.444888e+001	-8.398958e+001	-3.068251e+001	-2.332053e+001	-9.416971e+001	1.043097e+002	-4.422575e+001	1.147103e+002
1.095026e+007	-4.444485e+001	-8.400236e+001	-3.067734e+001	-2.337992e+001	-9.480308e+001	1.141625e+002	-4.424913e+001	1.148795e+002
1.095027e+007	-4.452216e+001	-8.386238e+001	-3.067433e+001	-2.334355e+001	-9.689056e+001	9.462246e+001	-4.428506e+001	1.145028e+002
1.095027e+007	-4.449007e+001	-8.373857e+001	-3.067740e+001	-2.330027e+001	-9.412930e+001	1.047961e+002	-4.426399e+001	1.146212e+002
1.095028e+007	-4.447334e+001	-8.397122e+001	-3.068250e+001	-2.338670e+001	-9.399885e+001	1.000088e+002	-4.423016e+001	1.145981e+002
1.095029e+007	-4.445176e+001	-8.413187e+001	-3.068004e+001	-2.341056e+001	-9.614820e+001	1.018889e+002	-4.424097e+001	1.147608e+002
1.095030e+007	-4.454340e+001	-8.397531e+001	-3.068688e+001	-2.341673e+001	-9.394900e+001	1.147890e+002	-4.423182e+001	1.145897e+002
1.095030e+007	-4.447279e+001	-8.389175e+001	-3.068308e+001	-2.346260e+001	-9.522200e+001	1.013682e+002	-4.428749e+001	1.145464e+002
1.095031e+007	-4.448822e+001	-8.402687e+001	-3.068492e+001	-2.347072e+001	-9.386263e+001	1.004990e+002	-4.427058e+001	1.145929e+002
1.095032e+007	-4.443987e+001	-8.427790e+001	-3.068039e+001	-2.347111e+001	-9.484238e+001	1.135099e+002	-4.425101e+001	1.146546e+002
1.095033e+007	-4.447804e+001	-8.421758e+001	-3.068736e+001	-2.337901e+001	-9.281993e+001	1.173553e+002	-4.426249e+001	1.143661e+002
1.095034e+007	-4.449327e+001	-8.418553e+001	-3.069141e+001	-2.344643e+001	-9.208004e+001	1.063206e+002	-4.421205e+001	1.144706e+002
1.095034e+007	-4.446573e+001	-8.404978e+001	-3.068875e+001	-2.335430e+001	-9.473934e+001	1.152210e+002	-4.425843e+001	1.146665e+002
1.095035e+007	-4.444017e+001	-8.419404e+001	-3.070211e+001	-2.336359e+001	-9.490990e+001	1.110434e+002	-4.423973e+001	1.144339e+002
1.095036e+007	-4.451400e+001	-8.396119e+001	-3.070640e+001	-2.334395e+001	-9.245310e+001	9.056661e+001	-4.429344e+001	1.145066e+002
1.095037e+007	-4.447719e+001	-8.416090e+001	-3.070576e+001	-2.331059e+001	-9.671549e+001	1.100016e+002	-4.422511e+001	1.144384e+002
1.095038e+007	-4.446503e+001	-8.408422e+001	-3.069203e+001	-2.322109e+001	-9.258052e+001	1.002125e+002	-4.427798e+001	1.142766e+002
1.095038e+007	-4.450345e+001	-8.444024e+001	-3.068879e+001	-2.322854e+001	-9.707378e+001	1.031421e+002	-4.427929e+001	1.145447e+002
1.095039e+007	-4.452141e+001	-8.387847e+001	-3.068280e+001	-2.326274e+001	-9.465915e+001	9.288695e+001	-4.427705e+001	1.143794e+002
1.095040e+007	-4.448596e+001	-8.381757e+001	-3.066778e+001	-2.336608e+001	-9.294800e+001	1.022568e+002	-4.425314e+001	1.144712e+002
1.095041e+007	-4.447022e+001	-8.390518e+001	-3.067592e+001	-2.336835e+001	-9.501713e+001	1.035660e+002	-4.425932e+001	1.144419e+002
1.095041e+007	-4.443545e+001	-8.426910e+001	-3.068196e+001	-2.339218e+001	-9.243832e+001	1.019109e+002	-4.425308e+001	1.143927e+002
1.095042e+007	-4.447647e+001	-8.406677e+001	-3.070007e+001	-2.340428e+001	-1.004343e+002	1.096888e+002	-4.424043e+001	1.145039e+002
1.095043e+007	-4.443851e+001	-8.402838e+001	-3.069873e+001	-2.336267e+001	-9.692922e+001	1.181559e+002	-4.425899e+001	1.143365e+002
1.095044e+007	-4.445305e+001	-8.408096e+001	-3.068389e+001	-2.328414e+001	-9.348941e+001	1.025388e+002	-4.427076e+001	1.144192e+002
1.095045e+007	-4.448908e+001	-8.397442e+001	-3.068040e+001	-2.328318e+001	-9.516764e+001	8.961028e+001	-4.426202e+001	1.146439e+002
1.095045e+007	-4.447927e+001	-8.406049e+001	-3.067142e+001	-2.332138e+001	-9.646367e+001	1.008839e+002	-4.428355e+001	1.146048e+002
1.095046e+007	-4.447636e+001	-8.382350e+001	-3.068285e+001	-2.339875e+001	-9.498394e+001	1.123299e+002	-4.422751e+001	1.145897e+002
1.095047e+007	-4.444102e+001	-8.399671e+001	-3.067787e+001	-2.339553e+001	-9.559311e+001	1.146609e+002	-4.426179e+001	1.143196e+002
1.095048e+007	-4.448243e+001	-8.398477e+001	-3.069468e+001	-2.331112e+001	-9.375578e+001	9.405882e+001	-4.426416e+001	1.144073e+002
1.095048e+007	-4.441982e+001	-8.417211e+001	-3.068803e+001	-2.327032e+001	-9.598123e+001	1.088421e+002	-4.423924e+001	1.143602e+002
1.095049e+007	-4.447550e+001	-8.405424e+001	-3.068012e+001	-2.333762e+001	-9.303056e+001	1.043961e+002	-4.426423e+001	1.145107e+002
1.095050e+007	-4.447759e+001	-8.395595e+001	-3.067831e+001	-2.335960e+001	-9.375644e+001	9.103813e+001	-4.425101e+001	1.143953e+002
1.095051e+007	-4.447096e+001	-8.413545e+001	-3.068220e+001	-2.339527e+001	-9.679033e+001	8.863864e+001	-4.428528e+001	1.145237e+002
1.095052e+007	-4.447150e+001	-8.418438e+001	-3.068591e+001	-2.333553e+001	-9.243626e+001	1.092307e+002	-4.423866e+001	1.144024e+002
1.095052e+007	-4.444906e+001	-8.383707e+001	-3.067674e+001	-2.333690e+001	-9.441058e+001	9.946921e+001	-4.425393e+001	1.145098e+002
1.095053e+007	-4.448145e+001	-8.394314e+001	-3.068841e+001	-2.331947e+001	-9.601216e+001	7.946484e+001	-4.424490e+001	1.144562e+002
1.095054e+007	-4.446826e+001	-8.404659e+001	-3.068295e+001	-2.334445e+001	-9.582375e+001	1.037314e+002	-4.425498e+001	1.144910e+002
1.095055e+007	-4.447787e+001	-8.419447e+001	-3.068772e+001	-2.339319e+001	-9.244308e+001	9.442092e+001	-4.424641e+001	1.145716e+002
1.095055e+007	-4.442492e+001	-8.428639e+001	-3.068142e+001	-2.337015e+001	-9.458504e+001	1.060626e+002	-4.426296e+001	1.144904e+002
1.095056e+007	-4.449345e+001	-8.396764e+001	-3.068473e+001	-2.337600e+001	-9.551703e+001	9.111100e+001	-4.423083e+001	1.145078e+002
1.095057e+007	-4.446805e+001	-8.403485e+001	-3.067410e+001	-2.333729e+001	-9.427995e+001	9.375577e+001	-4.425936e+001	1.145460e+002
1.095058e+007	-4.445019e+001	-8.395397e+001	-3.067304e+001	-2.331890e+001	-9.296104e+001	9.811561e+001	-4.428731e+001	1.144834e+002
1.095059e+007	-4.444998e+001	-8.442470e+001	-3.067542e+001	-2.336857e+001	-9.768476e+001	9.568961e+001	-4.422343e+001	1.145223e+002
1.095059e+007	-4.448507e+001	-8.404744e+001	-3.068127e+001	-2.326568e+001	-9.256765e+001	1.071757e+002	-4.423756e+001	1.145212e+002
1.095060e+007	-4.446712e+001	-8.405866e+001	-3.067830e+001	-2.332728e+001	-9.400022e+001	9.137815e+001	-4.424249e+001	1.146028e+002
1.095061e+007	-4.449250e+001	-8.427314e+001	-3.067062e+001	-2.338362e+001	-9.386417e+001	9.587726e+001	-4.424110e+001	1.145400e+002
1.095062e+007	-4.444211e+001	-8.410412e+001	-3.067868e+001	-2.337528e+001	-9.327669e+001	9.896238e+001	-4.422515e+001	1.143353e+002
1.095063e+007	-4.443649e+001	-8.396563e+001	-3.068174e+001	-2.332969e+001	-9.448022e+001	1.088355e+002	-4.423545e+001	1.145573e+002
1.095063e+007	-4.446843e+001	-8.414391e+001	-3.068094e+001	-2.337825e+001	-9.402748e+001	1.014335e+002	-4.423322e+001	1.146032e+002
1.095064e+007	-4.446337e+001	-8.384185e+001	-3.067331e+001	-2.336075e+001	-9.379212e+001	1.026795e+002	-4.426145e+001	1.144643e+002
1.095065e+007	-4.446400e+001	-8.408099e+001	-3.066922e+001	-2.325980e+001	-9.784567e+001	9.729858e+001	-4.426134e+001	1.145616e+002
1.095066e+007	-4.446329e+001	-8.387412e+001	-3.067906e+001	-2.340284e+001	-9.531463e+001	9.144422e+001	-4.422497e+001	1.146129e+002
1.095066e+007	-4.449609e+001	-8.439706e+001	-3.069091e+001	-2.325483e+001	-9.289257e+001	1.150202e+002	-4.424087e+001	1.147040e+002
1.095067e+007	-4.447864e+001	-8.412853e+001	-3.067080e+001	-2.332855e+001	-9.148821e+001	8.381688e+001	-4.423067e+001	1.144087e+002
1.095068e+007	-4.448676e+001	-8.434764e+001	-3.068038e+001	-2.331611e+001	-9.356800e+001	8.553202e+001	-4.425056e+001	1.145177e+002
1.095069e+007	-4.444767e+001	-8.409577e+001	-3.068052e+001	-2.332260e+001	-9.337392e+001	9.461775e+001	-4.425728e+001	1.144879e+002
1.095070e+007	-4.449444e+001	-8.415755e+001	-3.066714e+001	-2.337125e+001	-9.267320e+001	1.186320e+002	-4.423358e+001	1.147405e+002
1.095070e+007	-4.452740e+001	-8.410264e+001	-3.068698e+001	-2.334882e+001	-9.324432e+001	9.502056e+001	-4.421080e+001	1.145430e+002
1.095071e+007	-4.450160e+001	-8.391957e+001	-3.067747e+001	-2.334578e+001	-9.790521e+001	9.723279e+001	-4.425718e+001	1.146049e+002
1.095072e+007	-4.452453e+001	-8.415562e+001	-3.067910e+001	-2.328970e+001	-9.333607e+001	1.091876e+002	-4.421977e+001	1.144206e+002
1.095073e+007	-4.445434e+001	-8.407882e+001	-3.068288e+001	-2.328025e+001	-9.529874e+001	1.098858e+002	-4.425073e+001	1.145938e+002
1.095073e+007	-4.444713e+001	-8.410818e+001	-3.067547e+001	-2.341965e+001	-9.405703e+001	8.964011e+001	-4.428631e+001	1.145205e+002
1.095074e+007	-4.445636e+001	-8.391681e+001	-3.068231e+001	-2.325613e+001	-9.419959e+001	1.204286e+002	-4.423315e+001	1.145844e+002
1.095075e+007	-4.451094e+001	-8.412014e+001	-3.067190e+001	-2.331614e+001	-9.269848e+001	1.132548e+002	-4.422090e+001	1.147518e+002
1.095076e+007	-4.446866e+001	-8.394740e+001	-3.069476e+001	-2.338544e+001	-9.670800e+001	1.031556e+002	-4.424650e+001	1.144743e+002
1.095077e+007	-4.447488e+001	-8.396864e+001	-3.066312e+001	-2.331814e+001	-9.621979e+001	1.176615e+002	-4.427490e+001	1.145337e+002
1.095077e+007	-4.442964e+001	-8.380463e+001	-3.068508e+001	-2.340219e+001	-9.322364e+001	1.018342e+002	-4.428935e+001	1.145174e+002
1.095078e+007	-4.444200e+001	-8.400407e+001	-3.067611e+001	-2.330533e+001	-9.357424e+001	9.955416e+001	-4.423557e+001	1.147053e+002
1.095079e+007	-4.449556e+001	-8.397840e+001	-3.068175e+001	-2.340288e+001	-9.246399e+001	8.960770e+001	-4.425175e+001	1.143458e+002
1.095080e+007	-4.445130e+001	-8.407063e+001	-3.067922e+001	-2.331962e+001	-9.404958e+001	1.165792e+002	-4.421793e+001	1.146395e+002
1.095080e+007	-4.447154e+001	-8.420457e+001	-3.068872e+001	-2.344871e+001	-9.383341e+001	1.074321e+002	-4.424478e+001	1.145611e+002
1.095081e+007	-4.445288e+001	-8.378647e+001	-3.067559e+001	-2.329009e+001	-9.400184e+001	8.454625e+001	-4.422693e+001	1.142534e+002
1.095082e+007	-4.449300e+001	-8.410573e+001	-3.067676e+001	-2.337321e+001	-9.414348e+001	8.961660e+001	-4.424804e+001	1.146479e+002
1.095083e+007	-4.444893e+001	-8.401116e+001	-3.066598e+001	-2.330602e+001	-9.566324e+001	1.065197e+002	-4.427271e+001	1.144177e+002
1.095084e+007	-4.448777e+001	-8.399665e+001	-3.067826e+001	-2.339008e+001	-9.443004e+001	1.147168e+002	-4.421754e+001	1.147167e+002
1.095084e+007	-4.446304e+001	-8.404251e+001	-3.066743e+001	-2.330293e+001	-9.675488e+001	9.779896e+001	-4.424215e+001	1.144963e+002
1.095085e+007	-4.447689e+001	-8.422020e+001	-3.069272e+001	-2.335235e+001	-9.532775e+001	9.529520e+001	-4.421316e+001	1.146644e+002
1.095086e+007	-4.449923e+001	-8.388927e+001	-3.065811e+001	-2.336158e+001	-9.488447e+001	1.167287e+002	-4.423245e+001	1.147048e+002
1.095087e+007	-4.451155e+001	-8.422293e+001	-3.069166e+001	-2.335986e+001	-9.292650e+001	9.374892e+001	-4.420457e+001	1.146153e+002
1.095088e+007	-4.445360e+001	-8.435560e+001	-3.066630e+001	-2.332758e+001	-9.877828e+001	1.096054e+002	-4.425059e+001	1.145007e+002
1.095088e+007	-4.443017e+001	-8.418287e+001	-3.068662e+001	-2.326823e+001	-9.511791e+001	1.126809e+002	-4.423753e+001	1.144707e+002
1.095089e+007	-4.447410e+001	-8.387800e+001	-3.067502e+001	-2.342693e+001	-9.563154e+001	1.157357e+002	-4.423745e+001	1.145815e+002
1.095090e+007	-4.446400e+001	-8.420867e+001	-3.066007e+001	-2.324014e+001	-9.435127e+001	9.320645e+001	-4.421792e+001	1.145052e+002
1.095091e+007	-4.446354e+001	-8.423847e+001	-3.068443e+001	-2.337926e+001	-9.351103e+001	9.934868e+001	-4.423360e+001	1.145212e+002
1.095091e+007	-4.451570e+001	-8.394652e+001	-3.065445e+001	-2.332634e+001	-9.792882e+001	1.075563e+002	-4.425367e+001	1.144970e+002
1.095092e+007	-4.447153e+001	-8.413169e+001	-3.067732e+001	-2.328249e+001	-9.403048e+001	1.140960e+002	-4.420355e+001	1.145056e+002
1.095093e+007	-4.447347e+001	-8.404456e+001	-3.066328e+001	-2.344965e+001	-9.521800e+001	1.191496e+002	-4.426173e+001	1.145381e+002
1.095094e+007	-4.447172e+001	-8.389220e+001	-3.066428e+001	-2.333343e+001	-9.792605e+001	9.312910e+001	-4.426869e+001	1.145443e+002
1.095095e+007	-4.451488e+001	-8.397794e+001	-3.069062e+001	-2.332008e+001	-9.369480e+001	9.935445e+001	-4.424997e+001	1.143446e+002
1.095095e+007	-4.444663e+001	-8.382131e+001	-3.066402e+001	-2.341671e+001	-9.286171e+001	1.307039e+002	-4.424251e+001	1.145160e+002
1.095096e+007	-4.448437e+001	-8.397900e+001	-3.067824e+001	-2.325601e+001	-9.374770e+001	1.077466e+002	-4.428667e+001	1.147172e+002
1.095097e+007	-4.446986e+001	-8.421400e+001	-3.068111e+001	-2.343609e+001	-9.485178e+001	1.034357e+002	-4.424293e+001	1.146084e+002
1.095098e+007	-4.448008e+001	-8.428712e+001	-3.066396e+001	-2.337457e+001	-9.416680e+001	1.152493e+002	-4.424360e+001	1.146471e+002
1.095098e+007	-4.446881e+001	-8.428267e+001	-3.068435e+001	-2.321990e+001	-9.475035e+001	1.013071e+002	-4.425246e+001	1.146493e+002
1.095099e+007	-4.448695e+001	-8.409386e+001	-3.067951e+001	-2.333560e+001	-9.334016e+001	8.742852e+001	-4.421703e+001	1.143985e+002
1.095100e+007	-4.448043e+001	-8.397625e+001	-3.064941e+001	-2.335865e+001	-9.237665e+001	1.044427e+002	-4.426193e+001	1.145296e+002
1.095101e+007	-4.442341e+001	-8.409392e+001	-3.067821e+001	-2.324365e+001	-9.337273e+001	9.788313e+001	-4.423834e+001	1.148046e+002
1.095102e+007	-4.447539e+001	-8.401074e+001	-3.068669e+001	-2.342196e+001	-9.559879e+001	1.049320e+002	-4.421728e+001	1.146826e+002
1.095102e+007	-4.448130e+001	-8.406298e+001	-3.066142e+001	-2.339532e+001	-9.418678e+001	8.658703e+001	-4.423537e+001	1.146050e+002
1.095103e+007	-4.442759e+001	-8.439787e+001	-3.066670e+001	-2.324367e+001	-9.543487e+001	1.041086e+002	-4.423960e+001	1.145568e+002
1.095104e+007	-4.447801e+001	-8.380336e+001	-3.067794e+001	-2.337682e+001	-9.270331e+001	9.848860e+001	-4.423881e+001	1.146302e+002
1.095105e+007	-4.444221e+001	-8.412995e+001	-3.065681e+001	-2.337642e+001	-9.406437e+001	9.716897e+001	-4.425055e+001	1.145366e+002
1.095105e+007	-4.444944e+001	-8.369037e+001	-3.066817e+001	-2.321373e+001	-9.518925e+001	1.207772e+002	-4.427987e+001	1.144315e+002
1.095106e+007	-4.443970e+001	-8.408500e+001	-3.067680e+001	-2.326290e+001	-9.541163e+001	9.708464e+001	-4.426778e+001	1.146732e+002
1.095107e+007	-4.447827e+001	-8.425226e+001	-3.067077e+001	-2.347531e+001	-9.604092e+001	1.105156e+002	-4.426967e+001	1.145825e+002
1.095108e+007	-4.447959e+001	-8.391706e+001	-3.066383e+001	-2.341048e+001	-9.477211e+001	9.663179e+001	-4.429287e+001	1.145008e+002
1.095109e+007	-4.445107e+001	-8.387584e+001	-3.066521e+001	-2.328126e+001	-9.301391e+001	1.018775e+002	-4.424085e+001	1.146002e+002
1.095109e+007	-4.440141e+001	-8.390751e+001	-3.068009e+001	-2.332899e+001	-9.793166e+001	1.040659e+002	-4.425322e+001	1.146457e+002
1.095110e+007	-4.446588e+001	-8.390722e+001	-3.068340e+001	-2.335711e+001	-9.467286e+001	1.062603e+002	-4.421787e+001	1.146508e+002
1.095111e+007	-4.447961e+001	-8.394378e+001	-3.066947e+001	-2.341603e+001	-9.334517e+001	1.183141e+002	-4.427664e+001	1.146713e+002
1.095112e+007	-4.450268e+001	-8.389224e+001	-3.065126e+001	-2.332208e+001	-9.353819e+001	1.077868e+002	-4.424358e+001	1.145351e+002
1.095113e+007	-4.445419e+001	-8.431893e+001	-3.066869e+001	-2.321657e+001	-9.430328e+001	1.010981e+002	-4.423367e+001	1.143465e+002
1.095113e+007	-4.442291e+001	-8.405780e+001	-3.067915e+001	-2.327906e+001	-9.737175e+001	9.529057e+001	-4.426235e+001	1.146174e+002
1.095114e+007	-4.446207e+001	-8.396973e+001	-3.067965e+001	-2.338038e+001	-9.387818e+001	8.956577e+001	-4.424627e+001	1.142303e+002
1.095115e+007	-4.446191e+001	-8.410567e+001	-3.065864e+001	-2.343665e+001	-9.630144e+001	9.372643e+001	-4.426428e+001	1.145113e+002
1.095116e+007	-4.448143e+001	-8.408764e+001	-3.065536e+001	-2.334141e+001	-9.547131e+001	1.151617e+002	-4.424364e+001	1.144549e+002
