!CETC41,AV3656A,ZGL00048,1.3.2
!Calibration ON (Full Solt 2-Port(Omit Isolation))
!Measurements: S11 S21 S12 S22
!2025-07-09 20:56
# Hz  S  dB  R 50.000
1.095000e+007	-4.238993e+001	-8.632431e+001	-3.075942e+001	-2.295777e+001	-9.465947e+001	9.141016e+001	-4.260074e+001	3.568531e+001
1.095001e+007	-4.240237e+001	-8.634055e+001	-3.077342e+001	-2.291663e+001	-9.352189e+001	9.735401e+001	-4.260364e+001	3.577660e+001
1.095002e+007	-4.239250e+001	-8.617660e+001	-3.076225e+001	-2.300963e+001	-9.619699e+001	8.812866e+001	-4.258195e+001	3.550751e+001
1.095002e+007	-4.240765e+001	-8.630225e+001	-3.077339e+001	-2.297376e+001	-9.821677e+001	9.443912e+001	-4.260265e+001	3.575675e+001
1.095003e+007	-4.237069e+001	-8.613078e+001	-3.076388e+001	-2.297035e+001	-9.529139e+001	7.849409e+001	-4.261550e+001	3.595948e+001
1.095004e+007	-4.236647e+001	-8.619260e+001	-3.077152e+001	-2.296131e+001	-9.845540e+001	9.640452e+001	-4.258199e+001	3.581542e+001
1.095005e+007	-4.241845e+001	-8.611666e+001	-3.075957e+001	-2.291794e+001	-9.459872e+001	8.457002e+001	-4.258082e+001	3.544366e+001
1.095005e+007	-4.240320e+001	-8.649089e+001	-3.075956e+001	-2.297559e+001	-9.840076e+001	1.121276e+002	-4.263399e+001	3.574069e+001
1.095006e+007	-4.237375e+001	-8.623507e+001	-3.076437e+001	-2.300785e+001	-9.402395e+001	1.097634e+002	-4.258760e+001	3.567950e+001
1.095007e+007	-4.239637e+001	-8.623404e+001	-3.076492e+001	-2.291536e+001	-9.537600e+001	8.343870e+001	-4.260849e+001	3.574432e+001
1.095008e+007	-4.238157e+001	-8.629581e+001	-3.076791e+001	-2.295511e+001	-9.650707e+001	8.666463e+001	-4.259834e+001	3.550786e+001
1.095009e+007	-4.239620e+001	-8.620344e+001	-3.076657e+001	-2.294639e+001	-9.718665e+001	1.029446e+002	-4.259494e+001	3.564245e+001
1.095009e+007	-4.238428e+001	-8.609833e+001	-3.076505e+001	-2.301109e+001	-1.019996e+002	9.760260e+001	-4.261097e+001	3.555064e+001
1.095010e+007	-4.238950e+001	-8.639227e+001	-3.075966e+001	-2.298088e+001	-9.935333e+001	1.207384e+002	-4.255886e+001	3.571167e+001
1.095011e+007	-4.237446e+001	-8.591222e+001	-3.076179e+001	-2.296020e+001	-9.499764e+001	1.042322e+002	-4.258362e+001	3.547144e+001
1.095012e+007	-4.240618e+001	-8.620817e+001	-3.076994e+001	-2.293346e+001	-9.797539e+001	9.850715e+001	-4.260514e+001	3.572537e+001
1.095013e+007	-4.238981e+001	-8.625155e+001	-3.076267e+001	-2.293298e+001	-9.586469e+001	1.118093e+002	-4.261831e+001	3.587796e+001
1.095013e+007	-4.235484e+001	-8.615371e+001	-3.076262e+001	-2.297164e+001	-9.859599e+001	9.798073e+001	-4.258878e+001	3.569093e+001
1.095014e+007	-4.236288e+001	-8.612372e+001	-3.075525e+001	-2.290417e+001	-9.621857e+001	8.235489e+001	-4.261576e+001	3.554579e+001
1.095015e+007	-4.239087e+001	-8.606931e+001	-3.075824e+001	-2.299605e+001	-9.491522e+001	8.784936e+001	-4.261003e+001	3.550720e+001
1.095016e+007	-4.237386e+001	-8.631186e+001	-3.077084e+001	-2.296312e+001	-9.779080e+001	1.001070e+002	-4.256894e+001	3.570582e+001
1.095016e+007	-4.238272e+001	-8.622947e+001	-3.076012e+001	-2.300969e+001	-9.793682e+001	1.162603e+002	-4.260270e+001	3.570954e+001
1.095017e+007	-4.235513e+001	-8.614526e+001	-3.075866e+001	-2.296416e+001	-9.582685e+001	8.521525e+001	-4.257137e+001	3.579155e+001
1.095018e+007	-4.237137e+001	-8.636938e+001	-3.077065e+001	-2.294910e+001	-1.004095e+002	7.687722e+001	-4.261044e+001	3.579918e+001
1.095019e+007	-4.239587e+001	-8.616677e+001	-3.075793e+001	-2.292416e+001	-9.821664e+001	1.010695e+002	-4.259481e+001	3.562865e+001
1.095020e+007	-4.239630e+001	-8.644858e+001	-3.076056e+001	-2.289342e+001	-9.612352e+001	1.219581e+002	-4.260824e+001	3.591018e+001
1.095020e+007	-4.240881e+001	-8.615007e+001	-3.075322e+001	-2.291297e+001	-9.717527e+001	8.477359e+001	-4.257855e+001	3.567243e+001
1.095021e+007	-4.237738e+001	-8.637946e+001	-3.075901e+001	-2.298305e+001	-9.555976e+001	9.845450e+001	-4.261220e+001	3.553503e+001
1.095022e+007	-4.240882e+001	-8.625503e+001	-3.074865e+001	-2.295800e+001	-9.727365e+001	9.669450e+001	-4.260485e+001	3.605375e+001
1.095023e+007	-4.236459e+001	-8.632010e+001	-3.075312e+001	-2.296587e+001	-9.539544e+001	9.843503e+001	-4.260630e+001	3.549919e+001
1.095023e+007	-4.239437e+001	-8.622719e+001	-3.075629e+001	-2.296862e+001	-9.690543e+001	9.650395e+001	-4.264014e+001	3.581862e+001
1.095024e+007	-4.238813e+001	-8.618408e+001	-3.075924e+001	-2.293408e+001	-9.564369e+001	9.916787e+001	-4.257204e+001	3.602965e+001
1.095025e+007	-4.239683e+001	-8.604160e+001	-3.075880e+001	-2.292647e+001	-9.887977e+001	9.466739e+001	-4.260173e+001	3.569821e+001
1.095026e+007	-4.239186e+001	-8.619887e+001	-3.075600e+001	-2.297096e+001	-9.679967e+001	8.045931e+001	-4.259667e+001	3.589550e+001
1.095027e+007	-4.236308e+001	-8.619314e+001	-3.076172e+001	-2.298438e+001	-9.488366e+001	8.556219e+001	-4.261528e+001	3.555656e+001
1.095027e+007	-4.240350e+001	-8.613157e+001	-3.075794e+001	-2.295669e+001	-9.815555e+001	1.109218e+002	-4.259505e+001	3.604111e+001
1.095028e+007	-4.240550e+001	-8.604804e+001	-3.076238e+001	-2.290380e+001	-9.977570e+001	8.349771e+001	-4.259541e+001	3.561414e+001
1.095029e+007	-4.237390e+001	-8.639413e+001	-3.076335e+001	-2.300558e+001	-9.765762e+001	1.076241e+002	-4.262831e+001	3.568268e+001
1.095030e+007	-4.239591e+001	-8.626536e+001	-3.076158e+001	-2.296335e+001	-9.617796e+001	8.999642e+001	-4.257862e+001	3.562759e+001
1.095030e+007	-4.240140e+001	-8.642610e+001	-3.074941e+001	-2.300062e+001	-9.727766e+001	1.048138e+002	-4.264187e+001	3.547717e+001
1.095031e+007	-4.241013e+001	-8.614517e+001	-3.075827e+001	-2.295733e+001	-9.779518e+001	7.644678e+001	-4.258466e+001	3.580475e+001
1.095032e+007	-4.241400e+001	-8.622921e+001	-3.075261e+001	-2.292851e+001	-9.678518e+001	9.800422e+001	-4.260812e+001	3.562167e+001
1.095033e+007	-4.238183e+001	-8.619584e+001	-3.075187e+001	-2.292682e+001	-9.437561e+001	9.067451e+001	-4.257557e+001	3.588191e+001
1.095034e+007	-4.239695e+001	-8.586282e+001	-3.076665e+001	-2.292430e+001	-9.677675e+001	9.462169e+001	-4.262884e+001	3.571195e+001
1.095034e+007	-4.236275e+001	-8.635076e+001	-3.075349e+001	-2.296180e+001	-9.382045e+001	8.341977e+001	-4.264541e+001	3.590376e+001
1.095035e+007	-4.239921e+001	-8.617078e+001	-3.075330e+001	-2.293777e+001	-9.803610e+001	1.074796e+002	-4.261401e+001	3.567101e+001
1.095036e+007	-4.240632e+001	-8.613648e+001	-3.075180e+001	-2.298034e+001	-9.586650e+001	9.309600e+001	-4.257945e+001	3.602682e+001
1.095037e+007	-4.240572e+001	-8.616187e+001	-3.075806e+001	-2.289662e+001	-9.747371e+001	9.094611e+001	-4.262032e+001	3.546643e+001
1.095038e+007	-4.238225e+001	-8.601464e+001	-3.076324e+001	-2.298209e+001	-9.486804e+001	8.530756e+001	-4.259746e+001	3.585413e+001
1.095038e+007	-4.239332e+001	-8.616834e+001	-3.076154e+001	-2.292664e+001	-9.843160e+001	9.986672e+001	-4.263711e+001	3.544942e+001
1.095039e+007	-4.242412e+001	-8.624215e+001	-3.075316e+001	-2.297596e+001	-9.576606e+001	9.962247e+001	-4.258059e+001	3.563447e+001
1.095040e+007	-4.236519e+001	-8.630669e+001	-3.074985e+001	-2.290410e+001	-9.755953e+001	7.419402e+001	-4.262083e+001	3.564606e+001
1.095041e+007	-4.239265e+001	-8.628286e+001	-3.077050e+001	-2.298712e+001	-9.832400e+001	8.715120e+001	-4.258207e+001	3.548943e+001
1.095041e+007	-4.239157e+001	-8.620673e+001	-3.074428e+001	-2.290656e+001	-9.422125e+001	9.561393e+001	-4.261514e+001	3.592427e+001
1.095042e+007	-4.240343e+001	-8.609646e+001	-3.075451e+001	-2.293749e+001	-9.660570e+001	1.044327e+002	-4.262903e+001	3.557394e+001
1.095043e+007	-4.240519e+001	-8.615414e+001	-3.075212e+001	-2.298375e+001	-9.533636e+001	8.997104e+001	-4.258461e+001	3.597344e+001
1.095044e+007	-4.240007e+001	-8.612057e+001	-3.075717e+001	-2.292099e+001	-9.531173e+001	7.982839e+001	-4.262432e+001	3.569237e+001
1.095045e+007	-4.237522e+001	-8.616356e+001	-3.075795e+001	-2.296629e+001	-9.681452e+001	1.006371e+002	-4.259647e+001	3.582503e+001
1.095045e+007	-4.237334e+001	-8.627034e+001	-3.074943e+001	-2.286796e+001	-9.614734e+001	7.673005e+001	-4.261950e+001	3.575725e+001
1.095046e+007	-4.237090e+001	-8.624050e+001	-3.075531e+001	-2.297742e+001	-1.031107e+002	1.155992e+002	-4.258808e+001	3.562868e+001
1.095047e+007	-4.240657e+001	-8.629966e+001	-3.075994e+001	-2.306543e+001	-9.829898e+001	8.727835e+001	-4.259907e+001	3.603953e+001
1.095048e+007	-4.235755e+001	-8.627201e+001	-3.075527e+001	-2.292340e+001	-9.472108e+001	7.924158e+001	-4.262160e+001	3.567830e+001
1.095048e+007	-4.239824e+001	-8.604132e+001	-3.075856e+001	-2.302289e+001	-9.648374e+001	1.018948e+002	-4.255885e+001	3.590523e+001
1.095049e+007	-4.235938e+001	-8.612502e+001	-3.075127e+001	-2.288143e+001	-9.495766e+001	1.092233e+002	-4.262529e+001	3.591285e+001
1.095050e+007	-4.237915e+001	-8.593831e+001	-3.076097e+001	-2.298121e+001	-9.750028e+001	8.718118e+001	-4.261191e+001	3.549849e+001
1.095051e+007	-4.240051e+001	-8.624473e+001	-3.075344e+001	-2.301028e+001	-9.817908e+001	9.713859e+001	-4.258837e+001	3.581380e+001
1.095052e+007	-4.234878e+001	-8.605038e+001	-3.074528e+001	-2.291199e+001	-9.652152e+001	8.223097e+001	-4.260286e+001	3.582937e+001
1.095052e+007	-4.240778e+001	-8.597751e+001	-3.075726e+001	-2.293835e+001	-9.494090e+001	9.123435e+001	-4.258996e+001	3.557323e+001
1.095053e+007	-4.240854e+001	-8.622336e+001	-3.075964e+001	-2.299855e+001	-9.610473e+001	9.071307e+001	-4.254022e+001	3.564590e+001
1.095054e+007	-4.238635e+001	-8.607486e+001	-3.074889e+001	-2.295856e+001	-9.557891e+001	7.960388e+001	-4.261417e+001	3.591737e+001
1.095055e+007	-4.240514e+001	-8.638360e+001	-3.075714e+001	-2.288559e+001	-9.403990e+001	1.048614e+002	-4.265141e+001	3.575376e+001
1.095055e+007	-4.237900e+001	-8.610715e+001	-3.076242e+001	-2.295892e+001	-9.705284e+001	9.913884e+001	-4.257721e+001	3.585586e+001
1.095056e+007	-4.240960e+001	-8.613910e+001	-3.075020e+001	-2.300014e+001	-9.912353e+001	1.069953e+002	-4.260410e+001	3.594548e+001
1.095057e+007	-4.240102e+001	-8.632362e+001	-3.075383e+001	-2.291310e+001	-9.674969e+001	8.875397e+001	-4.262703e+001	3.587774e+001
1.095058e+007	-4.238857e+001	-8.622513e+001	-3.075576e+001	-2.294708e+001	-9.612460e+001	8.514263e+001	-4.258835e+001	3.567799e+001
1.095059e+007	-4.239809e+001	-8.634135e+001	-3.075828e+001	-2.293754e+001	-9.678169e+001	1.011388e+002	-4.258442e+001	3.587261e+001
1.095059e+007	-4.240388e+001	-8.629776e+001	-3.074905e+001	-2.305523e+001	-9.862868e+001	8.948781e+001	-4.260474e+001	3.589441e+001
1.095060e+007	-4.241330e+001	-8.628104e+001	-3.076264e+001	-2.296509e+001	-9.982219e+001	1.090454e+002	-4.261888e+001	3.569776e+001
1.095061e+007	-4.241119e+001	-8.611419e+001	-3.076001e+001	-2.295540e+001	-1.003362e+002	6.601068e+001	-4.254399e+001	3.568803e+001
1.095062e+007	-4.238665e+001	-8.635343e+001	-3.075982e+001	-2.298120e+001	-9.818738e+001	1.006604e+002	-4.259041e+001	3.572191e+001
1.095063e+007	-4.240737e+001	-8.604965e+001	-3.074946e+001	-2.294652e+001	-9.893961e+001	9.138922e+001	-4.261885e+001	3.588180e+001
1.095063e+007	-4.240429e+001	-8.613908e+001	-3.074817e+001	-2.292747e+001	-9.760036e+001	1.046994e+002	-4.260932e+001	3.571226e+001
1.095064e+007	-4.238196e+001	-8.628110e+001	-3.075214e+001	-2.291716e+001	-9.684878e+001	9.687561e+001	-4.257159e+001	3.572723e+001
1.095065e+007	-4.237724e+001	-8.623245e+001	-3.076272e+001	-2.298477e+001	-1.011711e+002	8.930009e+001	-4.257346e+001	3.584005e+001
1.095066e+007	-4.236874e+001	-8.628923e+001	-3.075936e+001	-2.299082e+001	-9.548741e+001	8.722436e+001	-4.258984e+001	3.594219e+001
1.095066e+007	-4.239475e+001	-8.625148e+001	-3.074917e+001	-2.297392e+001	-9.623616e+001	1.036172e+002	-4.263879e+001	3.593565e+001
1.095067e+007	-4.240250e+001	-8.615651e+001	-3.074862e+001	-2.287061e+001	-9.813520e+001	1.020353e+002	-4.261858e+001	3.554860e+001
1.095068e+007	-4.239748e+001	-8.613973e+001	-3.076161e+001	-2.292919e+001	-9.487627e+001	1.086956e+002	-4.260550e+001	3.547754e+001
1.095069e+007	-4.237447e+001	-8.633568e+001	-3.075910e+001	-2.294153e+001	-9.773763e+001	1.134254e+002	-4.257497e+001	3.578741e+001
1.095070e+007	-4.239547e+001	-8.623766e+001	-3.075503e+001	-2.301261e+001	-9.839537e+001	8.486157e+001	-4.261259e+001	3.576897e+001
1.095070e+007	-4.237442e+001	-8.620655e+001	-3.075019e+001	-2.300620e+001	-9.465846e+001	7.515793e+001	-4.258057e+001	3.573355e+001
1.095071e+007	-4.241377e+001	-8.620690e+001	-3.074501e+001	-2.295600e+001	-9.817812e+001	1.171442e+002	-4.259730e+001	3.571442e+001
1.095072e+007	-4.239738e+001	-8.599503e+001	-3.074346e+001	-2.300968e+001	-9.582869e+001	8.344960e+001	-4.261309e+001	3.584051e+001
1.095073e+007	-4.237265e+001	-8.623406e+001	-3.074801e+001	-2.291602e+001	-9.578280e+001	1.154653e+002	-4.259733e+001	3.563549e+001
1.095073e+007	-4.235006e+001	-8.602984e+001	-3.076151e+001	-2.292097e+001	-9.841085e+001	9.800438e+001	-4.259119e+001	3.559921e+001
1.095074e+007	-4.240132e+001	-8.624920e+001	-3.075563e+001	-2.297692e+001	-9.720360e+001	8.498790e+001	-4.261355e+001	3.566958e+001
1.095075e+007	-4.239575e+001	-8.607699e+001	-3.074559e+001	-2.299874e+001	-9.619732e+001	9.886417e+001	-4.261657e+001	3.579715e+001
1.095076e+007	-4.235268e+001	-8.626910e+001	-3.075573e+001	-2.298541e+001	-9.698273e+001	8.645309e+001	-4.259321e+001	3.585084e+001
1.095077e+007	-4.237435e+001	-8.635613e+001	-3.075223e+001	-2.292892e+001	-9.508379e+001	7.440231e+001	-4.261563e+001	3.577838e+001
1.095077e+007	-4.237138e+001	-8.614989e+001	-3.074199e+001	-2.302710e+001	-9.883742e+001	7.998206e+001	-4.265317e+001	3.569707e+001
1.095078e+007	-4.243119e+001	-8.611609e+001	-3.074634e+001	-2.296876e+001	-9.820393e+001	9.675301e+001	-4.257971e+001	3.580836e+001
1.095079e+007	-4.238660e+001	-8.595429e+001	-3.074048e+001	-2.292802e+001	-1.017064e+002	7.989411e+001	-4.262088e+001	3.562426e+001
1.095080e+007	-4.240387e+001	-8.626021e+001	-3.075854e+001	-2.291901e+001	-9.510040e+001	8.733629e+001	-4.259693e+001	3.565564e+001
1.095080e+007	-4.240325e+001	-8.623012e+001	-3.074592e+001	-2.291403e+001	-9.570547e+001	7.952191e+001	-4.257125e+001	3.561897e+001
1.095081e+007	-4.238423e+001	-8.628054e+001	-3.075242e+001	-2.289183e+001	-9.359124e+001	1.068761e+002	-4.258783e+001	3.559120e+001
1.095082e+007	-4.235306e+001	-8.620809e+001	-3.075718e+001	-2.289402e+001	-9.998881e+001	8.078388e+001	-4.257527e+001	3.571477e+001
1.095083e+007	-4.240478e+001	-8.622051e+001	-3.075031e+001	-2.292873e+001	-9.954431e+001	7.050806e+001	-4.257916e+001	3.587639e+001
1.095084e+007	-4.240276e+001	-8.615228e+001	-3.074867e+001	-2.291567e+001	-9.591236e+001	8.539794e+001	-4.256938e+001	3.565104e+001
1.095084e+007	-4.241396e+001	-8.623320e+001	-3.075277e+001	-2.297102e+001	-9.708997e+001	7.118070e+001	-4.259038e+001	3.584942e+001
1.095085e+007	-4.239888e+001	-8.631933e+001	-3.075802e+001	-2.301075e+001	-9.797149e+001	8.970394e+001	-4.256771e+001	3.583633e+001
1.095086e+007	-4.238115e+001	-8.621625e+001	-3.075695e+001	-2.292767e+001	-9.759734e+001	1.042072e+002	-4.258293e+001	3.558859e+001
1.095087e+007	-4.236632e+001	-8.613092e+001	-3.075071e+001	-2.294764e+001	-9.656899e+001	8.428156e+001	-4.258024e+001	3.604316e+001
1.095088e+007	-4.238471e+001	-8.638888e+001	-3.075195e+001	-2.294656e+001	-9.821980e+001	1.171917e+002	-4.258995e+001	3.586770e+001
1.095088e+007	-4.241384e+001	-8.625120e+001	-3.074253e+001	-2.298929e+001	-9.718567e+001	9.880789e+001	-4.257648e+001	3.583078e+001
1.095089e+007	-4.240296e+001	-8.609344e+001	-3.075495e+001	-2.298899e+001	-9.892601e+001	1.018439e+002	-4.262181e+001	3.590722e+001
1.095090e+007	-4.237581e+001	-8.619122e+001	-3.075136e+001	-2.299262e+001	-9.612911e+001	9.315202e+001	-4.262543e+001	3.570519e+001
1.095091e+007	-4.239928e+001	-8.604666e+001	-3.074465e+001	-2.297125e+001	-9.658686e+001	9.015105e+001	-4.257261e+001	3.586881e+001
1.095091e+007	-4.238817e+001	-8.619115e+001	-3.074685e+001	-2.301928e+001	-9.452162e+001	9.499331e+001	-4.257313e+001	3.590344e+001
1.095092e+007	-4.238968e+001	-8.639289e+001	-3.074662e+001	-2.303080e+001	-9.442392e+001	9.043397e+001	-4.257653e+001	3.580331e+001
1.095093e+007	-4.241513e+001	-8.600157e+001	-3.074880e+001	-2.294695e+001	-9.711515e+001	9.105756e+001	-4.256882e+001	3.548974e+001
1.095094e+007	-4.241830e+001	-8.641736e+001	-3.076119e+001	-2.296323e+001	-9.485104e+001	8.319653e+001	-4.260028e+001	3.575419e+001
1.095095e+007	-4.237884e+001	-8.615256e+001	-3.074483e+001	-2.298890e+001	-9.938135e+001	7.855703e+001	-4.259952e+001	3.575767e+001
1.095095e+007	-4.237833e+001	-8.606078e+001	-3.076058e+001	-2.302423e+001	-9.610544e+001	1.148106e+002	-4.262760e+001	3.574691e+001
1.095096e+007	-4.239510e+001	-8.629666e+001	-3.076551e+001	-2.291959e+001	-9.622632e+001	8.355750e+001	-4.260655e+001	3.558629e+001
1.095097e+007	-4.239546e+001	-8.615251e+001	-3.075754e+001	-2.296097e+001	-9.632014e+001	1.110408e+002	-4.262798e+001	3.582088e+001
1.095098e+007	-4.239478e+001	-8.619450e+001	-3.075298e+001	-2.293097e+001	-9.597005e+001	8.446666e+001	-4.260112e+001	3.593700e+001
1.095098e+007	-4.238889e+001	-8.615153e+001	-3.073891e+001	-2.291131e+001	-9.505996e+001	1.008717e+002	-4.261188e+001	3.594317e+001
1.095099e+007	-4.236086e+001	-8.616898e+001	-3.074048e+001	-2.294487e+001	-9.426774e+001	9.662226e+001	-4.258479e+001	3.598935e+001
1.095100e+007	-4.241503e+001	-8.606102e+001	-3.074546e+001	-2.297987e+001	-9.673413e+001	8.208652e+001	-4.261275e+001	3.582356e+001
1.095101e+007	-4.240821e+001	-8.612838e+001	-3.074868e+001	-2.294523e+001	-9.529328e+001	8.885376e+001	-4.262844e+001	3.594622e+001
1.095102e+007	-4.240863e+001	-8.643786e+001	-3.074786e+001	-2.301052e+001	-9.488912e+001	1.231552e+002	-4.260667e+001	3.565871e+001
1.095102e+007	-4.236820e+001	-8.618110e+001	-3.075379e+001	-2.295754e+001	-9.553622e+001	9.115300e+001	-4.257711e+001	3.574773e+001
1.095103e+007	-4.239619e+001	-8.606893e+001	-3.075263e+001	-2.296664e+001	-9.732729e+001	8.026080e+001	-4.259227e+001	3.561425e+001
1.095104e+007	-4.236385e+001	-8.625828e+001	-3.074558e+001	-2.290584e+001	-9.418753e+001	8.210001e+001	-4.262944e+001	3.596362e+001
1.095105e+007	-4.243449e+001	-8.638344e+001	-3.074272e+001	-2.294420e+001	-9.469302e+001	9.066792e+001	-4.260074e+001	3.589817e+001
1.095105e+007	-4.233037e+001	-8.643320e+001	-3.074094e+001	-2.293696e+001	-9.726046e+001	1.155893e+002	-4.257484e+001	3.585358e+001
1.095106e+007	-4.239314e+001	-8.607498e+001	-3.075249e+001	-2.296421e+001	-9.754278e+001	1.074542e+002	-4.260157e+001	3.577351e+001
1.095107e+007	-4.237748e+001	-8.624101e+001	-3.075060e+001	-2.300601e+001	-9.544925e+001	9.816959e+001	-4.258965e+001	3.563796e+001
1.095108e+007	-4.239651e+001	-8.606485e+001	-3.075288e+001	-2.294571e+001	-1.006223e+002	1.042725e+002	-4.259278e+001	3.584040e+001
1.095109e+007	-4.240568e+001	-8.595700e+001	-3.074506e+001	-2.294889e+001	-9.559000e+001	9.892026e+001	-4.264223e+001	3.594467e+001
1.095109e+007	-4.239764e+001	-8.632284e+001	-3.074023e+001	-2.299949e+001	-9.926318e+001	8.392835e+001	-4.261653e+001	3.577121e+001
1.095110e+007	-4.238556e+001	-8.619677e+001	-3.073744e+001	-2.291424e+001	-9.824234e+001	1.007643e+002	-4.259907e+001	3.559129e+001
1.095111e+007	-4.240448e+001	-8.606296e+001	-3.075635e+001	-2.296545e+001	-9.734937e+001	7.447063e+001	-4.259416e+001	3.580452e+001
1.095112e+007	-4.240278e+001	-8.619647e+001	-3.075509e+001	-2.292042e+001	-9.500999e+001	9.451019e+001	-4.259619e+001	3.570891e+001
1.095113e+007	-4.239371e+001	-8.614742e+001	-3.074647e+001	-2.289164e+001	-9.748571e+001	9.581499e+001	-4.260267e+001	3.571037e+001
1.095113e+007	-4.240305e+001	-8.605935e+001	-3.074676e+001	-2.295404e+001	-9.633857e+001	1.034780e+002	-4.261482e+001	3.563808e+001
1.095114e+007	-4.235706e+001	-8.628973e+001	-3.075685e+001	-2.294929e+001	-9.337281e+001	9.019969e+001	-4.261478e+001	3.576340e+001
1.095115e+007	-4.240495e+001	-8.617634e+001	-3.074939e+001	-2.296748e+001	-9.422718e+001	8.770857e+001	-4.258708e+001	3.596681e+001
1.095116e+007	-4.238307e+001	-8.618114e+001	-3.074722e+001	-2.298173e+001	-9.813437e+001	8.976532e+001	-4.259169e+001	3.577726e+001
