!CETC41,AV3656A,ZGL00048,1.3.2
!Calibration ON (Full Solt 2-Port(Omit Isolation))
!Measurements: S11 S21 S12 S22
!2025-07-09 21:58
# Hz  S  dB  R 50.000
1.095000e+007	-4.191432e+001	-8.258822e+001	-3.078281e+001	-2.349764e+001	-9.896494e+001	9.861071e+001	-3.652703e+001	1.480827e+001
1.095001e+007	-4.194846e+001	-8.254015e+001	-3.078591e+001	-2.350253e+001	-9.798110e+001	9.524630e+001	-3.652633e+001	1.476951e+001
1.095002e+007	-4.193707e+001	-8.269626e+001	-3.078167e+001	-2.344269e+001	-9.687061e+001	9.589667e+001	-3.652514e+001	1.472012e+001
1.095002e+007	-4.194832e+001	-8.277140e+001	-3.077223e+001	-2.345410e+001	-9.440578e+001	8.353388e+001	-3.651334e+001	1.472139e+001
1.095003e+007	-4.191790e+001	-8.260402e+001	-3.077500e+001	-2.344260e+001	-9.799589e+001	8.617908e+001	-3.651343e+001	1.481435e+001
1.095004e+007	-4.192735e+001	-8.280476e+001	-3.077002e+001	-2.344881e+001	-9.695049e+001	8.257457e+001	-3.651831e+001	1.479948e+001
1.095005e+007	-4.193699e+001	-8.260580e+001	-3.076842e+001	-2.353141e+001	-9.755281e+001	8.291112e+001	-3.651892e+001	1.475819e+001
1.095005e+007	-4.191586e+001	-8.241297e+001	-3.076249e+001	-2.344132e+001	-9.637910e+001	9.012229e+001	-3.653352e+001	1.478007e+001
1.095006e+007	-4.193012e+001	-8.250452e+001	-3.077018e+001	-2.352102e+001	-9.859434e+001	1.253810e+002	-3.651154e+001	1.484768e+001
1.095007e+007	-4.190796e+001	-8.253855e+001	-3.076934e+001	-2.346443e+001	-9.635064e+001	6.533566e+001	-3.651773e+001	1.478583e+001
1.095008e+007	-4.191342e+001	-8.249274e+001	-3.077414e+001	-2.345453e+001	-9.409520e+001	8.623110e+001	-3.651526e+001	1.481638e+001
1.095009e+007	-4.193846e+001	-8.266698e+001	-3.076995e+001	-2.351505e+001	-9.552875e+001	9.616286e+001	-3.651754e+001	1.469812e+001
1.095009e+007	-4.193144e+001	-8.256750e+001	-3.077358e+001	-2.354005e+001	-1.000371e+002	8.623499e+001	-3.652133e+001	1.484574e+001
1.095010e+007	-4.192795e+001	-8.265116e+001	-3.077599e+001	-2.354984e+001	-9.643608e+001	6.686740e+001	-3.652097e+001	1.481155e+001
1.095011e+007	-4.197232e+001	-8.270691e+001	-3.077757e+001	-2.363954e+001	-9.837488e+001	9.037968e+001	-3.650824e+001	1.480874e+001
1.095012e+007	-4.191879e+001	-8.271127e+001	-3.077913e+001	-2.367732e+001	-9.663910e+001	9.903830e+001	-3.653546e+001	1.474157e+001
1.095013e+007	-4.192665e+001	-8.265647e+001	-3.079207e+001	-2.366156e+001	-9.506299e+001	9.820798e+001	-3.651681e+001	1.470078e+001
1.095013e+007	-4.194332e+001	-8.257345e+001	-3.079464e+001	-2.367585e+001	-9.992453e+001	7.765043e+001	-3.653727e+001	1.478322e+001
1.095014e+007	-4.193772e+001	-8.254616e+001	-3.081855e+001	-2.369776e+001	-9.720653e+001	9.955913e+001	-3.651564e+001	1.478788e+001
1.095015e+007	-4.190239e+001	-8.268583e+001	-3.082580e+001	-2.366291e+001	-9.729543e+001	8.768174e+001	-3.651543e+001	1.470388e+001
1.095016e+007	-4.193462e+001	-8.278578e+001	-3.083330e+001	-2.352924e+001	-9.810005e+001	6.270848e+001	-3.651354e+001	1.483942e+001
1.095016e+007	-4.194016e+001	-8.257970e+001	-3.084754e+001	-2.340862e+001	-9.486732e+001	9.374368e+001	-3.651432e+001	1.474618e+001
1.095017e+007	-4.194100e+001	-8.273695e+001	-3.083495e+001	-2.329691e+001	-9.733213e+001	8.752308e+001	-3.652768e+001	1.485571e+001
1.095018e+007	-4.192944e+001	-8.281609e+001	-3.081186e+001	-2.322929e+001	-9.760828e+001	8.552772e+001	-3.650540e+001	1.476091e+001
1.095019e+007	-4.194056e+001	-8.257507e+001	-3.078985e+001	-2.320992e+001	-9.856249e+001	1.009521e+002	-3.650405e+001	1.488162e+001
1.095020e+007	-4.191655e+001	-8.278627e+001	-3.078756e+001	-2.323631e+001	-9.760789e+001	1.233771e+002	-3.653823e+001	1.469425e+001
1.095020e+007	-4.192749e+001	-8.265569e+001	-3.075676e+001	-2.342337e+001	-9.860344e+001	1.135301e+002	-3.650794e+001	1.482176e+001
1.095021e+007	-4.194336e+001	-8.242619e+001	-3.077642e+001	-2.359593e+001	-9.572150e+001	1.035083e+002	-3.651830e+001	1.460068e+001
1.095022e+007	-4.193476e+001	-8.262122e+001	-3.079123e+001	-2.359488e+001	-9.812361e+001	9.504155e+001	-3.651462e+001	1.473539e+001
1.095023e+007	-4.191536e+001	-8.257631e+001	-3.081424e+001	-2.352886e+001	-9.761145e+001	1.196231e+002	-3.652008e+001	1.468893e+001
1.095023e+007	-4.193641e+001	-8.261863e+001	-3.083238e+001	-2.340314e+001	-9.760156e+001	8.962389e+001	-3.649099e+001	1.465255e+001
1.095024e+007	-4.191843e+001	-8.254163e+001	-3.080469e+001	-2.326677e+001	-9.696018e+001	9.249050e+001	-3.651462e+001	1.491746e+001
1.095025e+007	-4.196514e+001	-8.262163e+001	-3.078776e+001	-2.327164e+001	-1.001456e+002	8.249142e+001	-3.652048e+001	1.478665e+001
1.095026e+007	-4.191064e+001	-8.250529e+001	-3.076811e+001	-2.346313e+001	-9.849894e+001	9.734240e+001	-3.651705e+001	1.484315e+001
1.095027e+007	-4.191568e+001	-8.270411e+001	-3.078050e+001	-2.359079e+001	-9.625879e+001	1.036938e+002	-3.652592e+001	1.479092e+001
1.095027e+007	-4.195902e+001	-8.270977e+001	-3.081375e+001	-2.352018e+001	-9.863901e+001	1.053718e+002	-3.652069e+001	1.484759e+001
1.095028e+007	-4.195758e+001	-8.281622e+001	-3.081992e+001	-2.342476e+001	-9.563012e+001	6.924516e+001	-3.651834e+001	1.480855e+001
1.095029e+007	-4.193526e+001	-8.273254e+001	-3.081076e+001	-2.326311e+001	-9.901628e+001	1.129300e+002	-3.650418e+001	1.478234e+001
1.095030e+007	-4.195177e+001	-8.242963e+001	-3.076709e+001	-2.333252e+001	-9.790040e+001	1.052532e+002	-3.653042e+001	1.479924e+001
1.095030e+007	-4.192804e+001	-8.270997e+001	-3.078328e+001	-2.354255e+001	-9.743669e+001	9.332716e+001	-3.652352e+001	1.481019e+001
1.095031e+007	-4.193684e+001	-8.262465e+001	-3.080669e+001	-2.348334e+001	-9.439552e+001	9.480326e+001	-3.651500e+001	1.481868e+001
1.095032e+007	-4.193190e+001	-8.260787e+001	-3.081277e+001	-2.339283e+001	-9.669782e+001	1.143446e+002	-3.650231e+001	1.471544e+001
1.095033e+007	-4.193034e+001	-8.269797e+001	-3.077768e+001	-2.330113e+001	-9.726458e+001	9.208274e+001	-3.651419e+001	1.480951e+001
1.095034e+007	-4.192549e+001	-8.252410e+001	-3.078590e+001	-2.344213e+001	-9.782679e+001	9.259606e+001	-3.651605e+001	1.469624e+001
1.095034e+007	-4.189084e+001	-8.280209e+001	-3.079284e+001	-2.346246e+001	-9.959629e+001	1.140836e+002	-3.652254e+001	1.484094e+001
1.095035e+007	-4.195337e+001	-8.252669e+001	-3.081737e+001	-2.337176e+001	-1.001207e+002	8.722433e+001	-3.650930e+001	1.473652e+001
1.095036e+007	-4.196441e+001	-8.262777e+001	-3.079441e+001	-2.335764e+001	-9.739263e+001	1.033746e+002	-3.650079e+001	1.482460e+001
1.095037e+007	-4.194136e+001	-8.267893e+001	-3.078183e+001	-2.350418e+001	-9.447065e+001	8.302421e+001	-3.651212e+001	1.470163e+001
1.095038e+007	-4.191178e+001	-8.266167e+001	-3.080220e+001	-2.349053e+001	-9.696705e+001	7.872815e+001	-3.651545e+001	1.485488e+001
1.095038e+007	-4.193461e+001	-8.243148e+001	-3.080623e+001	-2.339596e+001	-1.001921e+002	8.019742e+001	-3.651250e+001	1.477696e+001
1.095039e+007	-4.191785e+001	-8.248908e+001	-3.078242e+001	-2.333919e+001	-9.705596e+001	7.975696e+001	-3.653146e+001	1.481886e+001
1.095040e+007	-4.195349e+001	-8.254016e+001	-3.079501e+001	-2.348144e+001	-9.788547e+001	1.042398e+002	-3.652253e+001	1.475645e+001
1.095041e+007	-4.190874e+001	-8.272968e+001	-3.080614e+001	-2.343026e+001	-9.600299e+001	9.298592e+001	-3.652847e+001	1.473769e+001
1.095041e+007	-4.190578e+001	-8.272433e+001	-3.078710e+001	-2.344231e+001	-9.776469e+001	1.105810e+002	-3.652279e+001	1.475093e+001
1.095042e+007	-4.194884e+001	-8.272358e+001	-3.077657e+001	-2.342034e+001	-9.978150e+001	8.751181e+001	-3.650717e+001	1.467818e+001
1.095043e+007	-4.194330e+001	-8.276641e+001	-3.079632e+001	-2.344944e+001	-9.701755e+001	1.036432e+002	-3.651292e+001	1.468165e+001
1.095044e+007	-4.191065e+001	-8.256030e+001	-3.078504e+001	-2.339563e+001	-9.862708e+001	9.819723e+001	-3.652151e+001	1.471080e+001
1.095045e+007	-4.192154e+001	-8.252560e+001	-3.079514e+001	-2.344634e+001	-9.680447e+001	1.015019e+002	-3.650859e+001	1.476487e+001
1.095045e+007	-4.191630e+001	-8.255835e+001	-3.080060e+001	-2.342285e+001	-9.859868e+001	7.714580e+001	-3.652364e+001	1.480479e+001
1.095046e+007	-4.194545e+001	-8.261118e+001	-3.078477e+001	-2.334773e+001	-9.647063e+001	9.678654e+001	-3.650797e+001	1.466466e+001
1.095047e+007	-4.194809e+001	-8.287400e+001	-3.078685e+001	-2.349195e+001	-9.706351e+001	9.945452e+001	-3.651316e+001	1.483156e+001
1.095048e+007	-4.190886e+001	-8.258969e+001	-3.079135e+001	-2.346742e+001	-9.864103e+001	7.733483e+001	-3.652085e+001	1.468454e+001
1.095048e+007	-4.192704e+001	-8.264912e+001	-3.078664e+001	-2.346642e+001	-9.913514e+001	8.864632e+001	-3.651520e+001	1.467440e+001
1.095049e+007	-4.193752e+001	-8.267657e+001	-3.079255e+001	-2.340384e+001	-9.660728e+001	1.056177e+002	-3.649466e+001	1.477216e+001
1.095050e+007	-4.194855e+001	-8.297376e+001	-3.078904e+001	-2.342668e+001	-9.664926e+001	8.299092e+001	-3.651052e+001	1.492960e+001
1.095051e+007	-4.191671e+001	-8.270797e+001	-3.078604e+001	-2.347469e+001	-9.498927e+001	9.528955e+001	-3.650177e+001	1.479912e+001
1.095052e+007	-4.195713e+001	-8.277279e+001	-3.079202e+001	-2.333027e+001	-9.431514e+001	8.831266e+001	-3.651504e+001	1.471823e+001
1.095052e+007	-4.192757e+001	-8.277324e+001	-3.078587e+001	-2.339254e+001	-9.665070e+001	9.267329e+001	-3.650089e+001	1.479304e+001
1.095053e+007	-4.193414e+001	-8.263702e+001	-3.078243e+001	-2.344786e+001	-9.628672e+001	1.030931e+002	-3.651768e+001	1.480088e+001
1.095054e+007	-4.195300e+001	-8.263272e+001	-3.078849e+001	-2.341535e+001	-9.523231e+001	7.430759e+001	-3.651863e+001	1.474231e+001
1.095055e+007	-4.194794e+001	-8.269952e+001	-3.078626e+001	-2.341140e+001	-1.036168e+002	7.219310e+001	-3.651913e+001	1.479973e+001
1.095055e+007	-4.193695e+001	-8.260458e+001	-3.079262e+001	-2.343948e+001	-9.494373e+001	9.911869e+001	-3.652532e+001	1.472123e+001
1.095056e+007	-4.194472e+001	-8.263529e+001	-3.078224e+001	-2.343129e+001	-9.749158e+001	1.053137e+002	-3.651713e+001	1.478896e+001
1.095057e+007	-4.195069e+001	-8.268169e+001	-3.077841e+001	-2.340244e+001	-1.038234e+002	7.017749e+001	-3.651234e+001	1.483142e+001
1.095058e+007	-4.194366e+001	-8.282634e+001	-3.079115e+001	-2.344800e+001	-9.429087e+001	9.594288e+001	-3.651812e+001	1.479229e+001
1.095059e+007	-4.196321e+001	-8.240314e+001	-3.078272e+001	-2.341693e+001	-9.917282e+001	7.895947e+001	-3.650136e+001	1.469626e+001
1.095059e+007	-4.191572e+001	-8.247944e+001	-3.077934e+001	-2.336873e+001	-9.564072e+001	1.000782e+002	-3.651894e+001	1.474116e+001
1.095060e+007	-4.193327e+001	-8.265263e+001	-3.078492e+001	-2.344984e+001	-9.395544e+001	9.231815e+001	-3.651126e+001	1.473874e+001
1.095061e+007	-4.193191e+001	-8.259573e+001	-3.078140e+001	-2.340690e+001	-9.830889e+001	1.079737e+002	-3.651117e+001	1.481669e+001
1.095062e+007	-4.193149e+001	-8.290138e+001	-3.077840e+001	-2.341989e+001	-9.858049e+001	1.047260e+002	-3.651882e+001	1.475727e+001
1.095063e+007	-4.192804e+001	-8.252313e+001	-3.078197e+001	-2.339284e+001	-9.784935e+001	8.339700e+001	-3.652018e+001	1.467247e+001
1.095063e+007	-4.195438e+001	-8.269904e+001	-3.077593e+001	-2.348144e+001	-1.009619e+002	1.356551e+002	-3.651099e+001	1.469522e+001
1.095064e+007	-4.195317e+001	-8.275949e+001	-3.078421e+001	-2.337807e+001	-9.563638e+001	8.699115e+001	-3.651861e+001	1.483398e+001
1.095065e+007	-4.193035e+001	-8.241969e+001	-3.078020e+001	-2.351538e+001	-9.437456e+001	7.885933e+001	-3.652002e+001	1.480972e+001
1.095066e+007	-4.194014e+001	-8.273206e+001	-3.079125e+001	-2.336477e+001	-9.485922e+001	8.633909e+001	-3.650475e+001	1.481276e+001
1.095066e+007	-4.194660e+001	-8.248446e+001	-3.078595e+001	-2.343700e+001	-9.744027e+001	9.662916e+001	-3.651305e+001	1.483199e+001
1.095067e+007	-4.193633e+001	-8.266668e+001	-3.076878e+001	-2.335324e+001	-9.559625e+001	9.123203e+001	-3.650984e+001	1.468439e+001
1.095068e+007	-4.190548e+001	-8.260883e+001	-3.079536e+001	-2.347180e+001	-9.671569e+001	7.870260e+001	-3.651964e+001	1.471712e+001
1.095069e+007	-4.190894e+001	-8.256930e+001	-3.078151e+001	-2.340202e+001	-9.658429e+001	8.701434e+001	-3.651329e+001	1.467598e+001
1.095070e+007	-4.195886e+001	-8.272676e+001	-3.079471e+001	-2.343003e+001	-9.792221e+001	9.932218e+001	-3.650867e+001	1.470898e+001
1.095070e+007	-4.194004e+001	-8.265167e+001	-3.076963e+001	-2.347503e+001	-9.535487e+001	9.054210e+001	-3.650828e+001	1.477488e+001
1.095071e+007	-4.193223e+001	-8.278171e+001	-3.078813e+001	-2.340804e+001	-9.696299e+001	8.091117e+001	-3.651042e+001	1.474173e+001
1.095072e+007	-4.192787e+001	-8.237847e+001	-3.078316e+001	-2.349060e+001	-9.788788e+001	7.072810e+001	-3.651901e+001	1.472978e+001
1.095073e+007	-4.195753e+001	-8.258275e+001	-3.077501e+001	-2.338306e+001	-9.756844e+001	9.628223e+001	-3.652193e+001	1.481482e+001
1.095073e+007	-4.195420e+001	-8.264997e+001	-3.079386e+001	-2.340071e+001	-9.983335e+001	1.163204e+002	-3.651170e+001	1.470168e+001
1.095074e+007	-4.189494e+001	-8.273664e+001	-3.076966e+001	-2.343472e+001	-9.982765e+001	8.520387e+001	-3.650481e+001	1.478121e+001
1.095075e+007	-4.194099e+001	-8.276562e+001	-3.079535e+001	-2.332689e+001	-9.881016e+001	9.683112e+001	-3.650945e+001	1.479938e+001
1.095076e+007	-4.191954e+001	-8.271344e+001	-3.079048e+001	-2.349831e+001	-9.702450e+001	8.906937e+001	-3.651844e+001	1.486034e+001
1.095077e+007	-4.195605e+001	-8.260572e+001	-3.077661e+001	-2.338846e+001	-9.661706e+001	1.097125e+002	-3.651780e+001	1.473464e+001
1.095077e+007	-4.193903e+001	-8.282925e+001	-3.078275e+001	-2.333627e+001	-9.940227e+001	8.063824e+001	-3.650553e+001	1.471203e+001
1.095078e+007	-4.193082e+001	-8.262519e+001	-3.077971e+001	-2.356524e+001	-9.769793e+001	7.760358e+001	-3.651832e+001	1.474233e+001
1.095079e+007	-4.195384e+001	-8.261198e+001	-3.076271e+001	-2.339905e+001	-9.651397e+001	1.019126e+002	-3.651036e+001	1.474889e+001
1.095080e+007	-4.194196e+001	-8.265886e+001	-3.078508e+001	-2.334652e+001	-9.659086e+001	9.911285e+001	-3.651385e+001	1.471622e+001
1.095080e+007	-4.192954e+001	-8.269477e+001	-3.078800e+001	-2.349119e+001	-9.588074e+001	1.075726e+002	-3.651062e+001	1.486080e+001
1.095081e+007	-4.194313e+001	-8.254233e+001	-3.077085e+001	-2.333983e+001	-1.058309e+002	1.259133e+002	-3.650849e+001	1.469542e+001
1.095082e+007	-4.192698e+001	-8.269508e+001	-3.079204e+001	-2.338360e+001	-9.722329e+001	1.097643e+002	-3.652090e+001	1.472481e+001
1.095083e+007	-4.193502e+001	-8.275523e+001	-3.079740e+001	-2.346932e+001	-9.564044e+001	8.262981e+001	-3.650002e+001	1.482312e+001
1.095084e+007	-4.196790e+001	-8.270594e+001	-3.076783e+001	-2.352157e+001	-9.613476e+001	7.705062e+001	-3.651985e+001	1.474232e+001
1.095084e+007	-4.196424e+001	-8.260572e+001	-3.077240e+001	-2.334767e+001	-9.740969e+001	9.432275e+001	-3.651432e+001	1.475762e+001
1.095085e+007	-4.198135e+001	-8.261794e+001	-3.078844e+001	-2.343209e+001	-9.809334e+001	9.819321e+001	-3.651960e+001	1.476243e+001
1.095086e+007	-4.193348e+001	-8.261752e+001	-3.077871e+001	-2.344047e+001	-9.615840e+001	1.021197e+002	-3.650458e+001	1.478533e+001
1.095087e+007	-4.194049e+001	-8.248856e+001	-3.077213e+001	-2.341062e+001	-9.641956e+001	8.147022e+001	-3.651585e+001	1.489294e+001
1.095088e+007	-4.194034e+001	-8.281558e+001	-3.076336e+001	-2.336953e+001	-9.828181e+001	1.111281e+002	-3.651918e+001	1.486322e+001
1.095088e+007	-4.194263e+001	-8.243835e+001	-3.078578e+001	-2.344431e+001	-9.608612e+001	1.026382e+002	-3.651335e+001	1.480636e+001
1.095089e+007	-4.192712e+001	-8.264526e+001	-3.077700e+001	-2.347873e+001	-9.618771e+001	9.706796e+001	-3.650595e+001	1.485528e+001
1.095090e+007	-4.195168e+001	-8.270639e+001	-3.076319e+001	-2.346471e+001	-9.615022e+001	9.906728e+001	-3.651568e+001	1.476699e+001
1.095091e+007	-4.190739e+001	-8.272757e+001	-3.077487e+001	-2.329813e+001	-9.773352e+001	9.601656e+001	-3.649313e+001	1.486015e+001
1.095091e+007	-4.198732e+001	-8.266942e+001	-3.079666e+001	-2.339806e+001	-9.869274e+001	7.395652e+001	-3.650584e+001	1.487141e+001
1.095092e+007	-4.195512e+001	-8.253019e+001	-3.079083e+001	-2.349271e+001	-9.586269e+001	1.005899e+002	-3.653328e+001	1.480609e+001
1.095093e+007	-4.193609e+001	-8.253184e+001	-3.076672e+001	-2.354466e+001	-9.744887e+001	1.137899e+002	-3.650075e+001	1.479354e+001
1.095094e+007	-4.193914e+001	-8.273205e+001	-3.075685e+001	-2.348469e+001	-9.818579e+001	9.257002e+001	-3.651105e+001	1.477715e+001
1.095095e+007	-4.194037e+001	-8.259200e+001	-3.076933e+001	-2.328758e+001	-9.502073e+001	1.014576e+002	-3.650242e+001	1.468360e+001
1.095095e+007	-4.192088e+001	-8.248468e+001	-3.078791e+001	-2.334463e+001	-9.420481e+001	9.903502e+001	-3.651205e+001	1.478273e+001
1.095096e+007	-4.193408e+001	-8.247164e+001	-3.080090e+001	-2.343384e+001	-1.013918e+002	8.890080e+001	-3.650805e+001	1.478379e+001
1.095097e+007	-4.195056e+001	-8.243472e+001	-3.077763e+001	-2.352481e+001	-9.922066e+001	1.028150e+002	-3.650655e+001	1.474963e+001
1.095098e+007	-4.195229e+001	-8.273574e+001	-3.076140e+001	-2.347754e+001	-9.656016e+001	9.638335e+001	-3.651571e+001	1.476027e+001
1.095098e+007	-4.191859e+001	-8.264099e+001	-3.075367e+001	-2.347010e+001	-9.655475e+001	1.105188e+002	-3.652144e+001	1.492386e+001
1.095099e+007	-4.191296e+001	-8.253497e+001	-3.076809e+001	-2.339915e+001	-9.626022e+001	7.822577e+001	-3.652788e+001	1.463024e+001
1.095100e+007	-4.195275e+001	-8.237048e+001	-3.078267e+001	-2.327579e+001	-9.818540e+001	8.855124e+001	-3.650174e+001	1.468442e+001
1.095101e+007	-4.193440e+001	-8.264390e+001	-3.080020e+001	-2.338981e+001	-1.002606e+002	9.553810e+001	-3.650100e+001	1.474972e+001
1.095102e+007	-4.194667e+001	-8.238787e+001	-3.079620e+001	-2.344650e+001	-9.702869e+001	1.315472e+002	-3.652260e+001	1.463450e+001
1.095102e+007	-4.193659e+001	-8.261171e+001	-3.078336e+001	-2.353453e+001	-9.713844e+001	8.438669e+001	-3.651016e+001	1.479727e+001
1.095103e+007	-4.193532e+001	-8.261317e+001	-3.076646e+001	-2.352692e+001	-9.810819e+001	8.109259e+001	-3.652120e+001	1.479773e+001
1.095104e+007	-4.193409e+001	-8.243132e+001	-3.075756e+001	-2.352726e+001	-9.869320e+001	1.118296e+002	-3.650648e+001	1.487418e+001
1.095105e+007	-4.194381e+001	-8.249025e+001	-3.073913e+001	-2.348107e+001	-9.809417e+001	7.643757e+001	-3.651429e+001	1.474360e+001
1.095105e+007	-4.190974e+001	-8.236986e+001	-3.075017e+001	-2.342311e+001	-9.714110e+001	8.935740e+001	-3.651497e+001	1.475480e+001
1.095106e+007	-4.195917e+001	-8.247751e+001	-3.076267e+001	-2.334209e+001	-9.838435e+001	1.245947e+002	-3.651027e+001	1.474240e+001
1.095107e+007	-4.193454e+001	-8.259460e+001	-3.075977e+001	-2.334604e+001	-9.312664e+001	9.586138e+001	-3.651898e+001	1.462424e+001
1.095108e+007	-4.192904e+001	-8.257079e+001	-3.075153e+001	-2.330698e+001	-9.807905e+001	9.082836e+001	-3.651908e+001	1.482863e+001
1.095109e+007	-4.196166e+001	-8.252371e+001	-3.078200e+001	-2.321183e+001	-9.946516e+001	8.156895e+001	-3.652275e+001	1.479232e+001
1.095109e+007	-4.195971e+001	-8.261952e+001	-3.077716e+001	-2.324432e+001	-9.878705e+001	1.140559e+002	-3.651813e+001	1.485102e+001
1.095110e+007	-4.195071e+001	-8.241926e+001	-3.078056e+001	-2.333379e+001	-9.969011e+001	9.477197e+001	-3.650333e+001	1.481569e+001
1.095111e+007	-4.197899e+001	-8.256855e+001	-3.079236e+001	-2.334066e+001	-9.698240e+001	6.798190e+001	-3.650657e+001	1.483224e+001
1.095112e+007	-4.193806e+001	-8.240767e+001	-3.078783e+001	-2.341229e+001	-9.629115e+001	9.329026e+001	-3.650620e+001	1.476854e+001
1.095113e+007	-4.191570e+001	-8.255709e+001	-3.079167e+001	-2.347215e+001	-9.790514e+001	9.247369e+001	-3.651561e+001	1.481526e+001
1.095113e+007	-4.195363e+001	-8.268555e+001	-3.079646e+001	-2.342316e+001	-1.014570e+002	7.969804e+001	-3.651503e+001	1.491931e+001
1.095114e+007	-4.195938e+001	-8.255641e+001	-3.079586e+001	-2.343194e+001	-9.640414e+001	9.667887e+001	-3.651816e+001	1.489440e+001
1.095115e+007	-4.195923e+001	-8.249822e+001	-3.079091e+001	-2.343551e+001	-1.010654e+002	8.784220e+001	-3.650595e+001	1.469457e+001
1.095116e+007	-4.193504e+001	-8.249472e+001	-3.078355e+001	-2.340904e+001	-9.620242e+001	8.697075e+001	-3.651595e+001	1.471707e+001
