!CETC41,AV3656A,ZGL00048,1.3.2
!Calibration ON (Full Solt 2-Port(Omit Isolation))
!Measurements: S11 S21 S12 S22
!2025-07-09 21:42
# Hz  S  dB  R 50.000
1.095000e+007	-4.181649e+001	-8.183450e+001	-3.076330e+001	-2.320054e+001	-9.656397e+001	1.027289e+002	-4.259033e+001	2.946022e+001
1.095001e+007	-4.184235e+001	-8.229449e+001	-3.074769e+001	-2.321735e+001	-9.764438e+001	8.804329e+001	-4.255335e+001	2.876377e+001
1.095002e+007	-4.186686e+001	-8.217818e+001	-3.073870e+001	-2.308845e+001	-9.590168e+001	1.113644e+002	-4.257263e+001	2.894612e+001
1.095002e+007	-4.183653e+001	-8.214397e+001	-3.075516e+001	-2.319156e+001	-9.609654e+001	9.212265e+001	-4.254574e+001	2.917667e+001
1.095003e+007	-4.183537e+001	-8.221433e+001	-3.074545e+001	-2.322433e+001	-9.606368e+001	1.031019e+002	-4.259969e+001	2.885106e+001
1.095004e+007	-4.185576e+001	-8.198574e+001	-3.074632e+001	-2.307075e+001	-9.896407e+001	8.625272e+001	-4.253618e+001	2.888352e+001
1.095005e+007	-4.183910e+001	-8.195997e+001	-3.075345e+001	-2.319705e+001	-9.603607e+001	8.448210e+001	-4.261578e+001	2.902344e+001
1.095005e+007	-4.185778e+001	-8.214198e+001	-3.075727e+001	-2.328434e+001	-9.605688e+001	9.019948e+001	-4.260523e+001	2.918732e+001
1.095006e+007	-4.186163e+001	-8.207926e+001	-3.073738e+001	-2.323250e+001	-9.720263e+001	7.105426e+001	-4.256656e+001	2.892467e+001
1.095007e+007	-4.185145e+001	-8.228255e+001	-3.074375e+001	-2.315105e+001	-9.524766e+001	1.057986e+002	-4.253652e+001	2.892455e+001
1.095008e+007	-4.184295e+001	-8.231887e+001	-3.075302e+001	-2.324857e+001	-9.671566e+001	7.520604e+001	-4.256309e+001	2.920666e+001
1.095009e+007	-4.185070e+001	-8.221800e+001	-3.075267e+001	-2.320043e+001	-9.755767e+001	9.064213e+001	-4.260227e+001	2.894370e+001
1.095009e+007	-4.184604e+001	-8.227179e+001	-3.074853e+001	-2.315733e+001	-9.810791e+001	7.403157e+001	-4.257461e+001	2.868212e+001
1.095010e+007	-4.184310e+001	-8.211389e+001	-3.074746e+001	-2.311322e+001	-1.001801e+002	1.073605e+002	-4.252121e+001	2.911037e+001
1.095011e+007	-4.184831e+001	-8.224491e+001	-3.075123e+001	-2.315561e+001	-9.673952e+001	8.711848e+001	-4.257763e+001	2.909899e+001
1.095012e+007	-4.184399e+001	-8.220163e+001	-3.074064e+001	-2.316966e+001	-9.855925e+001	9.426132e+001	-4.261274e+001	2.897622e+001
1.095013e+007	-4.184766e+001	-8.232692e+001	-3.074812e+001	-2.309776e+001	-9.420899e+001	9.702369e+001	-4.256788e+001	2.862910e+001
1.095013e+007	-4.184935e+001	-8.202684e+001	-3.072866e+001	-2.317761e+001	-9.581779e+001	8.100557e+001	-4.255253e+001	2.885586e+001
1.095014e+007	-4.185510e+001	-8.234208e+001	-3.075438e+001	-2.311522e+001	-9.694430e+001	1.120916e+002	-4.253985e+001	2.928291e+001
1.095015e+007	-4.184354e+001	-8.215091e+001	-3.075868e+001	-2.321926e+001	-9.711035e+001	7.456691e+001	-4.255703e+001	2.918360e+001
1.095016e+007	-4.182035e+001	-8.211263e+001	-3.074169e+001	-2.314738e+001	-9.885798e+001	7.786477e+001	-4.258850e+001	2.883785e+001
1.095016e+007	-4.190050e+001	-8.221465e+001	-3.074612e+001	-2.314197e+001	-9.678760e+001	1.108218e+002	-4.257517e+001	2.874511e+001
1.095017e+007	-4.185561e+001	-8.215143e+001	-3.074288e+001	-2.315126e+001	-9.854464e+001	9.140228e+001	-4.255697e+001	2.901894e+001
1.095018e+007	-4.185059e+001	-8.200577e+001	-3.074073e+001	-2.310417e+001	-9.453668e+001	9.134150e+001	-4.256642e+001	2.922639e+001
1.095019e+007	-4.186396e+001	-8.210751e+001	-3.075698e+001	-2.316385e+001	-9.663140e+001	9.675847e+001	-4.256563e+001	2.912288e+001
1.095020e+007	-4.183214e+001	-8.200241e+001	-3.074721e+001	-2.313096e+001	-1.010240e+002	1.190282e+002	-4.256746e+001	2.917547e+001
1.095020e+007	-4.185295e+001	-8.210768e+001	-3.075397e+001	-2.320464e+001	-9.872858e+001	1.052916e+002	-4.258765e+001	2.896484e+001
1.095021e+007	-4.184814e+001	-8.225440e+001	-3.074409e+001	-2.323049e+001	-1.014205e+002	8.421731e+001	-4.260563e+001	2.891510e+001
1.095022e+007	-4.184622e+001	-8.238240e+001	-3.074201e+001	-2.315657e+001	-9.375612e+001	9.406917e+001	-4.256464e+001	2.898456e+001
1.095023e+007	-4.184551e+001	-8.218324e+001	-3.073761e+001	-2.314692e+001	-9.591530e+001	9.838721e+001	-4.256491e+001	2.892837e+001
1.095023e+007	-4.187726e+001	-8.216541e+001	-3.074547e+001	-2.311952e+001	-9.654271e+001	8.561863e+001	-4.254347e+001	2.887231e+001
1.095024e+007	-4.183908e+001	-8.201134e+001	-3.075150e+001	-2.317583e+001	-9.833613e+001	1.003937e+002	-4.253737e+001	2.907384e+001
1.095025e+007	-4.184453e+001	-8.203498e+001	-3.074331e+001	-2.316007e+001	-9.426157e+001	7.863856e+001	-4.255385e+001	2.909118e+001
1.095026e+007	-4.184735e+001	-8.217888e+001	-3.075354e+001	-2.311740e+001	-9.594451e+001	8.436700e+001	-4.256064e+001	2.917004e+001
1.095027e+007	-4.184571e+001	-8.218191e+001	-3.074500e+001	-2.319699e+001	-1.028650e+002	7.767942e+001	-4.256882e+001	2.913415e+001
1.095027e+007	-4.184545e+001	-8.220437e+001	-3.074419e+001	-2.325379e+001	-9.805232e+001	8.925731e+001	-4.261280e+001	2.916557e+001
1.095028e+007	-4.183567e+001	-8.205957e+001	-3.075195e+001	-2.326598e+001	-9.651251e+001	6.860650e+001	-4.260774e+001	2.910824e+001
1.095029e+007	-4.187090e+001	-8.203738e+001	-3.073518e+001	-2.324942e+001	-9.846181e+001	9.679757e+001	-4.260287e+001	2.891258e+001
1.095030e+007	-4.184623e+001	-8.217517e+001	-3.073234e+001	-2.316353e+001	-9.610738e+001	9.885279e+001	-4.258511e+001	2.882675e+001
1.095030e+007	-4.184794e+001	-8.224782e+001	-3.073356e+001	-2.323885e+001	-1.003481e+002	9.538843e+001	-4.258069e+001	2.894315e+001
1.095031e+007	-4.184151e+001	-8.221453e+001	-3.072915e+001	-2.317908e+001	-9.529011e+001	9.892754e+001	-4.257330e+001	2.902360e+001
1.095032e+007	-4.182344e+001	-8.196859e+001	-3.072773e+001	-2.325310e+001	-9.538918e+001	9.650903e+001	-4.257492e+001	2.915490e+001
1.095033e+007	-4.183310e+001	-8.221658e+001	-3.072737e+001	-2.320342e+001	-9.875144e+001	1.147153e+002	-4.258842e+001	2.896832e+001
1.095034e+007	-4.185294e+001	-8.211345e+001	-3.071895e+001	-2.316424e+001	-9.391726e+001	9.458098e+001	-4.256067e+001	2.878387e+001
1.095034e+007	-4.180354e+001	-8.230279e+001	-3.072507e+001	-2.326010e+001	-9.701406e+001	8.087402e+001	-4.257141e+001	2.891622e+001
1.095035e+007	-4.182257e+001	-8.223829e+001	-3.072956e+001	-2.326874e+001	-9.926830e+001	1.030942e+002	-4.255553e+001	2.884928e+001
1.095036e+007	-4.186339e+001	-8.216412e+001	-3.072377e+001	-2.321597e+001	-9.826008e+001	7.498645e+001	-4.253957e+001	2.898399e+001
1.095037e+007	-4.184087e+001	-8.233061e+001	-3.073431e+001	-2.322452e+001	-1.034054e+002	1.268396e+002	-4.257380e+001	2.902559e+001
1.095038e+007	-4.184981e+001	-8.218906e+001	-3.072792e+001	-2.326415e+001	-1.004126e+002	9.218850e+001	-4.255020e+001	2.871449e+001
1.095038e+007	-4.186009e+001	-8.221580e+001	-3.072939e+001	-2.334407e+001	-9.501362e+001	8.459205e+001	-4.255239e+001	2.880192e+001
1.095039e+007	-4.188078e+001	-8.202872e+001	-3.073407e+001	-2.331282e+001	-9.700038e+001	7.679026e+001	-4.258087e+001	2.877501e+001
1.095040e+007	-4.182161e+001	-8.206739e+001	-3.073998e+001	-2.331740e+001	-9.451216e+001	8.855314e+001	-4.255404e+001	2.903259e+001
1.095041e+007	-4.182818e+001	-8.213437e+001	-3.074452e+001	-2.336709e+001	-9.800773e+001	8.667424e+001	-4.257012e+001	2.892267e+001
1.095041e+007	-4.184261e+001	-8.219481e+001	-3.075649e+001	-2.337055e+001	-9.712069e+001	8.509596e+001	-4.256905e+001	2.898951e+001
1.095042e+007	-4.183770e+001	-8.220298e+001	-3.076270e+001	-2.336589e+001	-9.646876e+001	9.822323e+001	-4.258959e+001	2.903591e+001
1.095043e+007	-4.186884e+001	-8.210214e+001	-3.077598e+001	-2.331465e+001	-9.570889e+001	9.440737e+001	-4.255416e+001	2.915820e+001
1.095044e+007	-4.185690e+001	-8.213637e+001	-3.077923e+001	-2.314716e+001	-9.775225e+001	1.041849e+002	-4.260383e+001	2.916016e+001
1.095045e+007	-4.184260e+001	-8.228090e+001	-3.078117e+001	-2.308976e+001	-9.402133e+001	8.299913e+001	-4.253776e+001	2.922146e+001
1.095045e+007	-4.182720e+001	-8.217900e+001	-3.076591e+001	-2.301953e+001	-9.822780e+001	8.278591e+001	-4.257804e+001	2.921043e+001
1.095046e+007	-4.182866e+001	-8.227788e+001	-3.075438e+001	-2.302426e+001	-9.939178e+001	1.212846e+002	-4.254727e+001	2.885153e+001
1.095047e+007	-4.184812e+001	-8.204359e+001	-3.073184e+001	-2.316473e+001	-9.449718e+001	9.887973e+001	-4.255629e+001	2.898587e+001
1.095048e+007	-4.184843e+001	-8.207077e+001	-3.072768e+001	-2.310183e+001	-9.600699e+001	7.926164e+001	-4.256101e+001	2.892835e+001
1.095048e+007	-4.185865e+001	-8.200139e+001	-3.073315e+001	-2.326884e+001	-9.883025e+001	9.581818e+001	-4.258664e+001	2.900427e+001
1.095049e+007	-4.185374e+001	-8.194193e+001	-3.075102e+001	-2.334805e+001	-9.482581e+001	1.039153e+002	-4.253550e+001	2.893330e+001
1.095050e+007	-4.185123e+001	-8.206028e+001	-3.076688e+001	-2.329478e+001	-9.559299e+001	9.344170e+001	-4.256458e+001	2.899059e+001
1.095051e+007	-4.183241e+001	-8.225868e+001	-3.076426e+001	-2.322509e+001	-9.805845e+001	9.565141e+001	-4.253201e+001	2.899434e+001
1.095052e+007	-4.185698e+001	-8.193766e+001	-3.076438e+001	-2.305994e+001	-9.964183e+001	1.049867e+002	-4.258808e+001	2.923136e+001
1.095052e+007	-4.184024e+001	-8.199342e+001	-3.074154e+001	-2.307569e+001	-9.850184e+001	7.435224e+001	-4.256591e+001	2.886587e+001
1.095053e+007	-4.185797e+001	-8.221014e+001	-3.073080e+001	-2.315184e+001	-9.647006e+001	8.271509e+001	-4.254070e+001	2.904547e+001
1.095054e+007	-4.186935e+001	-8.210882e+001	-3.072166e+001	-2.325939e+001	-9.856238e+001	9.086252e+001	-4.256043e+001	2.905488e+001
1.095055e+007	-4.187213e+001	-8.236389e+001	-3.074717e+001	-2.333441e+001	-9.636289e+001	9.889037e+001	-4.256115e+001	2.906029e+001
1.095055e+007	-4.184896e+001	-8.235870e+001	-3.076531e+001	-2.319857e+001	-9.880047e+001	9.511705e+001	-4.254828e+001	2.898668e+001
1.095056e+007	-4.185745e+001	-8.224169e+001	-3.075278e+001	-2.307554e+001	-9.754072e+001	1.235240e+002	-4.260164e+001	2.913547e+001
1.095057e+007	-4.184297e+001	-8.223722e+001	-3.073233e+001	-2.312280e+001	-9.446420e+001	8.533316e+001	-4.261368e+001	2.915142e+001
1.095058e+007	-4.186270e+001	-8.218229e+001	-3.073191e+001	-2.320651e+001	-1.000492e+002	8.933112e+001	-4.257084e+001	2.921371e+001
1.095059e+007	-4.185642e+001	-8.200534e+001	-3.074784e+001	-2.322014e+001	-9.646308e+001	1.044964e+002	-4.257177e+001	2.908895e+001
1.095059e+007	-4.185870e+001	-8.185306e+001	-3.075537e+001	-2.315918e+001	-9.524453e+001	1.056433e+002	-4.259607e+001	2.916317e+001
1.095060e+007	-4.183756e+001	-8.215616e+001	-3.074292e+001	-2.304039e+001	-9.417659e+001	8.302284e+001	-4.257024e+001	2.911706e+001
1.095061e+007	-4.185550e+001	-8.221799e+001	-3.072569e+001	-2.321446e+001	-9.665228e+001	7.073702e+001	-4.257438e+001	2.932818e+001
1.095062e+007	-4.184704e+001	-8.206224e+001	-3.074534e+001	-2.330878e+001	-9.857160e+001	1.075065e+002	-4.256462e+001	2.887269e+001
1.095063e+007	-4.184755e+001	-8.236392e+001	-3.074685e+001	-2.322369e+001	-9.428939e+001	9.235174e+001	-4.257404e+001	2.910780e+001
1.095063e+007	-4.184200e+001	-8.208954e+001	-3.074132e+001	-2.313410e+001	-9.785596e+001	8.827848e+001	-4.258411e+001	2.922328e+001
1.095064e+007	-4.188456e+001	-8.220939e+001	-3.073552e+001	-2.321710e+001	-9.651284e+001	9.960621e+001	-4.255030e+001	2.920421e+001
1.095065e+007	-4.184788e+001	-8.227704e+001	-3.074131e+001	-2.319021e+001	-9.640580e+001	7.033592e+001	-4.253378e+001	2.904762e+001
1.095066e+007	-4.185505e+001	-8.221241e+001	-3.073827e+001	-2.316350e+001	-9.776699e+001	9.195495e+001	-4.256001e+001	2.920599e+001
1.095066e+007	-4.184669e+001	-8.209527e+001	-3.073469e+001	-2.318873e+001	-9.547321e+001	9.916326e+001	-4.255510e+001	2.923239e+001
1.095067e+007	-4.184608e+001	-8.210554e+001	-3.073632e+001	-2.321590e+001	-1.017484e+002	8.536642e+001	-4.255986e+001	2.900969e+001
1.095068e+007	-4.183827e+001	-8.209288e+001	-3.074720e+001	-2.323894e+001	-9.633015e+001	9.597285e+001	-4.258705e+001	2.892537e+001
1.095069e+007	-4.184464e+001	-8.211524e+001	-3.074042e+001	-2.314245e+001	-9.590743e+001	8.280848e+001	-4.257583e+001	2.918857e+001
1.095070e+007	-4.185710e+001	-8.204385e+001	-3.074743e+001	-2.320657e+001	-9.741229e+001	9.220743e+001	-4.256999e+001	2.913544e+001
1.095070e+007	-4.185605e+001	-8.237694e+001	-3.074617e+001	-2.319288e+001	-9.722919e+001	7.424843e+001	-4.255302e+001	2.898854e+001
1.095071e+007	-4.183741e+001	-8.211595e+001	-3.074724e+001	-2.316435e+001	-1.012673e+002	1.273162e+002	-4.254944e+001	2.910666e+001
1.095072e+007	-4.186036e+001	-8.215888e+001	-3.073723e+001	-2.317020e+001	-9.486445e+001	1.007187e+002	-4.252346e+001	2.912976e+001
1.095073e+007	-4.185191e+001	-8.213247e+001	-3.073900e+001	-2.314471e+001	-9.472853e+001	9.725555e+001	-4.256127e+001	2.898149e+001
1.095073e+007	-4.185589e+001	-8.217606e+001	-3.072955e+001	-2.320118e+001	-9.372551e+001	1.041315e+002	-4.254166e+001	2.903537e+001
1.095074e+007	-4.185100e+001	-8.231546e+001	-3.073640e+001	-2.315609e+001	-9.548145e+001	7.968979e+001	-4.251489e+001	2.909736e+001
1.095075e+007	-4.185128e+001	-8.198357e+001	-3.072914e+001	-2.315990e+001	-9.780165e+001	8.902319e+001	-4.255914e+001	2.926421e+001
1.095076e+007	-4.184710e+001	-8.202895e+001	-3.074193e+001	-2.322267e+001	-9.603781e+001	9.227678e+001	-4.256053e+001	2.910949e+001
1.095077e+007	-4.187910e+001	-8.214018e+001	-3.073873e+001	-2.320835e+001	-9.870201e+001	1.042300e+002	-4.256642e+001	2.902050e+001
1.095077e+007	-4.184883e+001	-8.230653e+001	-3.073938e+001	-2.318636e+001	-9.782693e+001	1.152965e+002	-4.253927e+001	2.908540e+001
1.095078e+007	-4.184489e+001	-8.208881e+001	-3.073438e+001	-2.316782e+001	-9.687789e+001	9.362371e+001	-4.258504e+001	2.918098e+001
1.095079e+007	-4.184895e+001	-8.212303e+001	-3.073918e+001	-2.321576e+001	-9.785031e+001	9.939466e+001	-4.254513e+001	2.915336e+001
1.095080e+007	-4.184624e+001	-8.214914e+001	-3.074134e+001	-2.321001e+001	-9.728192e+001	1.018378e+002	-4.256471e+001	2.912927e+001
1.095080e+007	-4.186586e+001	-8.210799e+001	-3.073026e+001	-2.316797e+001	-1.007318e+002	7.551642e+001	-4.254613e+001	2.920344e+001
1.095081e+007	-4.183501e+001	-8.210331e+001	-3.073645e+001	-2.318772e+001	-9.547652e+001	6.899264e+001	-4.257795e+001	2.918550e+001
1.095082e+007	-4.185508e+001	-8.215274e+001	-3.073743e+001	-2.310357e+001	-9.906542e+001	1.080121e+002	-4.251428e+001	2.912104e+001
1.095083e+007	-4.187293e+001	-8.210282e+001	-3.073747e+001	-2.319422e+001	-9.488198e+001	1.032888e+002	-4.255905e+001	2.926096e+001
1.095084e+007	-4.182662e+001	-8.210147e+001	-3.074216e+001	-2.311763e+001	-9.441981e+001	8.994492e+001	-4.253954e+001	2.902280e+001
1.095084e+007	-4.184786e+001	-8.197801e+001	-3.072855e+001	-2.316899e+001	-9.739522e+001	8.869586e+001	-4.256667e+001	2.937300e+001
1.095085e+007	-4.187140e+001	-8.225130e+001	-3.074366e+001	-2.314190e+001	-9.642408e+001	9.781138e+001	-4.258670e+001	2.910677e+001
1.095086e+007	-4.188080e+001	-8.192302e+001	-3.072477e+001	-2.313247e+001	-9.643999e+001	9.021691e+001	-4.259668e+001	2.953901e+001
1.095087e+007	-4.184249e+001	-8.202927e+001	-3.074866e+001	-2.318305e+001	-9.785393e+001	8.466142e+001	-4.257137e+001	2.902245e+001
1.095088e+007	-4.184298e+001	-8.199974e+001	-3.072510e+001	-2.317583e+001	-9.710739e+001	8.975904e+001	-4.255040e+001	2.899082e+001
1.095088e+007	-4.183970e+001	-8.211834e+001	-3.075156e+001	-2.318111e+001	-9.583689e+001	1.018271e+002	-4.257451e+001	2.933985e+001
1.095089e+007	-4.186162e+001	-8.200446e+001	-3.073125e+001	-2.307981e+001	-9.635538e+001	1.070024e+002	-4.255539e+001	2.903057e+001
1.095090e+007	-4.186196e+001	-8.216247e+001	-3.074735e+001	-2.319391e+001	-9.665851e+001	9.225415e+001	-4.255868e+001	2.908342e+001
1.095091e+007	-4.182489e+001	-8.210080e+001	-3.073180e+001	-2.308646e+001	-9.663792e+001	8.211780e+001	-4.258285e+001	2.912214e+001
1.095091e+007	-4.185787e+001	-8.213061e+001	-3.075763e+001	-2.318021e+001	-9.726868e+001	9.931755e+001	-4.259168e+001	2.912270e+001
1.095092e+007	-4.185456e+001	-8.218042e+001	-3.072446e+001	-2.319439e+001	-9.615570e+001	1.060562e+002	-4.255131e+001	2.933498e+001
1.095093e+007	-4.183351e+001	-8.206870e+001	-3.074387e+001	-2.317546e+001	-9.808942e+001	8.650971e+001	-4.261230e+001	2.911234e+001
1.095094e+007	-4.186481e+001	-8.219710e+001	-3.073032e+001	-2.314668e+001	-9.515795e+001	8.335275e+001	-4.256189e+001	2.893948e+001
1.095095e+007	-4.185993e+001	-8.212106e+001	-3.074254e+001	-2.312285e+001	-1.009169e+002	8.135721e+001	-4.254655e+001	2.922935e+001
1.095095e+007	-4.186698e+001	-8.205486e+001	-3.072686e+001	-2.323542e+001	-9.666530e+001	9.640004e+001	-4.253009e+001	2.922701e+001
1.095096e+007	-4.185924e+001	-8.206975e+001	-3.074743e+001	-2.307939e+001	-9.560285e+001	7.669617e+001	-4.258808e+001	2.932946e+001
1.095097e+007	-4.184400e+001	-8.220208e+001	-3.075184e+001	-2.325390e+001	-1.003234e+002	9.337359e+001	-4.256082e+001	2.898405e+001
1.095098e+007	-4.185307e+001	-8.204989e+001	-3.072767e+001	-2.318088e+001	-9.910910e+001	7.667787e+001	-4.257787e+001	2.920134e+001
1.095098e+007	-4.184564e+001	-8.215531e+001	-3.074494e+001	-2.323694e+001	-1.010644e+002	9.416319e+001	-4.255403e+001	2.903456e+001
1.095099e+007	-4.185769e+001	-8.246531e+001	-3.071559e+001	-2.317448e+001	-9.708925e+001	7.183756e+001	-4.254752e+001	2.905820e+001
1.095100e+007	-4.187804e+001	-8.220083e+001	-3.074548e+001	-2.309678e+001	-9.559717e+001	9.949124e+001	-4.253429e+001	2.924657e+001
1.095101e+007	-4.184807e+001	-8.221232e+001	-3.074905e+001	-2.323823e+001	-1.001356e+002	9.628392e+001	-4.252843e+001	2.900561e+001
1.095102e+007	-4.184975e+001	-8.209815e+001	-3.071395e+001	-2.312237e+001	-9.806120e+001	7.538543e+001	-4.258206e+001	2.923808e+001
1.095102e+007	-4.185409e+001	-8.200143e+001	-3.074252e+001	-2.303216e+001	-9.575226e+001	1.003238e+002	-4.259646e+001	2.890255e+001
1.095103e+007	-4.184870e+001	-8.228046e+001	-3.072982e+001	-2.324870e+001	-9.576985e+001	7.919566e+001	-4.251514e+001	2.894711e+001
1.095104e+007	-4.186708e+001	-8.197039e+001	-3.072271e+001	-2.308171e+001	-9.594884e+001	9.220712e+001	-4.256508e+001	2.906090e+001
1.095105e+007	-4.183708e+001	-8.212754e+001	-3.075592e+001	-2.317813e+001	-9.772825e+001	8.204403e+001	-4.255664e+001	2.899530e+001
1.095105e+007	-4.187543e+001	-8.213974e+001	-3.073051e+001	-2.335656e+001	-9.782215e+001	9.238913e+001	-4.251152e+001	2.907155e+001
1.095106e+007	-4.184834e+001	-8.204575e+001	-3.072780e+001	-2.306609e+001	-9.727495e+001	9.151561e+001	-4.254107e+001	2.931727e+001
1.095107e+007	-4.184762e+001	-8.221740e+001	-3.074403e+001	-2.315464e+001	-9.580550e+001	9.073997e+001	-4.255035e+001	2.908203e+001
1.095108e+007	-4.185542e+001	-8.212823e+001	-3.073890e+001	-2.330263e+001	-9.816913e+001	1.069697e+002	-4.255135e+001	2.886632e+001
1.095109e+007	-4.185571e+001	-8.196972e+001	-3.071654e+001	-2.312384e+001	-9.924363e+001	1.027110e+002	-4.256768e+001	2.911327e+001
1.095109e+007	-4.184887e+001	-8.213668e+001	-3.075362e+001	-2.308870e+001	-9.613287e+001	1.148237e+002	-4.259586e+001	2.916235e+001
1.095110e+007	-4.183456e+001	-8.233272e+001	-3.073679e+001	-2.324563e+001	-9.776473e+001	7.156205e+001	-4.255928e+001	2.890085e+001
1.095111e+007	-4.185186e+001	-8.206994e+001	-3.070743e+001	-2.311413e+001	-9.695602e+001	8.879642e+001	-4.254948e+001	2.903579e+001
1.095112e+007	-4.181913e+001	-8.213403e+001	-3.074375e+001	-2.307302e+001	-9.628039e+001	8.131003e+001	-4.256487e+001	2.916657e+001
1.095113e+007	-4.185974e+001	-8.217428e+001	-3.075121e+001	-2.319847e+001	-9.722801e+001	8.743870e+001	-4.258830e+001	2.923126e+001
1.095113e+007	-4.185250e+001	-8.200310e+001	-3.073255e+001	-2.333882e+001	-9.957672e+001	1.049292e+002	-4.256494e+001	2.931610e+001
1.095114e+007	-4.187422e+001	-8.211925e+001	-3.071778e+001	-2.308341e+001	-9.913581e+001	1.205445e+002	-4.254576e+001	2.926836e+001
1.095115e+007	-4.189600e+001	-8.221175e+001	-3.073486e+001	-2.305471e+001	-1.002696e+002	6.566214e+001	-4.255001e+001	2.913591e+001
1.095116e+007	-4.184589e+001	-8.213999e+001	-3.074555e+001	-2.319754e+001	-9.754107e+001	7.289585e+001	-4.255442e+001	2.898304e+001
