!CETC41,AV3656A,ZGL00048,1.3.2
!Calibration ON (Full Solt 2-Port(Omit Isolation))
!Measurements: S11 S21 S12 S22
!2025-04-23 00:11
# Hz  S  dB  R 50.000
1.095000e+007	-4.345656e+001	-7.729959e+001	-3.057313e+001	-2.445216e+001	-9.476816e+001	9.316984e+001	-4.281912e+001	1.158319e+002
1.095001e+007	-4.347508e+001	-7.734256e+001	-3.056657e+001	-2.432879e+001	-9.810285e+001	1.059136e+002	-4.282719e+001	1.159269e+002
1.095002e+007	-4.344150e+001	-7.728129e+001	-3.056055e+001	-2.432150e+001	-9.703752e+001	1.163755e+002	-4.284628e+001	1.161501e+002
1.095002e+007	-4.345150e+001	-7.705323e+001	-3.055521e+001	-2.442965e+001	-9.558569e+001	1.112720e+002	-4.280625e+001	1.162379e+002
1.095003e+007	-4.346699e+001	-7.734847e+001	-3.054406e+001	-2.445404e+001	-9.815318e+001	9.130282e+001	-4.278406e+001	1.160275e+002
1.095004e+007	-4.345623e+001	-7.730768e+001	-3.056269e+001	-2.440626e+001	-9.426317e+001	9.812359e+001	-4.283030e+001	1.160002e+002
1.095005e+007	-4.343201e+001	-7.721250e+001	-3.056808e+001	-2.436083e+001	-9.280783e+001	1.081877e+002	-4.288676e+001	1.159265e+002
1.095005e+007	-4.343138e+001	-7.719989e+001	-3.055109e+001	-2.438235e+001	-9.595324e+001	1.006928e+002	-4.286587e+001	1.161079e+002
1.095006e+007	-4.345558e+001	-7.733701e+001	-3.054719e+001	-2.440308e+001	-9.676952e+001	1.034450e+002	-4.284048e+001	1.160275e+002
1.095007e+007	-4.342855e+001	-7.706862e+001	-3.056915e+001	-2.444268e+001	-9.688831e+001	9.148233e+001	-4.281954e+001	1.159306e+002
1.095008e+007	-4.350232e+001	-7.740757e+001	-3.055956e+001	-2.434715e+001	-9.645878e+001	9.343570e+001	-4.287139e+001	1.157187e+002
1.095009e+007	-4.344139e+001	-7.725358e+001	-3.055520e+001	-2.428131e+001	-9.591823e+001	1.127798e+002	-4.286619e+001	1.159317e+002
1.095009e+007	-4.342747e+001	-7.746591e+001	-3.053705e+001	-2.435915e+001	-9.498397e+001	8.810894e+001	-4.281241e+001	1.159478e+002
1.095010e+007	-4.346204e+001	-7.711373e+001	-3.055561e+001	-2.446413e+001	-9.392714e+001	9.724194e+001	-4.281778e+001	1.158540e+002
1.095011e+007	-4.344366e+001	-7.722570e+001	-3.056289e+001	-2.440016e+001	-9.731985e+001	1.046202e+002	-4.283876e+001	1.160504e+002
1.095012e+007	-4.345909e+001	-7.713064e+001	-3.055035e+001	-2.436882e+001	-9.529092e+001	8.515907e+001	-4.284436e+001	1.159008e+002
1.095013e+007	-4.345105e+001	-7.701949e+001	-3.053747e+001	-2.443632e+001	-9.816810e+001	1.060580e+002	-4.280295e+001	1.157996e+002
1.095013e+007	-4.346742e+001	-7.732879e+001	-3.055866e+001	-2.443943e+001	-9.477596e+001	1.139008e+002	-4.281892e+001	1.157245e+002
1.095014e+007	-4.343947e+001	-7.728141e+001	-3.056510e+001	-2.435903e+001	-9.680653e+001	1.289640e+002	-4.283982e+001	1.159604e+002
1.095015e+007	-4.345197e+001	-7.752844e+001	-3.053861e+001	-2.441942e+001	-9.523008e+001	1.022998e+002	-4.281225e+001	1.160256e+002
1.095016e+007	-4.345185e+001	-7.730149e+001	-3.055795e+001	-2.449247e+001	-9.555666e+001	9.827052e+001	-4.279532e+001	1.159029e+002
1.095016e+007	-4.344012e+001	-7.712827e+001	-3.055020e+001	-2.431662e+001	-9.682237e+001	1.013069e+002	-4.284086e+001	1.160569e+002
1.095017e+007	-4.344530e+001	-7.728675e+001	-3.054073e+001	-2.439505e+001	-9.469175e+001	1.012566e+002	-4.281478e+001	1.159585e+002
1.095018e+007	-4.343139e+001	-7.731781e+001	-3.055513e+001	-2.440587e+001	-9.513066e+001	9.146430e+001	-4.281867e+001	1.157513e+002
1.095019e+007	-4.342457e+001	-7.720400e+001	-3.055667e+001	-2.435754e+001	-9.819527e+001	7.277797e+001	-4.283863e+001	1.158955e+002
1.095020e+007	-4.344054e+001	-7.684329e+001	-3.053726e+001	-2.433643e+001	-9.581280e+001	8.901229e+001	-4.282908e+001	1.160491e+002
1.095020e+007	-4.343409e+001	-7.718698e+001	-3.054750e+001	-2.440339e+001	-9.707159e+001	1.033221e+002	-4.281612e+001	1.160310e+002
1.095021e+007	-4.342744e+001	-7.738494e+001	-3.054176e+001	-2.429186e+001	-9.542169e+001	9.819559e+001	-4.280707e+001	1.159468e+002
1.095022e+007	-4.344173e+001	-7.721078e+001	-3.054501e+001	-2.437747e+001	-9.459157e+001	8.995780e+001	-4.280832e+001	1.160022e+002
1.095023e+007	-4.345139e+001	-7.734674e+001	-3.053978e+001	-2.441469e+001	-9.691975e+001	9.644453e+001	-4.281883e+001	1.159879e+002
1.095023e+007	-4.342772e+001	-7.720511e+001	-3.054675e+001	-2.434048e+001	-9.656690e+001	9.916599e+001	-4.282702e+001	1.160299e+002
1.095024e+007	-4.345558e+001	-7.730632e+001	-3.053604e+001	-2.439361e+001	-9.569074e+001	9.524237e+001	-4.280375e+001	1.159120e+002
1.095025e+007	-4.343278e+001	-7.715746e+001	-3.054258e+001	-2.434783e+001	-9.802260e+001	1.181434e+002	-4.284185e+001	1.160437e+002
1.095026e+007	-4.345187e+001	-7.706127e+001	-3.053130e+001	-2.438540e+001	-9.545361e+001	1.148184e+002	-4.281342e+001	1.158308e+002
1.095027e+007	-4.342803e+001	-7.718671e+001	-3.055501e+001	-2.436881e+001	-9.561006e+001	1.050090e+002	-4.282137e+001	1.158135e+002
1.095027e+007	-4.343275e+001	-7.720866e+001	-3.054336e+001	-2.436253e+001	-9.492317e+001	1.053396e+002	-4.281917e+001	1.160399e+002
1.095028e+007	-4.345135e+001	-7.738924e+001	-3.054358e+001	-2.445159e+001	-9.451480e+001	8.405957e+001	-4.283115e+001	1.158417e+002
1.095029e+007	-4.344452e+001	-7.710593e+001	-3.054152e+001	-2.437390e+001	-9.486484e+001	8.516094e+001	-4.278206e+001	1.160148e+002
1.095030e+007	-4.341707e+001	-7.700027e+001	-3.054809e+001	-2.439400e+001	-9.419894e+001	9.389046e+001	-4.282512e+001	1.159150e+002
1.095030e+007	-4.342933e+001	-7.738116e+001	-3.054418e+001	-2.435993e+001	-9.467151e+001	1.191375e+002	-4.283882e+001	1.161951e+002
1.095031e+007	-4.343185e+001	-7.697315e+001	-3.054736e+001	-2.447672e+001	-9.390525e+001	9.915201e+001	-4.278803e+001	1.160165e+002
1.095032e+007	-4.343403e+001	-7.715619e+001	-3.054850e+001	-2.433809e+001	-9.385278e+001	1.165890e+002	-4.284903e+001	1.158437e+002
1.095033e+007	-4.340456e+001	-7.714484e+001	-3.053807e+001	-2.437066e+001	-9.803204e+001	1.028050e+002	-4.281148e+001	1.161493e+002
1.095034e+007	-4.342087e+001	-7.715791e+001	-3.053093e+001	-2.439868e+001	-9.534780e+001	1.031730e+002	-4.281413e+001	1.159073e+002
1.095034e+007	-4.347914e+001	-7.730660e+001	-3.053585e+001	-2.445965e+001	-9.560928e+001	1.016501e+002	-4.286263e+001	1.160793e+002
1.095035e+007	-4.343344e+001	-7.731948e+001	-3.053701e+001	-2.435786e+001	-9.848069e+001	1.026277e+002	-4.285880e+001	1.161005e+002
1.095036e+007	-4.344876e+001	-7.717722e+001	-3.053264e+001	-2.438753e+001	-9.565243e+001	9.608016e+001	-4.284230e+001	1.160652e+002
1.095037e+007	-4.347995e+001	-7.706817e+001	-3.053809e+001	-2.445158e+001	-9.630434e+001	1.004710e+002	-4.285641e+001	1.158558e+002
1.095038e+007	-4.341657e+001	-7.731559e+001	-3.053346e+001	-2.435678e+001	-9.767607e+001	1.154751e+002	-4.285014e+001	1.156340e+002
1.095038e+007	-4.346982e+001	-7.712073e+001	-3.053728e+001	-2.430750e+001	-9.639007e+001	1.133747e+002	-4.287014e+001	1.160947e+002
1.095039e+007	-4.342350e+001	-7.714686e+001	-3.052436e+001	-2.435212e+001	-9.398578e+001	1.017609e+002	-4.282778e+001	1.159889e+002
1.095040e+007	-4.347150e+001	-7.722977e+001	-3.053067e+001	-2.436645e+001	-9.354896e+001	9.593921e+001	-4.284585e+001	1.161666e+002
1.095041e+007	-4.346289e+001	-7.727078e+001	-3.053512e+001	-2.437641e+001	-9.634190e+001	1.161862e+002	-4.282896e+001	1.157271e+002
1.095041e+007	-4.344188e+001	-7.745592e+001	-3.053775e+001	-2.435010e+001	-9.496454e+001	1.015008e+002	-4.280709e+001	1.160232e+002
1.095042e+007	-4.346081e+001	-7.752432e+001	-3.053005e+001	-2.437435e+001	-9.711330e+001	1.121927e+002	-4.279640e+001	1.159006e+002
1.095043e+007	-4.345429e+001	-7.727745e+001	-3.052560e+001	-2.436986e+001	-9.523719e+001	9.009394e+001	-4.280515e+001	1.158998e+002
1.095044e+007	-4.345677e+001	-7.721533e+001	-3.053348e+001	-2.436076e+001	-9.511812e+001	1.017721e+002	-4.284617e+001	1.159685e+002
1.095045e+007	-4.340236e+001	-7.713221e+001	-3.054148e+001	-2.437457e+001	-9.355214e+001	1.020909e+002	-4.283684e+001	1.160161e+002
1.095045e+007	-4.340234e+001	-7.710186e+001	-3.053215e+001	-2.436199e+001	-1.025152e+002	1.128344e+002	-4.282602e+001	1.159437e+002
1.095046e+007	-4.343040e+001	-7.705789e+001	-3.053314e+001	-2.439618e+001	-9.596193e+001	1.028517e+002	-4.278425e+001	1.161209e+002
1.095047e+007	-4.341041e+001	-7.709737e+001	-3.053024e+001	-2.437112e+001	-9.660441e+001	1.068332e+002	-4.281283e+001	1.159210e+002
1.095048e+007	-4.343906e+001	-7.726500e+001	-3.052854e+001	-2.431385e+001	-9.471332e+001	9.902501e+001	-4.281509e+001	1.159486e+002
1.095048e+007	-4.341375e+001	-7.749359e+001	-3.052341e+001	-2.435141e+001	-9.479934e+001	1.053298e+002	-4.282639e+001	1.160926e+002
1.095049e+007	-4.343750e+001	-7.722678e+001	-3.053430e+001	-2.436296e+001	-9.862965e+001	1.101176e+002	-4.282191e+001	1.161142e+002
1.095050e+007	-4.342696e+001	-7.740909e+001	-3.052382e+001	-2.434646e+001	-9.587110e+001	1.174918e+002	-4.280035e+001	1.160846e+002
1.095051e+007	-4.341213e+001	-7.711880e+001	-3.052769e+001	-2.434990e+001	-9.854395e+001	9.623061e+001	-4.281901e+001	1.160962e+002
1.095052e+007	-4.345701e+001	-7.728831e+001	-3.052690e+001	-2.438182e+001	-9.669586e+001	1.150080e+002	-4.280383e+001	1.158910e+002
1.095052e+007	-4.344223e+001	-7.730960e+001	-3.052967e+001	-2.436922e+001	-9.605480e+001	7.712251e+001	-4.280437e+001	1.161834e+002
1.095053e+007	-4.344408e+001	-7.734619e+001	-3.053365e+001	-2.430729e+001	-9.389469e+001	1.053830e+002	-4.280525e+001	1.159017e+002
1.095054e+007	-4.343379e+001	-7.688379e+001	-3.052187e+001	-2.435226e+001	-9.800600e+001	9.742254e+001	-4.283313e+001	1.159316e+002
1.095055e+007	-4.341228e+001	-7.716480e+001	-3.052643e+001	-2.440957e+001	-9.667760e+001	9.321605e+001	-4.282471e+001	1.160895e+002
1.095055e+007	-4.343852e+001	-7.707368e+001	-3.052792e+001	-2.438161e+001	-9.636395e+001	7.590667e+001	-4.282989e+001	1.159778e+002
1.095056e+007	-4.340622e+001	-7.695335e+001	-3.052761e+001	-2.439369e+001	-9.732767e+001	1.088747e+002	-4.280715e+001	1.159875e+002
1.095057e+007	-4.343844e+001	-7.733052e+001	-3.052519e+001	-2.439568e+001	-9.653396e+001	1.057845e+002	-4.282518e+001	1.161629e+002
1.095058e+007	-4.343001e+001	-7.742832e+001	-3.051126e+001	-2.441331e+001	-9.577447e+001	9.113994e+001	-4.281735e+001	1.159818e+002
1.095059e+007	-4.344482e+001	-7.736398e+001	-3.052901e+001	-2.436142e+001	-9.956621e+001	1.059684e+002	-4.283777e+001	1.160177e+002
1.095059e+007	-4.347760e+001	-7.727317e+001	-3.051994e+001	-2.433686e+001	-9.808629e+001	9.241802e+001	-4.281840e+001	1.159037e+002
1.095060e+007	-4.347485e+001	-7.704748e+001	-3.051872e+001	-2.437245e+001	-9.553221e+001	1.166593e+002	-4.280958e+001	1.161607e+002
1.095061e+007	-4.347260e+001	-7.696595e+001	-3.052239e+001	-2.439088e+001	-9.462251e+001	9.215010e+001	-4.280713e+001	1.160628e+002
1.095062e+007	-4.347045e+001	-7.725616e+001	-3.052253e+001	-2.435913e+001	-9.487119e+001	1.061872e+002	-4.283815e+001	1.160861e+002
1.095063e+007	-4.345155e+001	-7.717175e+001	-3.052688e+001	-2.440542e+001	-9.588443e+001	1.186111e+002	-4.284632e+001	1.158836e+002
1.095063e+007	-4.345377e+001	-7.730945e+001	-3.051244e+001	-2.437231e+001	-9.348704e+001	1.243047e+002	-4.280961e+001	1.161572e+002
1.095064e+007	-4.342009e+001	-7.720548e+001	-3.051708e+001	-2.439990e+001	-9.825787e+001	9.624597e+001	-4.282632e+001	1.159653e+002
1.095065e+007	-4.346838e+001	-7.722723e+001	-3.052315e+001	-2.439668e+001	-9.530094e+001	9.594913e+001	-4.283847e+001	1.159424e+002
1.095066e+007	-4.343854e+001	-7.733950e+001	-3.052428e+001	-2.440845e+001	-9.899186e+001	1.083545e+002	-4.283370e+001	1.159971e+002
1.095066e+007	-4.344114e+001	-7.693910e+001	-3.052177e+001	-2.444866e+001	-9.611475e+001	1.111252e+002	-4.281356e+001	1.160025e+002
1.095067e+007	-4.344574e+001	-7.728993e+001	-3.051533e+001	-2.432637e+001	-9.608617e+001	1.002131e+002	-4.278842e+001	1.159361e+002
1.095068e+007	-4.344436e+001	-7.729937e+001	-3.051180e+001	-2.431281e+001	-9.737638e+001	9.326693e+001	-4.284583e+001	1.159953e+002
1.095069e+007	-4.344117e+001	-7.709558e+001	-3.052373e+001	-2.435683e+001	-9.574430e+001	9.361680e+001	-4.280615e+001	1.161937e+002
1.095070e+007	-4.342051e+001	-7.721751e+001	-3.051837e+001	-2.433131e+001	-9.400801e+001	9.258087e+001	-4.285845e+001	1.161351e+002
1.095070e+007	-4.342476e+001	-7.691034e+001	-3.051767e+001	-2.444089e+001	-9.794153e+001	1.191566e+002	-4.282535e+001	1.161086e+002
1.095071e+007	-4.346012e+001	-7.716569e+001	-3.050952e+001	-2.440723e+001	-9.454337e+001	1.057289e+002	-4.281157e+001	1.160875e+002
1.095072e+007	-4.343723e+001	-7.704780e+001	-3.050384e+001	-2.438258e+001	-9.931405e+001	1.102153e+002	-4.282570e+001	1.157607e+002
1.095073e+007	-4.347564e+001	-7.713687e+001	-3.050850e+001	-2.438756e+001	-9.469961e+001	1.032846e+002	-4.282354e+001	1.160950e+002
1.095073e+007	-4.344652e+001	-7.726002e+001	-3.051082e+001	-2.432051e+001	-9.585702e+001	1.145799e+002	-4.283264e+001	1.158744e+002
1.095074e+007	-4.345573e+001	-7.723529e+001	-3.053128e+001	-2.436581e+001	-9.599390e+001	9.537812e+001	-4.282440e+001	1.160112e+002
1.095075e+007	-4.344925e+001	-7.720257e+001	-3.052114e+001	-2.442739e+001	-9.715671e+001	1.143742e+002	-4.280801e+001	1.161134e+002
1.095076e+007	-4.343268e+001	-7.712426e+001	-3.051653e+001	-2.440464e+001	-9.771456e+001	9.698003e+001	-4.283683e+001	1.158026e+002
1.095077e+007	-4.343337e+001	-7.713458e+001	-3.051024e+001	-2.441431e+001	-9.657298e+001	9.730152e+001	-4.283749e+001	1.159720e+002
1.095077e+007	-4.344440e+001	-7.703053e+001	-3.050816e+001	-2.438771e+001	-9.506461e+001	1.247101e+002	-4.282704e+001	1.159310e+002
1.095078e+007	-4.343202e+001	-7.731930e+001	-3.050898e+001	-2.444726e+001	-9.630129e+001	1.197382e+002	-4.280144e+001	1.159387e+002
1.095079e+007	-4.341464e+001	-7.710900e+001	-3.050040e+001	-2.444679e+001	-9.528438e+001	1.072042e+002	-4.282149e+001	1.162324e+002
1.095080e+007	-4.343605e+001	-7.709075e+001	-3.050730e+001	-2.436874e+001	-9.514056e+001	1.268801e+002	-4.280035e+001	1.162133e+002
1.095080e+007	-4.342874e+001	-7.722800e+001	-3.050137e+001	-2.434546e+001	-9.827621e+001	9.555929e+001	-4.283665e+001	1.161478e+002
1.095081e+007	-4.341359e+001	-7.714637e+001	-3.050866e+001	-2.431742e+001	-9.640218e+001	1.158206e+002	-4.282811e+001	1.160963e+002
1.095082e+007	-4.344042e+001	-7.728366e+001	-3.050322e+001	-2.439023e+001	-9.842684e+001	1.121466e+002	-4.281376e+001	1.160608e+002
1.095083e+007	-4.343472e+001	-7.734030e+001	-3.050100e+001	-2.440453e+001	-9.517962e+001	1.123731e+002	-4.283165e+001	1.161404e+002
1.095084e+007	-4.343600e+001	-7.722998e+001	-3.049687e+001	-2.439571e+001	-9.642183e+001	9.395178e+001	-4.283387e+001	1.161348e+002
1.095084e+007	-4.344131e+001	-7.709437e+001	-3.050499e+001	-2.435017e+001	-9.482640e+001	8.488757e+001	-4.281460e+001	1.159137e+002
1.095085e+007	-4.341689e+001	-7.697983e+001	-3.049850e+001	-2.437407e+001	-9.576707e+001	1.059227e+002	-4.280401e+001	1.159111e+002
1.095086e+007	-4.343437e+001	-7.710606e+001	-3.049537e+001	-2.441711e+001	-9.543988e+001	9.891310e+001	-4.285784e+001	1.161637e+002
1.095087e+007	-4.342393e+001	-7.727508e+001	-3.049421e+001	-2.445118e+001	-9.542194e+001	1.052425e+002	-4.281306e+001	1.161969e+002
1.095088e+007	-4.344386e+001	-7.721687e+001	-3.049331e+001	-2.442067e+001	-9.350021e+001	1.072451e+002	-4.281585e+001	1.160519e+002
1.095088e+007	-4.346076e+001	-7.738854e+001	-3.049081e+001	-2.450042e+001	-9.698569e+001	1.003250e+002	-4.284085e+001	1.159690e+002
1.095089e+007	-4.345585e+001	-7.704125e+001	-3.049141e+001	-2.444952e+001	-9.469879e+001	9.300681e+001	-4.278071e+001	1.158266e+002
1.095090e+007	-4.346268e+001	-7.695991e+001	-3.050873e+001	-2.449955e+001	-9.872127e+001	1.004188e+002	-4.283914e+001	1.160841e+002
1.095091e+007	-4.343972e+001	-7.726583e+001	-3.049856e+001	-2.451459e+001	-9.807285e+001	8.536075e+001	-4.284656e+001	1.161098e+002
1.095091e+007	-4.341639e+001	-7.716960e+001	-3.050920e+001	-2.456951e+001	-9.513658e+001	7.752258e+001	-4.282717e+001	1.159223e+002
1.095092e+007	-4.343332e+001	-7.707609e+001	-3.050493e+001	-2.450653e+001	-9.513185e+001	8.609222e+001	-4.285830e+001	1.161576e+002
1.095093e+007	-4.344789e+001	-7.725134e+001	-3.052312e+001	-2.449872e+001	-9.586880e+001	1.202163e+002	-4.284399e+001	1.162809e+002
1.095094e+007	-4.346639e+001	-7.731139e+001	-3.053313e+001	-2.452392e+001	-9.655158e+001	9.582612e+001	-4.282968e+001	1.160309e+002
1.095095e+007	-4.346134e+001	-7.725862e+001	-3.054080e+001	-2.444221e+001	-9.427002e+001	8.761983e+001	-4.283929e+001	1.162195e+002
1.095095e+007	-4.345440e+001	-7.722145e+001	-3.054140e+001	-2.448590e+001	-9.514585e+001	9.790465e+001	-4.284022e+001	1.160874e+002
1.095096e+007	-4.346800e+001	-7.722314e+001	-3.053357e+001	-2.426290e+001	-9.686194e+001	8.498863e+001	-4.284995e+001	1.161567e+002
1.095097e+007	-4.343559e+001	-7.735627e+001	-3.052846e+001	-2.420648e+001	-9.489127e+001	1.255828e+002	-4.278352e+001	1.160682e+002
1.095098e+007	-4.345960e+001	-7.725257e+001	-3.051480e+001	-2.417265e+001	-9.554002e+001	1.091515e+002	-4.281759e+001	1.159915e+002
1.095098e+007	-4.344546e+001	-7.693785e+001	-3.049234e+001	-2.415338e+001	-9.579977e+001	9.190448e+001	-4.283711e+001	1.161663e+002
1.095099e+007	-4.347823e+001	-7.707231e+001	-3.048008e+001	-2.422426e+001	-9.623981e+001	1.009851e+002	-4.283271e+001	1.159537e+002
1.095100e+007	-4.343649e+001	-7.715856e+001	-3.047440e+001	-2.432362e+001	-9.567592e+001	9.410510e+001	-4.283025e+001	1.159778e+002
1.095101e+007	-4.346571e+001	-7.704761e+001	-3.047392e+001	-2.447684e+001	-9.845313e+001	1.045362e+002	-4.284168e+001	1.161689e+002
1.095102e+007	-4.341848e+001	-7.734560e+001	-3.050919e+001	-2.457042e+001	-9.744739e+001	1.051464e+002	-4.281883e+001	1.162005e+002
1.095102e+007	-4.343173e+001	-7.705010e+001	-3.052717e+001	-2.447140e+001	-9.465275e+001	1.006181e+002	-4.278281e+001	1.160818e+002
1.095103e+007	-4.342501e+001	-7.726806e+001	-3.053937e+001	-2.431323e+001	-9.777815e+001	1.050782e+002	-4.282985e+001	1.161112e+002
1.095104e+007	-4.343444e+001	-7.699633e+001	-3.051884e+001	-2.419971e+001	-1.011517e+002	1.057752e+002	-4.278887e+001	1.157954e+002
1.095105e+007	-4.342040e+001	-7.718791e+001	-3.049164e+001	-2.413569e+001	-9.878596e+001	9.792045e+001	-4.277607e+001	1.159147e+002
1.095105e+007	-4.345555e+001	-7.701443e+001	-3.046593e+001	-2.436564e+001	-9.721648e+001	1.226025e+002	-4.282904e+001	1.160187e+002
1.095106e+007	-4.346495e+001	-7.710161e+001	-3.048028e+001	-2.456168e+001	-9.199697e+001	1.173399e+002	-4.283366e+001	1.162717e+002
1.095107e+007	-4.344075e+001	-7.718939e+001	-3.051090e+001	-2.452188e+001	-9.655645e+001	1.133092e+002	-4.284480e+001	1.161075e+002
1.095108e+007	-4.342511e+001	-7.712161e+001	-3.052476e+001	-2.436966e+001	-9.394697e+001	1.146062e+002	-4.279610e+001	1.160335e+002
1.095109e+007	-4.337726e+001	-7.692041e+001	-3.048785e+001	-2.420067e+001	-9.520647e+001	1.128028e+002	-4.281869e+001	1.159766e+002
1.095109e+007	-4.342273e+001	-7.725480e+001	-3.046401e+001	-2.425491e+001	-9.442885e+001	9.788289e+001	-4.281416e+001	1.160225e+002
1.095110e+007	-4.342829e+001	-7.692736e+001	-3.047112e+001	-2.452735e+001	-9.563752e+001	1.080337e+002	-4.281989e+001	1.161091e+002
1.095111e+007	-4.342002e+001	-7.707133e+001	-3.050551e+001	-2.459027e+001	-9.582702e+001	9.255276e+001	-4.280278e+001	1.160465e+002
1.095112e+007	-4.345909e+001	-7.704514e+001	-3.052840e+001	-2.434525e+001	-9.521221e+001	1.067752e+002	-4.280941e+001	1.160655e+002
1.095113e+007	-4.341568e+001	-7.688459e+001	-3.049627e+001	-2.409254e+001	-9.881746e+001	1.161411e+002	-4.284868e+001	1.160572e+002
1.095113e+007	-4.340840e+001	-7.717905e+001	-3.045765e+001	-2.437161e+001	-9.577901e+001	9.878219e+001	-4.279245e+001	1.160292e+002
1.095114e+007	-4.343827e+001	-7.714590e+001	-3.048858e+001	-2.454086e+001	-9.698801e+001	1.016461e+002	-4.282544e+001	1.160888e+002
1.095115e+007	-4.343476e+001	-7.722074e+001	-3.051410e+001	-2.441784e+001	-9.481578e+001	1.088243e+002	-4.279302e+001	1.160427e+002
1.095116e+007	-4.343117e+001	-7.720622e+001	-3.048555e+001	-2.420438e+001	-9.569309e+001	1.009481e+002	-4.278775e+001	1.160592e+002
