!CETC41,AV3656A,ZGL00048,1.3.2
!Calibration ON (Full Solt 2-Port(Omit Isolation))
!Measurements: S11 S21 S12 S22
!2025-04-22 22:20
# Hz  S  dB  R 50.000
1.095000e+007	-4.442852e+001	-8.407720e+001	-3.063664e+001	-2.387826e+001	-9.586461e+001	9.710389e+001	-4.345726e+001	1.162810e+002
1.095001e+007	-4.443042e+001	-8.435533e+001	-3.063268e+001	-2.401594e+001	-9.349373e+001	1.124125e+002	-4.344885e+001	1.163252e+002
1.095002e+007	-4.441625e+001	-8.421089e+001	-3.062590e+001	-2.400080e+001	-9.523205e+001	9.741617e+001	-4.344174e+001	1.162484e+002
1.095002e+007	-4.446766e+001	-8.415254e+001	-3.062531e+001	-2.399743e+001	-9.515331e+001	8.993425e+001	-4.342561e+001	1.164507e+002
1.095003e+007	-4.443426e+001	-8.400155e+001	-3.064248e+001	-2.393867e+001	-9.352070e+001	1.064674e+002	-4.341699e+001	1.164550e+002
1.095004e+007	-4.441135e+001	-8.411614e+001	-3.062772e+001	-2.393672e+001	-9.568273e+001	1.025508e+002	-4.342856e+001	1.164187e+002
1.095005e+007	-4.441000e+001	-8.431135e+001	-3.063668e+001	-2.394330e+001	-9.290116e+001	1.046909e+002	-4.344219e+001	1.161934e+002
1.095005e+007	-4.441999e+001	-8.419273e+001	-3.063745e+001	-2.398162e+001	-9.337755e+001	1.087284e+002	-4.341350e+001	1.163881e+002
1.095006e+007	-4.443494e+001	-8.414070e+001	-3.062741e+001	-2.392097e+001	-9.570572e+001	9.456777e+001	-4.346538e+001	1.165099e+002
1.095007e+007	-4.444434e+001	-8.413964e+001	-3.063509e+001	-2.398775e+001	-9.388238e+001	1.085056e+002	-4.343672e+001	1.164414e+002
1.095008e+007	-4.440840e+001	-8.399409e+001	-3.063586e+001	-2.393362e+001	-9.295900e+001	9.082193e+001	-4.344865e+001	1.163040e+002
1.095009e+007	-4.440328e+001	-8.406318e+001	-3.063827e+001	-2.400280e+001	-9.443515e+001	1.088099e+002	-4.344188e+001	1.163883e+002
1.095009e+007	-4.440598e+001	-8.406271e+001	-3.062792e+001	-2.397014e+001	-9.180593e+001	1.125887e+002	-4.348887e+001	1.164818e+002
1.095010e+007	-4.440571e+001	-8.405128e+001	-3.064274e+001	-2.401431e+001	-9.532600e+001	9.814472e+001	-4.343514e+001	1.162192e+002
1.095011e+007	-4.441389e+001	-8.429837e+001	-3.062918e+001	-2.398067e+001	-9.578260e+001	8.895352e+001	-4.346854e+001	1.162366e+002
1.095012e+007	-4.443958e+001	-8.439195e+001	-3.062387e+001	-2.390186e+001	-9.525353e+001	1.019543e+002	-4.344442e+001	1.162936e+002
1.095013e+007	-4.440860e+001	-8.430551e+001	-3.063659e+001	-2.400279e+001	-9.641973e+001	8.536947e+001	-4.344306e+001	1.165780e+002
1.095013e+007	-4.443117e+001	-8.424105e+001	-3.061770e+001	-2.394415e+001	-9.230280e+001	1.042092e+002	-4.344685e+001	1.163791e+002
1.095014e+007	-4.442431e+001	-8.429595e+001	-3.063678e+001	-2.397231e+001	-9.535827e+001	8.936224e+001	-4.342363e+001	1.163232e+002
1.095015e+007	-4.446335e+001	-8.444504e+001	-3.062098e+001	-2.393778e+001	-9.300162e+001	9.987147e+001	-4.344839e+001	1.164992e+002
1.095016e+007	-4.442530e+001	-8.409023e+001	-3.062724e+001	-2.386564e+001	-9.654813e+001	1.052843e+002	-4.345200e+001	1.161878e+002
1.095016e+007	-4.442235e+001	-8.404068e+001	-3.063222e+001	-2.397333e+001	-9.526379e+001	1.264366e+002	-4.347306e+001	1.166588e+002
1.095017e+007	-4.444155e+001	-8.410811e+001	-3.061296e+001	-2.387030e+001	-9.293788e+001	1.052707e+002	-4.348396e+001	1.164221e+002
1.095018e+007	-4.440128e+001	-8.417959e+001	-3.063528e+001	-2.384358e+001	-9.464617e+001	1.171169e+002	-4.342954e+001	1.161125e+002
1.095019e+007	-4.444521e+001	-8.401659e+001	-3.062278e+001	-2.400742e+001	-9.476093e+001	9.968929e+001	-4.343779e+001	1.165765e+002
1.095020e+007	-4.447220e+001	-8.395176e+001	-3.062052e+001	-2.388170e+001	-9.419892e+001	8.205645e+001	-4.349077e+001	1.161263e+002
1.095020e+007	-4.445091e+001	-8.402545e+001	-3.064133e+001	-2.386521e+001	-9.313761e+001	1.076697e+002	-4.342621e+001	1.162644e+002
1.095021e+007	-4.440548e+001	-8.434408e+001	-3.062018e+001	-2.400729e+001	-9.456595e+001	9.971994e+001	-4.349103e+001	1.164667e+002
1.095022e+007	-4.444323e+001	-8.433103e+001	-3.062541e+001	-2.387680e+001	-9.491864e+001	1.068259e+002	-4.343962e+001	1.164050e+002
1.095023e+007	-4.445229e+001	-8.441988e+001	-3.063340e+001	-2.388305e+001	-9.391348e+001	1.139616e+002	-4.344286e+001	1.163669e+002
1.095023e+007	-4.444123e+001	-8.408384e+001	-3.062152e+001	-2.400250e+001	-9.306407e+001	9.537896e+001	-4.337026e+001	1.163752e+002
1.095024e+007	-4.444054e+001	-8.436379e+001	-3.062051e+001	-2.392601e+001	-9.336965e+001	9.762429e+001	-4.347694e+001	1.165040e+002
1.095025e+007	-4.440062e+001	-8.427622e+001	-3.063324e+001	-2.384393e+001	-9.295591e+001	1.020844e+002	-4.343017e+001	1.163394e+002
1.095026e+007	-4.438845e+001	-8.424463e+001	-3.063180e+001	-2.402151e+001	-9.511158e+001	1.185404e+002	-4.346783e+001	1.163104e+002
1.095027e+007	-4.442099e+001	-8.411728e+001	-3.061563e+001	-2.404805e+001	-9.262653e+001	9.840339e+001	-4.347349e+001	1.164514e+002
1.095027e+007	-4.440854e+001	-8.401899e+001	-3.062128e+001	-2.387135e+001	-9.242638e+001	1.038382e+002	-4.346238e+001	1.163665e+002
1.095028e+007	-4.446217e+001	-8.412797e+001	-3.063406e+001	-2.387919e+001	-9.340844e+001	8.783728e+001	-4.342771e+001	1.163463e+002
1.095029e+007	-4.439894e+001	-8.437849e+001	-3.062432e+001	-2.397582e+001	-9.510994e+001	9.961873e+001	-4.342298e+001	1.165093e+002
1.095030e+007	-4.441383e+001	-8.411749e+001	-3.061492e+001	-2.397554e+001	-9.292957e+001	1.014401e+002	-4.344906e+001	1.166507e+002
1.095030e+007	-4.438236e+001	-8.390846e+001	-3.062806e+001	-2.389762e+001	-9.525881e+001	8.589692e+001	-4.341639e+001	1.165484e+002
1.095031e+007	-4.441108e+001	-8.418601e+001	-3.062589e+001	-2.390156e+001	-9.317657e+001	9.930762e+001	-4.344234e+001	1.161201e+002
1.095032e+007	-4.440788e+001	-8.412971e+001	-3.063055e+001	-2.391862e+001	-9.572197e+001	1.124780e+002	-4.343055e+001	1.166481e+002
1.095033e+007	-4.444026e+001	-8.403102e+001	-3.061333e+001	-2.397352e+001	-9.616867e+001	1.122665e+002	-4.346166e+001	1.165971e+002
1.095034e+007	-4.442136e+001	-8.415129e+001	-3.060938e+001	-2.390496e+001	-9.736173e+001	1.106511e+002	-4.345292e+001	1.163429e+002
1.095034e+007	-4.441353e+001	-8.399208e+001	-3.061698e+001	-2.388932e+001	-9.511751e+001	1.057293e+002	-4.345442e+001	1.164307e+002
1.095035e+007	-4.441057e+001	-8.436136e+001	-3.062517e+001	-2.391888e+001	-9.250304e+001	1.085640e+002	-4.341406e+001	1.164212e+002
1.095036e+007	-4.443130e+001	-8.435587e+001	-3.061921e+001	-2.396499e+001	-9.363904e+001	1.152681e+002	-4.342274e+001	1.164377e+002
1.095037e+007	-4.440967e+001	-8.404663e+001	-3.061941e+001	-2.399894e+001	-9.511384e+001	1.194298e+002	-4.342223e+001	1.166291e+002
1.095038e+007	-4.444873e+001	-8.402539e+001	-3.061276e+001	-2.391710e+001	-9.577233e+001	9.268524e+001	-4.349697e+001	1.164237e+002
1.095038e+007	-4.445953e+001	-8.403205e+001	-3.061899e+001	-2.386623e+001	-9.546062e+001	1.278508e+002	-4.345863e+001	1.165187e+002
1.095039e+007	-4.441663e+001	-8.416768e+001	-3.062367e+001	-2.388231e+001	-9.634233e+001	1.081608e+002	-4.343520e+001	1.163552e+002
1.095040e+007	-4.443788e+001	-8.419063e+001	-3.063637e+001	-2.391543e+001	-9.795190e+001	1.136895e+002	-4.344288e+001	1.164748e+002
1.095041e+007	-4.440717e+001	-8.412429e+001	-3.061932e+001	-2.395966e+001	-9.488672e+001	8.909893e+001	-4.341345e+001	1.164425e+002
1.095041e+007	-4.445103e+001	-8.411922e+001	-3.062530e+001	-2.403086e+001	-9.553254e+001	1.064820e+002	-4.340555e+001	1.165298e+002
1.095042e+007	-4.438793e+001	-8.422550e+001	-3.061988e+001	-2.399613e+001	-9.495696e+001	1.067112e+002	-4.347156e+001	1.164339e+002
1.095043e+007	-4.442909e+001	-8.412486e+001	-3.060385e+001	-2.394429e+001	-9.321008e+001	1.028067e+002	-4.348151e+001	1.166882e+002
1.095044e+007	-4.439360e+001	-8.393370e+001	-3.060418e+001	-2.394214e+001	-9.471377e+001	1.023884e+002	-4.344600e+001	1.161773e+002
1.095045e+007	-4.442271e+001	-8.418406e+001	-3.061003e+001	-2.388865e+001	-9.185871e+001	1.046369e+002	-4.345610e+001	1.163821e+002
1.095045e+007	-4.441100e+001	-8.392729e+001	-3.062468e+001	-2.385274e+001	-9.266629e+001	1.123097e+002	-4.346564e+001	1.163183e+002
1.095046e+007	-4.442817e+001	-8.383240e+001	-3.061317e+001	-2.391762e+001	-9.365458e+001	1.001458e+002	-4.344009e+001	1.165012e+002
1.095047e+007	-4.442630e+001	-8.401715e+001	-3.062104e+001	-2.391731e+001	-9.455910e+001	1.029271e+002	-4.344135e+001	1.164714e+002
1.095048e+007	-4.442799e+001	-8.377184e+001	-3.061974e+001	-2.394295e+001	-9.442461e+001	1.010766e+002	-4.343160e+001	1.162147e+002
1.095048e+007	-4.443639e+001	-8.429027e+001	-3.062059e+001	-2.398290e+001	-9.486357e+001	1.105735e+002	-4.340763e+001	1.168323e+002
1.095049e+007	-4.443671e+001	-8.429964e+001	-3.062559e+001	-2.401672e+001	-9.254212e+001	9.350093e+001	-4.341737e+001	1.165641e+002
1.095050e+007	-4.441509e+001	-8.418696e+001	-3.061361e+001	-2.402541e+001	-9.450192e+001	1.081630e+002	-4.344054e+001	1.166025e+002
1.095051e+007	-4.442355e+001	-8.390131e+001	-3.060115e+001	-2.398452e+001	-9.175201e+001	1.041906e+002	-4.345921e+001	1.165257e+002
1.095052e+007	-4.437205e+001	-8.421624e+001	-3.059802e+001	-2.397155e+001	-9.442083e+001	1.208489e+002	-4.344658e+001	1.165149e+002
1.095052e+007	-4.441561e+001	-8.397894e+001	-3.060082e+001	-2.403439e+001	-9.666721e+001	9.429070e+001	-4.346643e+001	1.162113e+002
1.095053e+007	-4.443739e+001	-8.427504e+001	-3.059620e+001	-2.401896e+001	-9.237654e+001	1.169047e+002	-4.345886e+001	1.166442e+002
1.095054e+007	-4.444429e+001	-8.408765e+001	-3.059342e+001	-2.410513e+001	-9.731406e+001	9.132059e+001	-4.350367e+001	1.164415e+002
1.095055e+007	-4.443179e+001	-8.424193e+001	-3.058595e+001	-2.408308e+001	-9.518248e+001	9.968007e+001	-4.346580e+001	1.161958e+002
1.095055e+007	-4.443219e+001	-8.405314e+001	-3.058506e+001	-2.412897e+001	-9.264403e+001	1.145986e+002	-4.348020e+001	1.163120e+002
1.095056e+007	-4.445635e+001	-8.416588e+001	-3.059085e+001	-2.406977e+001	-9.500033e+001	1.033660e+002	-4.346869e+001	1.165256e+002
1.095057e+007	-4.447772e+001	-8.420263e+001	-3.059444e+001	-2.410854e+001	-9.594959e+001	1.132176e+002	-4.343516e+001	1.165724e+002
1.095058e+007	-4.440491e+001	-8.427894e+001	-3.060336e+001	-2.411674e+001	-9.488814e+001	8.685270e+001	-4.348174e+001	1.164951e+002
1.095059e+007	-4.443463e+001	-8.422914e+001	-3.060477e+001	-2.419765e+001	-9.556956e+001	1.049820e+002	-4.350262e+001	1.164471e+002
1.095059e+007	-4.444813e+001	-8.414210e+001	-3.060086e+001	-2.419523e+001	-9.382191e+001	8.573096e+001	-4.344326e+001	1.165201e+002
1.095060e+007	-4.442406e+001	-8.416149e+001	-3.061543e+001	-2.415877e+001	-9.175041e+001	1.213853e+002	-4.345857e+001	1.165159e+002
1.095061e+007	-4.445950e+001	-8.431212e+001	-3.062107e+001	-2.423982e+001	-9.353826e+001	1.094941e+002	-4.344625e+001	1.165991e+002
1.095062e+007	-4.445249e+001	-8.406226e+001	-3.064582e+001	-2.426805e+001	-9.666701e+001	1.062518e+002	-4.345658e+001	1.165904e+002
1.095063e+007	-4.442794e+001	-8.416944e+001	-3.065166e+001	-2.409999e+001	-9.497662e+001	1.081828e+002	-4.340557e+001	1.166146e+002
1.095063e+007	-4.443620e+001	-8.422894e+001	-3.065922e+001	-2.402829e+001	-9.600110e+001	8.587915e+001	-4.340070e+001	1.163847e+002
1.095064e+007	-4.443235e+001	-8.436633e+001	-3.066000e+001	-2.388645e+001	-9.400124e+001	9.749345e+001	-4.339484e+001	1.165228e+002
1.095065e+007	-4.442749e+001	-8.432595e+001	-3.064658e+001	-2.376857e+001	-9.387747e+001	1.134622e+002	-4.343019e+001	1.165186e+002
1.095066e+007	-4.441607e+001	-8.428050e+001	-3.063932e+001	-2.367763e+001	-9.403217e+001	1.025415e+002	-4.343793e+001	1.163442e+002
1.095066e+007	-4.442766e+001	-8.415580e+001	-3.061699e+001	-2.372521e+001	-9.906016e+001	1.316572e+002	-4.338434e+001	1.163719e+002
1.095067e+007	-4.442928e+001	-8.413676e+001	-3.058517e+001	-2.375206e+001	-9.187654e+001	1.008980e+002	-4.342992e+001	1.163813e+002
1.095068e+007	-4.439855e+001	-8.419812e+001	-3.057770e+001	-2.393030e+001	-9.590366e+001	8.655786e+001	-4.344886e+001	1.164535e+002
1.095069e+007	-4.438567e+001	-8.418476e+001	-3.058273e+001	-2.408714e+001	-9.435601e+001	1.068160e+002	-4.344234e+001	1.162980e+002
1.095070e+007	-4.445648e+001	-8.428415e+001	-3.062519e+001	-2.415875e+001	-9.517075e+001	1.018449e+002	-4.343562e+001	1.166163e+002
1.095070e+007	-4.445012e+001	-8.420601e+001	-3.063019e+001	-2.409272e+001	-9.629120e+001	9.859113e+001	-4.344407e+001	1.166327e+002
1.095071e+007	-4.443045e+001	-8.392758e+001	-3.065519e+001	-2.389278e+001	-9.396385e+001	8.402263e+001	-4.342867e+001	1.163643e+002
1.095072e+007	-4.444724e+001	-8.415121e+001	-3.063643e+001	-2.373329e+001	-9.372203e+001	9.527655e+001	-4.339024e+001	1.163996e+002
1.095073e+007	-4.444517e+001	-8.408086e+001	-3.059460e+001	-2.374154e+001	-9.513721e+001	9.991644e+001	-4.339864e+001	1.162981e+002
1.095073e+007	-4.442742e+001	-8.429523e+001	-3.058750e+001	-2.396823e+001	-9.525551e+001	1.021385e+002	-4.346043e+001	1.162505e+002
1.095074e+007	-4.443435e+001	-8.427158e+001	-3.060816e+001	-2.410183e+001	-9.558296e+001	1.118439e+002	-4.344144e+001	1.162643e+002
1.095075e+007	-4.444257e+001	-8.435212e+001	-3.064518e+001	-2.407433e+001	-9.397374e+001	9.568403e+001	-4.345123e+001	1.164823e+002
1.095076e+007	-4.441532e+001	-8.388494e+001	-3.064968e+001	-2.391542e+001	-9.509664e+001	1.023283e+002	-4.341384e+001	1.165280e+002
1.095077e+007	-4.440651e+001	-8.430596e+001	-3.061396e+001	-2.374728e+001	-9.344644e+001	1.074499e+002	-4.343126e+001	1.163900e+002
1.095077e+007	-4.437542e+001	-8.397963e+001	-3.057919e+001	-2.384742e+001	-9.276550e+001	9.105270e+001	-4.342278e+001	1.163026e+002
1.095078e+007	-4.440913e+001	-8.397373e+001	-3.060626e+001	-2.414032e+001	-9.575297e+001	1.007953e+002	-4.346538e+001	1.166298e+002
1.095079e+007	-4.445078e+001	-8.409239e+001	-3.063315e+001	-2.408387e+001	-9.410677e+001	1.045359e+002	-4.341053e+001	1.164222e+002
1.095080e+007	-4.448487e+001	-8.390276e+001	-3.063146e+001	-2.385285e+001	-9.444219e+001	1.079870e+002	-4.345563e+001	1.163290e+002
1.095080e+007	-4.444004e+001	-8.406801e+001	-3.060711e+001	-2.376253e+001	-9.394298e+001	1.105575e+002	-4.342776e+001	1.164223e+002
1.095081e+007	-4.441319e+001	-8.431980e+001	-3.059546e+001	-2.407559e+001	-9.381721e+001	1.051290e+002	-4.343860e+001	1.163735e+002
1.095082e+007	-4.442010e+001	-8.416693e+001	-3.061582e+001	-2.411752e+001	-9.657908e+001	8.433540e+001	-4.343040e+001	1.166162e+002
1.095083e+007	-4.445729e+001	-8.418031e+001	-3.063609e+001	-2.388247e+001	-9.301706e+001	1.032964e+002	-4.339914e+001	1.164318e+002
1.095084e+007	-4.443481e+001	-8.436430e+001	-3.060340e+001	-2.376797e+001	-9.475539e+001	1.042636e+002	-4.349018e+001	1.164472e+002
1.095084e+007	-4.443548e+001	-8.426453e+001	-3.059583e+001	-2.397716e+001	-9.655654e+001	1.028104e+002	-4.345379e+001	1.162682e+002
1.095085e+007	-4.444816e+001	-8.431269e+001	-3.062756e+001	-2.404153e+001	-9.299102e+001	1.053024e+002	-4.345948e+001	1.163858e+002
1.095086e+007	-4.442586e+001	-8.412428e+001	-3.063036e+001	-2.380587e+001	-9.610289e+001	1.029238e+002	-4.340831e+001	1.165355e+002
1.095087e+007	-4.444158e+001	-8.425362e+001	-3.058330e+001	-2.392388e+001	-9.383212e+001	1.183608e+002	-4.345884e+001	1.165184e+002
1.095088e+007	-4.447045e+001	-8.401738e+001	-3.061079e+001	-2.404967e+001	-9.609525e+001	1.163296e+002	-4.347488e+001	1.165835e+002
1.095088e+007	-4.439689e+001	-8.431494e+001	-3.062749e+001	-2.394899e+001	-9.477973e+001	1.016869e+002	-4.347194e+001	1.164218e+002
1.095089e+007	-4.446647e+001	-8.402057e+001	-3.060520e+001	-2.379598e+001	-9.379863e+001	1.192227e+002	-4.345520e+001	1.163456e+002
1.095090e+007	-4.435576e+001	-8.416508e+001	-3.060407e+001	-2.403311e+001	-9.324030e+001	1.096097e+002	-4.342843e+001	1.166381e+002
1.095091e+007	-4.439410e+001	-8.409309e+001	-3.063199e+001	-2.396106e+001	-9.481211e+001	1.248352e+002	-4.345220e+001	1.165252e+002
1.095091e+007	-4.443982e+001	-8.431933e+001	-3.061111e+001	-2.382649e+001	-9.251598e+001	8.349361e+001	-4.344389e+001	1.164569e+002
1.095092e+007	-4.442170e+001	-8.450339e+001	-3.059434e+001	-2.401593e+001	-9.351385e+001	8.741573e+001	-4.343300e+001	1.166893e+002
1.095093e+007	-4.443741e+001	-8.428547e+001	-3.062133e+001	-2.387738e+001	-9.278063e+001	1.148633e+002	-4.343319e+001	1.164588e+002
1.095094e+007	-4.442808e+001	-8.429198e+001	-3.059857e+001	-2.390465e+001	-9.419726e+001	9.060970e+001	-4.340850e+001	1.163693e+002
1.095095e+007	-4.445746e+001	-8.406426e+001	-3.059682e+001	-2.398446e+001	-9.581558e+001	9.915259e+001	-4.345034e+001	1.165547e+002
1.095095e+007	-4.445360e+001	-8.427341e+001	-3.061734e+001	-2.388651e+001	-9.719799e+001	1.152876e+002	-4.340362e+001	1.166517e+002
1.095096e+007	-4.442539e+001	-8.431925e+001	-3.060096e+001	-2.389981e+001	-9.191913e+001	9.583471e+001	-4.345667e+001	1.162932e+002
1.095097e+007	-4.444225e+001	-8.407097e+001	-3.061521e+001	-2.399488e+001	-9.243201e+001	1.049598e+002	-4.338866e+001	1.165260e+002
1.095098e+007	-4.441148e+001	-8.422702e+001	-3.060534e+001	-2.386947e+001	-9.728825e+001	1.002562e+002	-4.341980e+001	1.163798e+002
1.095098e+007	-4.443697e+001	-8.408402e+001	-3.061047e+001	-2.404282e+001	-9.490144e+001	1.000503e+002	-4.344626e+001	1.164292e+002
1.095099e+007	-4.445086e+001	-8.421638e+001	-3.061297e+001	-2.391195e+001	-9.413916e+001	1.060333e+002	-4.341507e+001	1.162263e+002
1.095100e+007	-4.444845e+001	-8.428964e+001	-3.060270e+001	-2.391660e+001	-9.344598e+001	9.372323e+001	-4.342010e+001	1.165323e+002
1.095101e+007	-4.437144e+001	-8.412591e+001	-3.061013e+001	-2.400758e+001	-9.415093e+001	1.126049e+002	-4.343601e+001	1.165155e+002
1.095102e+007	-4.445214e+001	-8.404858e+001	-3.060471e+001	-2.389428e+001	-9.502105e+001	1.063078e+002	-4.343142e+001	1.167435e+002
1.095102e+007	-4.441812e+001	-8.415081e+001	-3.060296e+001	-2.397909e+001	-9.396092e+001	1.030392e+002	-4.343428e+001	1.164925e+002
1.095103e+007	-4.442521e+001	-8.430651e+001	-3.061264e+001	-2.391625e+001	-9.249862e+001	1.159623e+002	-4.341370e+001	1.163156e+002
1.095104e+007	-4.442061e+001	-8.419803e+001	-3.060810e+001	-2.395648e+001	-9.249085e+001	9.141880e+001	-4.343956e+001	1.165701e+002
1.095105e+007	-4.442484e+001	-8.406818e+001	-3.061088e+001	-2.401143e+001	-9.308095e+001	1.157873e+002	-4.345577e+001	1.165933e+002
1.095105e+007	-4.442919e+001	-8.400527e+001	-3.059105e+001	-2.394999e+001	-9.714918e+001	1.085528e+002	-4.345469e+001	1.164123e+002
1.095106e+007	-4.442038e+001	-8.404187e+001	-3.061042e+001	-2.393608e+001	-9.273333e+001	1.129593e+002	-4.343408e+001	1.164638e+002
1.095107e+007	-4.444204e+001	-8.403491e+001	-3.059121e+001	-2.394517e+001	-9.543529e+001	1.167091e+002	-4.342111e+001	1.163534e+002
1.095108e+007	-4.444503e+001	-8.428980e+001	-3.060616e+001	-2.396500e+001	-9.783688e+001	1.145899e+002	-4.341245e+001	1.164328e+002
1.095109e+007	-4.443517e+001	-8.416947e+001	-3.060159e+001	-2.392020e+001	-9.484979e+001	1.134484e+002	-4.346507e+001	1.164337e+002
1.095109e+007	-4.441897e+001	-8.412465e+001	-3.060663e+001	-2.388134e+001	-9.462491e+001	9.089411e+001	-4.345212e+001	1.166074e+002
1.095110e+007	-4.445806e+001	-8.421267e+001	-3.060357e+001	-2.390289e+001	-9.473293e+001	9.149341e+001	-4.340344e+001	1.163723e+002
1.095111e+007	-4.442605e+001	-8.405482e+001	-3.060680e+001	-2.392673e+001	-9.403317e+001	1.072343e+002	-4.343250e+001	1.165824e+002
1.095112e+007	-4.440681e+001	-8.432679e+001	-3.060161e+001	-2.393173e+001	-9.532645e+001	1.136089e+002	-4.343794e+001	1.164913e+002
1.095113e+007	-4.441494e+001	-8.422636e+001	-3.060145e+001	-2.397336e+001	-9.375574e+001	9.538375e+001	-4.341461e+001	1.165087e+002
1.095113e+007	-4.443324e+001	-8.387489e+001	-3.060322e+001	-2.396526e+001	-9.335133e+001	8.692594e+001	-4.342660e+001	1.166555e+002
1.095114e+007	-4.439531e+001	-8.427192e+001	-3.060389e+001	-2.402568e+001	-9.463196e+001	1.096698e+002	-4.346261e+001	1.163159e+002
1.095115e+007	-4.446675e+001	-8.433786e+001	-3.060547e+001	-2.384952e+001	-9.430630e+001	8.468471e+001	-4.344396e+001	1.163079e+002
1.095116e+007	-4.446572e+001	-8.418525e+001	-3.060505e+001	-2.396448e+001	-9.521488e+001	9.458191e+001	-4.344468e+001	1.165151e+002
