!CETC41,AV3656A,ZGL00048,1.3.2
!Calibration ON (Full Solt 2-Port(Omit Isolation))
!Measurements: S11 S21 S12 S22
!2025-04-29 18:04
# Hz  S  dB  R 50.000
1.095000e+007	-4.308557e+001	-8.563184e+001	-3.074909e+001	-2.200294e+001	-9.586605e+001	1.303283e+002	-4.565087e+001	1.085955e+002
1.095001e+007	-4.309743e+001	-8.564040e+001	-3.074622e+001	-2.200275e+001	-9.932809e+001	9.389767e+001	-4.565910e+001	1.087218e+002
1.095002e+007	-4.312234e+001	-8.531071e+001	-3.074818e+001	-2.206133e+001	-9.678373e+001	8.515141e+001	-4.566797e+001	1.082534e+002
1.095002e+007	-4.310402e+001	-8.541121e+001	-3.074925e+001	-2.205725e+001	-9.612095e+001	8.469749e+001	-4.568333e+001	1.087643e+002
1.095003e+007	-4.310749e+001	-8.549579e+001	-3.074323e+001	-2.199419e+001	-9.998282e+001	8.753769e+001	-4.562070e+001	1.088269e+002
1.095004e+007	-4.311324e+001	-8.547937e+001	-3.074985e+001	-2.195554e+001	-9.844253e+001	9.174735e+001	-4.568315e+001	1.084145e+002
1.095005e+007	-4.314740e+001	-8.542179e+001	-3.072960e+001	-2.199886e+001	-9.718948e+001	9.621394e+001	-4.567795e+001	1.085609e+002
1.095005e+007	-4.309306e+001	-8.548883e+001	-3.075091e+001	-2.196236e+001	-9.799209e+001	8.767938e+001	-4.565307e+001	1.083912e+002
1.095006e+007	-4.308190e+001	-8.565180e+001	-3.074467e+001	-2.195382e+001	-9.733460e+001	1.027111e+002	-4.567723e+001	1.087866e+002
1.095007e+007	-4.310794e+001	-8.558434e+001	-3.073888e+001	-2.201058e+001	-9.736400e+001	9.343969e+001	-4.566754e+001	1.088533e+002
1.095008e+007	-4.310489e+001	-8.571477e+001	-3.073906e+001	-2.201023e+001	-9.567264e+001	9.743578e+001	-4.563561e+001	1.090187e+002
1.095009e+007	-4.310997e+001	-8.564023e+001	-3.074706e+001	-2.192652e+001	-9.576613e+001	7.589959e+001	-4.569135e+001	1.085613e+002
1.095009e+007	-4.310654e+001	-8.563098e+001	-3.074550e+001	-2.212261e+001	-9.645432e+001	8.215907e+001	-4.566539e+001	1.087844e+002
1.095010e+007	-4.314807e+001	-8.559774e+001	-3.075061e+001	-2.201399e+001	-9.648718e+001	1.306861e+002	-4.563397e+001	1.087367e+002
1.095011e+007	-4.313698e+001	-8.538675e+001	-3.074729e+001	-2.201483e+001	-9.684708e+001	9.564784e+001	-4.562172e+001	1.084266e+002
1.095012e+007	-4.311942e+001	-8.556250e+001	-3.074809e+001	-2.202589e+001	-9.792622e+001	7.086649e+001	-4.564213e+001	1.085377e+002
1.095013e+007	-4.309749e+001	-8.570091e+001	-3.075949e+001	-2.198674e+001	-9.657824e+001	9.071583e+001	-4.564883e+001	1.085018e+002
1.095013e+007	-4.311137e+001	-8.582929e+001	-3.074019e+001	-2.201998e+001	-1.000063e+002	7.775532e+001	-4.571110e+001	1.087884e+002
1.095014e+007	-4.314098e+001	-8.575524e+001	-3.074782e+001	-2.198990e+001	-9.391815e+001	9.135574e+001	-4.564582e+001	1.086386e+002
1.095015e+007	-4.313665e+001	-8.567600e+001	-3.073267e+001	-2.200272e+001	-1.017459e+002	9.659597e+001	-4.572343e+001	1.084829e+002
1.095016e+007	-4.312320e+001	-8.585065e+001	-3.074309e+001	-2.204361e+001	-9.641301e+001	1.002972e+002	-4.566692e+001	1.083323e+002
1.095016e+007	-4.310769e+001	-8.562129e+001	-3.074637e+001	-2.201108e+001	-9.754568e+001	8.926040e+001	-4.569623e+001	1.083853e+002
1.095017e+007	-4.310613e+001	-8.565167e+001	-3.074725e+001	-2.200869e+001	-9.338738e+001	7.910015e+001	-4.566393e+001	1.086870e+002
1.095018e+007	-4.310777e+001	-8.579692e+001	-3.075385e+001	-2.197578e+001	-9.483842e+001	1.063938e+002	-4.560665e+001	1.087601e+002
1.095019e+007	-4.310983e+001	-8.557512e+001	-3.073701e+001	-2.203390e+001	-9.675444e+001	1.022341e+002	-4.565139e+001	1.088984e+002
1.095020e+007	-4.313523e+001	-8.558070e+001	-3.074595e+001	-2.199590e+001	-9.448085e+001	1.126960e+002	-4.562718e+001	1.085788e+002
1.095020e+007	-4.312161e+001	-8.528711e+001	-3.073479e+001	-2.202630e+001	-9.622972e+001	9.011482e+001	-4.570795e+001	1.085361e+002
1.095021e+007	-4.311981e+001	-8.569375e+001	-3.075436e+001	-2.206196e+001	-1.000562e+002	9.457773e+001	-4.569745e+001	1.089682e+002
1.095022e+007	-4.308670e+001	-8.560251e+001	-3.073898e+001	-2.197657e+001	-9.624766e+001	6.738446e+001	-4.571385e+001	1.089271e+002
1.095023e+007	-4.307982e+001	-8.571299e+001	-3.074982e+001	-2.208109e+001	-9.659918e+001	1.061371e+002	-4.565551e+001	1.087757e+002
1.095023e+007	-4.311864e+001	-8.571017e+001	-3.073736e+001	-2.189222e+001	-9.465933e+001	9.763009e+001	-4.569398e+001	1.087635e+002
1.095024e+007	-4.312897e+001	-8.568730e+001	-3.074211e+001	-2.208268e+001	-9.551198e+001	1.003258e+002	-4.565465e+001	1.085178e+002
1.095025e+007	-4.309586e+001	-8.560961e+001	-3.073849e+001	-2.200761e+001	-1.007638e+002	9.675803e+001	-4.568916e+001	1.085840e+002
1.095026e+007	-4.313046e+001	-8.569494e+001	-3.075052e+001	-2.206798e+001	-9.521509e+001	1.014532e+002	-4.566120e+001	1.085911e+002
1.095027e+007	-4.312419e+001	-8.596858e+001	-3.073425e+001	-2.198139e+001	-9.694790e+001	8.677032e+001	-4.569889e+001	1.086878e+002
1.095027e+007	-4.312130e+001	-8.573710e+001	-3.075199e+001	-2.205161e+001	-9.983576e+001	1.031793e+002	-4.567716e+001	1.086806e+002
1.095028e+007	-4.310266e+001	-8.544427e+001	-3.074603e+001	-2.203513e+001	-9.562852e+001	8.915686e+001	-4.565706e+001	1.089031e+002
1.095029e+007	-4.312284e+001	-8.557656e+001	-3.075735e+001	-2.199158e+001	-9.591822e+001	9.109180e+001	-4.566350e+001	1.088972e+002
1.095030e+007	-4.311402e+001	-8.583952e+001	-3.073438e+001	-2.202866e+001	-9.630855e+001	8.882921e+001	-4.569843e+001	1.087696e+002
1.095030e+007	-4.309872e+001	-8.569860e+001	-3.075772e+001	-2.201798e+001	-9.552348e+001	8.892109e+001	-4.566943e+001	1.088814e+002
1.095031e+007	-4.312618e+001	-8.561142e+001	-3.074238e+001	-2.205997e+001	-9.681682e+001	1.051260e+002	-4.568847e+001	1.087669e+002
1.095032e+007	-4.311108e+001	-8.567542e+001	-3.074716e+001	-2.195411e+001	-9.753632e+001	7.027594e+001	-4.568036e+001	1.084152e+002
1.095033e+007	-4.311382e+001	-8.577643e+001	-3.074112e+001	-2.201006e+001	-9.505616e+001	1.092819e+002	-4.565888e+001	1.086613e+002
1.095034e+007	-4.312882e+001	-8.563661e+001	-3.073476e+001	-2.195923e+001	-9.671401e+001	1.046346e+002	-4.565253e+001	1.087181e+002
1.095034e+007	-4.309497e+001	-8.564180e+001	-3.074270e+001	-2.203630e+001	-9.502655e+001	9.100304e+001	-4.565929e+001	1.084787e+002
1.095035e+007	-4.311216e+001	-8.556372e+001	-3.074416e+001	-2.211039e+001	-9.678435e+001	8.975213e+001	-4.567217e+001	1.086619e+002
1.095036e+007	-4.311655e+001	-8.536959e+001	-3.074370e+001	-2.194513e+001	-9.548171e+001	8.385284e+001	-4.568179e+001	1.087130e+002
1.095037e+007	-4.311436e+001	-8.588290e+001	-3.073715e+001	-2.205296e+001	-9.603017e+001	9.350019e+001	-4.564656e+001	1.085508e+002
1.095038e+007	-4.311392e+001	-8.566868e+001	-3.073856e+001	-2.196762e+001	-9.763676e+001	1.006572e+002	-4.570386e+001	1.086459e+002
1.095038e+007	-4.313192e+001	-8.562206e+001	-3.074819e+001	-2.200790e+001	-9.978397e+001	8.765561e+001	-4.564166e+001	1.085288e+002
1.095039e+007	-4.314512e+001	-8.575035e+001	-3.074547e+001	-2.201843e+001	-9.361135e+001	9.540377e+001	-4.566255e+001	1.087320e+002
1.095040e+007	-4.310773e+001	-8.558743e+001	-3.073673e+001	-2.201681e+001	-9.564807e+001	1.024857e+002	-4.565415e+001	1.083997e+002
1.095041e+007	-4.312519e+001	-8.556746e+001	-3.074450e+001	-2.203894e+001	-9.644480e+001	1.075983e+002	-4.571261e+001	1.082117e+002
1.095041e+007	-4.310123e+001	-8.577063e+001	-3.074210e+001	-2.203832e+001	-9.547172e+001	1.051970e+002	-4.571447e+001	1.089311e+002
1.095042e+007	-4.312301e+001	-8.527352e+001	-3.074660e+001	-2.195467e+001	-9.605033e+001	8.703175e+001	-4.570762e+001	1.083919e+002
1.095043e+007	-4.310514e+001	-8.581878e+001	-3.075261e+001	-2.201384e+001	-9.955020e+001	9.488690e+001	-4.566231e+001	1.086384e+002
1.095044e+007	-4.313242e+001	-8.571691e+001	-3.073940e+001	-2.199666e+001	-9.755759e+001	1.010211e+002	-4.569577e+001	1.085770e+002
1.095045e+007	-4.314845e+001	-8.556724e+001	-3.073513e+001	-2.196458e+001	-9.858257e+001	1.195933e+002	-4.566451e+001	1.087260e+002
1.095045e+007	-4.313849e+001	-8.577341e+001	-3.074210e+001	-2.193938e+001	-9.514267e+001	8.907991e+001	-4.564583e+001	1.087314e+002
1.095046e+007	-4.310903e+001	-8.564854e+001	-3.075498e+001	-2.203930e+001	-9.830287e+001	1.008282e+002	-4.565433e+001	1.086089e+002
1.095047e+007	-4.312994e+001	-8.553870e+001	-3.074013e+001	-2.194768e+001	-9.587631e+001	9.352084e+001	-4.563731e+001	1.089739e+002
1.095048e+007	-4.306375e+001	-8.560232e+001	-3.073797e+001	-2.195601e+001	-9.774654e+001	9.186114e+001	-4.561065e+001	1.087638e+002
1.095048e+007	-4.312177e+001	-8.586302e+001	-3.074788e+001	-2.196728e+001	-9.748773e+001	9.125293e+001	-4.562749e+001	1.084920e+002
1.095049e+007	-4.312984e+001	-8.564581e+001	-3.073736e+001	-2.202105e+001	-9.752320e+001	9.357941e+001	-4.565208e+001	1.087882e+002
1.095050e+007	-4.309443e+001	-8.533302e+001	-3.074114e+001	-2.201059e+001	-9.797546e+001	9.580377e+001	-4.572339e+001	1.084213e+002
1.095051e+007	-4.312526e+001	-8.548775e+001	-3.073941e+001	-2.202218e+001	-9.446166e+001	7.732989e+001	-4.570855e+001	1.087717e+002
1.095052e+007	-4.313673e+001	-8.566195e+001	-3.074803e+001	-2.197860e+001	-9.498532e+001	9.938628e+001	-4.569611e+001	1.086121e+002
1.095052e+007	-4.310806e+001	-8.561194e+001	-3.074263e+001	-2.198863e+001	-9.693678e+001	9.159959e+001	-4.567040e+001	1.086291e+002
1.095053e+007	-4.312555e+001	-8.578604e+001	-3.074485e+001	-2.193028e+001	-9.638912e+001	9.817372e+001	-4.565408e+001	1.090084e+002
1.095054e+007	-4.310425e+001	-8.569208e+001	-3.075033e+001	-2.196226e+001	-9.432480e+001	1.110881e+002	-4.562491e+001	1.087780e+002
1.095055e+007	-4.311141e+001	-8.565013e+001	-3.074129e+001	-2.195433e+001	-9.585425e+001	8.900267e+001	-4.566209e+001	1.089066e+002
1.095055e+007	-4.309820e+001	-8.534992e+001	-3.074676e+001	-2.204101e+001	-9.566737e+001	9.282636e+001	-4.573309e+001	1.086156e+002
1.095056e+007	-4.311662e+001	-8.583111e+001	-3.074391e+001	-2.197119e+001	-9.826430e+001	1.022919e+002	-4.566633e+001	1.086283e+002
1.095057e+007	-4.311624e+001	-8.567029e+001	-3.074008e+001	-2.203210e+001	-9.604555e+001	1.195324e+002	-4.569219e+001	1.087787e+002
1.095058e+007	-4.313222e+001	-8.571191e+001	-3.073700e+001	-2.198318e+001	-9.799244e+001	8.972986e+001	-4.569184e+001	1.088491e+002
1.095059e+007	-4.312406e+001	-8.557425e+001	-3.075078e+001	-2.204192e+001	-9.696512e+001	1.000899e+002	-4.563782e+001	1.086881e+002
1.095059e+007	-4.309915e+001	-8.556827e+001	-3.074382e+001	-2.198260e+001	-9.620644e+001	9.855321e+001	-4.567226e+001	1.087487e+002
1.095060e+007	-4.310321e+001	-8.536997e+001	-3.074242e+001	-2.202814e+001	-9.680393e+001	8.515616e+001	-4.567720e+001	1.086792e+002
1.095061e+007	-4.308203e+001	-8.572064e+001	-3.073294e+001	-2.197024e+001	-9.705176e+001	1.010421e+002	-4.563355e+001	1.088221e+002
1.095062e+007	-4.308539e+001	-8.546373e+001	-3.073458e+001	-2.198925e+001	-9.664986e+001	9.462683e+001	-4.564206e+001	1.084870e+002
1.095063e+007	-4.311672e+001	-8.555418e+001	-3.074569e+001	-2.200416e+001	-1.023102e+002	8.887279e+001	-4.568867e+001	1.084907e+002
1.095063e+007	-4.310596e+001	-8.560931e+001	-3.072612e+001	-2.195233e+001	-9.477351e+001	1.009337e+002	-4.560881e+001	1.084853e+002
1.095064e+007	-4.311466e+001	-8.542341e+001	-3.074445e+001	-2.195499e+001	-1.025596e+002	1.193895e+002	-4.561608e+001	1.088021e+002
1.095065e+007	-4.310345e+001	-8.556114e+001	-3.074355e+001	-2.199161e+001	-9.546648e+001	9.259821e+001	-4.565793e+001	1.084830e+002
1.095066e+007	-4.312633e+001	-8.579278e+001	-3.074306e+001	-2.196527e+001	-9.605939e+001	9.580351e+001	-4.565761e+001	1.084919e+002
1.095066e+007	-4.311821e+001	-8.556222e+001	-3.073786e+001	-2.195613e+001	-9.390437e+001	1.036062e+002	-4.564998e+001	1.084033e+002
1.095067e+007	-4.311536e+001	-8.556686e+001	-3.074040e+001	-2.196965e+001	-9.572013e+001	8.106294e+001	-4.563195e+001	1.086490e+002
1.095068e+007	-4.309564e+001	-8.573765e+001	-3.073672e+001	-2.207094e+001	-9.654280e+001	1.045216e+002	-4.567610e+001	1.085743e+002
1.095069e+007	-4.308251e+001	-8.597222e+001	-3.073511e+001	-2.201506e+001	-9.610885e+001	8.817083e+001	-4.561312e+001	1.088231e+002
1.095070e+007	-4.310420e+001	-8.582777e+001	-3.074458e+001	-2.198649e+001	-9.667238e+001	8.066682e+001	-4.567633e+001	1.088215e+002
1.095070e+007	-4.312595e+001	-8.543500e+001	-3.074107e+001	-2.194976e+001	-1.040398e+002	1.185840e+002	-4.563308e+001	1.084525e+002
1.095071e+007	-4.312011e+001	-8.567518e+001	-3.073771e+001	-2.197131e+001	-9.676713e+001	7.862400e+001	-4.565749e+001	1.085035e+002
1.095072e+007	-4.309627e+001	-8.565535e+001	-3.073943e+001	-2.201124e+001	-9.909982e+001	7.430624e+001	-4.564797e+001	1.086135e+002
1.095073e+007	-4.311173e+001	-8.572988e+001	-3.074368e+001	-2.202195e+001	-9.485483e+001	1.206941e+002	-4.568540e+001	1.085996e+002
1.095073e+007	-4.309056e+001	-8.550655e+001	-3.074213e+001	-2.197770e+001	-9.747454e+001	7.102610e+001	-4.568515e+001	1.085750e+002
1.095074e+007	-4.311419e+001	-8.566339e+001	-3.074002e+001	-2.200850e+001	-9.690865e+001	9.530062e+001	-4.565106e+001	1.085529e+002
1.095075e+007	-4.312862e+001	-8.577811e+001	-3.073438e+001	-2.202132e+001	-9.573911e+001	1.056517e+002	-4.565223e+001	1.088942e+002
1.095076e+007	-4.310312e+001	-8.575091e+001	-3.073645e+001	-2.197950e+001	-9.417702e+001	9.596982e+001	-4.563049e+001	1.086401e+002
1.095077e+007	-4.315368e+001	-8.594063e+001	-3.074078e+001	-2.197256e+001	-9.766743e+001	9.192584e+001	-4.563031e+001	1.085517e+002
1.095077e+007	-4.310313e+001	-8.560512e+001	-3.073550e+001	-2.196388e+001	-9.490427e+001	9.931888e+001	-4.568466e+001	1.085434e+002
1.095078e+007	-4.308085e+001	-8.580284e+001	-3.074241e+001	-2.203179e+001	-9.598996e+001	1.029283e+002	-4.561097e+001	1.088271e+002
1.095079e+007	-4.313772e+001	-8.556117e+001	-3.073825e+001	-2.202976e+001	-9.826225e+001	1.028436e+002	-4.564787e+001	1.087380e+002
1.095080e+007	-4.311287e+001	-8.567841e+001	-3.073501e+001	-2.205303e+001	-9.695964e+001	9.330971e+001	-4.566785e+001	1.086297e+002
1.095080e+007	-4.309644e+001	-8.553442e+001	-3.073000e+001	-2.203713e+001	-9.641390e+001	1.046164e+002	-4.567541e+001	1.088858e+002
1.095081e+007	-4.313291e+001	-8.558966e+001	-3.074379e+001	-2.202962e+001	-9.638911e+001	8.918730e+001	-4.566180e+001	1.087575e+002
1.095082e+007	-4.312872e+001	-8.585013e+001	-3.074179e+001	-2.201881e+001	-9.962767e+001	9.756614e+001	-4.571540e+001	1.088907e+002
1.095083e+007	-4.309276e+001	-8.534599e+001	-3.072962e+001	-2.205219e+001	-9.393345e+001	8.331632e+001	-4.567002e+001	1.087992e+002
1.095084e+007	-4.312431e+001	-8.574067e+001	-3.073498e+001	-2.200920e+001	-9.684785e+001	8.406243e+001	-4.568585e+001	1.086308e+002
1.095084e+007	-4.308480e+001	-8.570403e+001	-3.073046e+001	-2.195171e+001	-9.643554e+001	8.195442e+001	-4.570587e+001	1.087044e+002
1.095085e+007	-4.314586e+001	-8.558084e+001	-3.074039e+001	-2.204999e+001	-9.573125e+001	1.089408e+002	-4.565262e+001	1.087290e+002
1.095086e+007	-4.307605e+001	-8.560379e+001	-3.074065e+001	-2.201732e+001	-9.704304e+001	1.136356e+002	-4.565727e+001	1.089007e+002
1.095087e+007	-4.310101e+001	-8.559311e+001	-3.074041e+001	-2.196847e+001	-9.600049e+001	8.580258e+001	-4.569677e+001	1.089478e+002
1.095088e+007	-4.308926e+001	-8.544300e+001	-3.074042e+001	-2.198929e+001	-9.904822e+001	9.083440e+001	-4.567071e+001	1.088615e+002
1.095088e+007	-4.310774e+001	-8.572329e+001	-3.073922e+001	-2.196438e+001	-9.478106e+001	1.057246e+002	-4.567431e+001	1.088801e+002
1.095089e+007	-4.313586e+001	-8.557737e+001	-3.074738e+001	-2.202951e+001	-9.594286e+001	8.878811e+001	-4.564943e+001	1.086324e+002
1.095090e+007	-4.310213e+001	-8.567751e+001	-3.073964e+001	-2.195860e+001	-9.716116e+001	9.630327e+001	-4.564007e+001	1.082715e+002
1.095091e+007	-4.310318e+001	-8.546316e+001	-3.073543e+001	-2.192903e+001	-9.810127e+001	9.006517e+001	-4.567926e+001	1.087471e+002
1.095091e+007	-4.309513e+001	-8.562231e+001	-3.073420e+001	-2.200023e+001	-9.752077e+001	9.753450e+001	-4.568195e+001	1.086806e+002
1.095092e+007	-4.311300e+001	-8.575406e+001	-3.074108e+001	-2.206238e+001	-9.677004e+001	8.813828e+001	-4.566748e+001	1.087614e+002
1.095093e+007	-4.309601e+001	-8.560281e+001	-3.072939e+001	-2.207618e+001	-9.650289e+001	7.999413e+001	-4.566196e+001	1.087791e+002
1.095094e+007	-4.311440e+001	-8.573683e+001	-3.074430e+001	-2.201431e+001	-9.925672e+001	7.379221e+001	-4.564133e+001	1.084701e+002
1.095095e+007	-4.306390e+001	-8.566242e+001	-3.074245e+001	-2.197250e+001	-9.721522e+001	8.808831e+001	-4.562704e+001	1.085738e+002
1.095095e+007	-4.310555e+001	-8.538919e+001	-3.074417e+001	-2.195073e+001	-9.820972e+001	1.002741e+002	-4.566312e+001	1.085539e+002
1.095096e+007	-4.313819e+001	-8.563188e+001	-3.073697e+001	-2.200797e+001	-9.720026e+001	9.942993e+001	-4.566521e+001	1.085278e+002
1.095097e+007	-4.310102e+001	-8.549166e+001	-3.073206e+001	-2.198894e+001	-9.736714e+001	1.073198e+002	-4.569545e+001	1.086361e+002
1.095098e+007	-4.307243e+001	-8.566146e+001	-3.074146e+001	-2.205279e+001	-9.495666e+001	9.903309e+001	-4.561427e+001	1.087076e+002
1.095098e+007	-4.312319e+001	-8.548904e+001	-3.074977e+001	-2.195463e+001	-9.816624e+001	1.031866e+002	-4.564839e+001	1.085462e+002
1.095099e+007	-4.313663e+001	-8.553986e+001	-3.073747e+001	-2.195376e+001	-9.679430e+001	1.011446e+002	-4.564275e+001	1.088625e+002
1.095100e+007	-4.311270e+001	-8.577228e+001	-3.073853e+001	-2.199671e+001	-9.399017e+001	8.561290e+001	-4.568461e+001	1.084352e+002
1.095101e+007	-4.310397e+001	-8.572981e+001	-3.073772e+001	-2.198151e+001	-9.889953e+001	9.677056e+001	-4.564627e+001	1.087786e+002
1.095102e+007	-4.311786e+001	-8.571331e+001	-3.073129e+001	-2.209543e+001	-9.717699e+001	1.147452e+002	-4.571298e+001	1.087023e+002
1.095102e+007	-4.309328e+001	-8.573352e+001	-3.074768e+001	-2.197987e+001	-9.810212e+001	9.382792e+001	-4.567908e+001	1.085660e+002
1.095103e+007	-4.310938e+001	-8.569502e+001	-3.073134e+001	-2.201881e+001	-9.809339e+001	8.620391e+001	-4.560127e+001	1.087581e+002
1.095104e+007	-4.315049e+001	-8.567434e+001	-3.073891e+001	-2.199969e+001	-9.658429e+001	1.064701e+002	-4.564892e+001	1.089001e+002
1.095105e+007	-4.311754e+001	-8.546394e+001	-3.074345e+001	-2.198095e+001	-1.035703e+002	1.144790e+002	-4.566337e+001	1.089101e+002
1.095105e+007	-4.309040e+001	-8.560337e+001	-3.073844e+001	-2.200332e+001	-9.861209e+001	1.040169e+002	-4.568089e+001	1.086450e+002
1.095106e+007	-4.313339e+001	-8.553590e+001	-3.073443e+001	-2.193006e+001	-9.603370e+001	1.072868e+002	-4.564682e+001	1.088599e+002
1.095107e+007	-4.309771e+001	-8.555394e+001	-3.074111e+001	-2.201621e+001	-9.626136e+001	1.008366e+002	-4.567107e+001	1.086671e+002
1.095108e+007	-4.313580e+001	-8.560067e+001	-3.073263e+001	-2.198817e+001	-9.687723e+001	9.278209e+001	-4.567130e+001	1.089344e+002
1.095109e+007	-4.308827e+001	-8.556706e+001	-3.074776e+001	-2.195640e+001	-9.809304e+001	8.966755e+001	-4.567013e+001	1.089947e+002
1.095109e+007	-4.313840e+001	-8.556716e+001	-3.073479e+001	-2.197917e+001	-9.473138e+001	1.153125e+002	-4.568775e+001	1.087139e+002
1.095110e+007	-4.311600e+001	-8.546063e+001	-3.074118e+001	-2.197535e+001	-9.444329e+001	9.640940e+001	-4.563873e+001	1.087018e+002
1.095111e+007	-4.310645e+001	-8.559415e+001	-3.074861e+001	-2.198643e+001	-9.380920e+001	1.010037e+002	-4.567767e+001	1.088927e+002
1.095112e+007	-4.310418e+001	-8.576927e+001	-3.073163e+001	-2.199209e+001	-9.771865e+001	8.764448e+001	-4.566671e+001	1.087015e+002
1.095113e+007	-4.315638e+001	-8.579849e+001	-3.073612e+001	-2.207427e+001	-9.888639e+001	8.535677e+001	-4.569338e+001	1.090370e+002
1.095113e+007	-4.311302e+001	-8.546691e+001	-3.074598e+001	-2.195441e+001	-9.692599e+001	1.080537e+002	-4.567480e+001	1.088807e+002
1.095114e+007	-4.312119e+001	-8.570669e+001	-3.073690e+001	-2.197095e+001	-1.039282e+002	9.424101e+001	-4.566918e+001	1.088233e+002
1.095115e+007	-4.308420e+001	-8.572145e+001	-3.073838e+001	-2.200118e+001	-9.452553e+001	9.975563e+001	-4.562814e+001	1.088349e+002
1.095116e+007	-4.310814e+001	-8.566335e+001	-3.074353e+001	-2.196876e+001	-9.641077e+001	8.149655e+001	-4.563652e+001	1.086161e+002
