!CETC41,AV3656A,ZGL00048,1.3.2
!Calibration ON (Full Solt 2-Port(Omit Isolation))
!Measurements: S11 S21 S12 S22
!2025-04-23 00:28
# Hz  S  dB  R 50.000
1.095000e+007	-4.273064e+001	-7.638397e+001	-3.041735e+001	-2.484919e+001	-1.004790e+002	9.889592e+001	-4.282060e+001	1.191730e+002
1.095001e+007	-4.277006e+001	-7.640127e+001	-3.042365e+001	-2.465507e+001	-1.000146e+002	1.152083e+002	-4.283058e+001	1.190989e+002
1.095002e+007	-4.278801e+001	-7.612840e+001	-3.043300e+001	-2.466796e+001	-1.006612e+002	1.187542e+002	-4.281420e+001	1.191890e+002
1.095002e+007	-4.280116e+001	-7.629141e+001	-3.045042e+001	-2.468137e+001	-9.589550e+001	9.724404e+001	-4.284764e+001	1.192002e+002
1.095003e+007	-4.278334e+001	-7.610964e+001	-3.043833e+001	-2.479447e+001	-9.731089e+001	1.232546e+002	-4.289162e+001	1.189012e+002
1.095004e+007	-4.275080e+001	-7.624607e+001	-3.043673e+001	-2.483860e+001	-9.648002e+001	1.169344e+002	-4.283266e+001	1.188917e+002
1.095005e+007	-4.274999e+001	-7.659593e+001	-3.039836e+001	-2.482763e+001	-9.584591e+001	1.022781e+002	-4.284457e+001	1.192291e+002
1.095005e+007	-4.280004e+001	-7.638243e+001	-3.041592e+001	-2.459987e+001	-1.009634e+002	1.399177e+002	-4.283572e+001	1.190212e+002
1.095006e+007	-4.277189e+001	-7.632266e+001	-3.041842e+001	-2.463682e+001	-9.840863e+001	1.025607e+002	-4.284963e+001	1.194198e+002
1.095007e+007	-4.278453e+001	-7.649751e+001	-3.043738e+001	-2.466250e+001	-9.650262e+001	1.028814e+002	-4.287836e+001	1.192757e+002
1.095008e+007	-4.279121e+001	-7.648347e+001	-3.044945e+001	-2.477114e+001	-9.415637e+001	1.128465e+002	-4.293242e+001	1.190931e+002
1.095009e+007	-4.279546e+001	-7.645376e+001	-3.043897e+001	-2.483964e+001	-9.404391e+001	1.170895e+002	-4.285288e+001	1.190368e+002
1.095009e+007	-4.282096e+001	-7.660315e+001	-3.041916e+001	-2.487429e+001	-9.729664e+001	1.119379e+002	-4.283279e+001	1.191594e+002
1.095010e+007	-4.275682e+001	-7.646963e+001	-3.041699e+001	-2.486030e+001	-9.700773e+001	9.488368e+001	-4.283567e+001	1.190967e+002
1.095011e+007	-4.276883e+001	-7.639736e+001	-3.038929e+001	-2.479020e+001	-9.479242e+001	9.948629e+001	-4.281257e+001	1.190956e+002
1.095012e+007	-4.278038e+001	-7.631596e+001	-3.039612e+001	-2.468403e+001	-9.614933e+001	1.095069e+002	-4.282202e+001	1.191979e+002
1.095013e+007	-4.278440e+001	-7.657485e+001	-3.039907e+001	-2.452917e+001	-9.667598e+001	1.087384e+002	-4.285562e+001	1.194670e+002
1.095013e+007	-4.279326e+001	-7.643116e+001	-3.041001e+001	-2.456906e+001	-9.723771e+001	1.100919e+002	-4.286442e+001	1.192436e+002
1.095014e+007	-4.279214e+001	-7.633602e+001	-3.041734e+001	-2.458980e+001	-9.450784e+001	1.190069e+002	-4.288653e+001	1.193079e+002
1.095015e+007	-4.278994e+001	-7.637403e+001	-3.042701e+001	-2.460007e+001	-9.825419e+001	1.083420e+002	-4.289359e+001	1.191009e+002
1.095016e+007	-4.277271e+001	-7.634446e+001	-3.042937e+001	-2.456714e+001	-9.526827e+001	1.076342e+002	-4.289032e+001	1.192730e+002
1.095016e+007	-4.275524e+001	-7.636918e+001	-3.042878e+001	-2.475817e+001	-9.771577e+001	1.191750e+002	-4.289339e+001	1.191325e+002
1.095017e+007	-4.279307e+001	-7.645249e+001	-3.043439e+001	-2.479376e+001	-9.421465e+001	1.092998e+002	-4.287012e+001	1.192041e+002
1.095018e+007	-4.280593e+001	-7.651689e+001	-3.042831e+001	-2.486664e+001	-9.537147e+001	1.220669e+002	-4.285195e+001	1.189227e+002
1.095019e+007	-4.274520e+001	-7.641004e+001	-3.041862e+001	-2.492609e+001	-1.004127e+002	1.124369e+002	-4.288061e+001	1.190327e+002
1.095020e+007	-4.277415e+001	-7.642553e+001	-3.042146e+001	-2.489716e+001	-9.922175e+001	9.026234e+001	-4.285339e+001	1.185952e+002
1.095020e+007	-4.277412e+001	-7.636866e+001	-3.041715e+001	-2.503349e+001	-9.670437e+001	1.151666e+002	-4.283304e+001	1.190121e+002
1.095021e+007	-4.275803e+001	-7.634909e+001	-3.040887e+001	-2.496871e+001	-9.537608e+001	1.233094e+002	-4.283008e+001	1.192000e+002
1.095022e+007	-4.279041e+001	-7.624809e+001	-3.040587e+001	-2.507618e+001	-1.003948e+002	9.329288e+001	-4.282058e+001	1.190526e+002
1.095023e+007	-4.278514e+001	-7.643514e+001	-3.040484e+001	-2.514717e+001	-9.912626e+001	7.404820e+001	-4.285175e+001	1.188430e+002
1.095023e+007	-4.278786e+001	-7.635319e+001	-3.040146e+001	-2.513821e+001	-9.424886e+001	9.630892e+001	-4.285852e+001	1.191324e+002
1.095024e+007	-4.280226e+001	-7.630877e+001	-3.042394e+001	-2.523350e+001	-9.641218e+001	8.739639e+001	-4.287438e+001	1.189497e+002
1.095025e+007	-4.279473e+001	-7.617460e+001	-3.042274e+001	-2.528838e+001	-9.476398e+001	1.191462e+002	-4.286163e+001	1.190629e+002
1.095026e+007	-4.280306e+001	-7.639738e+001	-3.044224e+001	-2.530056e+001	-9.482681e+001	1.163755e+002	-4.287638e+001	1.190641e+002
1.095027e+007	-4.279962e+001	-7.626199e+001	-3.045994e+001	-2.525932e+001	-9.545490e+001	1.049385e+002	-4.287274e+001	1.191747e+002
1.095027e+007	-4.281475e+001	-7.636145e+001	-3.047636e+001	-2.516688e+001	-9.607398e+001	1.066168e+002	-4.289976e+001	1.190171e+002
1.095028e+007	-4.278506e+001	-7.651668e+001	-3.049759e+001	-2.504750e+001	-9.512400e+001	9.876528e+001	-4.287668e+001	1.190695e+002
1.095029e+007	-4.276697e+001	-7.653285e+001	-3.050133e+001	-2.486354e+001	-9.854478e+001	1.061104e+002	-4.289216e+001	1.192553e+002
1.095030e+007	-4.277959e+001	-7.631304e+001	-3.050560e+001	-2.463499e+001	-9.724919e+001	9.636989e+001	-4.289550e+001	1.194762e+002
1.095030e+007	-4.278467e+001	-7.645283e+001	-3.047641e+001	-2.439125e+001	-9.493676e+001	9.023165e+001	-4.286816e+001	1.192996e+002
1.095031e+007	-4.277719e+001	-7.650324e+001	-3.043111e+001	-2.423543e+001	-9.562183e+001	8.965992e+001	-4.282573e+001	1.193155e+002
1.095032e+007	-4.277412e+001	-7.662863e+001	-3.038263e+001	-2.425787e+001	-9.767280e+001	1.336633e+002	-4.282143e+001	1.192051e+002
1.095033e+007	-4.279437e+001	-7.623116e+001	-3.034509e+001	-2.447938e+001	-9.472040e+001	1.176719e+002	-4.283010e+001	1.193615e+002
1.095034e+007	-4.279230e+001	-7.648496e+001	-3.033243e+001	-2.482190e+001	-9.791834e+001	1.161755e+002	-4.281190e+001	1.191016e+002
1.095034e+007	-4.279467e+001	-7.636726e+001	-3.036406e+001	-2.519263e+001	-9.511438e+001	1.050271e+002	-4.287145e+001	1.189667e+002
1.095035e+007	-4.279405e+001	-7.645638e+001	-3.040798e+001	-2.529641e+001	-9.751626e+001	1.199264e+002	-4.283884e+001	1.190358e+002
1.095036e+007	-4.273163e+001	-7.649863e+001	-3.046833e+001	-2.508400e+001	-9.658680e+001	1.200623e+002	-4.289018e+001	1.190975e+002
1.095037e+007	-4.280634e+001	-7.616852e+001	-3.048612e+001	-2.467051e+001	-9.621220e+001	1.145641e+002	-4.285794e+001	1.192680e+002
1.095038e+007	-4.278341e+001	-7.641841e+001	-3.044427e+001	-2.432273e+001	-9.855056e+001	1.131088e+002	-4.286656e+001	1.195734e+002
1.095038e+007	-4.278190e+001	-7.620482e+001	-3.036555e+001	-2.438887e+001	-9.984409e+001	9.270566e+001	-4.284465e+001	1.193849e+002
1.095039e+007	-4.277448e+001	-7.620020e+001	-3.033282e+001	-2.471885e+001	-9.729735e+001	8.846014e+001	-4.282232e+001	1.192701e+002
1.095040e+007	-4.281155e+001	-7.643143e+001	-3.036863e+001	-2.513730e+001	-1.038078e+002	1.008549e+002	-4.282301e+001	1.190036e+002
1.095041e+007	-4.279895e+001	-7.640731e+001	-3.044714e+001	-2.512726e+001	-1.008615e+002	1.070440e+002	-4.284912e+001	1.188399e+002
1.095041e+007	-4.277504e+001	-7.646909e+001	-3.046554e+001	-2.467832e+001	-1.009753e+002	8.521960e+001	-4.289578e+001	1.192214e+002
1.095042e+007	-4.275169e+001	-7.651965e+001	-3.040083e+001	-2.428565e+001	-9.949012e+001	9.812006e+001	-4.284175e+001	1.192948e+002
1.095043e+007	-4.277786e+001	-7.645458e+001	-3.034695e+001	-2.458976e+001	-9.888124e+001	1.114058e+002	-4.283067e+001	1.193449e+002
1.095044e+007	-4.274642e+001	-7.645821e+001	-3.035761e+001	-2.506230e+001	-1.022565e+002	1.000660e+002	-4.281751e+001	1.192490e+002
1.095045e+007	-4.276776e+001	-7.634420e+001	-3.044317e+001	-2.511916e+001	-9.324350e+001	1.209995e+002	-4.287244e+001	1.191099e+002
1.095045e+007	-4.276642e+001	-7.640759e+001	-3.045078e+001	-2.452635e+001	-9.570489e+001	8.963976e+001	-4.287371e+001	1.193763e+002
1.095046e+007	-4.276173e+001	-7.651831e+001	-3.036998e+001	-2.434577e+001	-9.352311e+001	1.040279e+002	-4.286168e+001	1.194427e+002
1.095047e+007	-4.275333e+001	-7.640605e+001	-3.033312e+001	-2.491203e+001	-9.594484e+001	9.906784e+001	-4.282455e+001	1.191048e+002
1.095048e+007	-4.279149e+001	-7.667093e+001	-3.041798e+001	-2.513819e+001	-1.004877e+002	9.395212e+001	-4.286065e+001	1.190210e+002
1.095048e+007	-4.280664e+001	-7.636291e+001	-3.044940e+001	-2.462061e+001	-9.376336e+001	1.134325e+002	-4.288877e+001	1.192171e+002
1.095049e+007	-4.278360e+001	-7.640969e+001	-3.035347e+001	-2.440535e+001	-9.774800e+001	8.831112e+001	-4.286205e+001	1.194851e+002
1.095050e+007	-4.280535e+001	-7.643478e+001	-3.033953e+001	-2.492559e+001	-9.334994e+001	8.761806e+001	-4.282648e+001	1.191871e+002
1.095051e+007	-4.276914e+001	-7.657057e+001	-3.042272e+001	-2.502292e+001	-9.683687e+001	1.162767e+002	-4.283534e+001	1.188869e+002
1.095052e+007	-4.279070e+001	-7.649020e+001	-3.042498e+001	-2.442906e+001	-9.695353e+001	1.110861e+002	-4.289283e+001	1.192090e+002
1.095052e+007	-4.278910e+001	-7.629296e+001	-3.033562e+001	-2.456750e+001	-9.763720e+001	1.000965e+002	-4.282992e+001	1.194691e+002
1.095053e+007	-4.278933e+001	-7.630698e+001	-3.037435e+001	-2.508671e+001	-9.593235e+001	1.155938e+002	-4.281067e+001	1.190532e+002
1.095054e+007	-4.279769e+001	-7.668884e+001	-3.042768e+001	-2.470054e+001	-9.735898e+001	1.086541e+002	-4.287693e+001	1.191076e+002
1.095055e+007	-4.280113e+001	-7.643236e+001	-3.036665e+001	-2.445183e+001	-9.574778e+001	1.054099e+002	-4.283182e+001	1.195000e+002
1.095055e+007	-4.277475e+001	-7.651792e+001	-3.035221e+001	-2.495704e+001	-9.804027e+001	9.443303e+001	-4.282232e+001	1.193860e+002
1.095056e+007	-4.280741e+001	-7.628167e+001	-3.043347e+001	-2.473024e+001	-9.722821e+001	1.026065e+002	-4.282749e+001	1.190095e+002
1.095057e+007	-4.277882e+001	-7.637016e+001	-3.036258e+001	-2.448636e+001	-9.512625e+001	1.014718e+002	-4.286624e+001	1.190864e+002
1.095058e+007	-4.277379e+001	-7.630184e+001	-3.035841e+001	-2.496224e+001	-9.779774e+001	9.943440e+001	-4.280620e+001	1.192779e+002
1.095059e+007	-4.279468e+001	-7.636258e+001	-3.042203e+001	-2.473296e+001	-9.574461e+001	1.127293e+002	-4.286129e+001	1.188912e+002
1.095059e+007	-4.275191e+001	-7.643565e+001	-3.035402e+001	-2.454096e+001	-9.674216e+001	1.015738e+002	-4.282351e+001	1.193757e+002
1.095060e+007	-4.276104e+001	-7.647315e+001	-3.036397e+001	-2.504716e+001	-9.619774e+001	1.106908e+002	-4.279584e+001	1.192559e+002
1.095061e+007	-4.277598e+001	-7.643799e+001	-3.041082e+001	-2.452918e+001	-9.678854e+001	9.214955e+001	-4.284798e+001	1.191447e+002
1.095062e+007	-4.274478e+001	-7.634829e+001	-3.033127e+001	-2.467678e+001	-9.586580e+001	1.107693e+002	-4.282147e+001	1.194225e+002
1.095063e+007	-4.276470e+001	-7.617276e+001	-3.038507e+001	-2.499211e+001	-9.642292e+001	1.026713e+002	-4.283233e+001	1.189973e+002
1.095063e+007	-4.277937e+001	-7.632559e+001	-3.038599e+001	-2.443830e+001	-9.471795e+001	1.081624e+002	-4.286294e+001	1.192876e+002
1.095064e+007	-4.275509e+001	-7.621179e+001	-3.033903e+001	-2.491629e+001	-9.455888e+001	1.132973e+002	-4.286776e+001	1.191667e+002
1.095065e+007	-4.275689e+001	-7.630485e+001	-3.041203e+001	-2.469038e+001	-9.427506e+001	9.348032e+001	-4.285112e+001	1.193673e+002
1.095066e+007	-4.280450e+001	-7.650156e+001	-3.033459e+001	-2.462733e+001	-9.819571e+001	1.035939e+002	-4.286792e+001	1.193756e+002
1.095066e+007	-4.274679e+001	-7.635002e+001	-3.038623e+001	-2.490225e+001	-9.522304e+001	9.250654e+001	-4.283377e+001	1.193531e+002
1.095067e+007	-4.278809e+001	-7.651473e+001	-3.036877e+001	-2.448378e+001	-9.905178e+001	1.142399e+002	-4.285381e+001	1.193894e+002
1.095068e+007	-4.280681e+001	-7.625761e+001	-3.036037e+001	-2.496772e+001	-9.526507e+001	9.622572e+001	-4.283601e+001	1.193914e+002
1.095069e+007	-4.278545e+001	-7.643613e+001	-3.038562e+001	-2.448948e+001	-9.463521e+001	1.084506e+002	-4.287307e+001	1.190968e+002
1.095070e+007	-4.280562e+001	-7.639424e+001	-3.034258e+001	-2.486432e+001	-9.488411e+001	9.927113e+001	-4.285275e+001	1.194640e+002
1.095070e+007	-4.280197e+001	-7.637620e+001	-3.039178e+001	-2.457568e+001	-9.624655e+001	9.940709e+001	-4.283683e+001	1.191586e+002
1.095071e+007	-4.280103e+001	-7.628779e+001	-3.032113e+001	-2.480024e+001	-9.818507e+001	1.244864e+002	-4.285150e+001	1.193385e+002
1.095072e+007	-4.282527e+001	-7.623382e+001	-3.039642e+001	-2.474434e+001	-9.503839e+001	1.033178e+002	-4.286125e+001	1.188915e+002
1.095073e+007	-4.279374e+001	-7.624281e+001	-3.032478e+001	-2.470488e+001	-9.463122e+001	9.319698e+001	-4.284685e+001	1.192672e+002
1.095073e+007	-4.275728e+001	-7.634919e+001	-3.039438e+001	-2.480837e+001	-1.000217e+002	1.049068e+002	-4.284314e+001	1.188947e+002
1.095074e+007	-4.280432e+001	-7.638215e+001	-3.032093e+001	-2.471697e+001	-1.023673e+002	8.654502e+001	-4.282928e+001	1.194814e+002
1.095075e+007	-4.278746e+001	-7.650559e+001	-3.038316e+001	-2.477601e+001	-9.775024e+001	1.217096e+002	-4.283127e+001	1.191710e+002
1.095076e+007	-4.278735e+001	-7.667550e+001	-3.031949e+001	-2.460786e+001	-1.011257e+002	9.354370e+001	-4.282982e+001	1.193684e+002
1.095077e+007	-4.279084e+001	-7.639011e+001	-3.037787e+001	-2.475902e+001	-9.645120e+001	1.027642e+002	-4.286367e+001	1.192239e+002
1.095077e+007	-4.279221e+001	-7.615226e+001	-3.032339e+001	-2.469613e+001	-9.936548e+001	1.072907e+002	-4.286856e+001	1.192278e+002
1.095078e+007	-4.276260e+001	-7.653580e+001	-3.038845e+001	-2.473980e+001	-9.651919e+001	1.186154e+002	-4.284720e+001	1.189881e+002
1.095079e+007	-4.279420e+001	-7.644125e+001	-3.031917e+001	-2.481597e+001	-9.648236e+001	1.003518e+002	-4.284475e+001	1.193002e+002
1.095080e+007	-4.277419e+001	-7.644614e+001	-3.037454e+001	-2.462467e+001	-9.779703e+001	1.079908e+002	-4.283832e+001	1.191726e+002
1.095080e+007	-4.279776e+001	-7.622865e+001	-3.033223e+001	-2.491257e+001	-9.763068e+001	1.092335e+002	-4.282447e+001	1.193026e+002
1.095081e+007	-4.276034e+001	-7.621325e+001	-3.035232e+001	-2.447341e+001	-9.430258e+001	1.175864e+002	-4.285583e+001	1.191140e+002
1.095082e+007	-4.280638e+001	-7.646979e+001	-3.035409e+001	-2.492727e+001	-9.808593e+001	1.014697e+002	-4.283772e+001	1.192079e+002
1.095083e+007	-4.273991e+001	-7.627789e+001	-3.032861e+001	-2.462838e+001	-9.564917e+001	7.609865e+001	-4.286695e+001	1.191630e+002
1.095084e+007	-4.279084e+001	-7.617221e+001	-3.036061e+001	-2.473728e+001	-9.551988e+001	8.527213e+001	-4.284192e+001	1.191336e+002
1.095084e+007	-4.279273e+001	-7.621355e+001	-3.033077e+001	-2.479837e+001	-9.964121e+001	8.045781e+001	-4.285644e+001	1.194230e+002
1.095085e+007	-4.279163e+001	-7.643566e+001	-3.034650e+001	-2.463380e+001	-9.928978e+001	1.038550e+002	-4.285567e+001	1.191816e+002
1.095086e+007	-4.278581e+001	-7.633287e+001	-3.034999e+001	-2.484734e+001	-9.727149e+001	9.513550e+001	-4.284130e+001	1.190722e+002
1.095087e+007	-4.274946e+001	-7.627429e+001	-3.032118e+001	-2.470983e+001	-9.407770e+001	1.097608e+002	-4.283701e+001	1.192868e+002
1.095088e+007	-4.277818e+001	-7.637101e+001	-3.035083e+001	-2.475623e+001	-9.889525e+001	1.305805e+002	-4.286237e+001	1.192260e+002
1.095088e+007	-4.279528e+001	-7.660339e+001	-3.033221e+001	-2.480860e+001	-9.500408e+001	9.432360e+001	-4.284760e+001	1.192750e+002
1.095089e+007	-4.276897e+001	-7.639066e+001	-3.033233e+001	-2.465606e+001	-9.911298e+001	9.279495e+001	-4.288619e+001	1.192203e+002
1.095090e+007	-4.278100e+001	-7.644220e+001	-3.034424e+001	-2.483570e+001	-9.598381e+001	9.695410e+001	-4.284451e+001	1.193107e+002
1.095091e+007	-4.276533e+001	-7.621913e+001	-3.032018e+001	-2.476322e+001	-9.946083e+001	1.053225e+002	-4.281229e+001	1.190753e+002
1.095091e+007	-4.278190e+001	-7.621356e+001	-3.032202e+001	-2.460359e+001	-9.566312e+001	8.528733e+001	-4.283849e+001	1.192789e+002
1.095092e+007	-4.279090e+001	-7.631758e+001	-3.034369e+001	-2.478694e+001	-9.414450e+001	1.045973e+002	-4.284458e+001	1.192742e+002
1.095093e+007	-4.279283e+001	-7.630980e+001	-3.031421e+001	-2.475380e+001	-9.724389e+001	1.091782e+002	-4.284064e+001	1.191069e+002
1.095094e+007	-4.274875e+001	-7.632516e+001	-3.032817e+001	-2.465681e+001	-9.593642e+001	1.139253e+002	-4.282177e+001	1.191332e+002
1.095095e+007	-4.276361e+001	-7.652395e+001	-3.032976e+001	-2.479718e+001	-9.828337e+001	9.875423e+001	-4.284197e+001	1.193435e+002
1.095095e+007	-4.277801e+001	-7.618803e+001	-3.030394e+001	-2.477252e+001	-9.693389e+001	1.151343e+002	-4.283599e+001	1.189532e+002
1.095096e+007	-4.278407e+001	-7.602135e+001	-3.031531e+001	-2.474599e+001	-9.770806e+001	8.006159e+001	-4.284853e+001	1.190764e+002
1.095097e+007	-4.278098e+001	-7.643082e+001	-3.032668e+001	-2.470003e+001	-9.422541e+001	1.048743e+002	-4.286269e+001	1.191911e+002
1.095098e+007	-4.276548e+001	-7.629422e+001	-3.032366e+001	-2.482212e+001	-9.873759e+001	1.265613e+002	-4.282597e+001	1.193186e+002
1.095098e+007	-4.276890e+001	-7.655066e+001	-3.032440e+001	-2.475771e+001	-9.404418e+001	1.112238e+002	-4.285408e+001	1.192749e+002
1.095099e+007	-4.276399e+001	-7.638234e+001	-3.031452e+001	-2.471724e+001	-9.393030e+001	1.128780e+002	-4.282542e+001	1.191072e+002
1.095100e+007	-4.281606e+001	-7.627927e+001	-3.032022e+001	-2.471410e+001	-9.659811e+001	1.139886e+002	-4.283242e+001	1.192082e+002
1.095101e+007	-4.274605e+001	-7.628337e+001	-3.032097e+001	-2.473065e+001	-9.776593e+001	9.656140e+001	-4.285369e+001	1.191152e+002
1.095102e+007	-4.279707e+001	-7.641745e+001	-3.031160e+001	-2.468962e+001	-9.511331e+001	1.230121e+002	-4.285644e+001	1.192206e+002
1.095102e+007	-4.280235e+001	-7.643480e+001	-3.031018e+001	-2.471643e+001	-9.867854e+001	1.176026e+002	-4.282097e+001	1.192340e+002
1.095103e+007	-4.277844e+001	-7.635759e+001	-3.030908e+001	-2.478454e+001	-9.659981e+001	1.157066e+002	-4.280877e+001	1.190239e+002
1.095104e+007	-4.275984e+001	-7.628849e+001	-3.030375e+001	-2.473822e+001	-9.667866e+001	8.906367e+001	-4.287344e+001	1.192854e+002
1.095105e+007	-4.280630e+001	-7.642886e+001	-3.030805e+001	-2.472729e+001	-9.500080e+001	1.050837e+002	-4.285701e+001	1.191693e+002
1.095105e+007	-4.277890e+001	-7.634469e+001	-3.030391e+001	-2.470296e+001	-9.614629e+001	1.061417e+002	-4.284976e+001	1.190214e+002
1.095106e+007	-4.279445e+001	-7.643308e+001	-3.030318e+001	-2.472889e+001	-9.730450e+001	1.130653e+002	-4.288006e+001	1.191005e+002
1.095107e+007	-4.276894e+001	-7.632849e+001	-3.030277e+001	-2.480295e+001	-9.480491e+001	9.293345e+001	-4.285969e+001	1.192727e+002
1.095108e+007	-4.279659e+001	-7.652488e+001	-3.030535e+001	-2.473645e+001	-9.597664e+001	9.569534e+001	-4.287368e+001	1.193235e+002
1.095109e+007	-4.279444e+001	-7.641557e+001	-3.032053e+001	-2.477817e+001	-9.910251e+001	1.135383e+002	-4.286085e+001	1.191482e+002
1.095109e+007	-4.279394e+001	-7.632113e+001	-3.029771e+001	-2.476891e+001	-9.692290e+001	1.163110e+002	-4.286850e+001	1.190900e+002
1.095110e+007	-4.279203e+001	-7.657230e+001	-3.030728e+001	-2.472733e+001	-9.539943e+001	1.162470e+002	-4.285250e+001	1.192256e+002
1.095111e+007	-4.279517e+001	-7.657573e+001	-3.029247e+001	-2.480472e+001	-9.559857e+001	1.115278e+002	-4.287065e+001	1.192655e+002
1.095112e+007	-4.277409e+001	-7.628927e+001	-3.029133e+001	-2.464195e+001	-9.782171e+001	1.089100e+002	-4.281598e+001	1.192241e+002
1.095113e+007	-4.280598e+001	-7.629428e+001	-3.029368e+001	-2.472093e+001	-9.956783e+001	1.284161e+002	-4.284943e+001	1.190834e+002
1.095113e+007	-4.280812e+001	-7.629377e+001	-3.030743e+001	-2.465222e+001	-9.853460e+001	9.195514e+001	-4.285152e+001	1.190739e+002
1.095114e+007	-4.278477e+001	-7.660354e+001	-3.030595e+001	-2.480629e+001	-9.812448e+001	1.169786e+002	-4.285095e+001	1.192075e+002
1.095115e+007	-4.278605e+001	-7.633228e+001	-3.028675e+001	-2.476279e+001	-9.489185e+001	1.076557e+002	-4.284682e+001	1.193404e+002
1.095116e+007	-4.281089e+001	-7.628705e+001	-3.029216e+001	-2.483840e+001	-9.862634e+001	9.292079e+001	-4.286590e+001	1.194233e+002
