!CETC41,AV3656A,ZGL00048,1.3.2
!Calibration ON (Full Solt 2-Port(Omit Isolation))
!Measurements: S11 S21 S12 S22
!2025-04-22 21:59
# Hz  S  dB  R 50.000
1.095000e+007	-4.426244e+001	-8.424647e+001	-3.067127e+001	-2.348139e+001	-9.274665e+001	1.152414e+002	-4.415521e+001	1.154437e+002
1.095001e+007	-4.421255e+001	-8.411710e+001	-3.067363e+001	-2.356337e+001	-9.376813e+001	1.028783e+002	-4.404710e+001	1.154553e+002
1.095002e+007	-4.422913e+001	-8.420486e+001	-3.066803e+001	-2.359031e+001	-9.428239e+001	1.140690e+002	-4.405445e+001	1.156875e+002
1.095002e+007	-4.425396e+001	-8.395058e+001	-3.065926e+001	-2.361346e+001	-9.424987e+001	1.115039e+002	-4.409329e+001	1.156955e+002
1.095003e+007	-4.428421e+001	-8.417917e+001	-3.065459e+001	-2.346861e+001	-9.279157e+001	1.067228e+002	-4.412760e+001	1.155968e+002
1.095004e+007	-4.422580e+001	-8.409799e+001	-3.066641e+001	-2.343547e+001	-9.696023e+001	8.941950e+001	-4.410543e+001	1.154352e+002
1.095005e+007	-4.428530e+001	-8.397727e+001	-3.068394e+001	-2.354082e+001	-9.329900e+001	9.825025e+001	-4.408064e+001	1.155369e+002
1.095005e+007	-4.427086e+001	-8.394517e+001	-3.066195e+001	-2.363331e+001	-9.393526e+001	1.027976e+002	-4.407487e+001	1.155941e+002
1.095006e+007	-4.424881e+001	-8.422271e+001	-3.065877e+001	-2.361268e+001	-9.424123e+001	1.253615e+002	-4.406269e+001	1.158486e+002
1.095007e+007	-4.426240e+001	-8.404764e+001	-3.066064e+001	-2.358790e+001	-9.536526e+001	1.019431e+002	-4.416199e+001	1.156834e+002
1.095008e+007	-4.427104e+001	-8.410361e+001	-3.066303e+001	-2.350843e+001	-9.460096e+001	9.322915e+001	-4.411978e+001	1.157149e+002
1.095009e+007	-4.424664e+001	-8.402099e+001	-3.065795e+001	-2.350505e+001	-9.488657e+001	1.095409e+002	-4.407122e+001	1.153835e+002
1.095009e+007	-4.422552e+001	-8.412099e+001	-3.067296e+001	-2.353183e+001	-9.663151e+001	1.270013e+002	-4.403633e+001	1.155177e+002
1.095010e+007	-4.424644e+001	-8.383295e+001	-3.067537e+001	-2.363052e+001	-9.449621e+001	1.108329e+002	-4.409229e+001	1.158911e+002
1.095011e+007	-4.424720e+001	-8.405589e+001	-3.065849e+001	-2.354577e+001	-9.600080e+001	1.076632e+002	-4.408912e+001	1.157500e+002
1.095012e+007	-4.424084e+001	-8.405791e+001	-3.065341e+001	-2.357843e+001	-9.297609e+001	1.044461e+002	-4.414753e+001	1.157908e+002
1.095013e+007	-4.423276e+001	-8.398112e+001	-3.066229e+001	-2.353330e+001	-9.663944e+001	1.088436e+002	-4.414449e+001	1.154287e+002
1.095013e+007	-4.423335e+001	-8.416723e+001	-3.065789e+001	-2.352431e+001	-9.329374e+001	1.105003e+002	-4.415383e+001	1.155038e+002
1.095014e+007	-4.422875e+001	-8.368695e+001	-3.065311e+001	-2.354821e+001	-9.414391e+001	1.044656e+002	-4.409205e+001	1.153912e+002
1.095015e+007	-4.427025e+001	-8.393574e+001	-3.065852e+001	-2.346682e+001	-9.375252e+001	1.122451e+002	-4.410305e+001	1.155113e+002
1.095016e+007	-4.419273e+001	-8.398098e+001	-3.065720e+001	-2.349546e+001	-9.673475e+001	1.264016e+002	-4.407017e+001	1.153643e+002
1.095016e+007	-4.421390e+001	-8.413854e+001	-3.066495e+001	-2.360273e+001	-9.507647e+001	1.252429e+002	-4.402673e+001	1.156325e+002
1.095017e+007	-4.423542e+001	-8.394417e+001	-3.066650e+001	-2.359800e+001	-9.720496e+001	1.021609e+002	-4.409418e+001	1.158619e+002
1.095018e+007	-4.424663e+001	-8.395596e+001	-3.066880e+001	-2.355775e+001	-9.600303e+001	1.044057e+002	-4.407796e+001	1.156635e+002
1.095019e+007	-4.424745e+001	-8.421117e+001	-3.066291e+001	-2.363087e+001	-9.544400e+001	1.202999e+002	-4.410418e+001	1.157864e+002
1.095020e+007	-4.426248e+001	-8.373483e+001	-3.065392e+001	-2.362275e+001	-9.555062e+001	1.055294e+002	-4.407710e+001	1.159265e+002
1.095020e+007	-4.421718e+001	-8.394698e+001	-3.064915e+001	-2.366317e+001	-9.430813e+001	1.059249e+002	-4.405893e+001	1.157271e+002
1.095021e+007	-4.424152e+001	-8.416478e+001	-3.065367e+001	-2.357233e+001	-9.326631e+001	9.959982e+001	-4.410969e+001	1.156334e+002
1.095022e+007	-4.422502e+001	-8.391815e+001	-3.064690e+001	-2.362730e+001	-9.535119e+001	9.968110e+001	-4.413572e+001	1.157430e+002
1.095023e+007	-4.425866e+001	-8.412711e+001	-3.064068e+001	-2.358649e+001	-9.369734e+001	9.613475e+001	-4.414887e+001	1.156540e+002
1.095023e+007	-4.427097e+001	-8.412923e+001	-3.065692e+001	-2.361374e+001	-9.346493e+001	1.112302e+002	-4.412294e+001	1.159259e+002
1.095024e+007	-4.428321e+001	-8.395856e+001	-3.065137e+001	-2.364561e+001	-9.508389e+001	1.165505e+002	-4.412270e+001	1.157363e+002
1.095025e+007	-4.423893e+001	-8.415071e+001	-3.063761e+001	-2.369429e+001	-9.359943e+001	1.134558e+002	-4.412779e+001	1.156560e+002
1.095026e+007	-4.426013e+001	-8.428581e+001	-3.063549e+001	-2.368373e+001	-9.388787e+001	1.107156e+002	-4.410643e+001	1.155206e+002
1.095027e+007	-4.422574e+001	-8.404082e+001	-3.064184e+001	-2.372346e+001	-9.386177e+001	9.831587e+001	-4.412338e+001	1.157380e+002
1.095027e+007	-4.421602e+001	-8.381889e+001	-3.064419e+001	-2.369078e+001	-9.621645e+001	1.231045e+002	-4.411639e+001	1.156173e+002
1.095028e+007	-4.423711e+001	-8.419015e+001	-3.064665e+001	-2.376495e+001	-9.594997e+001	1.069155e+002	-4.412605e+001	1.157817e+002
1.095029e+007	-4.422692e+001	-8.381145e+001	-3.064997e+001	-2.380977e+001	-9.377935e+001	9.711446e+001	-4.409755e+001	1.156465e+002
1.095030e+007	-4.422056e+001	-8.409136e+001	-3.066333e+001	-2.385190e+001	-9.466926e+001	1.018126e+002	-4.413465e+001	1.156348e+002
1.095030e+007	-4.421362e+001	-8.400182e+001	-3.068439e+001	-2.383382e+001	-9.612825e+001	1.090768e+002	-4.410867e+001	1.156144e+002
1.095031e+007	-4.424169e+001	-8.405044e+001	-3.068452e+001	-2.375076e+001	-9.585404e+001	1.100878e+002	-4.405958e+001	1.158213e+002
1.095032e+007	-4.425550e+001	-8.392284e+001	-3.069882e+001	-2.375635e+001	-9.561967e+001	1.153764e+002	-4.406295e+001	1.157044e+002
1.095033e+007	-4.423750e+001	-8.421654e+001	-3.069819e+001	-2.369044e+001	-9.709863e+001	9.432325e+001	-4.405971e+001	1.157615e+002
1.095034e+007	-4.421467e+001	-8.389458e+001	-3.070790e+001	-2.351698e+001	-9.290124e+001	1.242711e+002	-4.409316e+001	1.156370e+002
1.095034e+007	-4.425076e+001	-8.395753e+001	-3.069472e+001	-2.342596e+001	-9.327936e+001	1.021319e+002	-4.409358e+001	1.155928e+002
1.095035e+007	-4.426686e+001	-8.405310e+001	-3.067097e+001	-2.339208e+001	-9.272436e+001	1.059543e+002	-4.402177e+001	1.155949e+002
1.095036e+007	-4.422652e+001	-8.407202e+001	-3.065772e+001	-2.341762e+001	-9.285190e+001	9.068877e+001	-4.407245e+001	1.155647e+002
1.095037e+007	-4.424163e+001	-8.407807e+001	-3.064172e+001	-2.350090e+001	-9.207965e+001	9.451909e+001	-4.409853e+001	1.156225e+002
1.095038e+007	-4.424520e+001	-8.393333e+001	-3.063655e+001	-2.359995e+001	-9.308576e+001	9.461029e+001	-4.407554e+001	1.153941e+002
1.095038e+007	-4.425537e+001	-8.395984e+001	-3.064981e+001	-2.371093e+001	-9.573971e+001	9.675063e+001	-4.408865e+001	1.156484e+002
1.095039e+007	-4.420711e+001	-8.400942e+001	-3.067206e+001	-2.373366e+001	-9.643417e+001	1.117084e+002	-4.409787e+001	1.157732e+002
1.095040e+007	-4.422525e+001	-8.404516e+001	-3.068810e+001	-2.367402e+001	-9.417229e+001	9.258260e+001	-4.410501e+001	1.157764e+002
1.095041e+007	-4.423592e+001	-8.401819e+001	-3.068019e+001	-2.343730e+001	-9.275019e+001	9.758651e+001	-4.408372e+001	1.159828e+002
1.095041e+007	-4.425705e+001	-8.397627e+001	-3.067086e+001	-2.340347e+001	-9.557242e+001	9.043376e+001	-4.405326e+001	1.156166e+002
1.095042e+007	-4.427971e+001	-8.400842e+001	-3.064978e+001	-2.344571e+001	-9.433703e+001	1.066563e+002	-4.406768e+001	1.153957e+002
1.095043e+007	-4.426443e+001	-8.430559e+001	-3.065015e+001	-2.363823e+001	-9.269289e+001	1.150688e+002	-4.409687e+001	1.156073e+002
1.095044e+007	-4.424556e+001	-8.389735e+001	-3.066099e+001	-2.368309e+001	-9.565250e+001	8.228017e+001	-4.411699e+001	1.156440e+002
1.095045e+007	-4.423453e+001	-8.406201e+001	-3.068343e+001	-2.365059e+001	-9.514436e+001	1.287770e+002	-4.410821e+001	1.156338e+002
1.095045e+007	-4.421060e+001	-8.420281e+001	-3.067113e+001	-2.349427e+001	-9.347009e+001	1.047212e+002	-4.405647e+001	1.158261e+002
1.095046e+007	-4.425329e+001	-8.400406e+001	-3.064669e+001	-2.341493e+001	-9.344323e+001	1.110651e+002	-4.410040e+001	1.154128e+002
1.095047e+007	-4.427657e+001	-8.368031e+001	-3.064305e+001	-2.360118e+001	-9.266621e+001	9.261994e+001	-4.408136e+001	1.155827e+002
1.095048e+007	-4.421179e+001	-8.399747e+001	-3.065565e+001	-2.362828e+001	-9.652864e+001	1.100516e+002	-4.404389e+001	1.157018e+002
1.095048e+007	-4.427497e+001	-8.418247e+001	-3.067655e+001	-2.355200e+001	-9.321057e+001	1.053669e+002	-4.406775e+001	1.156777e+002
1.095049e+007	-4.424649e+001	-8.390734e+001	-3.065705e+001	-2.353305e+001	-9.557994e+001	1.224200e+002	-4.408234e+001	1.156193e+002
1.095050e+007	-4.425508e+001	-8.403799e+001	-3.064739e+001	-2.356484e+001	-9.401323e+001	1.057256e+002	-4.409544e+001	1.157424e+002
1.095051e+007	-4.423362e+001	-8.417773e+001	-3.065197e+001	-2.358400e+001	-9.530136e+001	8.997785e+001	-4.405566e+001	1.154251e+002
1.095052e+007	-4.422450e+001	-8.429063e+001	-3.067653e+001	-2.362201e+001	-9.619485e+001	1.145760e+002	-4.411063e+001	1.157068e+002
1.095052e+007	-4.419755e+001	-8.408990e+001	-3.067458e+001	-2.349388e+001	-9.610925e+001	1.068164e+002	-4.410030e+001	1.159084e+002
1.095053e+007	-4.422479e+001	-8.395276e+001	-3.065160e+001	-2.356353e+001	-9.499098e+001	9.961377e+001	-4.404346e+001	1.156569e+002
1.095054e+007	-4.423753e+001	-8.409288e+001	-3.065978e+001	-2.358572e+001	-9.581443e+001	1.202783e+002	-4.405349e+001	1.155898e+002
1.095055e+007	-4.425598e+001	-8.403246e+001	-3.067259e+001	-2.359300e+001	-9.344389e+001	1.027880e+002	-4.407107e+001	1.155829e+002
1.095055e+007	-4.419209e+001	-8.389796e+001	-3.066334e+001	-2.349959e+001	-9.268620e+001	8.966135e+001	-4.406409e+001	1.156666e+002
1.095056e+007	-4.425342e+001	-8.394508e+001	-3.064602e+001	-2.357855e+001	-9.401348e+001	1.024049e+002	-4.409940e+001	1.155613e+002
1.095057e+007	-4.427917e+001	-8.377773e+001	-3.066283e+001	-2.359636e+001	-9.534929e+001	1.096534e+002	-4.408958e+001	1.158364e+002
1.095058e+007	-4.424732e+001	-8.388696e+001	-3.066883e+001	-2.353101e+001	-9.322597e+001	9.984573e+001	-4.402735e+001	1.156737e+002
1.095059e+007	-4.425650e+001	-8.404773e+001	-3.064737e+001	-2.360521e+001	-9.525389e+001	1.035292e+002	-4.412691e+001	1.155460e+002
1.095059e+007	-4.423155e+001	-8.404156e+001	-3.064973e+001	-2.355088e+001	-9.482589e+001	1.062224e+002	-4.407151e+001	1.157503e+002
1.095060e+007	-4.424267e+001	-8.418801e+001	-3.065607e+001	-2.350977e+001	-9.561035e+001	1.096805e+002	-4.408379e+001	1.155638e+002
1.095061e+007	-4.425305e+001	-8.423732e+001	-3.065630e+001	-2.355413e+001	-9.542489e+001	1.091240e+002	-4.409196e+001	1.154292e+002
1.095062e+007	-4.425156e+001	-8.401453e+001	-3.066042e+001	-2.357056e+001	-9.287245e+001	1.029463e+002	-4.406081e+001	1.156561e+002
1.095063e+007	-4.423601e+001	-8.408657e+001	-3.065578e+001	-2.352063e+001	-9.325306e+001	1.104206e+002	-4.406785e+001	1.156429e+002
1.095063e+007	-4.424968e+001	-8.385517e+001	-3.066219e+001	-2.360676e+001	-9.183131e+001	9.787592e+001	-4.410664e+001	1.155279e+002
1.095064e+007	-4.423646e+001	-8.431251e+001	-3.065606e+001	-2.354610e+001	-9.398675e+001	9.023344e+001	-4.414635e+001	1.156425e+002
1.095065e+007	-4.421065e+001	-8.406865e+001	-3.065900e+001	-2.351728e+001	-9.647170e+001	9.765153e+001	-4.410561e+001	1.156212e+002
1.095066e+007	-4.425506e+001	-8.403080e+001	-3.066161e+001	-2.350956e+001	-9.317919e+001	9.733751e+001	-4.407535e+001	1.156935e+002
1.095066e+007	-4.425615e+001	-8.428202e+001	-3.066348e+001	-2.360082e+001	-9.552356e+001	1.171227e+002	-4.408719e+001	1.157922e+002
1.095067e+007	-4.423955e+001	-8.427956e+001	-3.066122e+001	-2.355529e+001	-9.522199e+001	1.170171e+002	-4.405210e+001	1.155045e+002
1.095068e+007	-4.423701e+001	-8.432789e+001	-3.065244e+001	-2.352966e+001	-9.401132e+001	1.076672e+002	-4.407133e+001	1.154776e+002
1.095069e+007	-4.423514e+001	-8.381581e+001	-3.064874e+001	-2.363927e+001	-9.703856e+001	1.041655e+002	-4.412863e+001	1.155873e+002
1.095070e+007	-4.423190e+001	-8.402175e+001	-3.066251e+001	-2.355094e+001	-9.504867e+001	1.238694e+002	-4.406713e+001	1.155678e+002
1.095070e+007	-4.425590e+001	-8.420510e+001	-3.065306e+001	-2.353508e+001	-9.233531e+001	1.079255e+002	-4.410896e+001	1.157402e+002
1.095071e+007	-4.427986e+001	-8.422684e+001	-3.066405e+001	-2.357629e+001	-9.503332e+001	1.054392e+002	-4.407218e+001	1.155425e+002
1.095072e+007	-4.425618e+001	-8.408419e+001	-3.065502e+001	-2.352382e+001	-9.322308e+001	1.142338e+002	-4.404682e+001	1.155368e+002
1.095073e+007	-4.425305e+001	-8.427637e+001	-3.065460e+001	-2.362379e+001	-9.382865e+001	1.008930e+002	-4.407316e+001	1.155624e+002
1.095073e+007	-4.423499e+001	-8.391812e+001	-3.064990e+001	-2.350192e+001	-9.756469e+001	1.002900e+002	-4.406630e+001	1.156116e+002
1.095074e+007	-4.425306e+001	-8.419100e+001	-3.066477e+001	-2.363364e+001	-9.767093e+001	1.041290e+002	-4.408000e+001	1.156507e+002
1.095075e+007	-4.424008e+001	-8.389948e+001	-3.065795e+001	-2.351178e+001	-9.312318e+001	9.538022e+001	-4.408997e+001	1.157924e+002
1.095076e+007	-4.425371e+001	-8.399383e+001	-3.066686e+001	-2.365572e+001	-9.833402e+001	9.543960e+001	-4.410208e+001	1.157188e+002
1.095077e+007	-4.426382e+001	-8.394092e+001	-3.065343e+001	-2.343832e+001	-9.480722e+001	1.019401e+002	-4.408118e+001	1.156698e+002
1.095077e+007	-4.422139e+001	-8.411904e+001	-3.064918e+001	-2.360782e+001	-9.695240e+001	9.402339e+001	-4.412232e+001	1.157673e+002
1.095078e+007	-4.425252e+001	-8.395766e+001	-3.065703e+001	-2.355719e+001	-9.440302e+001	1.047613e+002	-4.409089e+001	1.157857e+002
1.095079e+007	-4.426032e+001	-8.391702e+001	-3.064818e+001	-2.363155e+001	-9.307526e+001	9.290780e+001	-4.413391e+001	1.156439e+002
1.095080e+007	-4.425900e+001	-8.399629e+001	-3.065394e+001	-2.350006e+001	-9.565088e+001	1.022971e+002	-4.407541e+001	1.155674e+002
1.095080e+007	-4.419756e+001	-8.403579e+001	-3.065466e+001	-2.368152e+001	-9.266263e+001	9.766896e+001	-4.405178e+001	1.155851e+002
1.095081e+007	-4.424613e+001	-8.389929e+001	-3.065751e+001	-2.339005e+001	-9.443989e+001	8.744908e+001	-4.405148e+001	1.158700e+002
1.095082e+007	-4.420892e+001	-8.420470e+001	-3.066205e+001	-2.366830e+001	-9.411185e+001	9.863817e+001	-4.403021e+001	1.156485e+002
1.095083e+007	-4.427265e+001	-8.407171e+001	-3.064816e+001	-2.351871e+001	-9.511229e+001	1.112754e+002	-4.408927e+001	1.153972e+002
1.095084e+007	-4.420334e+001	-8.390233e+001	-3.066314e+001	-2.365934e+001	-9.361490e+001	1.110118e+002	-4.410372e+001	1.159568e+002
1.095084e+007	-4.422786e+001	-8.424073e+001	-3.063038e+001	-2.352811e+001	-9.496023e+001	8.409963e+001	-4.411285e+001	1.157720e+002
1.095085e+007	-4.420617e+001	-8.418949e+001	-3.067600e+001	-2.353545e+001	-9.164954e+001	1.038327e+002	-4.406388e+001	1.156354e+002
1.095086e+007	-4.424638e+001	-8.397343e+001	-3.063610e+001	-2.367822e+001	-9.350902e+001	1.127766e+002	-4.406094e+001	1.154989e+002
1.095087e+007	-4.422117e+001	-8.399366e+001	-3.066769e+001	-2.336854e+001	-9.710879e+001	9.311689e+001	-4.409449e+001	1.156706e+002
1.095088e+007	-4.422618e+001	-8.402607e+001	-3.064876e+001	-2.369716e+001	-9.442628e+001	1.250061e+002	-4.408170e+001	1.156016e+002
1.095088e+007	-4.423866e+001	-8.370857e+001	-3.063758e+001	-2.347407e+001	-9.139132e+001	1.143061e+002	-4.409317e+001	1.156105e+002
1.095089e+007	-4.423844e+001	-8.410440e+001	-3.066251e+001	-2.352555e+001	-9.574618e+001	9.401206e+001	-4.405309e+001	1.155591e+002
1.095090e+007	-4.423167e+001	-8.389478e+001	-3.062754e+001	-2.361009e+001	-9.489880e+001	1.291384e+002	-4.409434e+001	1.154462e+002
1.095091e+007	-4.420352e+001	-8.391105e+001	-3.065099e+001	-2.351415e+001	-9.342189e+001	9.661927e+001	-4.409119e+001	1.156905e+002
1.095091e+007	-4.425338e+001	-8.414293e+001	-3.065019e+001	-2.363829e+001	-9.335567e+001	1.110178e+002	-4.404804e+001	1.153729e+002
1.095092e+007	-4.422810e+001	-8.402936e+001	-3.062572e+001	-2.350097e+001	-9.700296e+001	1.161173e+002	-4.407052e+001	1.158406e+002
1.095093e+007	-4.427460e+001	-8.391303e+001	-3.065793e+001	-2.348564e+001	-9.316725e+001	1.068087e+002	-4.410112e+001	1.156409e+002
1.095094e+007	-4.422185e+001	-8.403182e+001	-3.065490e+001	-2.369431e+001	-9.490467e+001	9.711505e+001	-4.409254e+001	1.157836e+002
1.095095e+007	-4.424402e+001	-8.414097e+001	-3.063373e+001	-2.347567e+001	-9.340381e+001	9.790013e+001	-4.402564e+001	1.156588e+002
1.095095e+007	-4.426642e+001	-8.383424e+001	-3.067069e+001	-2.346273e+001	-9.833606e+001	1.286785e+002	-4.408791e+001	1.158001e+002
1.095096e+007	-4.423425e+001	-8.413789e+001	-3.064771e+001	-2.363966e+001	-9.328421e+001	1.194351e+002	-4.406215e+001	1.154967e+002
1.095097e+007	-4.425022e+001	-8.422108e+001	-3.063765e+001	-2.349595e+001	-9.335008e+001	9.341411e+001	-4.404142e+001	1.157983e+002
1.095098e+007	-4.428118e+001	-8.402104e+001	-3.066142e+001	-2.344217e+001	-9.587520e+001	1.128669e+002	-4.412195e+001	1.156147e+002
1.095098e+007	-4.426444e+001	-8.426158e+001	-3.064785e+001	-2.369122e+001	-9.387388e+001	1.010469e+002	-4.407624e+001	1.156496e+002
1.095099e+007	-4.423340e+001	-8.400659e+001	-3.063263e+001	-2.357716e+001	-9.578044e+001	1.247729e+002	-4.407680e+001	1.156627e+002
1.095100e+007	-4.425502e+001	-8.411396e+001	-3.065744e+001	-2.343902e+001	-9.671256e+001	1.142829e+002	-4.408180e+001	1.156429e+002
1.095101e+007	-4.424143e+001	-8.411906e+001	-3.067298e+001	-2.365263e+001	-9.433629e+001	1.082121e+002	-4.405383e+001	1.156366e+002
1.095102e+007	-4.425379e+001	-8.421051e+001	-3.063540e+001	-2.367792e+001	-9.230795e+001	8.411176e+001	-4.405273e+001	1.154724e+002
1.095102e+007	-4.422681e+001	-8.408069e+001	-3.063842e+001	-2.342430e+001	-9.630650e+001	1.098677e+002	-4.405748e+001	1.156370e+002
1.095103e+007	-4.423425e+001	-8.408996e+001	-3.067172e+001	-2.342455e+001	-9.515555e+001	9.559620e+001	-4.406779e+001	1.158280e+002
1.095104e+007	-4.426846e+001	-8.432388e+001	-3.066197e+001	-2.377155e+001	-9.730471e+001	9.924439e+001	-4.406367e+001	1.156127e+002
1.095105e+007	-4.420887e+001	-8.407162e+001	-3.062114e+001	-2.361679e+001	-9.442235e+001	9.716000e+001	-4.408686e+001	1.157914e+002
1.095105e+007	-4.422399e+001	-8.403915e+001	-3.063736e+001	-2.343873e+001	-9.756727e+001	8.534947e+001	-4.408689e+001	1.156987e+002
1.095106e+007	-4.423088e+001	-8.396362e+001	-3.066928e+001	-2.351745e+001	-9.519140e+001	1.131614e+002	-4.408067e+001	1.157206e+002
1.095107e+007	-4.424031e+001	-8.415266e+001	-3.066695e+001	-2.368017e+001	-9.406141e+001	9.818413e+001	-4.406499e+001	1.156130e+002
1.095108e+007	-4.426186e+001	-8.424607e+001	-3.062564e+001	-2.371620e+001	-9.475030e+001	9.247480e+001	-4.405367e+001	1.155795e+002
1.095109e+007	-4.427223e+001	-8.397023e+001	-3.062900e+001	-2.347176e+001	-9.535907e+001	1.086084e+002	-4.405081e+001	1.156978e+002
1.095109e+007	-4.421522e+001	-8.389325e+001	-3.066124e+001	-2.341877e+001	-9.218378e+001	1.066584e+002	-4.411935e+001	1.158696e+002
1.095110e+007	-4.424855e+001	-8.396862e+001	-3.067617e+001	-2.353315e+001	-9.307390e+001	1.072673e+002	-4.412886e+001	1.155879e+002
1.095111e+007	-4.427904e+001	-8.376640e+001	-3.066208e+001	-2.362003e+001	-9.366864e+001	1.110877e+002	-4.411831e+001	1.158720e+002
1.095112e+007	-4.419181e+001	-8.415270e+001	-3.064160e+001	-2.369317e+001	-9.409256e+001	1.136804e+002	-4.406805e+001	1.154690e+002
1.095113e+007	-4.426217e+001	-8.378144e+001	-3.061729e+001	-2.347504e+001	-9.440383e+001	1.040684e+002	-4.402716e+001	1.156026e+002
1.095113e+007	-4.421942e+001	-8.374162e+001	-3.064101e+001	-2.347048e+001	-9.541818e+001	1.288510e+002	-4.409789e+001	1.157277e+002
1.095114e+007	-4.427537e+001	-8.414969e+001	-3.066794e+001	-2.339131e+001	-9.361684e+001	1.043640e+002	-4.408299e+001	1.157214e+002
1.095115e+007	-4.425253e+001	-8.395237e+001	-3.067015e+001	-2.359581e+001	-9.420526e+001	1.149561e+002	-4.410374e+001	1.156189e+002
1.095116e+007	-4.426391e+001	-8.391192e+001	-3.066026e+001	-2.370297e+001	-9.578245e+001	8.779718e+001	-4.407372e+001	1.156101e+002
