!CETC41,AV3656A,ZGL00048,1.3.2
!Calibration ON (Full Solt 2-Port(Omit Isolation))
!Measurements: S11 S21 S12 S22
!2025-04-23 00:42
# Hz  S  dB  R 50.000
1.095000e+007	-4.318889e+001	-7.589264e+001	-3.031980e+001	-2.541925e+001	-9.742234e+001	1.262694e+002	-4.175238e+001	1.174334e+002
1.095001e+007	-4.318960e+001	-7.592158e+001	-3.031943e+001	-2.531982e+001	-9.674961e+001	1.025504e+002	-4.175517e+001	1.173513e+002
1.095002e+007	-4.318750e+001	-7.625359e+001	-3.032321e+001	-2.532797e+001	-9.972991e+001	1.159374e+002	-4.177383e+001	1.173927e+002
1.095002e+007	-4.316704e+001	-7.583551e+001	-3.032230e+001	-2.534439e+001	-9.597628e+001	1.115736e+002	-4.177855e+001	1.172013e+002
1.095003e+007	-4.316921e+001	-7.612642e+001	-3.032025e+001	-2.523048e+001	-9.608280e+001	1.036901e+002	-4.181135e+001	1.175207e+002
1.095004e+007	-4.317329e+001	-7.607850e+001	-3.032831e+001	-2.522564e+001	-9.727236e+001	1.145568e+002	-4.178681e+001	1.176953e+002
1.095005e+007	-4.315767e+001	-7.593614e+001	-3.032991e+001	-2.513812e+001	-9.831513e+001	6.629780e+001	-4.182848e+001	1.177928e+002
1.095005e+007	-4.317911e+001	-7.577653e+001	-3.031887e+001	-2.496702e+001	-9.780759e+001	1.063940e+002	-4.178355e+001	1.178986e+002
1.095006e+007	-4.319722e+001	-7.596540e+001	-3.029507e+001	-2.495158e+001	-9.632406e+001	1.082850e+002	-4.177512e+001	1.182509e+002
1.095007e+007	-4.317650e+001	-7.604703e+001	-3.027425e+001	-2.489111e+001	-9.908797e+001	1.264742e+002	-4.174015e+001	1.179008e+002
1.095008e+007	-4.316499e+001	-7.593437e+001	-3.024456e+001	-2.499191e+001	-9.830079e+001	8.888734e+001	-4.169681e+001	1.178946e+002
1.095009e+007	-4.320707e+001	-7.597555e+001	-3.022775e+001	-2.512247e+001	-9.349134e+001	1.040516e+002	-4.166976e+001	1.177546e+002
1.095009e+007	-4.318689e+001	-7.606917e+001	-3.023263e+001	-2.535989e+001	-9.621838e+001	1.065010e+002	-4.169969e+001	1.175763e+002
1.095010e+007	-4.319128e+001	-7.590441e+001	-3.025483e+001	-2.542848e+001	-9.433837e+001	1.147215e+002	-4.172279e+001	1.174449e+002
1.095011e+007	-4.320572e+001	-7.580137e+001	-3.027663e+001	-2.543450e+001	-9.546653e+001	1.111217e+002	-4.176517e+001	1.173892e+002
1.095012e+007	-4.317626e+001	-7.601088e+001	-3.029658e+001	-2.532144e+001	-9.545501e+001	9.605415e+001	-4.180027e+001	1.178433e+002
1.095013e+007	-4.312835e+001	-7.596589e+001	-3.030871e+001	-2.506959e+001	-9.669127e+001	1.082965e+002	-4.179536e+001	1.179513e+002
1.095013e+007	-4.315540e+001	-7.590659e+001	-3.028393e+001	-2.497181e+001	-9.654408e+001	1.056498e+002	-4.173788e+001	1.181050e+002
1.095014e+007	-4.318823e+001	-7.596580e+001	-3.023835e+001	-2.491673e+001	-9.450877e+001	1.130184e+002	-4.169564e+001	1.178714e+002
1.095015e+007	-4.318848e+001	-7.565064e+001	-3.022448e+001	-2.516596e+001	-1.020709e+002	9.566667e+001	-4.171429e+001	1.173604e+002
1.095016e+007	-4.319660e+001	-7.607744e+001	-3.023324e+001	-2.541142e+001	-9.925600e+001	1.008264e+002	-4.173227e+001	1.172858e+002
1.095016e+007	-4.316352e+001	-7.605033e+001	-3.028102e+001	-2.546465e+001	-9.674563e+001	1.238052e+002	-4.182749e+001	1.175176e+002
1.095017e+007	-4.317987e+001	-7.597801e+001	-3.030713e+001	-2.520440e+001	-9.526592e+001	1.177253e+002	-4.178461e+001	1.180950e+002
1.095018e+007	-4.315179e+001	-7.607284e+001	-3.027843e+001	-2.484736e+001	-9.738262e+001	1.058578e+002	-4.172979e+001	1.181086e+002
1.095019e+007	-4.313810e+001	-7.582871e+001	-3.021157e+001	-2.492230e+001	-9.792205e+001	8.570050e+001	-4.167683e+001	1.178719e+002
1.095020e+007	-4.317299e+001	-7.601353e+001	-3.020083e+001	-2.529502e+001	-9.477987e+001	8.904915e+001	-4.176684e+001	1.172618e+002
1.095020e+007	-4.315368e+001	-7.584383e+001	-3.025289e+001	-2.558069e+001	-9.606353e+001	1.124784e+002	-4.180613e+001	1.177204e+002
1.095021e+007	-4.319626e+001	-7.617000e+001	-3.030165e+001	-2.519850e+001	-9.743750e+001	1.274442e+002	-4.180183e+001	1.182925e+002
1.095022e+007	-4.320162e+001	-7.580809e+001	-3.026695e+001	-2.486258e+001	-9.675578e+001	1.028470e+002	-4.172202e+001	1.178948e+002
1.095023e+007	-4.316333e+001	-7.582155e+001	-3.018399e+001	-2.508090e+001	-9.711533e+001	9.127479e+001	-4.170673e+001	1.174946e+002
1.095023e+007	-4.317215e+001	-7.580490e+001	-3.021806e+001	-2.549048e+001	-9.192257e+001	1.070492e+002	-4.177754e+001	1.174199e+002
1.095024e+007	-4.315553e+001	-7.578596e+001	-3.028606e+001	-2.535430e+001	-9.475190e+001	1.019502e+002	-4.177481e+001	1.179133e+002
1.095025e+007	-4.318032e+001	-7.585366e+001	-3.026801e+001	-2.480247e+001	-9.448806e+001	1.024539e+002	-4.172813e+001	1.179058e+002
1.095026e+007	-4.317658e+001	-7.596641e+001	-3.017701e+001	-2.502867e+001	-9.711589e+001	1.198427e+002	-4.173872e+001	1.173569e+002
1.095027e+007	-4.317436e+001	-7.579066e+001	-3.020796e+001	-2.550168e+001	-9.406876e+001	1.065446e+002	-4.180515e+001	1.176565e+002
1.095027e+007	-4.317584e+001	-7.587114e+001	-3.028173e+001	-2.527180e+001	-9.616383e+001	8.408638e+001	-4.173911e+001	1.182062e+002
1.095028e+007	-4.313904e+001	-7.578393e+001	-3.022485e+001	-2.482868e+001	-9.498811e+001	1.008771e+002	-4.172187e+001	1.176847e+002
1.095029e+007	-4.316663e+001	-7.595337e+001	-3.018305e+001	-2.523703e+001	-9.735794e+001	1.008264e+002	-4.177318e+001	1.173668e+002
1.095030e+007	-4.313846e+001	-7.584782e+001	-3.024309e+001	-2.544751e+001	-9.792890e+001	9.179423e+001	-4.180643e+001	1.178522e+002
1.095030e+007	-4.316514e+001	-7.601742e+001	-3.024923e+001	-2.495889e+001	-9.662279e+001	9.901022e+001	-4.169989e+001	1.179764e+002
1.095031e+007	-4.319509e+001	-7.591278e+001	-3.017266e+001	-2.509406e+001	-9.771252e+001	1.158814e+002	-4.174445e+001	1.174551e+002
1.095032e+007	-4.317892e+001	-7.584860e+001	-3.022769e+001	-2.542069e+001	-9.491656e+001	8.704680e+001	-4.180805e+001	1.177990e+002
1.095033e+007	-4.314866e+001	-7.579295e+001	-3.025405e+001	-2.504999e+001	-9.479872e+001	1.151304e+002	-4.169053e+001	1.178255e+002
1.095034e+007	-4.315692e+001	-7.570495e+001	-3.018014e+001	-2.503765e+001	-9.693084e+001	1.161085e+002	-4.176914e+001	1.172990e+002
1.095034e+007	-4.313757e+001	-7.581401e+001	-3.020122e+001	-2.548021e+001	-9.773211e+001	1.051356e+002	-4.177077e+001	1.179009e+002
1.095035e+007	-4.315089e+001	-7.591276e+001	-3.024155e+001	-2.500292e+001	-9.788473e+001	1.245123e+002	-4.172375e+001	1.176651e+002
1.095036e+007	-4.319526e+001	-7.600147e+001	-3.016399e+001	-2.501428e+001	-9.823258e+001	1.172301e+002	-4.178258e+001	1.174798e+002
1.095037e+007	-4.318034e+001	-7.582171e+001	-3.021458e+001	-2.537474e+001	-9.655597e+001	1.070524e+002	-4.174592e+001	1.181113e+002
1.095038e+007	-4.316329e+001	-7.597818e+001	-3.022686e+001	-2.500480e+001	-9.571736e+001	9.653856e+001	-4.170985e+001	1.175655e+002
1.095038e+007	-4.317668e+001	-7.594306e+001	-3.015942e+001	-2.523346e+001	-9.678462e+001	8.711018e+001	-4.177636e+001	1.178269e+002
1.095039e+007	-4.320419e+001	-7.590019e+001	-3.023177e+001	-2.533433e+001	-9.488053e+001	1.097007e+002	-4.172930e+001	1.177069e+002
1.095040e+007	-4.315112e+001	-7.593381e+001	-3.018256e+001	-2.488461e+001	-1.001083e+002	8.881144e+001	-4.174739e+001	1.175208e+002
1.095041e+007	-4.318593e+001	-7.582810e+001	-3.017720e+001	-2.547697e+001	-9.425833e+001	9.203902e+001	-4.176603e+001	1.179385e+002
1.095041e+007	-4.317215e+001	-7.601106e+001	-3.023340e+001	-2.504744e+001	-9.774311e+001	9.254591e+001	-4.167150e+001	1.174417e+002
1.095042e+007	-4.318741e+001	-7.592353e+001	-3.016537e+001	-2.521080e+001	-9.568920e+001	1.143884e+002	-4.182758e+001	1.177728e+002
1.095043e+007	-4.314362e+001	-7.602772e+001	-3.022879e+001	-2.522435e+001	-9.590212e+001	1.004906e+002	-4.172992e+001	1.180065e+002
1.095044e+007	-4.316509e+001	-7.586511e+001	-3.016138e+001	-2.500396e+001	-9.558791e+001	1.028569e+002	-4.176054e+001	1.175928e+002
1.095045e+007	-4.312794e+001	-7.574034e+001	-3.020088e+001	-2.542823e+001	-9.837793e+001	1.322676e+002	-4.173595e+001	1.177200e+002
1.095045e+007	-4.317542e+001	-7.619416e+001	-3.018156e+001	-2.497816e+001	-9.549065e+001	1.264282e+002	-4.176185e+001	1.175005e+002
1.095046e+007	-4.315461e+001	-7.595219e+001	-3.018042e+001	-2.547265e+001	-9.535749e+001	1.044997e+002	-4.175652e+001	1.178395e+002
1.095047e+007	-4.316158e+001	-7.580486e+001	-3.019620e+001	-2.493525e+001	-9.446929e+001	8.801810e+001	-4.174019e+001	1.174249e+002
1.095048e+007	-4.314592e+001	-7.581922e+001	-3.016256e+001	-2.540687e+001	-9.564640e+001	1.226563e+002	-4.174596e+001	1.180446e+002
1.095048e+007	-4.317548e+001	-7.597987e+001	-3.020314e+001	-2.501489e+001	-9.482419e+001	9.563755e+001	-4.173300e+001	1.175780e+002
1.095049e+007	-4.316568e+001	-7.602828e+001	-3.014338e+001	-2.542102e+001	-9.697419e+001	1.018538e+002	-4.175634e+001	1.179528e+002
1.095050e+007	-4.317725e+001	-7.602863e+001	-3.022328e+001	-2.500031e+001	-9.427547e+001	1.192924e+002	-4.173836e+001	1.175819e+002
1.095051e+007	-4.317780e+001	-7.613036e+001	-3.014898e+001	-2.535147e+001	-9.426053e+001	9.362915e+001	-4.175627e+001	1.179283e+002
1.095052e+007	-4.316035e+001	-7.610316e+001	-3.020665e+001	-2.510277e+001	-9.719558e+001	1.079873e+002	-4.174218e+001	1.175867e+002
1.095052e+007	-4.316056e+001	-7.564499e+001	-3.013685e+001	-2.533152e+001	-1.010495e+002	8.928100e+001	-4.176255e+001	1.179636e+002
1.095053e+007	-4.318338e+001	-7.579378e+001	-3.018298e+001	-2.505488e+001	-9.535587e+001	1.011792e+002	-4.176478e+001	1.175733e+002
1.095054e+007	-4.314527e+001	-7.574741e+001	-3.015358e+001	-2.543359e+001	-9.479747e+001	8.627913e+001	-4.179533e+001	1.181052e+002
1.095055e+007	-4.320102e+001	-7.591199e+001	-3.017154e+001	-2.490489e+001	-9.324862e+001	9.355995e+001	-4.176797e+001	1.175942e+002
1.095055e+007	-4.313041e+001	-7.573283e+001	-3.015672e+001	-2.547454e+001	-9.756774e+001	1.092878e+002	-4.175649e+001	1.181279e+002
1.095056e+007	-4.315781e+001	-7.582597e+001	-3.014415e+001	-2.484690e+001	-9.628663e+001	1.002248e+002	-4.176993e+001	1.176924e+002
1.095057e+007	-4.317345e+001	-7.611024e+001	-3.017170e+001	-2.539032e+001	-9.396761e+001	1.007467e+002	-4.173742e+001	1.179127e+002
1.095058e+007	-4.316257e+001	-7.562836e+001	-3.011451e+001	-2.503348e+001	-9.429437e+001	8.836100e+001	-4.179615e+001	1.177512e+002
1.095059e+007	-4.317068e+001	-7.591320e+001	-3.019128e+001	-2.517913e+001	-9.623214e+001	1.184988e+002	-4.174155e+001	1.175541e+002
1.095059e+007	-4.319077e+001	-7.599735e+001	-3.011582e+001	-2.521409e+001	-9.521524e+001	1.071860e+002	-4.177647e+001	1.182295e+002
1.095060e+007	-4.316512e+001	-7.605147e+001	-3.017003e+001	-2.498082e+001	-9.727018e+001	1.018095e+002	-4.175726e+001	1.176622e+002
1.095061e+007	-4.315199e+001	-7.595525e+001	-3.013377e+001	-2.533444e+001	-9.719636e+001	8.220961e+001	-4.169105e+001	1.178357e+002
1.095062e+007	-4.317034e+001	-7.592106e+001	-3.011911e+001	-2.491146e+001	-9.403717e+001	9.277574e+001	-4.176737e+001	1.178021e+002
1.095063e+007	-4.318419e+001	-7.616817e+001	-3.015906e+001	-2.526850e+001	-9.566302e+001	1.093457e+002	-4.171590e+001	1.177591e+002
1.095063e+007	-4.318952e+001	-7.600826e+001	-3.009815e+001	-2.522994e+001	-9.762841e+001	9.976397e+001	-4.175064e+001	1.179342e+002
1.095064e+007	-4.314351e+001	-7.593726e+001	-3.016237e+001	-2.503465e+001	-9.674251e+001	1.008520e+002	-4.175165e+001	1.176859e+002
1.095065e+007	-4.318011e+001	-7.591901e+001	-3.013937e+001	-2.532538e+001	-9.683375e+001	8.532746e+001	-4.170772e+001	1.178202e+002
1.095066e+007	-4.318219e+001	-7.579970e+001	-3.012107e+001	-2.504935e+001	-9.960560e+001	8.200063e+001	-4.175479e+001	1.179167e+002
1.095066e+007	-4.318121e+001	-7.587225e+001	-3.016048e+001	-2.512576e+001	-9.561183e+001	9.516780e+001	-4.173024e+001	1.174903e+002
1.095067e+007	-4.317823e+001	-7.585094e+001	-3.012659e+001	-2.527902e+001	-1.020308e+002	1.038388e+002	-4.170753e+001	1.174718e+002
1.095068e+007	-4.318771e+001	-7.606025e+001	-3.010810e+001	-2.496107e+001	-9.657100e+001	1.039207e+002	-4.175613e+001	1.179291e+002
1.095069e+007	-4.313329e+001	-7.587772e+001	-3.014840e+001	-2.523258e+001	-9.781812e+001	8.245624e+001	-4.176588e+001	1.175004e+002
1.095070e+007	-4.315584e+001	-7.566604e+001	-3.011335e+001	-2.525294e+001	-9.919590e+001	1.191019e+002	-4.174306e+001	1.177308e+002
1.095070e+007	-4.320576e+001	-7.602857e+001	-3.010273e+001	-2.508114e+001	-9.778873e+001	1.018222e+002	-4.173440e+001	1.178356e+002
1.095071e+007	-4.315848e+001	-7.602984e+001	-3.012268e+001	-2.513697e+001	-9.469169e+001	1.009499e+002	-4.176433e+001	1.176157e+002
1.095072e+007	-4.317242e+001	-7.583115e+001	-3.010714e+001	-2.526104e+001	-9.433262e+001	9.725115e+001	-4.173364e+001	1.177306e+002
1.095073e+007	-4.314421e+001	-7.567245e+001	-3.009731e+001	-2.511704e+001	-9.356489e+001	1.048973e+002	-4.175656e+001	1.177518e+002
1.095073e+007	-4.320805e+001	-7.604387e+001	-3.011000e+001	-2.512896e+001	-9.451629e+001	1.083934e+002	-4.178817e+001	1.177746e+002
1.095074e+007	-4.317472e+001	-7.585152e+001	-3.011968e+001	-2.523140e+001	-9.687845e+001	1.108730e+002	-4.172160e+001	1.175118e+002
1.095075e+007	-4.316561e+001	-7.576750e+001	-3.009135e+001	-2.519951e+001	-9.612980e+001	1.293957e+002	-4.171538e+001	1.178738e+002
1.095076e+007	-4.318227e+001	-7.581411e+001	-3.009433e+001	-2.507831e+001	-9.758118e+001	8.733471e+001	-4.175076e+001	1.177673e+002
1.095077e+007	-4.314634e+001	-7.568578e+001	-3.010484e+001	-2.510410e+001	-9.526952e+001	1.074834e+002	-4.174806e+001	1.175352e+002
1.095077e+007	-4.316341e+001	-7.612184e+001	-3.010748e+001	-2.523873e+001	-9.650201e+001	1.002845e+002	-4.174674e+001	1.177294e+002
1.095078e+007	-4.316690e+001	-7.567565e+001	-3.008328e+001	-2.517479e+001	-9.700544e+001	8.930357e+001	-4.173710e+001	1.176902e+002
1.095079e+007	-4.318315e+001	-7.608031e+001	-3.008751e+001	-2.510745e+001	-9.476854e+001	8.798489e+001	-4.177429e+001	1.177910e+002
1.095080e+007	-4.317710e+001	-7.585547e+001	-3.009746e+001	-2.513484e+001	-9.441403e+001	1.086324e+002	-4.177770e+001	1.175967e+002
1.095080e+007	-4.320360e+001	-7.593656e+001	-3.007648e+001	-2.520630e+001	-9.611908e+001	1.014095e+002	-4.173710e+001	1.179340e+002
1.095081e+007	-4.320224e+001	-7.596803e+001	-3.007734e+001	-2.516676e+001	-9.519089e+001	1.150484e+002	-4.174150e+001	1.176293e+002
1.095082e+007	-4.317008e+001	-7.609467e+001	-3.007880e+001	-2.511249e+001	-9.569761e+001	1.098571e+002	-4.175335e+001	1.178509e+002
1.095083e+007	-4.316874e+001	-7.588723e+001	-3.009197e+001	-2.511578e+001	-9.537961e+001	1.042156e+002	-4.172730e+001	1.178116e+002
1.095084e+007	-4.315342e+001	-7.591596e+001	-3.007319e+001	-2.516509e+001	-9.636849e+001	1.056811e+002	-4.176723e+001	1.177768e+002
1.095084e+007	-4.318578e+001	-7.576208e+001	-3.007642e+001	-2.519049e+001	-9.616508e+001	1.014875e+002	-4.177089e+001	1.177267e+002
1.095085e+007	-4.317911e+001	-7.592714e+001	-3.006833e+001	-2.513494e+001	-9.432109e+001	9.116628e+001	-4.173985e+001	1.178804e+002
1.095086e+007	-4.318596e+001	-7.594394e+001	-3.006807e+001	-2.513562e+001	-9.579413e+001	1.014400e+002	-4.174578e+001	1.178418e+002
1.095087e+007	-4.315243e+001	-7.587046e+001	-3.006322e+001	-2.517685e+001	-9.496741e+001	1.121561e+002	-4.176304e+001	1.177945e+002
1.095088e+007	-4.314890e+001	-7.573308e+001	-3.005604e+001	-2.514376e+001	-9.567399e+001	1.129645e+002	-4.177687e+001	1.177435e+002
1.095088e+007	-4.316352e+001	-7.579507e+001	-3.005736e+001	-2.522604e+001	-9.620533e+001	1.043446e+002	-4.176546e+001	1.176799e+002
1.095089e+007	-4.317440e+001	-7.562272e+001	-3.004963e+001	-2.515371e+001	-9.552706e+001	1.059561e+002	-4.175975e+001	1.178429e+002
1.095090e+007	-4.315185e+001	-7.570913e+001	-3.005226e+001	-2.514319e+001	-9.535802e+001	1.058069e+002	-4.175393e+001	1.178866e+002
1.095091e+007	-4.318482e+001	-7.572714e+001	-3.005168e+001	-2.515574e+001	-9.495952e+001	1.037929e+002	-4.174475e+001	1.176939e+002
1.095091e+007	-4.314558e+001	-7.590269e+001	-3.004911e+001	-2.517009e+001	-9.728128e+001	1.087181e+002	-4.176464e+001	1.176603e+002
1.095092e+007	-4.316825e+001	-7.587298e+001	-3.004340e+001	-2.517984e+001	-9.812437e+001	1.089380e+002	-4.172991e+001	1.177214e+002
1.095093e+007	-4.319483e+001	-7.590992e+001	-3.003121e+001	-2.516942e+001	-9.666148e+001	9.984282e+001	-4.177159e+001	1.177763e+002
1.095094e+007	-4.315492e+001	-7.584270e+001	-3.002993e+001	-2.514025e+001	-9.427425e+001	9.953382e+001	-4.175698e+001	1.176905e+002
1.095095e+007	-4.317770e+001	-7.592727e+001	-3.003259e+001	-2.516306e+001	-9.590918e+001	9.976062e+001	-4.173844e+001	1.179321e+002
1.095095e+007	-4.317305e+001	-7.574509e+001	-3.001809e+001	-2.516385e+001	-9.689911e+001	9.445994e+001	-4.176123e+001	1.175827e+002
1.095096e+007	-4.319061e+001	-7.579596e+001	-3.001780e+001	-2.510542e+001	-9.907543e+001	1.058231e+002	-4.172795e+001	1.179675e+002
1.095097e+007	-4.316261e+001	-7.567227e+001	-3.001211e+001	-2.511836e+001	-9.874828e+001	9.779307e+001	-4.175572e+001	1.177253e+002
1.095098e+007	-4.317492e+001	-7.600817e+001	-3.002509e+001	-2.509582e+001	-9.515636e+001	9.633243e+001	-4.174104e+001	1.176961e+002
1.095098e+007	-4.317863e+001	-7.564351e+001	-3.002874e+001	-2.505541e+001	-9.605289e+001	1.177551e+002	-4.175670e+001	1.177486e+002
1.095099e+007	-4.318481e+001	-7.581837e+001	-3.001569e+001	-2.509050e+001	-9.672800e+001	1.099209e+002	-4.174061e+001	1.176592e+002
1.095100e+007	-4.319302e+001	-7.582523e+001	-3.001329e+001	-2.515192e+001	-9.499371e+001	1.157415e+002	-4.174596e+001	1.178113e+002
1.095101e+007	-4.318255e+001	-7.588681e+001	-3.001762e+001	-2.516117e+001	-9.736912e+001	1.041077e+002	-4.170807e+001	1.179522e+002
1.095102e+007	-4.318141e+001	-7.574779e+001	-3.002095e+001	-2.523320e+001	-9.595578e+001	9.007345e+001	-4.176552e+001	1.178303e+002
1.095102e+007	-4.315212e+001	-7.613021e+001	-3.001154e+001	-2.515174e+001	-9.739748e+001	9.163470e+001	-4.174766e+001	1.179041e+002
1.095103e+007	-4.317369e+001	-7.576303e+001	-3.001030e+001	-2.527956e+001	-9.467016e+001	9.227300e+001	-4.176186e+001	1.177077e+002
1.095104e+007	-4.313885e+001	-7.570634e+001	-3.000965e+001	-2.524850e+001	-9.826879e+001	9.421296e+001	-4.176446e+001	1.178032e+002
1.095105e+007	-4.314985e+001	-7.570741e+001	-3.000980e+001	-2.525214e+001	-9.785560e+001	9.540222e+001	-4.174674e+001	1.178404e+002
1.095105e+007	-4.312519e+001	-7.591495e+001	-3.000602e+001	-2.527183e+001	-9.679503e+001	1.192085e+002	-4.174049e+001	1.178115e+002
1.095106e+007	-4.319293e+001	-7.585903e+001	-2.999684e+001	-2.533611e+001	-9.459265e+001	1.040350e+002	-4.174373e+001	1.179364e+002
1.095107e+007	-4.319478e+001	-7.584209e+001	-3.000956e+001	-2.535787e+001	-9.858119e+001	1.011523e+002	-4.174877e+001	1.176977e+002
1.095108e+007	-4.315309e+001	-7.586163e+001	-3.001019e+001	-2.537670e+001	-9.607783e+001	8.502194e+001	-4.173840e+001	1.176480e+002
1.095109e+007	-4.315686e+001	-7.579728e+001	-3.001401e+001	-2.533852e+001	-9.592270e+001	1.460178e+002	-4.172709e+001	1.177215e+002
1.095109e+007	-4.316274e+001	-7.585276e+001	-3.002894e+001	-2.530834e+001	-9.680769e+001	1.075690e+002	-4.170824e+001	1.177651e+002
1.095110e+007	-4.317520e+001	-7.581154e+001	-3.001648e+001	-2.522761e+001	-9.458194e+001	1.135502e+002	-4.173127e+001	1.177203e+002
1.095111e+007	-4.314948e+001	-7.599897e+001	-3.002127e+001	-2.514916e+001	-9.406831e+001	1.087522e+002	-4.174422e+001	1.175769e+002
1.095112e+007	-4.314711e+001	-7.581544e+001	-3.002050e+001	-2.508722e+001	-9.735615e+001	1.010907e+002	-4.174057e+001	1.177004e+002
1.095113e+007	-4.315292e+001	-7.580326e+001	-3.000262e+001	-2.497821e+001	-9.465354e+001	1.280899e+002	-4.172476e+001	1.178130e+002
1.095113e+007	-4.318115e+001	-7.590121e+001	-2.998167e+001	-2.488964e+001	-9.644557e+001	9.653751e+001	-4.177156e+001	1.176687e+002
1.095114e+007	-4.319203e+001	-7.593898e+001	-2.995859e+001	-2.490713e+001	-9.362090e+001	1.013401e+002	-4.178091e+001	1.179762e+002
1.095115e+007	-4.319223e+001	-7.596672e+001	-2.993458e+001	-2.507977e+001	-9.868078e+001	1.223094e+002	-4.177419e+001	1.180317e+002
1.095116e+007	-4.319011e+001	-7.581497e+001	-2.992848e+001	-2.522812e+001	-9.567196e+001	1.125207e+002	-4.176235e+001	1.176470e+002
