!CETC41,AV3656A,ZGL00048,1.3.2
!Calibration ON (Full Solt 2-Port(Omit Isolation))
!Measurements: S11 S21 S12 S22
!2025-04-22 23:52
# Hz  S  dB  R 50.000
1.095000e+007	-4.317554e+001	-7.809841e+001	-3.062518e+001	-2.417322e+001	-9.920239e+001	1.041305e+002	-4.288026e+001	1.171086e+002
1.095001e+007	-4.318643e+001	-7.833322e+001	-3.060625e+001	-2.410180e+001	-9.401194e+001	1.009356e+002	-4.287136e+001	1.173402e+002
1.095002e+007	-4.318804e+001	-7.828709e+001	-3.061971e+001	-2.402426e+001	-9.556172e+001	1.053009e+002	-4.288663e+001	1.173433e+002
1.095002e+007	-4.318859e+001	-7.815230e+001	-3.061868e+001	-2.412618e+001	-9.522958e+001	1.167337e+002	-4.289487e+001	1.171358e+002
1.095003e+007	-4.318647e+001	-7.830747e+001	-3.059870e+001	-2.410612e+001	-9.653039e+001	1.090626e+002	-4.285795e+001	1.172206e+002
1.095004e+007	-4.320736e+001	-7.824856e+001	-3.061918e+001	-2.403449e+001	-9.932404e+001	1.257410e+002	-4.285451e+001	1.175881e+002
1.095005e+007	-4.319038e+001	-7.831324e+001	-3.061718e+001	-2.403652e+001	-9.517624e+001	1.015737e+002	-4.288820e+001	1.173764e+002
1.095005e+007	-4.319057e+001	-7.824200e+001	-3.059954e+001	-2.410634e+001	-9.701794e+001	9.418053e+001	-4.288832e+001	1.173878e+002
1.095006e+007	-4.319217e+001	-7.850410e+001	-3.061002e+001	-2.412101e+001	-9.722396e+001	9.463115e+001	-4.288183e+001	1.172861e+002
1.095007e+007	-4.324604e+001	-7.842508e+001	-3.062157e+001	-2.406612e+001	-9.783450e+001	8.930348e+001	-4.286270e+001	1.174341e+002
1.095008e+007	-4.322577e+001	-7.816644e+001	-3.062210e+001	-2.407554e+001	-9.609079e+001	8.376686e+001	-4.290017e+001	1.173210e+002
1.095009e+007	-4.319836e+001	-7.828045e+001	-3.061589e+001	-2.409938e+001	-9.506124e+001	1.013681e+002	-4.289739e+001	1.172349e+002
1.095009e+007	-4.317874e+001	-7.833773e+001	-3.059932e+001	-2.411672e+001	-9.306549e+001	9.788594e+001	-4.286919e+001	1.172775e+002
1.095010e+007	-4.316767e+001	-7.827970e+001	-3.061633e+001	-2.398201e+001	-9.570540e+001	1.034348e+002	-4.284027e+001	1.174245e+002
1.095011e+007	-4.317536e+001	-7.841006e+001	-3.062131e+001	-2.408639e+001	-9.706967e+001	1.046045e+002	-4.289166e+001	1.173607e+002
1.095012e+007	-4.317256e+001	-7.848211e+001	-3.060544e+001	-2.418792e+001	-9.377115e+001	8.797087e+001	-4.289277e+001	1.173979e+002
1.095013e+007	-4.317307e+001	-7.834541e+001	-3.059631e+001	-2.407542e+001	-9.468196e+001	1.121164e+002	-4.288583e+001	1.170182e+002
1.095013e+007	-4.318399e+001	-7.843492e+001	-3.060494e+001	-2.401895e+001	-9.567786e+001	9.296229e+001	-4.287197e+001	1.171047e+002
1.095014e+007	-4.321171e+001	-7.834011e+001	-3.061501e+001	-2.400511e+001	-9.629392e+001	1.005809e+002	-4.288210e+001	1.170846e+002
1.095015e+007	-4.318027e+001	-7.834067e+001	-3.061490e+001	-2.413263e+001	-9.729988e+001	8.645505e+001	-4.286592e+001	1.174666e+002
1.095016e+007	-4.317391e+001	-7.838798e+001	-3.060278e+001	-2.415328e+001	-9.515053e+001	1.115107e+002	-4.287156e+001	1.172813e+002
1.095016e+007	-4.321807e+001	-7.856378e+001	-3.059407e+001	-2.406629e+001	-9.611658e+001	1.163526e+002	-4.291605e+001	1.173115e+002
1.095017e+007	-4.319364e+001	-7.845046e+001	-3.059726e+001	-2.406000e+001	-9.626309e+001	1.021275e+002	-4.286991e+001	1.170800e+002
1.095018e+007	-4.321211e+001	-7.831824e+001	-3.061428e+001	-2.398997e+001	-9.417587e+001	1.037285e+002	-4.287633e+001	1.172428e+002
1.095019e+007	-4.319500e+001	-7.852931e+001	-3.062181e+001	-2.404453e+001	-9.773731e+001	1.123995e+002	-4.286419e+001	1.171830e+002
1.095020e+007	-4.320631e+001	-7.832624e+001	-3.061257e+001	-2.409727e+001	-9.687541e+001	1.028473e+002	-4.284480e+001	1.172278e+002
1.095020e+007	-4.320245e+001	-7.836637e+001	-3.060156e+001	-2.427463e+001	-9.628186e+001	9.483248e+001	-4.286573e+001	1.172988e+002
1.095021e+007	-4.321036e+001	-7.848038e+001	-3.060213e+001	-2.416727e+001	-9.274578e+001	1.086599e+002	-4.285527e+001	1.171818e+002
1.095022e+007	-4.317044e+001	-7.830428e+001	-3.058805e+001	-2.404991e+001	-9.409158e+001	9.238381e+001	-4.289204e+001	1.176443e+002
1.095023e+007	-4.319524e+001	-7.839225e+001	-3.059728e+001	-2.403923e+001	-9.588272e+001	7.523875e+001	-4.289285e+001	1.173903e+002
1.095023e+007	-4.318443e+001	-7.854095e+001	-3.060712e+001	-2.400287e+001	-9.396302e+001	1.026881e+002	-4.291503e+001	1.171968e+002
1.095024e+007	-4.321223e+001	-7.824829e+001	-3.061510e+001	-2.406092e+001	-9.619680e+001	1.086489e+002	-4.289659e+001	1.172942e+002
1.095025e+007	-4.323986e+001	-7.858007e+001	-3.061312e+001	-2.407781e+001	-9.540058e+001	1.032983e+002	-4.289805e+001	1.171418e+002
1.095026e+007	-4.323015e+001	-7.832629e+001	-3.061439e+001	-2.408040e+001	-9.607371e+001	8.759495e+001	-4.287209e+001	1.173609e+002
1.095027e+007	-4.323576e+001	-7.826905e+001	-3.060999e+001	-2.408357e+001	-9.868835e+001	1.226872e+002	-4.286163e+001	1.170415e+002
1.095027e+007	-4.323937e+001	-7.822084e+001	-3.061179e+001	-2.413608e+001	-9.473704e+001	9.487768e+001	-4.283118e+001	1.171556e+002
1.095028e+007	-4.321725e+001	-7.833029e+001	-3.060693e+001	-2.418037e+001	-9.565595e+001	7.994211e+001	-4.284582e+001	1.173886e+002
1.095029e+007	-4.321558e+001	-7.827169e+001	-3.058897e+001	-2.414141e+001	-9.590241e+001	9.369965e+001	-4.286305e+001	1.174060e+002
1.095030e+007	-4.317615e+001	-7.836672e+001	-3.058440e+001	-2.416251e+001	-9.497051e+001	9.550740e+001	-4.288830e+001	1.173084e+002
1.095030e+007	-4.320804e+001	-7.851775e+001	-3.058154e+001	-2.419206e+001	-9.196497e+001	1.060542e+002	-4.285302e+001	1.173108e+002
1.095031e+007	-4.318793e+001	-7.832826e+001	-3.058019e+001	-2.414927e+001	-9.931410e+001	9.262309e+001	-4.287749e+001	1.175003e+002
1.095032e+007	-4.320805e+001	-7.845348e+001	-3.057358e+001	-2.414342e+001	-9.585294e+001	1.087780e+002	-4.286270e+001	1.171300e+002
1.095033e+007	-4.320366e+001	-7.851662e+001	-3.056853e+001	-2.416663e+001	-9.464092e+001	1.089683e+002	-4.283716e+001	1.174155e+002
1.095034e+007	-4.319203e+001	-7.840685e+001	-3.056566e+001	-2.426452e+001	-9.371831e+001	9.604381e+001	-4.286486e+001	1.175111e+002
1.095034e+007	-4.319457e+001	-7.838750e+001	-3.056552e+001	-2.419884e+001	-1.001806e+002	9.812768e+001	-4.284961e+001	1.173757e+002
1.095035e+007	-4.319739e+001	-7.821276e+001	-3.056549e+001	-2.436000e+001	-1.000254e+002	8.755262e+001	-4.285631e+001	1.174587e+002
1.095036e+007	-4.317716e+001	-7.817511e+001	-3.055583e+001	-2.432548e+001	-9.475671e+001	8.788638e+001	-4.287507e+001	1.173206e+002
1.095037e+007	-4.320274e+001	-7.853100e+001	-3.057021e+001	-2.440933e+001	-9.615826e+001	1.120552e+002	-4.284416e+001	1.173249e+002
1.095038e+007	-4.317232e+001	-7.826763e+001	-3.058349e+001	-2.447100e+001	-9.772253e+001	9.431603e+001	-4.285027e+001	1.171866e+002
1.095038e+007	-4.322121e+001	-7.841683e+001	-3.058785e+001	-2.452593e+001	-9.633383e+001	9.016263e+001	-4.288807e+001	1.173480e+002
1.095039e+007	-4.315749e+001	-7.827264e+001	-3.060543e+001	-2.459689e+001	-9.584033e+001	1.011076e+002	-4.288541e+001	1.169769e+002
1.095040e+007	-4.318472e+001	-7.818388e+001	-3.062449e+001	-2.452910e+001	-9.604132e+001	9.158343e+001	-4.292514e+001	1.170548e+002
1.095041e+007	-4.317063e+001	-7.832994e+001	-3.064374e+001	-2.460558e+001	-1.003132e+002	8.126790e+001	-4.288064e+001	1.173747e+002
1.095041e+007	-4.316488e+001	-7.816074e+001	-3.066030e+001	-2.440933e+001	-9.610821e+001	1.187574e+002	-4.289166e+001	1.172853e+002
1.095042e+007	-4.316675e+001	-7.819461e+001	-3.067757e+001	-2.431157e+001	-9.473206e+001	9.454103e+001	-4.287898e+001	1.174006e+002
1.095043e+007	-4.317977e+001	-7.836525e+001	-3.067526e+001	-2.413388e+001	-9.351503e+001	1.107585e+002	-4.287661e+001	1.173754e+002
1.095044e+007	-4.318922e+001	-7.815351e+001	-3.065510e+001	-2.378103e+001	-9.618980e+001	9.469225e+001	-4.288369e+001	1.174933e+002
1.095045e+007	-4.316767e+001	-7.840121e+001	-3.063543e+001	-2.369688e+001	-9.876692e+001	8.765296e+001	-4.285458e+001	1.174865e+002
1.095045e+007	-4.320596e+001	-7.841595e+001	-3.060671e+001	-2.371553e+001	-9.693189e+001	1.035957e+002	-4.286382e+001	1.171530e+002
1.095046e+007	-4.315457e+001	-7.834156e+001	-3.055992e+001	-2.377843e+001	-9.531944e+001	9.686823e+001	-4.282593e+001	1.173471e+002
1.095047e+007	-4.321497e+001	-7.858453e+001	-3.055478e+001	-2.407160e+001	-9.453960e+001	1.276750e+002	-4.285296e+001	1.172657e+002
1.095048e+007	-4.319428e+001	-7.824918e+001	-3.056454e+001	-2.433486e+001	-9.558838e+001	1.016485e+002	-4.286701e+001	1.173357e+002
1.095048e+007	-4.318211e+001	-7.822504e+001	-3.060866e+001	-2.452520e+001	-9.584331e+001	1.142244e+002	-4.287324e+001	1.174255e+002
1.095049e+007	-4.322362e+001	-7.832739e+001	-3.064815e+001	-2.434536e+001	-9.488977e+001	1.064240e+002	-4.285407e+001	1.171072e+002
1.095050e+007	-4.321074e+001	-7.816959e+001	-3.066530e+001	-2.405525e+001	-9.947706e+001	1.063676e+002	-4.288922e+001	1.173151e+002
1.095051e+007	-4.320467e+001	-7.829228e+001	-3.062806e+001	-2.377871e+001	-9.712783e+001	1.130342e+002	-4.285285e+001	1.172943e+002
1.095052e+007	-4.324883e+001	-7.833365e+001	-3.057006e+001	-2.378801e+001	-9.431159e+001	1.126631e+002	-4.287355e+001	1.170407e+002
1.095052e+007	-4.316855e+001	-7.812810e+001	-3.054499e+001	-2.409171e+001	-9.948751e+001	1.012176e+002	-4.289097e+001	1.173960e+002
1.095053e+007	-4.319338e+001	-7.844246e+001	-3.058490e+001	-2.438670e+001	-9.264323e+001	9.603867e+001	-4.285842e+001	1.174083e+002
1.095054e+007	-4.320931e+001	-7.851190e+001	-3.063694e+001	-2.432532e+001	-9.890529e+001	9.145583e+001	-4.287887e+001	1.173710e+002
1.095055e+007	-4.321579e+001	-7.825148e+001	-3.064629e+001	-2.399215e+001	-9.770801e+001	9.794468e+001	-4.285094e+001	1.171636e+002
1.095055e+007	-4.319406e+001	-7.837746e+001	-3.059581e+001	-2.374643e+001	-9.809505e+001	9.850992e+001	-4.288968e+001	1.171370e+002
1.095056e+007	-4.319334e+001	-7.808883e+001	-3.055261e+001	-2.400396e+001	-9.772686e+001	7.126460e+001	-4.289232e+001	1.172005e+002
1.095057e+007	-4.319695e+001	-7.809797e+001	-3.057654e+001	-2.436717e+001	-9.257440e+001	9.938908e+001	-4.292106e+001	1.174696e+002
1.095058e+007	-4.318029e+001	-7.838072e+001	-3.064086e+001	-2.436520e+001	-9.229235e+001	9.987061e+001	-4.288153e+001	1.175274e+002
1.095059e+007	-4.322161e+001	-7.838733e+001	-3.063490e+001	-2.387807e+001	-9.571150e+001	1.094982e+002	-4.284818e+001	1.173068e+002
1.095059e+007	-4.321111e+001	-7.844699e+001	-3.056865e+001	-2.389382e+001	-9.445476e+001	1.030584e+002	-4.287409e+001	1.173287e+002
1.095060e+007	-4.321914e+001	-7.820154e+001	-3.056043e+001	-2.428670e+001	-9.397977e+001	1.220383e+002	-4.287671e+001	1.174156e+002
1.095061e+007	-4.322275e+001	-7.829190e+001	-3.062176e+001	-2.431293e+001	-9.665179e+001	8.457783e+001	-4.285600e+001	1.172349e+002
1.095062e+007	-4.318258e+001	-7.828497e+001	-3.063339e+001	-2.392037e+001	-9.593739e+001	1.235677e+002	-4.287268e+001	1.172464e+002
1.095063e+007	-4.319562e+001	-7.821189e+001	-3.057130e+001	-2.380911e+001	-9.425894e+001	1.154912e+002	-4.288301e+001	1.173119e+002
1.095063e+007	-4.321580e+001	-7.821290e+001	-3.057196e+001	-2.430701e+001	-9.722830e+001	9.199028e+001	-4.288268e+001	1.174237e+002
1.095064e+007	-4.320667e+001	-7.839011e+001	-3.062587e+001	-2.424938e+001	-9.606321e+001	1.113157e+002	-4.284748e+001	1.174596e+002
1.095065e+007	-4.318374e+001	-7.839081e+001	-3.062562e+001	-2.383530e+001	-9.261545e+001	1.055846e+002	-4.285053e+001	1.173862e+002
1.095066e+007	-4.320768e+001	-7.826536e+001	-3.055958e+001	-2.409223e+001	-9.618819e+001	1.208383e+002	-4.289629e+001	1.175314e+002
1.095066e+007	-4.317764e+001	-7.831141e+001	-3.060477e+001	-2.438362e+001	-9.481634e+001	7.973322e+001	-4.282731e+001	1.173830e+002
1.095067e+007	-4.317382e+001	-7.851235e+001	-3.063682e+001	-2.395104e+001	-9.559159e+001	1.185398e+002	-4.288134e+001	1.173955e+002
1.095068e+007	-4.317166e+001	-7.846697e+001	-3.056171e+001	-2.394472e+001	-9.456665e+001	1.119678e+002	-4.285994e+001	1.173341e+002
1.095069e+007	-4.318248e+001	-7.833341e+001	-3.058795e+001	-2.425287e+001	-9.782224e+001	1.102503e+002	-4.286445e+001	1.174188e+002
1.095070e+007	-4.322853e+001	-7.837028e+001	-3.062359e+001	-2.406259e+001	-9.739316e+001	1.071648e+002	-4.286698e+001	1.171182e+002
1.095070e+007	-4.317087e+001	-7.841976e+001	-3.058066e+001	-2.387965e+001	-9.559550e+001	1.079994e+002	-4.284732e+001	1.174855e+002
1.095071e+007	-4.319036e+001	-7.816922e+001	-3.057770e+001	-2.426339e+001	-9.326869e+001	1.092646e+002	-4.288127e+001	1.170574e+002
1.095072e+007	-4.319814e+001	-7.831137e+001	-3.063090e+001	-2.396073e+001	-9.471401e+001	7.838152e+001	-4.290580e+001	1.172170e+002
1.095073e+007	-4.316626e+001	-7.845940e+001	-3.056044e+001	-2.397234e+001	-9.365543e+001	1.052652e+002	-4.285801e+001	1.173873e+002
1.095073e+007	-4.317324e+001	-7.827856e+001	-3.059391e+001	-2.426072e+001	-9.612630e+001	1.061815e+002	-4.285126e+001	1.173780e+002
1.095074e+007	-4.318005e+001	-7.809681e+001	-3.060592e+001	-2.388560e+001	-9.517470e+001	1.013951e+002	-4.288825e+001	1.172774e+002
1.095075e+007	-4.321390e+001	-7.814649e+001	-3.057040e+001	-2.415638e+001	-9.785606e+001	7.995777e+001	-4.284821e+001	1.172501e+002
1.095076e+007	-4.318900e+001	-7.831164e+001	-3.060797e+001	-2.410470e+001	-9.735504e+001	1.087412e+002	-4.284045e+001	1.174168e+002
1.095077e+007	-4.321040e+001	-7.852738e+001	-3.057388e+001	-2.390154e+001	-9.616913e+001	8.681890e+001	-4.286450e+001	1.175130e+002
1.095077e+007	-4.319079e+001	-7.839577e+001	-3.058066e+001	-2.425937e+001	-9.690575e+001	1.132698e+002	-4.289552e+001	1.172623e+002
1.095078e+007	-4.319499e+001	-7.820077e+001	-3.059757e+001	-2.396078e+001	-9.654122e+001	1.206826e+002	-4.287958e+001	1.171750e+002
1.095079e+007	-4.321882e+001	-7.851099e+001	-3.057108e+001	-2.412044e+001	-9.477220e+001	1.108293e+002	-4.283132e+001	1.172867e+002
1.095080e+007	-4.322427e+001	-7.842420e+001	-3.060754e+001	-2.410936e+001	-9.404157e+001	8.451674e+001	-4.285462e+001	1.175896e+002
1.095080e+007	-4.319971e+001	-7.833411e+001	-3.057171e+001	-2.404440e+001	-9.524232e+001	1.061477e+002	-4.287326e+001	1.173757e+002
1.095081e+007	-4.318066e+001	-7.823609e+001	-3.059726e+001	-2.411296e+001	-9.786992e+001	8.838642e+001	-4.289618e+001	1.173711e+002
1.095082e+007	-4.318702e+001	-7.813099e+001	-3.058943e+001	-2.396353e+001	-9.407914e+001	1.074223e+002	-4.285881e+001	1.173399e+002
1.095083e+007	-4.319135e+001	-7.822910e+001	-3.058525e+001	-2.418435e+001	-9.553588e+001	8.376927e+001	-4.285160e+001	1.174348e+002
1.095084e+007	-4.315581e+001	-7.831389e+001	-3.059463e+001	-2.397769e+001	-9.447260e+001	1.011695e+002	-4.284638e+001	1.172729e+002
1.095084e+007	-4.322658e+001	-7.837952e+001	-3.058418e+001	-2.415010e+001	-9.524786e+001	1.097860e+002	-4.285267e+001	1.173261e+002
1.095085e+007	-4.319796e+001	-7.807423e+001	-3.059282e+001	-2.403272e+001	-9.637000e+001	9.649793e+001	-4.287870e+001	1.172045e+002
1.095086e+007	-4.318901e+001	-7.831894e+001	-3.057897e+001	-2.405601e+001	-9.638907e+001	9.854532e+001	-4.288853e+001	1.171410e+002
1.095087e+007	-4.320977e+001	-7.788398e+001	-3.058985e+001	-2.404783e+001	-9.306105e+001	9.433690e+001	-4.287361e+001	1.174624e+002
1.095088e+007	-4.320909e+001	-7.831685e+001	-3.059477e+001	-2.415051e+001	-9.284189e+001	9.316443e+001	-4.288582e+001	1.172986e+002
1.095088e+007	-4.321487e+001	-7.834511e+001	-3.059570e+001	-2.400744e+001	-9.503049e+001	1.069565e+002	-4.288613e+001	1.173479e+002
1.095089e+007	-4.318206e+001	-7.825773e+001	-3.058490e+001	-2.408277e+001	-9.528468e+001	1.044883e+002	-4.286805e+001	1.174802e+002
1.095090e+007	-4.319868e+001	-7.840761e+001	-3.058747e+001	-2.405438e+001	-9.539219e+001	8.433078e+001	-4.287308e+001	1.174138e+002
1.095091e+007	-4.321457e+001	-7.819992e+001	-3.058704e+001	-2.405600e+001	-9.553945e+001	1.050411e+002	-4.288834e+001	1.172100e+002
1.095091e+007	-4.318835e+001	-7.829643e+001	-3.058389e+001	-2.399892e+001	-9.773075e+001	1.150571e+002	-4.289450e+001	1.176438e+002
1.095092e+007	-4.318162e+001	-7.820165e+001	-3.059118e+001	-2.414532e+001	-9.991950e+001	6.666989e+001	-4.286604e+001	1.172208e+002
1.095093e+007	-4.321576e+001	-7.823719e+001	-3.058785e+001	-2.413582e+001	-9.519490e+001	9.114559e+001	-4.288180e+001	1.172881e+002
1.095094e+007	-4.320111e+001	-7.821358e+001	-3.058485e+001	-2.406508e+001	-9.783575e+001	9.576528e+001	-4.286211e+001	1.172675e+002
1.095095e+007	-4.317922e+001	-7.834677e+001	-3.058005e+001	-2.411829e+001	-9.532330e+001	8.789270e+001	-4.289720e+001	1.173694e+002
1.095095e+007	-4.318280e+001	-7.842198e+001	-3.058128e+001	-2.406754e+001	-9.645693e+001	9.411984e+001	-4.287425e+001	1.173501e+002
1.095096e+007	-4.319747e+001	-7.853681e+001	-3.059028e+001	-2.411862e+001	-9.494188e+001	9.354563e+001	-4.291588e+001	1.173597e+002
1.095097e+007	-4.319784e+001	-7.849386e+001	-3.058181e+001	-2.412419e+001	-9.904842e+001	9.926041e+001	-4.286469e+001	1.172413e+002
1.095098e+007	-4.321088e+001	-7.827424e+001	-3.059230e+001	-2.411014e+001	-9.730294e+001	1.103266e+002	-4.288733e+001	1.172566e+002
1.095098e+007	-4.317834e+001	-7.826185e+001	-3.058298e+001	-2.404076e+001	-9.660029e+001	9.249655e+001	-4.286764e+001	1.175834e+002
1.095099e+007	-4.319819e+001	-7.810300e+001	-3.058178e+001	-2.412819e+001	-9.346776e+001	9.648459e+001	-4.289308e+001	1.171476e+002
1.095100e+007	-4.318324e+001	-7.816841e+001	-3.058901e+001	-2.403185e+001	-9.861218e+001	7.046386e+001	-4.286799e+001	1.172133e+002
1.095101e+007	-4.318246e+001	-7.815810e+001	-3.058968e+001	-2.415816e+001	-9.637107e+001	1.193983e+002	-4.288105e+001	1.174657e+002
1.095102e+007	-4.316808e+001	-7.825248e+001	-3.057644e+001	-2.404682e+001	-9.596789e+001	9.746940e+001	-4.286241e+001	1.171727e+002
1.095102e+007	-4.318089e+001	-7.824747e+001	-3.059935e+001	-2.413199e+001	-9.482425e+001	9.034719e+001	-4.285835e+001	1.173418e+002
1.095103e+007	-4.322745e+001	-7.807483e+001	-3.057476e+001	-2.416399e+001	-9.490353e+001	1.064784e+002	-4.287645e+001	1.171396e+002
1.095104e+007	-4.317403e+001	-7.813041e+001	-3.057580e+001	-2.396874e+001	-9.465005e+001	1.023790e+002	-4.288743e+001	1.172426e+002
1.095105e+007	-4.317510e+001	-7.829522e+001	-3.059105e+001	-2.410143e+001	-9.434626e+001	1.010400e+002	-4.286465e+001	1.170046e+002
1.095105e+007	-4.321224e+001	-7.847678e+001	-3.057143e+001	-2.411091e+001	-9.309118e+001	1.006004e+002	-4.287655e+001	1.173849e+002
1.095106e+007	-4.319923e+001	-7.827538e+001	-3.057799e+001	-2.400279e+001	-9.530917e+001	8.693842e+001	-4.284992e+001	1.173589e+002
1.095107e+007	-4.317699e+001	-7.850352e+001	-3.058294e+001	-2.408810e+001	-9.633923e+001	1.082955e+002	-4.285792e+001	1.171865e+002
1.095108e+007	-4.323731e+001	-7.825850e+001	-3.057500e+001	-2.414454e+001	-9.571981e+001	1.175581e+002	-4.286228e+001	1.174175e+002
1.095109e+007	-4.321000e+001	-7.804393e+001	-3.056840e+001	-2.405472e+001	-9.707083e+001	1.046613e+002	-4.285176e+001	1.171977e+002
1.095109e+007	-4.321514e+001	-7.821222e+001	-3.058484e+001	-2.404817e+001	-9.573333e+001	1.105974e+002	-4.288242e+001	1.172943e+002
1.095110e+007	-4.320900e+001	-7.821560e+001	-3.058206e+001	-2.415045e+001	-9.516447e+001	1.224473e+002	-4.288008e+001	1.173332e+002
1.095111e+007	-4.320656e+001	-7.833917e+001	-3.057156e+001	-2.409804e+001	-9.246404e+001	1.061254e+002	-4.290219e+001	1.172495e+002
1.095112e+007	-4.318903e+001	-7.820411e+001	-3.057494e+001	-2.401959e+001	-9.906830e+001	1.013206e+002	-4.288207e+001	1.174499e+002
1.095113e+007	-4.322663e+001	-7.824357e+001	-3.059072e+001	-2.404702e+001	-9.772831e+001	1.068284e+002	-4.288579e+001	1.172597e+002
1.095113e+007	-4.319590e+001	-7.831864e+001	-3.058313e+001	-2.421293e+001	-9.386778e+001	9.649349e+001	-4.290691e+001	1.172767e+002
1.095114e+007	-4.322648e+001	-7.841271e+001	-3.056344e+001	-2.405878e+001	-9.549013e+001	9.954798e+001	-4.286432e+001	1.175232e+002
1.095115e+007	-4.319418e+001	-7.821716e+001	-3.057253e+001	-2.401288e+001	-9.478045e+001	8.988222e+001	-4.285057e+001	1.175176e+002
1.095116e+007	-4.321133e+001	-7.848552e+001	-3.058633e+001	-2.404285e+001	-9.604798e+001	1.039192e+002	-4.290591e+001	1.173033e+002
