# Hz S dB R 50.000
3.288594e+06	-2.671607e+01	1.704389e+02	-3.107857e+01	-3.858816e+00	-9.259893e+01	-1.080939e+02	-2.565662e+01	1.686802e+02
3.288625e+06	-2.671578e+01	1.704575e+02	-3.107684e+01	-3.873415e+00	-9.611231e+01	-9.106297e+01	-2.565627e+01	1.686787e+02
3.288656e+06	-2.671549e+01	1.704761e+02	-3.107510e+01	-3.888008e+00	-9.899995e+01	-5.332862e+01	-2.565591e+01	1.686773e+02
3.288688e+06	-2.671520e+01	1.704947e+02	-3.107337e+01	-3.902595e+00	-9.714375e+01	-9.764470e+00	-2.565556e+01	1.686758e+02
3.288719e+06	-2.671491e+01	1.705133e+02	-3.107163e+01	-3.917176e+00	-9.350485e+01	1.170925e+01	-2.565520e+01	1.686744e+02
3.288750e+06	-2.671463e+01	1.705317e+02	-3.106993e+01	-3.931564e+00	-9.055550e+01	2.157426e+01	-2.565484e+01	1.686730e+02
3.288782e+06	-2.671584e+01	1.705175e+02	-3.107220e+01	-3.922684e+00	-9.115912e+01	3.219615e+01	-2.565403e+01	1.686844e+02
3.288813e+06	-2.671704e+01	1.705034e+02	-3.107446e+01	-3.913799e+00	-9.145230e+01	4.398908e+01	-2.565321e+01	1.686959e+02
3.288844e+06	-2.671825e+01	1.704892e+02	-3.107673e+01	-3.904909e+00	-9.136695e+01	5.607185e+01	-2.565239e+01	1.687073e+02
3.288875e+06	-2.671945e+01	1.704750e+02	-3.107900e+01	-3.896015e+00	-9.092391e+01	6.743168e+01	-2.565157e+01	1.687187e+02
3.288906e+06	-2.672063e+01	1.704611e+02	-3.108120e+01	-3.887149e+00	-9.023879e+01	7.709812e+01	-2.565076e+01	1.687298e+02
3.288938e+06	-2.671988e+01	1.704612e+02	-3.107913e+01	-3.880340e+00	-9.064142e+01	6.888567e+01	-2.565029e+01	1.687196e+02
3.288969e+06	-2.671913e+01	1.704613e+02	-3.107707e+01	-3.873535e+00	-9.086270e+01	6.005690e+01	-2.564982e+01	1.687093e+02
3.289000e+06	-2.671838e+01	1.704613e+02	-3.107501e+01	-3.866733e+00	-9.087280e+01	5.098781e+01	-2.564935e+01	1.686990e+02
3.289032e+06	-2.671763e+01	1.704614e+02	-3.107295e+01	-3.859934e+00	-9.067028e+01	4.211904e+01	-2.564888e+01	1.686888e+02
3.289063e+06	-2.671688e+01	1.704615e+02	-3.107089e+01	-3.853138e+00	-9.028270e+01	3.383702e+01	-2.564841e+01	1.686785e+02
3.289094e+06	-2.671681e+01	1.704562e+02	-3.107230e+01	-3.852575e+00	-9.010692e+01	3.566395e+01	-2.564841e+01	1.686817e+02
3.289125e+06	-2.671674e+01	1.704508e+02	-3.107375e+01	-3.852062e+00	-8.992786e+01	3.749375e+01	-2.564841e+01	1.686850e+02
3.289156e+06	-2.671668e+01	1.704455e+02	-3.107520e+01	-3.851549e+00	-8.974409e+01	3.924865e+01	-2.564840e+01	1.686883e+02
3.289188e+06	-2.671661e+01	1.704401e+02	-3.107664e+01	-3.851036e+00	-8.955648e+01	4.093009e+01	-2.564840e+01	1.686917e+02
3.289219e+06	-2.671655e+01	1.704348e+02	-3.107809e+01	-3.850522e+00	-8.936583e+01	4.253985e+01	-2.564840e+01	1.686950e+02
3.289250e+06	-2.671775e+01	1.704429e+02	-3.107787e+01	-3.868438e+00	-9.047853e+01	3.659664e+01	-2.564768e+01	1.686940e+02
3.289282e+06	-2.671896e+01	1.704510e+02	-3.107765e+01	-3.886353e+00	-9.161490e+01	2.888749e+01	-2.564697e+01	1.686930e+02
3.289313e+06	-2.672016e+01	1.704591e+02	-3.107743e+01	-3.904268e+00	-9.268729e+01	1.892602e+01	-2.564625e+01	1.686920e+02
3.289344e+06	-2.672137e+01	1.704672e+02	-3.107721e+01	-3.922181e+00	-9.353500e+01	6.464592e+00	-2.564554e+01	1.686910e+02
3.289375e+06	-2.672255e+01	1.704753e+02	-3.107698e+01	-3.939869e+00	-9.396474e+01	-7.716269e+00	-2.564484e+01	1.686900e+02
3.289406e+06	-2.672153e+01	1.704693e+02	-3.107601e+01	-3.929807e+00	-9.586375e+01	1.565648e+01	-2.564613e+01	1.686918e+02
3.289438e+06	-2.672052e+01	1.704633e+02	-3.107503e+01	-3.919747e+00	-9.595412e+01	4.557841e+01	-2.564741e+01	1.686935e+02
3.289469e+06	-2.671950e+01	1.704573e+02	-3.107406e+01	-3.909690e+00	-9.414155e+01	6.972696e+01	-2.564870e+01	1.686952e+02
3.289500e+06	-2.671848e+01	1.704513e+02	-3.107308e+01	-3.899634e+00	-9.184657e+01	8.449763e+01	-2.564998e+01	1.686970e+02
3.289532e+06	-2.671749e+01	1.704455e+02	-3.107216e+01	-3.889655e+00	-8.979857e+01	9.318079e+01	-2.565124e+01	1.686988e+02
3.289563e+06	-2.671805e+01	1.704518e+02	-3.107442e+01	-3.884236e+00	-9.080625e+01	8.943023e+01	-2.565066e+01	1.687038e+02
3.289594e+06	-2.671862e+01	1.704580e+02	-3.107669e+01	-3.878813e+00	-9.189238e+01	8.465517e+01	-2.565008e+01	1.687088e+02
3.289625e+06	-2.671918e+01	1.704643e+02	-3.107896e+01	-3.873388e+00	-9.304400e+01	7.847207e+01	-2.564950e+01	1.687138e+02
3.289656e+06	-2.671974e+01	1.704706e+02	-3.108122e+01	-3.867959e+00	-9.421810e+01	7.037934e+01	-2.564892e+01	1.687188e+02
3.289688e+06	-2.672031e+01	1.704768e+02	-3.108349e+01	-3.862528e+00	-9.531346e+01	5.984587e+01	-2.564833e+01	1.687238e+02
3.289719e+06	-2.672099e+01	1.704739e+02	-3.108205e+01	-3.860973e+00	-9.543074e+01	5.256226e+01	-2.564889e+01	1.687158e+02
3.289750e+06	-2.672168e+01	1.704709e+02	-3.108059e+01	-3.859450e+00	-9.540105e+01	4.524843e+01	-2.564946e+01	1.687077e+02
3.289782e+06	-2.672237e+01	1.704679e+02	-3.107912e+01	-3.857927e+00	-9.523376e+01	3.809948e+01	-2.565003e+01	1.686996e+02
3.289813e+06	-2.672305e+01	1.704649e+02	-3.107766e+01	-3.856404e+00	-9.494391e+01	3.131881e+01	-2.565060e+01	1.686915e+02
3.289844e+06	-2.672374e+01	1.704619e+02	-3.107619e+01	-3.854882e+00	-9.455462e+01	2.505025e+01	-2.565117e+01	1.686834e+02
3.289875e+06	-2.672270e+01	1.704673e+02	-3.107515e+01	-3.851839e+00	-9.408742e+01	4.166039e+01	-2.564976e+01	1.686877e+02
3.289906e+06	-2.672166e+01	1.704727e+02	-3.107411e+01	-3.848797e+00	-9.306428e+01	5.559339e+01	-2.564835e+01	1.686921e+02
3.289938e+06	-2.672061e+01	1.704781e+02	-3.107308e+01	-3.845756e+00	-9.179583e+01	6.625161e+01	-2.564694e+01	1.686964e+02
3.289969e+06	-2.671957e+01	1.704835e+02	-3.107204e+01	-3.842715e+00	-9.049302e+01	7.415827e+01	-2.564554e+01	1.687008e+02
3.290000e+06	-2.671854e+01	1.704888e+02	-3.107102e+01	-3.839780e+00	-8.928168e+01	8.001943e+01	-2.564414e+01	1.687050e+02
3.290032e+06	-2.671832e+01	1.704904e+02	-3.107208e+01	-3.849841e+00	-9.221206e+01	8.192759e+01	-2.564438e+01	1.686966e+02
3.290063e+06	-2.671810e+01	1.704919e+02	-3.107314e+01	-3.859905e+00	-9.662982e+01	8.637777e+01	-2.564461e+01	1.686882e+02
3.290094e+06	-2.671788e+01	1.704934e+02	-3.107420e+01	-3.869970e+00	-1.053706e+02	1.070473e+02	-2.564485e+01	1.686798e+02
3.290125e+06	-2.671766e+01	1.704950e+02	-3.107526e+01	-3.880039e+00	-1.044178e+02	-1.328653e+02	-2.564508e+01	1.686714e+02
3.290156e+06	-2.671742e+01	1.704964e+02	-3.107632e+01	-3.889946e+00	-9.635032e+01	-1.154050e+02	-2.564534e+01	1.686631e+02
3.290188e+06	-2.671625e+01	1.704923e+02	-3.107757e+01	-3.889810e+00	-9.931282e+01	-1.151797e+02	-2.564709e+01	1.686653e+02
3.290219e+06	-2.671509e+01	1.704881e+02	-3.107882e+01	-3.889675e+00	-1.038432e+02	-1.146458e+02	-2.564884e+01	1.686675e+02
3.290250e+06	-2.671392e+01	1.704839e+02	-3.108008e+01	-3.889539e+00	-1.138554e+02	-1.117963e+02	-2.565059e+01	1.686696e+02
3.290282e+06	-2.671276e+01	1.704798e+02	-3.108133e+01	-3.889404e+00	-1.124663e+02	6.049355e+01	-2.565234e+01	1.686718e+02
3.290313e+06	-2.671159e+01	1.704756e+02	-3.108258e+01	-3.889268e+00	-1.033792e+02	6.279532e+01	-2.565410e+01	1.686740e+02
3.290344e+06	-2.671378e+01	1.704745e+02	-3.108030e+01	-3.896950e+00	-1.015578e+02	9.348247e+01	-2.565368e+01	1.686791e+02
3.290375e+06	-2.671601e+01	1.704734e+02	-3.107798e+01	-3.904691e+00	-9.884043e+01	1.113375e+02	-2.565326e+01	1.686843e+02
3.290406e+06	-2.671823e+01	1.704723e+02	-3.107567e+01	-3.912428e+00	-9.640919e+01	1.210959e+02	-2.565283e+01	1.686894e+02
3.290438e+06	-2.672046e+01	1.704712e+02	-3.107336e+01	-3.920160e+00	-9.439073e+01	1.269243e+02	-2.565240e+01	1.686946e+02
3.290469e+06	-2.672268e+01	1.704701e+02	-3.107105e+01	-3.927889e+00	-9.270545e+01	1.307255e+02	-2.565197e+01	1.686997e+02
3.290500e+06	-2.672218e+01	1.704737e+02	-3.107196e+01	-3.920444e+00	-9.980294e+01	1.212508e+02	-2.565034e+01	1.686924e+02
3.290532e+06	-2.672167e+01	1.704773e+02	-3.107287e+01	-3.912997e+00	-1.069422e+02	-7.743512e-01	-2.564870e+01	1.686852e+02
3.290563e+06	-2.672117e+01	1.704809e+02	-3.107378e+01	-3.905549e+00	-9.548073e+01	-3.180225e+01	-2.564707e+01	1.686779e+02
3.290594e+06	-2.672067e+01	1.704844e+02	-3.107470e+01	-3.898099e+00	-9.049023e+01	-3.625011e+01	-2.564543e+01	1.686707e+02
3.290625e+06	-2.672017e+01	1.704880e+02	-3.107561e+01	-3.890639e+00	-8.735969e+01	-3.789938e+01	-2.564383e+01	1.686635e+02
3.290656e+06	-2.671996e+01	1.704850e+02	-3.107674e+01	-3.882079e+00	-8.879567e+01	-2.612816e+01	-2.564662e+01	1.686674e+02
3.290688e+06	-2.671976e+01	1.704821e+02	-3.107788e+01	-3.873518e+00	-8.991943e+01	-1.023039e+01	-2.564941e+01	1.686713e+02
3.290719e+06	-2.671956e+01	1.704791e+02	-3.107902e+01	-3.864954e+00	-9.029593e+01	8.769483e+00	-2.565220e+01	1.686751e+02
3.290750e+06	-2.671935e+01	1.704762e+02	-3.108015e+01	-3.856388e+00	-8.972329e+01	2.732943e+01	-2.565499e+01	1.686790e+02
3.290782e+06	-2.671916e+01	1.704733e+02	-3.108123e+01	-3.847957e+00	-8.853545e+01	4.194350e+01	-2.565771e+01	1.686830e+02
3.290813e+06	-2.671958e+01	1.704741e+02	-3.107853e+01	-3.847987e+00	-8.944153e+01	2.971910e+01	-2.565593e+01	1.686924e+02
3.290844e+06	-2.672001e+01	1.704749e+02	-3.107583e+01	-3.848017e+00	-8.993373e+01	1.531705e+01	-2.565415e+01	1.687018e+02
3.290875e+06	-2.672043e+01	1.704758e+02	-3.107314e+01	-3.848047e+00	-8.984846e+01	2.081411e-01	-2.565237e+01	1.687113e+02
3.290906e+06	-2.672086e+01	1.704766e+02	-3.107044e+01	-3.848076e+00	-8.921681e+01	-1.367866e+01	-2.565059e+01	1.687207e+02
3.290938e+06	-2.672129e+01	1.704774e+02	-3.106775e+01	-3.848106e+00	-8.823413e+01	-2.517457e+01	-2.564880e+01	1.687301e+02
3.290969e+06	-2.672093e+01	1.704843e+02	-3.106905e+01	-3.854332e+00	-8.942387e+01	-1.267916e+01	-2.564972e+01	1.687213e+02
3.291000e+06	-2.672056e+01	1.704912e+02	-3.107038e+01	-3.860611e+00	-9.020448e+01	3.323096e+00	-2.565067e+01	1.687122e+02
3.291032e+06	-2.672020e+01	1.704981e+02	-3.107171e+01	-3.866891e+00	-9.024661e+01	2.096484e+01	-2.565161e+01	1.687032e+02
3.291063e+06	-2.671983e+01	1.705050e+02	-3.107304e+01	-3.873174e+00	-8.953024e+01	3.725065e+01	-2.565255e+01	1.686942e+02
3.291094e+06	-2.671947e+01	1.705119e+02	-3.107437e+01	-3.879458e+00	-8.834960e+01	5.027761e+01	-2.565349e+01	1.686852e+02
3.291125e+06	-2.671934e+01	1.705078e+02	-3.107257e+01	-3.880507e+00	-9.019093e+01	4.892958e+01	-2.565319e+01	1.686824e+02
3.291156e+06	-2.671921e+01	1.705037e+02	-3.107078e+01	-3.881555e+00	-9.252045e+01	4.675034e+01	-2.565288e+01	1.686796e+02
3.291188e+06	-2.671908e+01	1.704996e+02	-3.106898e+01	-3.882603e+00	-9.567921e+01	4.264843e+01	-2.565258e+01	1.686768e+02
3.291219e+06	-2.671895e+01	1.704955e+02	-3.106718e+01	-3.883650e+00	-1.004952e+02	3.232793e+01	-2.565227e+01	1.686740e+02
3.291250e+06	-2.671882e+01	1.704914e+02	-3.106541e+01	-3.884743e+00	-1.079504e+02	-1.418490e+01	-2.565196e+01	1.686712e+02
3.291282e+06	-2.671910e+01	1.704949e+02	-3.106704e+01	-3.891545e+00	-1.162690e+02	5.775525e+00	-2.565128e+01	1.686746e+02
3.291313e+06	-2.671937e+01	1.704983e+02	-3.106867e+01	-3.898348e+00	-1.162994e+02	1.225683e+02	-2.565059e+01	1.686780e+02
3.291344e+06	-2.671965e+01	1.705018e+02	-3.107030e+01	-3.905155e+00	-1.079639e+02	1.426343e+02	-2.564990e+01	1.686814e+02
3.291375e+06	-2.671992e+01	1.705052e+02	-3.107194e+01	-3.911964e+00	-1.036380e+02	1.472150e+02	-2.564921e+01	1.686848e+02
3.291406e+06	-2.672019e+01	1.705085e+02	-3.107353e+01	-3.918576e+00	-1.007553e+02	1.490608e+02	-2.564854e+01	1.686880e+02
3.291438e+06	-2.672001e+01	1.705013e+02	-3.107315e+01	-3.912930e+00	-9.898984e+01	1.426944e+02	-2.564932e+01	1.686838e+02
3.291469e+06	-2.671983e+01	1.704942e+02	-3.107277e+01	-3.907284e+00	-9.746140e+01	1.383420e+02	-2.565011e+01	1.686795e+02
3.291500e+06	-2.671964e+01	1.704870e+02	-3.107239e+01	-3.901639e+00	-9.613105e+01	1.352118e+02	-2.565089e+01	1.686753e+02
3.291532e+06	-2.671946e+01	1.704799e+02	-3.107201e+01	-3.895994e+00	-9.496064e+01	1.328651e+02	-2.565167e+01	1.686710e+02
3.291563e+06	-2.671928e+01	1.704728e+02	-3.107163e+01	-3.890350e+00	-9.391935e+01	1.310462e+02	-2.565245e+01	1.686667e+02
3.291594e+06	-2.671833e+01	1.704808e+02	-3.107064e+01	-3.881908e+00	-9.350850e+01	1.075484e+02	-2.565181e+01	1.686784e+02
3.291625e+06	-2.671737e+01	1.704890e+02	-3.106964e+01	-3.873445e+00	-9.200511e+01	8.873076e+01	-2.565115e+01	1.686903e+02
3.291656e+06	-2.671641e+01	1.704972e+02	-3.106865e+01	-3.864984e+00	-9.017826e+01	7.603149e+01	-2.565049e+01	1.687021e+02
3.291688e+06	-2.671545e+01	1.705053e+02	-3.106765e+01	-3.856525e+00	-8.843294e+01	6.765316e+01	-2.564983e+01	1.687140e+02
3.291719e+06	-2.671449e+01	1.705135e+02	-3.106665e+01	-3.848068e+00	-8.687312e+01	6.193742e+01	-2.564917e+01	1.687258e+02
3.291750e+06	-2.671591e+01	1.705116e+02	-3.106764e+01	-3.861717e+00	-8.805195e+01	5.981671e+01	-2.564873e+01	1.687140e+02
3.291782e+06	-2.671733e+01	1.705096e+02	-3.106863e+01	-3.875370e+00	-8.939766e+01	5.698019e+01	-2.564830e+01	1.687022e+02
3.291813e+06	-2.671876e+01	1.705077e+02	-3.106961e+01	-3.889025e+00	-9.095507e+01	5.301640e+01	-2.564786e+01	1.686904e+02
3.291844e+06	-2.672018e+01	1.705057e+02	-3.107060e+01	-3.902684e+00	-9.277777e+01	4.716141e+01	-2.564742e+01	1.686786e+02
3.291875e+06	-2.672158e+01	1.705037e+02	-3.107159e+01	-3.916161e+00	-9.489853e+01	3.812690e+01	-2.564700e+01	1.686670e+02
3.291906e+06	-2.672009e+01	1.704945e+02	-3.107273e+01	-3.906825e+00	-9.662645e+01	5.643885e+01	-2.564850e+01	1.686786e+02
3.291938e+06	-2.671859e+01	1.704853e+02	-3.107386e+01	-3.897487e+00	-9.730482e+01	8.092565e+01	-2.564999e+01	1.686902e+02
3.291969e+06	-2.671710e+01	1.704761e+02	-3.107500e+01	-3.888146e+00	-9.639472e+01	1.047273e+02	-2.565149e+01	1.687018e+02
3.292000e+06	-2.671561e+01	1.704669e+02	-3.107613e+01	-3.878802e+00	-9.458998e+01	1.218994e+02	-2.565298e+01	1.687135e+02
3.292032e+06	-2.671417e+01	1.704580e+02	-3.107721e+01	-3.869729e+00	-9.271901e+01	1.328754e+02	-2.565444e+01	1.687250e+02
3.292063e+06	-2.671619e+01	1.704679e+02	-3.107462e+01	-3.877389e+00	-9.388199e+01	1.349736e+02	-2.565401e+01	1.687306e+02
3.292094e+06	-2.671822e+01	1.704779e+02	-3.107204e+01	-3.885045e+00	-9.520700e+01	1.377682e+02	-2.565358e+01	1.687363e+02
3.292125e+06	-2.672024e+01	1.704879e+02	-3.106946e+01	-3.892696e+00	-9.673681e+01	1.416517e+02	-2.565314e+01	1.687419e+02
3.292156e+06	-2.672226e+01	1.704978e+02	-3.106687e+01	-3.900343e+00	-9.852255e+01	1.473453e+02	-2.565271e+01	1.687475e+02
3.292188e+06	-2.672428e+01	1.705078e+02	-3.106429e+01	-3.907985e+00	-1.005998e+02	1.562489e+02	-2.565227e+01	1.687532e+02
3.292219e+06	-2.672277e+01	1.705081e+02	-3.106449e+01	-3.900011e+00	-9.997337e+01	1.738307e+02	-2.565202e+01	1.687420e+02
3.292250e+06	-2.672123e+01	1.705084e+02	-3.106472e+01	-3.891911e+00	-9.875740e+01	-1.720124e+02	-2.565176e+01	1.687306e+02
3.292282e+06	-2.671970e+01	1.705086e+02	-3.106495e+01	-3.883810e+00	-9.734620e+01	-1.615993e+02	-2.565150e+01	1.687193e+02
3.292313e+06	-2.671816e+01	1.705089e+02	-3.106517e+01	-3.875709e+00	-9.595243e+01	-1.540799e+02	-2.565125e+01	1.687079e+02
3.292344e+06	-2.671662e+01	1.705091e+02	-3.106540e+01	-3.867607e+00	-9.465624e+01	-1.485705e+02	-2.565099e+01	1.686966e+02
3.292375e+06	-2.671665e+01	1.705103e+02	-3.106763e+01	-3.858398e+00	-9.532194e+01	-1.446375e+02	-2.565145e+01	1.686998e+02
3.292406e+06	-2.671668e+01	1.705116e+02	-3.106985e+01	-3.849184e+00	-9.599108e+01	-1.400499e+02	-2.565192e+01	1.687030e+02
3.292438e+06	-2.671670e+01	1.705128e+02	-3.107208e+01	-3.839965e+00	-9.664566e+01	-1.347050e+02	-2.565238e+01	1.687063e+02
3.292469e+06	-2.671673e+01	1.705141e+02	-3.107431e+01	-3.830742e+00	-9.725879e+01	-1.285171e+02	-2.565285e+01	1.687095e+02
3.292500e+06	-2.671677e+01	1.705152e+02	-3.107651e+01	-3.821693e+00	-9.782081e+01	-1.215992e+02	-2.565330e+01	1.687127e+02
3.292532e+06	-2.671744e+01	1.705087e+02	-3.107478e+01	-3.834865e+00	-1.024160e+02	-1.408488e+02	-2.565257e+01	1.687099e+02
3.292563e+06	-2.671812e+01	1.705021e+02	-3.107304e+01	-3.848031e+00	-1.056839e+02	1.645466e+02	-2.565184e+01	1.687070e+02
3.292594e+06	-2.671880e+01	1.704955e+02	-3.107131e+01	-3.861192e+00	-1.012952e+02	1.187807e+02	-2.565111e+01	1.687042e+02
3.292625e+06	-2.671948e+01	1.704890e+02	-3.106958e+01	-3.874348e+00	-9.701310e+01	1.034707e+02	-2.565038e+01	1.687014e+02
3.292656e+06	-2.672015e+01	1.704826e+02	-3.106786e+01	-3.887009e+00	-9.401363e+01	9.718524e+01	-2.564968e+01	1.686987e+02
3.292688e+06	-2.672037e+01	1.704865e+02	-3.106648e+01	-3.869560e+00	-9.417903e+01	1.075659e+02	-2.565114e+01	1.687071e+02
3.292719e+06	-2.672059e+01	1.704904e+02	-3.106510e+01	-3.852116e+00	-9.405636e+01	1.179983e+02	-2.565259e+01	1.687154e+02
3.292750e+06	-2.672080e+01	1.704943e+02	-3.106373e+01	-3.834678e+00	-9.366842e+01	1.278290e+02	-2.565405e+01	1.687237e+02
3.292782e+06	-2.672102e+01	1.704982e+02	-3.106235e+01	-3.817245e+00	-9.307870e+01	1.366044e+02	-2.565550e+01	1.687321e+02
3.292813e+06	-2.672124e+01	1.705022e+02	-3.106097e+01	-3.799818e+00	-9.236231e+01	1.441469e+02	-2.565696e+01	1.687404e+02
3.292844e+06	-2.672124e+01	1.705037e+02	-3.106411e+01	-3.814568e+00	-9.325827e+01	1.486782e+02	-2.565648e+01	1.687425e+02
3.292875e+06	-2.672123e+01	1.705053e+02	-3.106728e+01	-3.829588e+00	-9.419904e+01	1.542596e+02	-2.565598e+01	1.687446e+02
3.292906e+06	-2.672123e+01	1.705068e+02	-3.107045e+01	-3.844620e+00	-9.513874e+01	1.611962e+02	-2.565548e+01	1.687466e+02
3.292938e+06	-2.672122e+01	1.705084e+02	-3.107363e+01	-3.859662e+00	-9.601563e+01	1.697574e+02	-2.565498e+01	1.687487e+02
3.292969e+06	-2.672122e+01	1.705099e+02	-3.107680e+01	-3.874715e+00	-9.673100e+01	-1.799418e+02	-2.565448e+01	1.687507e+02
3.293000e+06	-2.672151e+01	1.705140e+02	-3.107516e+01	-3.853036e+00	-9.808274e+01	1.465521e+02	-2.565346e+01	1.687450e+02
3.293032e+06	-2.672180e+01	1.705181e+02	-3.107351e+01	-3.831366e+00	-9.641490e+01	1.143914e+02	-2.565244e+01	1.687393e+02
3.293063e+06	-2.672209e+01	1.705222e+02	-3.107186e+01	-3.809703e+00	-9.365838e+01	9.573796e+01	-2.565143e+01	1.687336e+02
3.293094e+06	-2.672238e+01	1.705263e+02	-3.107022e+01	-3.788049e+00	-9.117673e+01	8.565954e+01	-2.565041e+01	1.687279e+02
3.293125e+06	-2.672267e+01	1.705303e+02	-3.106859e+01	-3.766643e+00	-8.913884e+01	7.973655e+01	-2.564940e+01	1.687222e+02
3.293156e+06	-2.672220e+01	1.705174e+02	-3.106926e+01	-3.775022e+00	-8.944485e+01	7.937759e+01	-2.564971e+01	1.687165e+02
3.293188e+06	-2.672173e+01	1.705046e+02	-3.106994e+01	-3.783403e+00	-8.976166e+01	7.899195e+01	-2.565002e+01	1.687108e+02
3.293219e+06	-2.672127e+01	1.704917e+02	-3.107062e+01	-3.791785e+00	-9.009003e+01	7.857657e+01	-2.565032e+01	1.687051e+02
3.293250e+06	-2.672080e+01	1.704789e+02	-3.107129e+01	-3.800169e+00	-9.043078e+01	7.812793e+01	-2.565063e+01	1.686995e+02
3.293282e+06	-2.672035e+01	1.704664e+02	-3.107199e+01	-3.808662e+00	-9.080067e+01	7.778821e+01	-2.565095e+01	1.686940e+02
3.293313e+06	-2.672091e+01	1.704806e+02	-3.107366e+01	-3.823829e+00	-9.213059e+01	8.793206e+01	-2.565193e+01	1.686990e+02
3.293344e+06	-2.672148e+01	1.704947e+02	-3.107533e+01	-3.839002e+00	-9.326945e+01	1.014658e+02	-2.565291e+01	1.687040e+02
3.293375e+06	-2.672204e+01	1.705088e+02	-3.107700e+01	-3.854181e+00	-9.389397e+01	1.181258e+02	-2.565389e+01	1.687091e+02
3.293406e+06	-2.672260e+01	1.705230e+02	-3.107868e+01	-3.869366e+00	-9.373665e+01	1.357358e+02	-2.565487e+01	1.687141e+02
3.293438e+06	-2.672317e+01	1.705371e+02	-3.108035e+01	-3.884556e+00	-9.287197e+01	1.513378e+02	-2.565585e+01	1.687192e+02
3.293469e+06	-2.672354e+01	1.705323e+02	-3.107685e+01	-3.876554e+00	-9.683394e+01	1.295104e+02	-2.565364e+01	1.687205e+02
3.293500e+06	-2.672392e+01	1.705274e+02	-3.107331e+01	-3.868371e+00	-9.879975e+01	8.126366e+01	-2.565140e+01	1.687218e+02
3.293532e+06	-2.672430e+01	1.705225e+02	-3.106977e+01	-3.860195e+00	-9.531233e+01	4.249794e+01	-2.564916e+01	1.687230e+02
3.293563e+06	-2.672467e+01	1.705176e+02	-3.106624e+01	-3.852026e+00	-9.158231e+01	2.666874e+01	-2.564692e+01	1.687243e+02
3.293594e+06	-2.672505e+01	1.705127e+02	-3.106270e+01	-3.843863e+00	-8.875187e+01	1.930509e+01	-2.564468e+01	1.687256e+02
3.293625e+06	-2.672348e+01	1.705140e+02	-3.106308e+01	-3.849299e+00	-8.951506e+01	2.176607e+01	-2.564568e+01	1.687287e+02
3.293656e+06	-2.672192e+01	1.705153e+02	-3.106346e+01	-3.854736e+00	-9.033066e+01	2.471800e+01	-2.564667e+01	1.687319e+02
