# Hz S dB R 50.000
3.288438e+06	-2.670816e+01	1.707325e+02	-3.108222e+01	-4.334596e+00	-9.039486e+01	-2.642600e+01	-2.554625e+01	1.687842e+02
3.288469e+06	-2.670862e+01	1.707308e+02	-3.108107e+01	-4.321922e+00	-9.111781e+01	-1.834847e+01	-2.554669e+01	1.687824e+02
3.288500e+06	-2.670909e+01	1.707290e+02	-3.107992e+01	-4.309251e+00	-9.168745e+01	-8.963938e+00	-2.554713e+01	1.687806e+02
3.288532e+06	-2.670955e+01	1.707273e+02	-3.107877e+01	-4.296584e+00	-9.202042e+01	1.459174e+00	-2.554757e+01	1.687787e+02
3.288563e+06	-2.671002e+01	1.707255e+02	-3.107761e+01	-4.283919e+00	-9.205550e+01	1.233882e+01	-2.554801e+01	1.687769e+02
3.288594e+06	-2.671048e+01	1.707238e+02	-3.107647e+01	-4.271420e+00	-9.180210e+01	2.290973e+01	-2.554846e+01	1.687751e+02
3.288626e+06	-2.670993e+01	1.707273e+02	-3.107670e+01	-4.278959e+00	-9.349562e+01	3.307440e+01	-2.554981e+01	1.687769e+02
3.288657e+06	-2.670939e+01	1.707308e+02	-3.107693e+01	-4.286497e+00	-9.509403e+01	4.801408e+01	-2.555115e+01	1.687788e+02
3.288688e+06	-2.670885e+01	1.707343e+02	-3.107716e+01	-4.294036e+00	-9.606714e+01	6.829524e+01	-2.555250e+01	1.687806e+02
3.288719e+06	-2.670830e+01	1.707378e+02	-3.107739e+01	-4.301576e+00	-9.583734e+01	9.048012e+01	-2.555384e+01	1.687824e+02
3.288750e+06	-2.670778e+01	1.707411e+02	-3.107757e+01	-4.308989e+00	-9.460276e+01	1.086433e+02	-2.555515e+01	1.687843e+02
3.288782e+06	-2.670837e+01	1.707347e+02	-3.107457e+01	-4.308613e+00	-9.556790e+01	1.017695e+02	-2.555389e+01	1.687896e+02
3.288813e+06	-2.670895e+01	1.707284e+02	-3.107157e+01	-4.308237e+00	-9.647826e+01	9.322785e+01	-2.555263e+01	1.687949e+02
3.288844e+06	-2.670954e+01	1.707220e+02	-3.106857e+01	-4.307862e+00	-9.723297e+01	8.286317e+01	-2.555138e+01	1.688002e+02
3.288876e+06	-2.671013e+01	1.707156e+02	-3.106557e+01	-4.307487e+00	-9.770078e+01	7.091049e+01	-2.555012e+01	1.688055e+02
3.288907e+06	-2.671071e+01	1.707094e+02	-3.106265e+01	-4.307522e+00	-9.777386e+01	5.887845e+01	-2.554889e+01	1.688107e+02
3.288938e+06	-2.671114e+01	1.707093e+02	-3.106322e+01	-4.324234e+00	-9.740097e+01	7.470737e+01	-2.554909e+01	1.688090e+02
3.288969e+06	-2.671157e+01	1.707092e+02	-3.106379e+01	-4.340948e+00	-9.649799e+01	8.832864e+01	-2.554929e+01	1.688073e+02
3.289000e+06	-2.671200e+01	1.707091e+02	-3.106436e+01	-4.357664e+00	-9.532984e+01	9.902132e+01	-2.554949e+01	1.688056e+02
3.289032e+06	-2.671243e+01	1.707090e+02	-3.106492e+01	-4.374382e+00	-9.409713e+01	1.071116e+02	-2.554968e+01	1.688040e+02
3.289063e+06	-2.671286e+01	1.707089e+02	-3.106549e+01	-4.391103e+00	-9.290237e+01	1.132206e+02	-2.554988e+01	1.688023e+02
3.289094e+06	-2.671234e+01	1.707074e+02	-3.106665e+01	-4.385115e+00	-9.651496e+01	1.023145e+02	-2.554902e+01	1.688017e+02
3.289126e+06	-2.671181e+01	1.707060e+02	-3.106781e+01	-4.379126e+00	-1.011494e+02	7.304231e+01	-2.554817e+01	1.688011e+02
3.289157e+06	-2.671129e+01	1.707045e+02	-3.106896e+01	-4.373135e+00	-1.013362e+02	1.463483e+01	-2.554731e+01	1.688004e+02
3.289188e+06	-2.671077e+01	1.707031e+02	-3.107012e+01	-4.367143e+00	-9.670790e+01	-1.608307e+01	-2.554646e+01	1.687998e+02
3.289219e+06	-2.671024e+01	1.707016e+02	-3.107127e+01	-4.361204e+00	-9.306692e+01	-2.739369e+01	-2.554561e+01	1.687992e+02
3.289250e+06	-2.670943e+01	1.707001e+02	-3.107141e+01	-4.362126e+00	-9.311866e+01	-3.157701e+01	-2.554528e+01	1.688045e+02
3.289282e+06	-2.670862e+01	1.706986e+02	-3.107154e+01	-4.363047e+00	-9.312385e+01	-3.578789e+01	-2.554496e+01	1.688097e+02
3.289313e+06	-2.670780e+01	1.706971e+02	-3.107167e+01	-4.363969e+00	-9.308232e+01	-3.998116e+01	-2.554463e+01	1.688149e+02
3.289344e+06	-2.670699e+01	1.706957e+02	-3.107181e+01	-4.364890e+00	-9.299538e+01	-4.411276e+01	-2.554431e+01	1.688201e+02
3.289376e+06	-2.670620e+01	1.706943e+02	-3.107195e+01	-4.365677e+00	-9.289360e+01	-4.797760e+01	-2.554401e+01	1.688251e+02
3.289407e+06	-2.670664e+01	1.707010e+02	-3.107284e+01	-4.358154e+00	-9.457712e+01	-4.024335e+01	-2.554520e+01	1.688163e+02
3.289438e+06	-2.670708e+01	1.707077e+02	-3.107373e+01	-4.350630e+00	-9.636753e+01	-2.866207e+01	-2.554639e+01	1.688075e+02
3.289469e+06	-2.670753e+01	1.707144e+02	-3.107462e+01	-4.343105e+00	-9.794982e+01	-1.144393e+01	-2.554758e+01	1.687987e+02
3.289500e+06	-2.670797e+01	1.707211e+02	-3.107550e+01	-4.335578e+00	-9.862825e+01	1.113843e+01	-2.554877e+01	1.687900e+02
3.289532e+06	-2.670840e+01	1.707276e+02	-3.107640e+01	-4.328435e+00	-9.797423e+01	3.300339e+01	-2.554994e+01	1.687814e+02
3.289563e+06	-2.670837e+01	1.707248e+02	-3.107756e+01	-4.336965e+00	-9.870409e+01	2.559626e+01	-2.555044e+01	1.687812e+02
3.289594e+06	-2.670834e+01	1.707220e+02	-3.107872e+01	-4.345498e+00	-9.931554e+01	1.694346e+01	-2.555093e+01	1.687810e+02
3.289626e+06	-2.670830e+01	1.707192e+02	-3.107988e+01	-4.354034e+00	-9.973323e+01	7.192199e+00	-2.555143e+01	1.687808e+02
3.289657e+06	-2.670827e+01	1.707163e+02	-3.108104e+01	-4.362571e+00	-9.989005e+01	-3.233063e+00	-2.555192e+01	1.687806e+02
3.289688e+06	-2.670824e+01	1.707135e+02	-3.108220e+01	-4.371111e+00	-9.975691e+01	-1.368710e+01	-2.555242e+01	1.687804e+02
3.289719e+06	-2.670864e+01	1.707170e+02	-3.108007e+01	-4.349352e+00	-9.991808e+01	1.272320e+01	-2.555166e+01	1.687894e+02
3.289750e+06	-2.670904e+01	1.707205e+02	-3.107795e+01	-4.327603e+00	-9.849360e+01	3.534136e+01	-2.555090e+01	1.687985e+02
3.289782e+06	-2.670944e+01	1.707240e+02	-3.107582e+01	-4.305865e+00	-9.648919e+01	5.036099e+01	-2.555014e+01	1.688075e+02
3.289813e+06	-2.670984e+01	1.707275e+02	-3.107369e+01	-4.284138e+00	-9.454929e+01	5.983291e+01	-2.554938e+01	1.688165e+02
3.289844e+06	-2.671025e+01	1.707310e+02	-3.107158e+01	-4.262716e+00	-9.285354e+01	6.600243e+01	-2.554862e+01	1.688255e+02
3.289876e+06	-2.671144e+01	1.707271e+02	-3.107152e+01	-4.277826e+00	-9.360748e+01	6.700029e+01	-2.554924e+01	1.688212e+02
3.289907e+06	-2.671263e+01	1.707233e+02	-3.107146e+01	-4.292937e+00	-9.442966e+01	6.819671e+01	-2.554985e+01	1.688170e+02
3.289938e+06	-2.671382e+01	1.707195e+02	-3.107140e+01	-4.308047e+00	-9.533276e+01	6.965608e+01	-2.555046e+01	1.688128e+02
3.289969e+06	-2.671502e+01	1.707157e+02	-3.107133e+01	-4.323157e+00	-9.633288e+01	7.147305e+01	-2.555107e+01	1.688086e+02
3.290000e+06	-2.671618e+01	1.707118e+02	-3.107125e+01	-4.338198e+00	-9.748285e+01	7.391401e+01	-2.555167e+01	1.688045e+02
3.290032e+06	-2.671576e+01	1.707054e+02	-3.107014e+01	-4.349030e+00	-1.011408e+02	8.983834e+01	-2.555144e+01	1.688103e+02
3.290063e+06	-2.671533e+01	1.706990e+02	-3.106903e+01	-4.359859e+00	-1.045060e+02	1.278539e+02	-2.555122e+01	1.688161e+02
3.290094e+06	-2.671491e+01	1.706926e+02	-3.106792e+01	-4.370685e+00	-1.026656e+02	1.750823e+02	-2.555100e+01	1.688219e+02
3.290126e+06	-2.671448e+01	1.706862e+02	-3.106681e+01	-4.381508e+00	-9.876172e+01	-1.626525e+02	-2.555078e+01	1.688277e+02
3.290157e+06	-2.671408e+01	1.706801e+02	-3.106579e+01	-4.391801e+00	-9.580344e+01	-1.529174e+02	-2.555056e+01	1.688334e+02
3.290188e+06	-2.671447e+01	1.706861e+02	-3.106839e+01	-4.380645e+00	-1.001577e+02	-1.411646e+02	-2.555046e+01	1.688334e+02
3.290219e+06	-2.671486e+01	1.706921e+02	-3.107099e+01	-4.369482e+00	-1.060025e+02	-9.993695e+01	-2.555037e+01	1.688335e+02
3.290250e+06	-2.671524e+01	1.706981e+02	-3.107360e+01	-4.358312e+00	-1.031131e+02	-3.209196e+01	-2.555028e+01	1.688335e+02
3.290282e+06	-2.671563e+01	1.707040e+02	-3.107620e+01	-4.347135e+00	-9.775695e+01	-1.108774e+01	-2.555018e+01	1.688336e+02
3.290313e+06	-2.671602e+01	1.707100e+02	-3.107880e+01	-4.335952e+00	-9.418564e+01	-3.719567e+00	-2.555009e+01	1.688336e+02
3.290344e+06	-2.671422e+01	1.707165e+02	-3.107678e+01	-4.340459e+00	-9.420760e+01	6.306160e+00	-2.554984e+01	1.688318e+02
3.290376e+06	-2.671241e+01	1.707230e+02	-3.107475e+01	-4.344963e+00	-9.397022e+01	1.608385e+01	-2.554960e+01	1.688301e+02
3.290407e+06	-2.671061e+01	1.707295e+02	-3.107273e+01	-4.349466e+00	-9.351236e+01	2.510287e+01	-2.554935e+01	1.688283e+02
3.290438e+06	-2.670881e+01	1.707360e+02	-3.107071e+01	-4.353967e+00	-9.289691e+01	3.306627e+01	-2.554910e+01	1.688265e+02
3.290469e+06	-2.670703e+01	1.707424e+02	-3.106871e+01	-4.358401e+00	-9.220102e+01	3.991136e+01	-2.554887e+01	1.688248e+02
3.290500e+06	-2.670826e+01	1.707335e+02	-3.107034e+01	-4.354912e+00	-9.308998e+01	4.885647e+01	-2.555029e+01	1.688249e+02
3.290532e+06	-2.670950e+01	1.707246e+02	-3.107197e+01	-4.351422e+00	-9.379594e+01	5.962424e+01	-2.555172e+01	1.688250e+02
3.290563e+06	-2.671073e+01	1.707156e+02	-3.107359e+01	-4.347930e+00	-9.418542e+01	7.186037e+01	-2.555314e+01	1.688250e+02
3.290594e+06	-2.671197e+01	1.707067e+02	-3.107522e+01	-4.344437e+00	-9.416196e+01	8.463186e+01	-2.555456e+01	1.688251e+02
3.290626e+06	-2.671317e+01	1.706980e+02	-3.107677e+01	-4.340865e+00	-9.373151e+01	9.668188e+01	-2.555596e+01	1.688251e+02
3.290657e+06	-2.671278e+01	1.707046e+02	-3.107335e+01	-4.332503e+00	-9.306207e+01	1.037326e+02	-2.555580e+01	1.688195e+02
3.290688e+06	-2.671239e+01	1.707112e+02	-3.106993e+01	-4.324148e+00	-9.233640e+01	1.097330e+02	-2.555564e+01	1.688138e+02
3.290719e+06	-2.671200e+01	1.707178e+02	-3.106651e+01	-4.315800e+00	-9.159232e+01	1.147966e+02	-2.555548e+01	1.688082e+02
3.290750e+06	-2.671161e+01	1.707244e+02	-3.106309e+01	-4.307458e+00	-9.085415e+01	1.190642e+02	-2.555532e+01	1.688025e+02
3.290782e+06	-2.671121e+01	1.707308e+02	-3.105982e+01	-4.299907e+00	-9.022561e+01	1.224902e+02	-2.555516e+01	1.687971e+02
3.290813e+06	-2.671035e+01	1.707280e+02	-3.106214e+01	-4.324273e+00	-9.389991e+01	1.159287e+02	-2.555474e+01	1.688016e+02
3.290844e+06	-2.670949e+01	1.707252e+02	-3.106446e+01	-4.348652e+00	-9.968156e+01	9.608752e+01	-2.555433e+01	1.688061e+02
3.290876e+06	-2.670864e+01	1.707224e+02	-3.106679e+01	-4.373045e+00	-1.030074e+02	2.050456e+01	-2.555391e+01	1.688107e+02
3.290907e+06	-2.670778e+01	1.707195e+02	-3.106911e+01	-4.397450e+00	-9.629549e+01	-2.047908e+01	-2.555350e+01	1.688152e+02
3.290938e+06	-2.670692e+01	1.707167e+02	-3.107143e+01	-4.421869e+00	-9.179466e+01	-3.087039e+01	-2.555308e+01	1.688197e+02
3.290969e+06	-2.670760e+01	1.707126e+02	-3.107154e+01	-4.418187e+00	-8.905854e+01	-2.141840e+01	-2.555287e+01	1.688300e+02
3.291000e+06	-2.670827e+01	1.707085e+02	-3.107165e+01	-4.414504e+00	-8.687560e+01	-1.606993e+01	-2.555266e+01	1.688404e+02
3.291032e+06	-2.670895e+01	1.707044e+02	-3.107176e+01	-4.410822e+00	-8.509336e+01	-1.268467e+01	-2.555245e+01	1.688507e+02
3.291063e+06	-2.670963e+01	1.707003e+02	-3.107187e+01	-4.407139e+00	-8.359775e+01	-1.036426e+01	-2.555224e+01	1.688610e+02
3.291094e+06	-2.671031e+01	1.706963e+02	-3.107197e+01	-4.403398e+00	-8.233488e+01	-8.715985e+00	-2.555203e+01	1.688713e+02
3.291126e+06	-2.671110e+01	1.707109e+02	-3.107052e+01	-4.392441e+00	-8.396236e+01	-1.245219e+01	-2.555187e+01	1.688669e+02
3.291157e+06	-2.671189e+01	1.707254e+02	-3.106907e+01	-4.381487e+00	-8.589669e+01	-1.808746e+01	-2.555170e+01	1.688626e+02
3.291188e+06	-2.671268e+01	1.707399e+02	-3.106762e+01	-4.370537e+00	-8.820669e+01	-2.729838e+01	-2.555154e+01	1.688582e+02
3.291219e+06	-2.671347e+01	1.707545e+02	-3.106617e+01	-4.359591e+00	-9.079693e+01	-4.364200e+01	-2.555138e+01	1.688539e+02
3.291250e+06	-2.671424e+01	1.707688e+02	-3.106473e+01	-4.348678e+00	-9.272263e+01	-7.109272e+01	-2.555122e+01	1.688495e+02
3.291282e+06	-2.671383e+01	1.707694e+02	-3.106421e+01	-4.339623e+00	-9.417347e+01	-5.495185e+01	-2.555129e+01	1.688432e+02
3.291313e+06	-2.671343e+01	1.707699e+02	-3.106369e+01	-4.330569e+00	-9.484974e+01	-3.414980e+01	-2.555136e+01	1.688368e+02
3.291344e+06	-2.671302e+01	1.707705e+02	-3.106318e+01	-4.321516e+00	-9.433252e+01	-1.294493e+01	-2.555143e+01	1.688305e+02
3.291376e+06	-2.671261e+01	1.707711e+02	-3.106266e+01	-4.312464e+00	-9.295224e+01	3.956249e+00	-2.555149e+01	1.688242e+02
3.291407e+06	-2.671219e+01	1.707715e+02	-3.106214e+01	-4.303755e+00	-9.135747e+01	1.543423e+01	-2.555154e+01	1.688180e+02
3.291438e+06	-2.671142e+01	1.707653e+02	-3.106183e+01	-4.308904e+00	-9.207370e+01	9.965118e+00	-2.555075e+01	1.688199e+02
3.291469e+06	-2.671064e+01	1.707592e+02	-3.106152e+01	-4.314053e+00	-9.275275e+01	3.539250e+00	-2.554996e+01	1.688217e+02
3.291500e+06	-2.670987e+01	1.707531e+02	-3.106121e+01	-4.319202e+00	-9.335180e+01	-3.910652e+00	-2.554917e+01	1.688236e+02
3.291532e+06	-2.670909e+01	1.707469e+02	-3.106089e+01	-4.324351e+00	-9.381676e+01	-1.233806e+01	-2.554838e+01	1.688254e+02
3.291563e+06	-2.670832e+01	1.707408e+02	-3.106058e+01	-4.329499e+00	-9.409191e+01	-2.152124e+01	-2.554759e+01	1.688273e+02
3.291594e+06	-2.670915e+01	1.707411e+02	-3.106057e+01	-4.320772e+00	-9.639954e+01	-1.194755e+01	-2.554899e+01	1.688269e+02
3.291626e+06	-2.670998e+01	1.707415e+02	-3.106056e+01	-4.312045e+00	-9.894377e+01	4.955597e+00	-2.555039e+01	1.688264e+02
3.291657e+06	-2.671081e+01	1.707418e+02	-3.106056e+01	-4.303317e+00	-1.007039e+02	3.346140e+01	-2.555179e+01	1.688260e+02
3.291688e+06	-2.671164e+01	1.707422e+02	-3.106055e+01	-4.294590e+00	-9.993003e+01	6.578053e+01	-2.555319e+01	1.688255e+02
3.291719e+06	-2.671246e+01	1.707425e+02	-3.106054e+01	-4.285990e+00	-9.751369e+01	8.714259e+01	-2.555458e+01	1.688252e+02
3.291750e+06	-2.671257e+01	1.707441e+02	-3.106114e+01	-4.293087e+00	-9.464202e+01	6.496871e+01	-2.555429e+01	1.688322e+02
3.291782e+06	-2.671268e+01	1.707458e+02	-3.106173e+01	-4.300184e+00	-9.195897e+01	5.348395e+01	-2.555399e+01	1.688393e+02
3.291813e+06	-2.671279e+01	1.707474e+02	-3.106233e+01	-4.307283e+00	-8.975550e+01	4.697037e+01	-2.555370e+01	1.688464e+02
3.291844e+06	-2.671290e+01	1.707490e+02	-3.106292e+01	-4.314383e+00	-8.794173e+01	4.287407e+01	-2.555341e+01	1.688535e+02
3.291876e+06	-2.671299e+01	1.707506e+02	-3.106349e+01	-4.321546e+00	-8.648575e+01	4.005536e+01	-2.555311e+01	1.688604e+02
3.291907e+06	-2.671197e+01	1.707488e+02	-3.106199e+01	-4.332548e+00	-8.998535e+01	3.360369e+01	-2.555249e+01	1.688537e+02
3.291938e+06	-2.671095e+01	1.707471e+02	-3.106049e+01	-4.343545e+00	-9.533526e+01	1.546923e+01	-2.555186e+01	1.688471e+02
3.291969e+06	-2.670993e+01	1.707454e+02	-3.105898e+01	-4.354539e+00	-9.942540e+01	-5.187018e+01	-2.555124e+01	1.688404e+02
3.292000e+06	-2.670891e+01	1.707437e+02	-3.105748e+01	-4.365529e+00	-9.330113e+01	-9.876780e+01	-2.555061e+01	1.688338e+02
3.292032e+06	-2.670792e+01	1.707421e+02	-3.105606e+01	-4.376495e+00	-8.887812e+01	-1.108645e+02	-2.555001e+01	1.688271e+02
3.292063e+06	-2.670807e+01	1.707442e+02	-3.105776e+01	-4.386604e+00	-9.479270e+01	-1.130870e+02	-2.555031e+01	1.688190e+02
3.292094e+06	-2.670821e+01	1.707464e+02	-3.105946e+01	-4.396717e+00	-1.166410e+02	1.754892e+02	-2.555062e+01	1.688110e+02
3.292126e+06	-2.670835e+01	1.707486e+02	-3.106117e+01	-4.406835e+00	-9.514006e+01	7.609056e+01	-2.555092e+01	1.688029e+02
3.292157e+06	-2.670850e+01	1.707508e+02	-3.106287e+01	-4.416956e+00	-8.905262e+01	7.373030e+01	-2.555123e+01	1.687949e+02
3.292188e+06	-2.670864e+01	1.707530e+02	-3.106457e+01	-4.427081e+00	-8.550540e+01	7.295206e+01	-2.555153e+01	1.687868e+02
3.292219e+06	-2.670796e+01	1.707453e+02	-3.106505e+01	-4.406682e+00	-8.729232e+01	6.514434e+01	-2.555217e+01	1.687989e+02
3.292250e+06	-2.670729e+01	1.707377e+02	-3.106553e+01	-4.386281e+00	-8.922447e+01	5.311257e+01	-2.555281e+01	1.688109e+02
3.292282e+06	-2.670661e+01	1.707300e+02	-3.106602e+01	-4.365878e+00	-9.094065e+01	3.461476e+01	-2.555345e+01	1.688230e+02
3.292313e+06	-2.670593e+01	1.707223e+02	-3.106650e+01	-4.345472e+00	-9.158247e+01	1.001834e+01	-2.555409e+01	1.688350e+02
3.292344e+06	-2.670527e+01	1.707147e+02	-3.106696e+01	-4.325216e+00	-9.065089e+01	-1.347809e+01	-2.555472e+01	1.688470e+02
3.292376e+06	-2.670694e+01	1.707152e+02	-3.106582e+01	-4.323686e+00	-9.084160e+01	-8.875005e+00	-2.555434e+01	1.688453e+02
3.292407e+06	-2.670861e+01	1.707157e+02	-3.106468e+01	-4.322156e+00	-9.097709e+01	-4.095362e+00	-2.555396e+01	1.688437e+02
3.292438e+06	-2.671027e+01	1.707162e+02	-3.106354e+01	-4.320627e+00	-9.105185e+01	8.016714e-01	-2.555359e+01	1.688421e+02
3.292469e+06	-2.671194e+01	1.707167e+02	-3.106240e+01	-4.319098e+00	-9.106266e+01	5.747307e+00	-2.555321e+01	1.688404e+02
3.292500e+06	-2.671358e+01	1.707172e+02	-3.106131e+01	-4.317746e+00	-9.103138e+01	1.076478e+01	-2.555284e+01	1.688388e+02
3.292532e+06	-2.671327e+01	1.707201e+02	-3.106311e+01	-4.327261e+00	-9.223780e+01	2.342013e+01	-2.555271e+01	1.688377e+02
3.292563e+06	-2.671297e+01	1.707229e+02	-3.106491e+01	-4.336779e+00	-9.301650e+01	3.940245e+01	-2.555259e+01	1.688365e+02
3.292594e+06	-2.671266e+01	1.707258e+02	-3.106672e+01	-4.346301e+00	-9.305872e+01	5.701827e+01	-2.555246e+01	1.688354e+02
3.292626e+06	-2.671236e+01	1.707286e+02	-3.106852e+01	-4.355828e+00	-9.234444e+01	7.328447e+01	-2.555233e+01	1.688343e+02
3.292657e+06	-2.671202e+01	1.707314e+02	-3.107024e+01	-4.365241e+00	-9.120052e+01	8.584742e+01	-2.555222e+01	1.688333e+02
3.292688e+06	-2.671030e+01	1.707319e+02	-3.106851e+01	-4.369901e+00	-9.124518e+01	7.810446e+01	-2.555273e+01	1.688383e+02
3.292719e+06	-2.670858e+01	1.707323e+02	-3.106679e+01	-4.374560e+00	-9.113212e+01	7.042261e+01	-2.555325e+01	1.688433e+02
3.292750e+06	-2.670686e+01	1.707328e+02	-3.106506e+01	-4.379216e+00	-9.087307e+01	6.306473e+01	-2.555376e+01	1.688483e+02
3.292782e+06	-2.670515e+01	1.707332e+02	-3.106334e+01	-4.383871e+00	-9.049242e+01	5.623187e+01	-2.555427e+01	1.688533e+02
3.292813e+06	-2.670343e+01	1.707337e+02	-3.106161e+01	-4.388524e+00	-9.002051e+01	5.004044e+01	-2.555478e+01	1.688583e+02
3.292844e+06	-2.670406e+01	1.707403e+02	-3.106299e+01	-4.378267e+00	-9.254865e+01	3.769516e+01	-2.555344e+01	1.688523e+02
3.292876e+06	-2.670468e+01	1.707468e+02	-3.106437e+01	-4.368007e+00	-9.504986e+01	1.526931e+01	-2.555209e+01	1.688463e+02
3.292907e+06	-2.670531e+01	1.707534e+02	-3.106576e+01	-4.357743e+00	-9.576899e+01	-1.828379e+01	-2.555075e+01	1.688403e+02
3.292938e+06	-2.670594e+01	1.707600e+02	-3.106714e+01	-4.347477e+00	-9.384094e+01	-4.702770e+01	-2.554940e+01	1.688343e+02
3.292969e+06	-2.670656e+01	1.707664e+02	-3.106850e+01	-4.337169e+00	-9.125055e+01	-6.349270e+01	-2.554807e+01	1.688283e+02
3.293000e+06	-2.670669e+01	1.707563e+02	-3.106662e+01	-4.322220e+00	-9.413431e+01	-6.891498e+01	-2.554860e+01	1.688305e+02
3.293032e+06	-2.670682e+01	1.707462e+02	-3.106475e+01	-4.307277e+00	-9.819621e+01	-8.105079e+01	-2.554913e+01	1.688327e+02
3.293063e+06	-2.670695e+01	1.707361e+02	-3.106288e+01	-4.292340e+00	-1.033429e+02	-1.184173e+02	-2.554965e+01	1.688349e+02
3.293094e+06	-2.670708e+01	1.707260e+02	-3.106100e+01	-4.277410e+00	-1.015207e+02	1.787201e+02	-2.555018e+01	1.688371e+02
3.293126e+06	-2.670722e+01	1.707162e+02	-3.105915e+01	-4.263077e+00	-9.662856e+01	1.548066e+02	-2.555072e+01	1.688393e+02
3.293157e+06	-2.670761e+01	1.707252e+02	-3.105854e+01	-4.285089e+00	-1.007890e+02	1.285013e+02	-2.555192e+01	1.688400e+02
3.293188e+06	-2.670801e+01	1.707342e+02	-3.105794e+01	-4.307097e+00	-1.016648e+02	7.618984e+01	-2.555313e+01	1.688406e+02
3.293219e+06	-2.670840e+01	1.707432e+02	-3.105733e+01	-4.329103e+00	-9.765332e+01	4.271686e+01	-2.555434e+01	1.688412e+02
3.293250e+06	-2.670880e+01	1.707522e+02	-3.105672e+01	-4.351105e+00	-9.404627e+01	2.945322e+01	-2.555554e+01	1.688419e+02
3.293282e+06	-2.670918e+01	1.707608e+02	-3.105615e+01	-4.372271e+00	-9.142752e+01	2.342632e+01	-2.555670e+01	1.688425e+02
3.293313e+06	-2.670930e+01	1.707534e+02	-3.105745e+01	-4.359552e+00	-9.273617e+01	3.454899e+01	-2.555571e+01	1.688431e+02
3.293344e+06	-2.670941e+01	1.707460e+02	-3.105875e+01	-4.346829e+00	-9.376771e+01	4.917805e+01	-2.555473e+01	1.688437e+02
3.293376e+06	-2.670953e+01	1.707386e+02	-3.106005e+01	-4.334103e+00	-9.417860e+01	6.652669e+01	-2.555375e+01	1.688443e+02
3.293407e+06	-2.670964e+01	1.707312e+02	-3.106134e+01	-4.321373e+00	-9.377951e+01	8.389966e+01	-2.555276e+01	1.688449e+02
3.293438e+06	-2.670976e+01	1.707238e+02	-3.106264e+01	-4.308639e+00	-9.275480e+01	9.858121e+01	-2.555178e+01	1.688455e+02
3.293469e+06	-2.670942e+01	1.707248e+02	-3.106369e+01	-4.308906e+00	-9.361072e+01	9.163723e+01	-2.555201e+01	1.688497e+02
3.293500e+06	-2.670907e+01	1.707259e+02	-3.106474e+01	-4.309172e+00	-9.438875e+01	8.324657e+01	-2.555225e+01	1.688539e+02
