# Hz S dB R 50.000
3.288438e+06	-2.670618e+01	1.707254e+02	-3.107029e+01	-4.051053e+00	-9.988692e+01	9.642083e+01	-2.557503e+01	1.688744e+02
3.288469e+06	-2.670611e+01	1.707305e+02	-3.106993e+01	-4.055243e+00	-9.767937e+01	9.702943e+01	-2.557572e+01	1.688711e+02
3.288500e+06	-2.670603e+01	1.707357e+02	-3.106957e+01	-4.059432e+00	-9.592021e+01	9.741490e+01	-2.557640e+01	1.688678e+02
3.288532e+06	-2.670596e+01	1.707408e+02	-3.106921e+01	-4.063621e+00	-9.445779e+01	9.768092e+01	-2.557709e+01	1.688644e+02
3.288563e+06	-2.670588e+01	1.707460e+02	-3.106886e+01	-4.067809e+00	-9.320637e+01	9.787555e+01	-2.557778e+01	1.688611e+02
3.288594e+06	-2.670582e+01	1.707512e+02	-3.106851e+01	-4.071974e+00	-9.213715e+01	9.803942e+01	-2.557846e+01	1.688578e+02
3.288626e+06	-2.670690e+01	1.707585e+02	-3.107028e+01	-4.073179e+00	-9.444438e+01	1.007098e+02	-2.557874e+01	1.688611e+02
3.288657e+06	-2.670799e+01	1.707658e+02	-3.107205e+01	-4.074384e+00	-9.754481e+01	1.056912e+02	-2.557901e+01	1.688644e+02
3.288688e+06	-2.670907e+01	1.707731e+02	-3.107382e+01	-4.075590e+00	-1.021331e+02	1.178390e+02	-2.557929e+01	1.688676e+02
3.288719e+06	-2.671015e+01	1.707805e+02	-3.107559e+01	-4.076796e+00	-1.082531e+02	1.640581e+02	-2.557956e+01	1.688709e+02
3.288750e+06	-2.671121e+01	1.707876e+02	-3.107733e+01	-4.077869e+00	-1.043442e+02	-1.288538e+02	-2.557982e+01	1.688741e+02
3.288782e+06	-2.671035e+01	1.707804e+02	-3.107764e+01	-4.070662e+00	-1.018512e+02	-1.301159e+02	-2.557921e+01	1.688718e+02
3.288813e+06	-2.670950e+01	1.707733e+02	-3.107794e+01	-4.063454e+00	-9.991445e+01	-1.308738e+02	-2.557859e+01	1.688695e+02
3.288844e+06	-2.670865e+01	1.707661e+02	-3.107824e+01	-4.056246e+00	-9.833094e+01	-1.313791e+02	-2.557798e+01	1.688673e+02
3.288876e+06	-2.670779e+01	1.707590e+02	-3.107854e+01	-4.049038e+00	-9.699168e+01	-1.317400e+02	-2.557737e+01	1.688650e+02
3.288907e+06	-2.670694e+01	1.707522e+02	-3.107877e+01	-4.042412e+00	-9.594086e+01	-1.322774e+02	-2.557678e+01	1.688628e+02
3.288938e+06	-2.670619e+01	1.707590e+02	-3.107613e+01	-4.059499e+00	-9.993935e+01	-1.507532e+02	-2.557738e+01	1.688624e+02
3.288969e+06	-2.670543e+01	1.707658e+02	-3.107349e+01	-4.076576e+00	-1.029562e+02	1.639535e+02	-2.557797e+01	1.688620e+02
3.289000e+06	-2.670468e+01	1.707726e+02	-3.107085e+01	-4.093642e+00	-9.990153e+01	1.189111e+02	-2.557857e+01	1.688617e+02
3.289032e+06	-2.670392e+01	1.707794e+02	-3.106821e+01	-4.110698e+00	-9.591071e+01	1.005844e+02	-2.557916e+01	1.688613e+02
3.289063e+06	-2.670317e+01	1.707862e+02	-3.106557e+01	-4.127744e+00	-9.289911e+01	9.251259e+01	-2.557976e+01	1.688609e+02
3.289094e+06	-2.670300e+01	1.707744e+02	-3.106779e+01	-4.133841e+00	-9.430422e+01	8.366450e+01	-2.557835e+01	1.688640e+02
3.289126e+06	-2.670284e+01	1.707626e+02	-3.107002e+01	-4.139941e+00	-9.563772e+01	7.149359e+01	-2.557693e+01	1.688670e+02
3.289157e+06	-2.670267e+01	1.707507e+02	-3.107225e+01	-4.146045e+00	-9.660417e+01	5.554687e+01	-2.557552e+01	1.688701e+02
3.289188e+06	-2.670251e+01	1.707389e+02	-3.107447e+01	-4.152151e+00	-9.682459e+01	3.718779e+01	-2.557411e+01	1.688732e+02
3.289219e+06	-2.670234e+01	1.707272e+02	-3.107669e+01	-4.158122e+00	-9.620050e+01	1.995374e+01	-2.557271e+01	1.688762e+02
3.289250e+06	-2.670232e+01	1.707320e+02	-3.107747e+01	-4.146816e+00	-9.662990e+01	3.430370e+01	-2.557309e+01	1.688766e+02
3.289282e+06	-2.670230e+01	1.707368e+02	-3.107825e+01	-4.135508e+00	-9.649169e+01	4.915396e+01	-2.557346e+01	1.688769e+02
3.289313e+06	-2.670229e+01	1.707415e+02	-3.107903e+01	-4.124199e+00	-9.583471e+01	6.267911e+01	-2.557383e+01	1.688773e+02
3.289344e+06	-2.670227e+01	1.707463e+02	-3.107981e+01	-4.112887e+00	-9.485225e+01	7.384470e+01	-2.557420e+01	1.688776e+02
3.289376e+06	-2.670227e+01	1.707511e+02	-3.108053e+01	-4.101781e+00	-9.378168e+01	8.250170e+01	-2.557457e+01	1.688780e+02
3.289407e+06	-2.670339e+01	1.707576e+02	-3.107761e+01	-4.103494e+00	-9.565878e+01	8.499053e+01	-2.557484e+01	1.688783e+02
3.289438e+06	-2.670451e+01	1.707640e+02	-3.107469e+01	-4.105206e+00	-9.802148e+01	8.904759e+01	-2.557512e+01	1.688786e+02
3.289469e+06	-2.670563e+01	1.707705e+02	-3.107177e+01	-4.106916e+00	-1.011581e+02	9.670545e+01	-2.557539e+01	1.688790e+02
3.289500e+06	-2.670676e+01	1.707770e+02	-3.106886e+01	-4.108626e+00	-1.054703e+02	1.150148e+02	-2.557566e+01	1.688793e+02
3.289532e+06	-2.670783e+01	1.707833e+02	-3.106608e+01	-4.110454e+00	-1.089914e+02	1.633444e+02	-2.557591e+01	1.688796e+02
3.289563e+06	-2.670718e+01	1.707812e+02	-3.106890e+01	-4.117148e+00	-1.171373e+02	-1.567942e+02	-2.557565e+01	1.688777e+02
3.289594e+06	-2.670653e+01	1.707792e+02	-3.107173e+01	-4.123847e+00	-1.128526e+02	-6.816609e+01	-2.557538e+01	1.688759e+02
3.289626e+06	-2.670588e+01	1.707772e+02	-3.107456e+01	-4.130550e+00	-1.065035e+02	-5.107521e+01	-2.557511e+01	1.688741e+02
3.289657e+06	-2.670523e+01	1.707751e+02	-3.107739e+01	-4.137257e+00	-1.027175e+02	-4.582523e+01	-2.557485e+01	1.688722e+02
3.289688e+06	-2.670458e+01	1.707731e+02	-3.108022e+01	-4.143969e+00	-1.000640e+02	-4.332652e+01	-2.557458e+01	1.688704e+02
3.289719e+06	-2.670465e+01	1.707600e+02	-3.108151e+01	-4.120977e+00	-1.017212e+02	-6.040388e+01	-2.557376e+01	1.688781e+02
3.289750e+06	-2.670471e+01	1.707470e+02	-3.108280e+01	-4.097977e+00	-1.024929e+02	-8.325970e+01	-2.557295e+01	1.688858e+02
3.289782e+06	-2.670478e+01	1.707339e+02	-3.108409e+01	-4.074971e+00	-1.018257e+02	-1.064082e+02	-2.557213e+01	1.688935e+02
3.289813e+06	-2.670485e+01	1.707209e+02	-3.108537e+01	-4.051958e+00	-1.002074e+02	-1.239958e+02	-2.557131e+01	1.689012e+02
3.289844e+06	-2.670492e+01	1.707080e+02	-3.108661e+01	-4.029197e+00	-9.840328e+01	-1.356326e+02	-2.557051e+01	1.689087e+02
3.289876e+06	-2.670559e+01	1.707158e+02	-3.108187e+01	-4.038470e+00	-9.998999e+01	-1.342875e+02	-2.557153e+01	1.689022e+02
3.289907e+06	-2.670626e+01	1.707237e+02	-3.107714e+01	-4.047733e+00	-1.019238e+02	-1.322700e+02	-2.557256e+01	1.688956e+02
3.289938e+06	-2.670693e+01	1.707315e+02	-3.107240e+01	-4.056986e+00	-1.043915e+02	-1.289198e+02	-2.557359e+01	1.688890e+02
3.289969e+06	-2.670761e+01	1.707394e+02	-3.106767e+01	-4.066229e+00	-1.077649e+02	-1.223458e+02	-2.557461e+01	1.688825e+02
3.290000e+06	-2.670826e+01	1.707471e+02	-3.106305e+01	-4.075396e+00	-1.125298e+02	-1.026818e+02	-2.557562e+01	1.688761e+02
3.290032e+06	-2.670781e+01	1.707487e+02	-3.106516e+01	-4.080519e+00	-1.014664e+02	-5.039556e+01	-2.557560e+01	1.688806e+02
3.290063e+06	-2.670736e+01	1.707503e+02	-3.106727e+01	-4.085645e+00	-9.615968e+01	-4.349495e+01	-2.557557e+01	1.688850e+02
3.290094e+06	-2.670691e+01	1.707518e+02	-3.106937e+01	-4.090774e+00	-9.285743e+01	-4.093911e+01	-2.557555e+01	1.688895e+02
3.290126e+06	-2.670646e+01	1.707534e+02	-3.107148e+01	-4.095905e+00	-9.046374e+01	-3.961285e+01	-2.557552e+01	1.688940e+02
3.290157e+06	-2.670603e+01	1.707548e+02	-3.107352e+01	-4.100649e+00	-8.864395e+01	-3.855099e+01	-2.557552e+01	1.688983e+02
3.290188e+06	-2.670624e+01	1.707528e+02	-3.107288e+01	-4.089582e+00	-8.916377e+01	-2.665457e+01	-2.557654e+01	1.688939e+02
3.290219e+06	-2.670646e+01	1.707507e+02	-3.107223e+01	-4.078516e+00	-8.928859e+01	-1.382659e+01	-2.557756e+01	1.688894e+02
3.290250e+06	-2.670667e+01	1.707486e+02	-3.107158e+01	-4.067452e+00	-8.898445e+01	-1.265057e+00	-2.557858e+01	1.688850e+02
3.290282e+06	-2.670689e+01	1.707465e+02	-3.107094e+01	-4.056390e+00	-8.833068e+01	9.966699e+00	-2.557959e+01	1.688805e+02
3.290313e+06	-2.670710e+01	1.707444e+02	-3.107029e+01	-4.045329e+00	-8.746238e+01	1.937503e+01	-2.558061e+01	1.688761e+02
3.290344e+06	-2.670715e+01	1.707474e+02	-3.106952e+01	-4.055444e+00	-8.865064e+01	2.514604e+01	-2.557941e+01	1.688811e+02
3.290376e+06	-2.670719e+01	1.707505e+02	-3.106875e+01	-4.065558e+00	-8.989115e+01	3.278871e+01	-2.557821e+01	1.688862e+02
3.290407e+06	-2.670724e+01	1.707535e+02	-3.106798e+01	-4.075669e+00	-9.109725e+01	4.294095e+01	-2.557702e+01	1.688912e+02
3.290438e+06	-2.670728e+01	1.707566e+02	-3.106721e+01	-4.085779e+00	-9.208689e+01	5.605917e+01	-2.557582e+01	1.688962e+02
3.290469e+06	-2.670732e+01	1.707596e+02	-3.106646e+01	-4.095789e+00	-9.260383e+01	7.150971e+01	-2.557464e+01	1.689012e+02
3.290500e+06	-2.670622e+01	1.707632e+02	-3.106742e+01	-4.093712e+00	-9.432898e+01	6.261941e+01	-2.557563e+01	1.688996e+02
3.290532e+06	-2.670512e+01	1.707667e+02	-3.106838e+01	-4.091633e+00	-9.608471e+01	4.927966e+01	-2.557662e+01	1.688980e+02
3.290563e+06	-2.670402e+01	1.707702e+02	-3.106934e+01	-4.089555e+00	-9.742625e+01	3.003653e+01	-2.557762e+01	1.688964e+02
3.290594e+06	-2.670292e+01	1.707737e+02	-3.107030e+01	-4.087475e+00	-9.762770e+01	6.854904e+00	-2.557861e+01	1.688949e+02
3.290626e+06	-2.670186e+01	1.707772e+02	-3.107126e+01	-4.085375e+00	-9.656979e+01	-1.381366e+01	-2.557958e+01	1.688933e+02
3.290657e+06	-2.670284e+01	1.707773e+02	-3.107255e+01	-4.081975e+00	-9.672789e+01	-2.220535e+01	-2.557905e+01	1.688937e+02
3.290688e+06	-2.670383e+01	1.707774e+02	-3.107385e+01	-4.078575e+00	-9.669668e+01	-3.072144e+01	-2.557852e+01	1.688941e+02
3.290719e+06	-2.670481e+01	1.707775e+02	-3.107514e+01	-4.075174e+00	-9.648011e+01	-3.899632e+01	-2.557799e+01	1.688946e+02
3.290750e+06	-2.670580e+01	1.707776e+02	-3.107644e+01	-4.071772e+00	-9.610395e+01	-4.672190e+01	-2.557747e+01	1.688950e+02
3.290782e+06	-2.670675e+01	1.707777e+02	-3.107766e+01	-4.068475e+00	-9.564269e+01	-5.322640e+01	-2.557700e+01	1.688953e+02
3.290813e+06	-2.670638e+01	1.707769e+02	-3.107615e+01	-4.069520e+00	-9.636643e+01	-3.853750e+01	-2.557888e+01	1.688928e+02
3.290844e+06	-2.670601e+01	1.707761e+02	-3.107463e+01	-4.070565e+00	-9.647257e+01	-2.233740e+01	-2.558076e+01	1.688903e+02
3.290876e+06	-2.670565e+01	1.707754e+02	-3.107312e+01	-4.071609e+00	-9.591748e+01	-6.974074e+00	-2.558264e+01	1.688878e+02
3.290907e+06	-2.670528e+01	1.707746e+02	-3.107160e+01	-4.072653e+00	-9.490779e+01	5.809095e+00	-2.558453e+01	1.688853e+02
3.290938e+06	-2.670491e+01	1.707738e+02	-3.107009e+01	-4.073697e+00	-9.370274e+01	1.568197e+01	-2.558641e+01	1.688828e+02
3.290969e+06	-2.670489e+01	1.707673e+02	-3.106957e+01	-4.068194e+00	-9.511559e+01	1.972648e+01	-2.558429e+01	1.688862e+02
3.291000e+06	-2.670487e+01	1.707609e+02	-3.106905e+01	-4.062692e+00	-9.672932e+01	2.546182e+01	-2.558217e+01	1.688897e+02
3.291032e+06	-2.670484e+01	1.707544e+02	-3.106853e+01	-4.057191e+00	-9.855061e+01	3.399660e+01	-2.558004e+01	1.688931e+02
3.291063e+06	-2.670482e+01	1.707479e+02	-3.106801e+01	-4.051690e+00	-1.004720e+02	4.719644e+01	-2.557792e+01	1.688966e+02
3.291094e+06	-2.670480e+01	1.707415e+02	-3.106750e+01	-4.046250e+00	-1.020244e+02	6.672506e+01	-2.557582e+01	1.689000e+02
3.291126e+06	-2.670450e+01	1.707455e+02	-3.106892e+01	-4.048269e+00	-1.010473e+02	4.107605e+01	-2.557596e+01	1.688961e+02
3.291157e+06	-2.670420e+01	1.707495e+02	-3.107034e+01	-4.050288e+00	-9.907083e+01	2.313229e+01	-2.557610e+01	1.688923e+02
3.291188e+06	-2.670390e+01	1.707536e+02	-3.107176e+01	-4.052308e+00	-9.702037e+01	1.195847e+01	-2.557624e+01	1.688885e+02
3.291219e+06	-2.670360e+01	1.707576e+02	-3.107317e+01	-4.054329e+00	-9.518870e+01	4.838844e+00	-2.557638e+01	1.688847e+02
3.291250e+06	-2.670333e+01	1.707614e+02	-3.107455e+01	-4.056251e+00	-9.366208e+01	1.825473e-01	-2.557653e+01	1.688810e+02
3.291282e+06	-2.670542e+01	1.707526e+02	-3.107327e+01	-4.052058e+00	-9.634689e+01	6.661824e+00	-2.557694e+01	1.688850e+02
3.291313e+06	-2.670750e+01	1.707439e+02	-3.107199e+01	-4.047865e+00	-9.989667e+01	2.003644e+01	-2.557736e+01	1.688890e+02
3.291344e+06	-2.670958e+01	1.707352e+02	-3.107071e+01	-4.043675e+00	-1.037854e+02	5.303835e+01	-2.557777e+01	1.688930e+02
3.291376e+06	-2.671167e+01	1.707264e+02	-3.106943e+01	-4.039485e+00	-1.029960e+02	1.041354e+02	-2.557819e+01	1.688971e+02
3.291407e+06	-2.671368e+01	1.707181e+02	-3.106816e+01	-4.035336e+00	-9.917421e+01	1.305373e+02	-2.557858e+01	1.689011e+02
3.291438e+06	-2.671266e+01	1.707272e+02	-3.106715e+01	-4.032814e+00	-1.067607e+02	1.639722e+02	-2.557796e+01	1.689046e+02
3.291469e+06	-2.671165e+01	1.707363e+02	-3.106615e+01	-4.030293e+00	-1.043513e+02	-1.060824e+02	-2.557734e+01	1.689081e+02
3.291500e+06	-2.671063e+01	1.707454e+02	-3.106515e+01	-4.027772e+00	-9.775092e+01	-8.532486e+01	-2.557672e+01	1.689116e+02
3.291532e+06	-2.670962e+01	1.707544e+02	-3.106414e+01	-4.025252e+00	-9.382511e+01	-7.926961e+01	-2.557610e+01	1.689151e+02
3.291563e+06	-2.670860e+01	1.707635e+02	-3.106314e+01	-4.022732e+00	-9.109813e+01	-7.645863e+01	-2.557548e+01	1.689186e+02
3.291594e+06	-2.670697e+01	1.707718e+02	-3.106428e+01	-4.044519e+00	-9.092091e+01	-7.656814e+01	-2.557523e+01	1.689141e+02
3.291626e+06	-2.670533e+01	1.707802e+02	-3.106541e+01	-4.066311e+00	-9.074720e+01	-7.667331e+01	-2.557497e+01	1.689095e+02
3.291657e+06	-2.670370e+01	1.707885e+02	-3.106654e+01	-4.088109e+00	-9.057686e+01	-7.677440e+01	-2.557472e+01	1.689050e+02
3.291688e+06	-2.670206e+01	1.707968e+02	-3.106768e+01	-4.109913e+00	-9.040978e+01	-7.687164e+01	-2.557446e+01	1.689005e+02
3.291719e+06	-2.670045e+01	1.708050e+02	-3.106880e+01	-4.131530e+00	-9.025376e+01	-7.693000e+01	-2.557422e+01	1.688960e+02
3.291750e+06	-2.670123e+01	1.707971e+02	-3.106826e+01	-4.129217e+00	-9.109519e+01	-7.216802e+01	-2.557546e+01	1.688941e+02
3.291782e+06	-2.670202e+01	1.707891e+02	-3.106773e+01	-4.126906e+00	-9.194584e+01	-6.637866e+01	-2.557671e+01	1.688923e+02
3.291813e+06	-2.670281e+01	1.707812e+02	-3.106720e+01	-4.124594e+00	-9.276918e+01	-5.935311e+01	-2.557795e+01	1.688905e+02
3.291844e+06	-2.670360e+01	1.707732e+02	-3.106666e+01	-4.122283e+00	-9.350551e+01	-5.093650e+01	-2.557920e+01	1.688886e+02
3.291876e+06	-2.670437e+01	1.707654e+02	-3.106616e+01	-4.119861e+00	-9.407292e+01	-4.133954e+01	-2.558041e+01	1.688869e+02
3.291907e+06	-2.670441e+01	1.707656e+02	-3.106742e+01	-4.110606e+00	-9.461707e+01	-4.317088e+01	-2.558007e+01	1.688911e+02
3.291938e+06	-2.670445e+01	1.707658e+02	-3.106869e+01	-4.101349e+00	-9.518681e+01	-4.525289e+01	-2.557973e+01	1.688954e+02
3.291969e+06	-2.670450e+01	1.707661e+02	-3.106995e+01	-4.092089e+00	-9.578250e+01	-4.763403e+01	-2.557939e+01	1.688996e+02
3.292000e+06	-2.670454e+01	1.707663e+02	-3.107122e+01	-4.082826e+00	-9.640349e+01	-5.037345e+01	-2.557905e+01	1.689039e+02
3.292032e+06	-2.670458e+01	1.707664e+02	-3.107237e+01	-4.073955e+00	-9.708115e+01	-5.343542e+01	-2.557872e+01	1.689079e+02
3.292063e+06	-2.670446e+01	1.707625e+02	-3.106901e+01	-4.081138e+00	-9.943099e+01	-5.202738e+01	-2.557867e+01	1.689043e+02
3.292094e+06	-2.670434e+01	1.707586e+02	-3.106566e+01	-4.088315e+00	-1.026479e+02	-4.935397e+01	-2.557861e+01	1.689006e+02
3.292126e+06	-2.670422e+01	1.707547e+02	-3.106230e+01	-4.095487e+00	-1.077243e+02	-4.239342e+01	-2.557856e+01	1.688970e+02
3.292157e+06	-2.670410e+01	1.707508e+02	-3.105895e+01	-4.102653e+00	-1.179319e+02	2.365461e+00	-2.557850e+01	1.688933e+02
3.292188e+06	-2.670398e+01	1.707469e+02	-3.105560e+01	-4.109813e+00	-1.106969e+02	9.985415e+01	-2.557845e+01	1.688897e+02
3.292219e+06	-2.670382e+01	1.707594e+02	-3.105746e+01	-4.119430e+00	-1.026838e+02	1.331831e+02	-2.557864e+01	1.688900e+02
3.292250e+06	-2.670365e+01	1.707719e+02	-3.105933e+01	-4.129050e+00	-9.816671e+01	1.406435e+02	-2.557882e+01	1.688903e+02
3.292282e+06	-2.670349e+01	1.707844e+02	-3.106119e+01	-4.138675e+00	-9.516601e+01	1.437758e+02	-2.557901e+01	1.688907e+02
3.292313e+06	-2.670332e+01	1.707969e+02	-3.106305e+01	-4.148304e+00	-9.292902e+01	1.454891e+02	-2.557920e+01	1.688910e+02
3.292344e+06	-2.670316e+01	1.708092e+02	-3.106489e+01	-4.157776e+00	-9.117427e+01	1.465556e+02	-2.557938e+01	1.688913e+02
3.292376e+06	-2.670375e+01	1.707987e+02	-3.106375e+01	-4.147316e+00	-9.306469e+01	1.457569e+02	-2.557995e+01	1.688966e+02
3.292407e+06	-2.670434e+01	1.707881e+02	-3.106261e+01	-4.136858e+00	-9.548075e+01	1.444456e+02	-2.558052e+01	1.689018e+02
3.292438e+06	-2.670493e+01	1.707775e+02	-3.106147e+01	-4.126403e+00	-9.882648e+01	1.418993e+02	-2.558109e+01	1.689070e+02
3.292469e+06	-2.670551e+01	1.707670e+02	-3.106033e+01	-4.115950e+00	-1.042505e+02	1.348957e+02	-2.558165e+01	1.689123e+02
3.292500e+06	-2.670611e+01	1.707567e+02	-3.105927e+01	-4.105832e+00	-1.151994e+02	7.949797e+01	-2.558221e+01	1.689174e+02
3.292532e+06	-2.670719e+01	1.707607e+02	-3.106276e+01	-4.116055e+00	-1.057640e+02	5.874060e+01	-2.558231e+01	1.689150e+02
3.292563e+06	-2.670827e+01	1.707648e+02	-3.106625e+01	-4.126286e+00	-1.012131e+02	5.467918e+01	-2.558240e+01	1.689126e+02
3.292594e+06	-2.670936e+01	1.707689e+02	-3.106974e+01	-4.136526e+00	-9.822913e+01	5.297454e+01	-2.558250e+01	1.689103e+02
3.292626e+06	-2.671044e+01	1.707729e+02	-3.107323e+01	-4.146774e+00	-9.600905e+01	5.203831e+01	-2.558260e+01	1.689079e+02
3.292657e+06	-2.671144e+01	1.707768e+02	-3.107655e+01	-4.156219e+00	-9.427121e+01	5.133778e+01	-2.558268e+01	1.689056e+02
3.292688e+06	-2.670894e+01	1.707706e+02	-3.107300e+01	-4.132667e+00	-9.389162e+01	4.652558e+01	-2.558228e+01	1.689074e+02
3.292719e+06	-2.670645e+01	1.707645e+02	-3.106945e+01	-4.109134e+00	-9.347435e+01	4.213608e+01	-2.558188e+01	1.689092e+02
3.292750e+06	-2.670395e+01	1.707584e+02	-3.106590e+01	-4.085621e+00	-9.303213e+01	3.816084e+01	-2.558149e+01	1.689110e+02
3.292782e+06	-2.670145e+01	1.707523e+02	-3.106235e+01	-4.062127e+00	-9.257543e+01	3.457696e+01	-2.558109e+01	1.689127e+02
3.292813e+06	-2.669896e+01	1.707462e+02	-3.105880e+01	-4.038652e+00	-9.211248e+01	3.135355e+01	-2.558069e+01	1.689145e+02
3.292844e+06	-2.670056e+01	1.707517e+02	-3.106017e+01	-4.045730e+00	-9.310957e+01	3.027372e+01	-2.558071e+01	1.689191e+02
3.292876e+06	-2.670216e+01	1.707572e+02	-3.106153e+01	-4.052811e+00	-9.423167e+01	2.889546e+01	-2.558073e+01	1.689238e+02
3.292907e+06	-2.670376e+01	1.707627e+02	-3.106290e+01	-4.059894e+00	-9.551285e+01	2.707775e+01	-2.558074e+01	1.689284e+02
3.292938e+06	-2.670536e+01	1.707682e+02	-3.106426e+01	-4.066979e+00	-9.700195e+01	2.457681e+01	-2.558076e+01	1.689331e+02
3.292969e+06	-2.670694e+01	1.707736e+02	-3.106562e+01	-4.073934e+00	-9.874769e+01	2.102121e+01	-2.558077e+01	1.689376e+02
3.293000e+06	-2.670625e+01	1.707740e+02	-3.106596e+01	-4.064375e+00	-9.782135e+01	2.655219e+01	-2.557951e+01	1.689268e+02
3.293032e+06	-2.670555e+01	1.707744e+02	-3.106629e+01	-4.054816e+00	-9.692481e+01	3.103371e+01	-2.557825e+01	1.689160e+02
3.293063e+06	-2.670486e+01	1.707749e+02	-3.106662e+01	-4.045257e+00	-9.607266e+01	3.469678e+01	-2.557698e+01	1.689052e+02
3.293094e+06	-2.670416e+01	1.707753e+02	-3.106695e+01	-4.035696e+00	-9.526987e+01	3.772372e+01	-2.557572e+01	1.688943e+02
3.293126e+06	-2.670348e+01	1.707757e+02	-3.106725e+01	-4.026273e+00	-9.455622e+01	4.030867e+01	-2.557448e+01	1.688839e+02
3.293157e+06	-2.670371e+01	1.707738e+02	-3.106545e+01	-4.025313e+00	-9.645380e+01	4.750904e+01	-2.557469e+01	1.688941e+02
3.293188e+06	-2.670394e+01	1.707719e+02	-3.106364e+01	-4.024353e+00	-9.859674e+01	5.902136e+01	-2.557489e+01	1.689044e+02
3.293219e+06	-2.670416e+01	1.707700e+02	-3.106184e+01	-4.023393e+00	-1.006612e+02	7.792368e+01	-2.557510e+01	1.689147e+02
3.293250e+06	-2.670439e+01	1.707681e+02	-3.106004e+01	-4.022435e+00	-1.015819e+02	1.051058e+02	-2.557530e+01	1.689250e+02
3.293282e+06	-2.670460e+01	1.707665e+02	-3.105833e+01	-4.022160e+00	-1.006077e+02	1.312342e+02	-2.557552e+01	1.689351e+02
3.293313e+06	-2.670434e+01	1.707745e+02	-3.106043e+01	-4.049707e+00	-1.032450e+02	1.313548e+02	-2.557654e+01	1.689374e+02
3.293344e+06	-2.670407e+01	1.707826e+02	-3.106252e+01	-4.077268e+00	-1.070506e+02	1.316081e+02	-2.557756e+01	1.689398e+02
3.293376e+06	-2.670380e+01	1.707906e+02	-3.106461e+01	-4.104842e+00	-1.139816e+02	1.324798e+02	-2.557858e+01	1.689422e+02
3.293407e+06	-2.670354e+01	1.707987e+02	-3.106670e+01	-4.132429e+00	-1.270038e+02	-5.622356e+01	-2.557959e+01	1.689445e+02
3.293438e+06	-2.670327e+01	1.708067e+02	-3.106879e+01	-4.160030e+00	-1.107960e+02	-5.020440e+01	-2.558061e+01	1.689469e+02
3.293469e+06	-2.670420e+01	1.708081e+02	-3.106905e+01	-4.148901e+00	-1.083824e+02	-2.867216e+01	-2.557988e+01	1.689443e+02
3.293500e+06	-2.670514e+01	1.708095e+02	-3.106930e+01	-4.137772e+00	-1.059384e+02	-1.656126e+01	-2.557915e+01	1.689417e+02
