# Hz S dB R 50.000
3.288438e+06	-4.285989e+01	-9.387966e+01	-3.065798e+01	-7.127281e+00	-9.283976e+01	-6.017442e+00	-4.949760e+01	2.365648e+01
3.288469e+06	-4.286380e+01	-9.390562e+01	-3.065816e+01	-7.131693e+00	-9.394694e+01	-3.687021e+00	-4.947997e+01	2.377920e+01
3.288500e+06	-4.286771e+01	-9.393160e+01	-3.065834e+01	-7.136105e+00	-9.519434e+01	-6.303434e-01	-4.946233e+01	2.390143e+01
3.288532e+06	-4.287161e+01	-9.395760e+01	-3.065852e+01	-7.140517e+00	-9.661170e+01	3.525533e+00	-4.944469e+01	2.402315e+01
3.288563e+06	-4.287552e+01	-9.398363e+01	-3.065870e+01	-7.144929e+00	-9.822760e+01	9.423629e+00	-4.942705e+01	2.414439e+01
3.288594e+06	-4.287942e+01	-9.400928e+01	-3.065888e+01	-7.149211e+00	-1.000486e+02	1.790977e+01	-4.940950e+01	2.426372e+01
3.288626e+06	-4.288178e+01	-9.398568e+01	-3.065942e+01	-7.137359e+00	-1.016892e+02	-1.432189e+01	-4.940487e+01	2.420694e+01
3.288657e+06	-4.288415e+01	-9.396206e+01	-3.065996e+01	-7.125505e+00	-1.003158e+02	-4.768942e+01	-4.940023e+01	2.415022e+01
3.288688e+06	-4.288651e+01	-9.393844e+01	-3.066050e+01	-7.113650e+00	-9.758154e+01	-6.773424e+01	-4.939558e+01	2.409356e+01
3.288719e+06	-4.288888e+01	-9.391480e+01	-3.066104e+01	-7.101793e+00	-9.505321e+01	-7.851235e+01	-4.939093e+01	2.403696e+01
3.288750e+06	-4.289111e+01	-9.389109e+01	-3.066154e+01	-7.090368e+00	-9.301883e+01	-8.472434e+01	-4.938673e+01	2.397983e+01
3.288782e+06	-4.288572e+01	-9.386405e+01	-3.065994e+01	-7.105546e+00	-9.550688e+01	-8.384794e+01	-4.941040e+01	2.388588e+01
3.288813e+06	-4.288033e+01	-9.383705e+01	-3.065834e+01	-7.120718e+00	-9.900126e+01	-8.210261e+01	-4.943411e+01	2.379142e+01
3.288844e+06	-4.287494e+01	-9.381008e+01	-3.065674e+01	-7.135884e+00	-1.048930e+02	-7.695391e+01	-4.945787e+01	2.369644e+01
3.288876e+06	-4.286956e+01	-9.378315e+01	-3.065514e+01	-7.151045e+00	-1.197513e+02	1.101741e+00	-4.948167e+01	2.360094e+01
3.288907e+06	-4.286459e+01	-9.375830e+01	-3.065366e+01	-7.165961e+00	-1.053351e+02	8.105208e+01	-4.950493e+01	2.350821e+01
3.288938e+06	-4.287652e+01	-9.381716e+01	-3.065694e+01	-7.171135e+00	-1.089540e+02	1.410717e+01	-4.950507e+01	2.354948e+01
3.288969e+06	-4.288846e+01	-9.387618e+01	-3.066023e+01	-7.176313e+00	-1.030159e+02	-3.068289e+01	-4.950521e+01	2.359074e+01
3.289000e+06	-4.290041e+01	-9.393537e+01	-3.066352e+01	-7.181495e+00	-9.851049e+01	-4.290466e+01	-4.950533e+01	2.363201e+01
3.289032e+06	-4.291236e+01	-9.399472e+01	-3.066681e+01	-7.186680e+00	-9.544160e+01	-4.798265e+01	-4.950546e+01	2.367328e+01
3.289063e+06	-4.292432e+01	-9.405423e+01	-3.067010e+01	-7.191870e+00	-9.315012e+01	-5.071962e+01	-4.950558e+01	2.371455e+01
3.289094e+06	-4.291937e+01	-9.405428e+01	-3.066838e+01	-7.180456e+00	-9.555738e+01	-2.607748e+01	-4.950042e+01	2.356550e+01
3.289126e+06	-4.291442e+01	-9.405433e+01	-3.066665e+01	-7.169046e+00	-9.580816e+01	8.409591e+00	-4.949520e+01	2.341663e+01
3.289157e+06	-4.290947e+01	-9.405437e+01	-3.066493e+01	-7.157641e+00	-9.359180e+01	3.525283e+01	-4.948992e+01	2.326793e+01
3.289188e+06	-4.290452e+01	-9.405442e+01	-3.066321e+01	-7.146241e+00	-9.095522e+01	5.021977e+01	-4.948459e+01	2.311942e+01
3.289219e+06	-4.289962e+01	-9.405435e+01	-3.066150e+01	-7.134974e+00	-8.869146e+01	5.862647e+01	-4.947932e+01	2.297396e+01
3.289250e+06	-4.289946e+01	-9.403968e+01	-3.066108e+01	-7.139700e+00	-8.923919e+01	6.280525e+01	-4.948749e+01	2.318464e+01
3.289282e+06	-4.289930e+01	-9.402501e+01	-3.066066e+01	-7.144427e+00	-8.976789e+01	6.753654e+01	-4.949555e+01	2.339571e+01
3.289313e+06	-4.289913e+01	-9.401034e+01	-3.066024e+01	-7.149152e+00	-9.025984e+01	7.285938e+01	-4.950350e+01	2.360717e+01
3.289344e+06	-4.289897e+01	-9.399567e+01	-3.065982e+01	-7.153878e+00	-9.069284e+01	7.878234e+01	-4.951134e+01	2.381901e+01
3.289376e+06	-4.289886e+01	-9.398128e+01	-3.065941e+01	-7.158476e+00	-9.105636e+01	8.504863e+01	-4.951860e+01	2.402655e+01
3.289407e+06	-4.290196e+01	-9.398459e+01	-3.065951e+01	-7.155281e+00	-9.228787e+01	7.714715e+01	-4.949666e+01	2.394605e+01
3.289438e+06	-4.290506e+01	-9.398790e+01	-3.065961e+01	-7.152087e+00	-9.346654e+01	6.669388e+01	-4.947477e+01	2.386596e+01
3.289469e+06	-4.290817e+01	-9.399122e+01	-3.065971e+01	-7.148892e+00	-9.440059e+01	5.331469e+01	-4.945291e+01	2.378627e+01
3.289500e+06	-4.291127e+01	-9.399453e+01	-3.065981e+01	-7.145697e+00	-9.482589e+01	3.761497e+01	-4.943109e+01	2.370698e+01
3.289532e+06	-4.291444e+01	-9.399834e+01	-3.065989e+01	-7.142372e+00	-9.463465e+01	2.231432e+01	-4.941035e+01	2.363221e+01
3.289563e+06	-4.292039e+01	-9.402231e+01	-3.065887e+01	-7.133727e+00	-9.621071e+01	4.075864e+01	-4.943214e+01	2.372589e+01
3.289594e+06	-4.292635e+01	-9.404631e+01	-3.065786e+01	-7.125084e+00	-9.672645e+01	6.449537e+01	-4.945396e+01	2.382005e+01
3.289626e+06	-4.293230e+01	-9.407035e+01	-3.065685e+01	-7.116444e+00	-9.579058e+01	8.704774e+01	-4.947581e+01	2.391468e+01
3.289657e+06	-4.293826e+01	-9.409441e+01	-3.065584e+01	-7.107805e+00	-9.406058e+01	1.034372e+02	-4.949770e+01	2.400978e+01
3.289688e+06	-4.294422e+01	-9.411851e+01	-3.065483e+01	-7.099169e+00	-9.222224e+01	1.142211e+02	-4.951961e+01	2.410537e+01
3.289719e+06	-4.293448e+01	-9.409275e+01	-3.065574e+01	-7.098214e+00	-9.455265e+01	1.191680e+02	-4.950422e+01	2.410460e+01
3.289750e+06	-4.292474e+01	-9.406705e+01	-3.065666e+01	-7.097260e+00	-9.757416e+01	1.283567e+02	-4.948886e+01	2.410382e+01
3.289782e+06	-4.291502e+01	-9.404140e+01	-3.065757e+01	-7.096305e+00	-1.014074e+02	1.489396e+02	-4.947352e+01	2.410305e+01
3.289813e+06	-4.290530e+01	-9.401582e+01	-3.065848e+01	-7.095350e+00	-1.036604e+02	-1.659505e+02	-4.945821e+01	2.410229e+01
3.289844e+06	-4.289564e+01	-9.399014e+01	-3.065940e+01	-7.094534e+00	-1.007434e+02	-1.258716e+02	-4.944303e+01	2.410064e+01
3.289876e+06	-4.289217e+01	-9.394592e+01	-3.066017e+01	-7.110988e+00	-1.058874e+02	4.211116e+01	-4.944088e+01	2.398972e+01
3.289907e+06	-4.288869e+01	-9.390173e+01	-3.066094e+01	-7.127445e+00	-9.432118e+01	4.781573e+01	-4.943870e+01	2.387886e+01
3.289938e+06	-4.288521e+01	-9.385758e+01	-3.066171e+01	-7.143905e+00	-8.952292e+01	4.868129e+01	-4.943649e+01	2.376805e+01
3.289969e+06	-4.288172e+01	-9.381346e+01	-3.066248e+01	-7.160368e+00	-8.644944e+01	4.903099e+01	-4.943425e+01	2.365729e+01
3.290000e+06	-4.287826e+01	-9.377091e+01	-3.066320e+01	-7.176507e+00	-8.424737e+01	4.917185e+01	-4.943171e+01	2.355005e+01
3.290032e+06	-4.287629e+01	-9.382185e+01	-3.066077e+01	-7.172543e+00	-8.648341e+01	4.544301e+01	-4.941299e+01	2.365484e+01
3.290063e+06	-4.287432e+01	-9.387276e+01	-3.065835e+01	-7.168583e+00	-8.940816e+01	3.867725e+01	-4.939428e+01	2.375918e+01
3.290094e+06	-4.287234e+01	-9.392366e+01	-3.065592e+01	-7.164624e+00	-9.340294e+01	2.352929e+01	-4.937558e+01	2.386308e+01
3.290126e+06	-4.287035e+01	-9.397453e+01	-3.065350e+01	-7.160667e+00	-9.745631e+01	-1.777340e+01	-4.935690e+01	2.396652e+01
3.290157e+06	-4.286862e+01	-9.402386e+01	-3.065122e+01	-7.156358e+00	-9.527016e+01	-6.952364e+01	-4.933890e+01	2.406504e+01
3.290188e+06	-4.287741e+01	-9.401136e+01	-3.065484e+01	-7.137592e+00	-1.041452e+02	-5.710982e+01	-4.934832e+01	2.398084e+01
3.290219e+06	-4.288621e+01	-9.399884e+01	-3.065846e+01	-7.118811e+00	-1.047736e+02	8.294750e+01	-4.935774e+01	2.389645e+01
3.290250e+06	-4.289502e+01	-9.398629e+01	-3.066209e+01	-7.100013e+00	-9.550371e+01	9.668039e+01	-4.936715e+01	2.381188e+01
3.290282e+06	-4.290384e+01	-9.397371e+01	-3.066571e+01	-7.081201e+00	-9.106046e+01	9.948657e+01	-4.937655e+01	2.372713e+01
3.290313e+06	-4.291266e+01	-9.396111e+01	-3.066934e+01	-7.062372e+00	-8.812884e+01	1.006867e+02	-4.938594e+01	2.364219e+01
3.290344e+06	-4.290819e+01	-9.396312e+01	-3.066819e+01	-7.091496e+00	-8.980628e+01	9.427124e+01	-4.939165e+01	2.364197e+01
3.290376e+06	-4.290372e+01	-9.396513e+01	-3.066705e+01	-7.120611e+00	-9.167912e+01	8.459065e+01	-4.939736e+01	2.364176e+01
3.290407e+06	-4.289925e+01	-9.396714e+01	-3.066590e+01	-7.149720e+00	-9.356800e+01	6.956231e+01	-4.940307e+01	2.364154e+01
3.290438e+06	-4.289479e+01	-9.396914e+01	-3.066474e+01	-7.178820e+00	-9.485690e+01	4.760964e+01	-4.940879e+01	2.364133e+01
3.290469e+06	-4.289035e+01	-9.397159e+01	-3.066360e+01	-7.207669e+00	-9.468928e+01	2.257544e+01	-4.941455e+01	2.364200e+01
3.290500e+06	-4.288947e+01	-9.402958e+01	-3.066342e+01	-7.206297e+00	-9.497492e+01	1.120891e+01	-4.942537e+01	2.375367e+01
3.290532e+06	-4.288857e+01	-9.408756e+01	-3.066324e+01	-7.204924e+00	-9.490885e+01	-4.526703e-01	-4.943617e+01	2.386561e+01
3.290563e+06	-4.288767e+01	-9.414553e+01	-3.066306e+01	-7.203552e+00	-9.450618e+01	-1.149368e+01	-4.944696e+01	2.397783e+01
3.290594e+06	-4.288676e+01	-9.420348e+01	-3.066288e+01	-7.202179e+00	-9.384912e+01	-2.125331e+01	-4.945772e+01	2.409034e+01
3.290626e+06	-4.288600e+01	-9.425975e+01	-3.066269e+01	-7.200666e+00	-9.303144e+01	-2.910675e+01	-4.946787e+01	2.419824e+01
3.290657e+06	-4.289541e+01	-9.421270e+01	-3.066181e+01	-7.190487e+00	-9.147276e+01	-1.546756e+01	-4.944161e+01	2.400672e+01
3.290688e+06	-4.290483e+01	-9.416554e+01	-3.066094e+01	-7.180310e+00	-8.985970e+01	-6.047569e+00	-4.941534e+01	2.381635e+01
3.290719e+06	-4.291425e+01	-9.411828e+01	-3.066007e+01	-7.170135e+00	-8.835982e+01	5.198764e-01	-4.938904e+01	2.362714e+01
3.290750e+06	-4.292368e+01	-9.407092e+01	-3.065919e+01	-7.159962e+00	-8.701033e+01	5.245613e+00	-4.936274e+01	2.343906e+01
3.290782e+06	-4.293243e+01	-9.402470e+01	-3.065829e+01	-7.149932e+00	-8.586053e+01	8.641497e+00	-4.933768e+01	2.325934e+01
3.290813e+06	-4.291384e+01	-9.402874e+01	-3.065621e+01	-7.145649e+00	-8.715622e+01	6.224514e+00	-4.936410e+01	2.337372e+01
3.290844e+06	-4.289528e+01	-9.403276e+01	-3.065412e+01	-7.141367e+00	-8.865424e+01	2.889669e+00	-4.939056e+01	2.348880e+01
3.290876e+06	-4.287676e+01	-9.403676e+01	-3.065204e+01	-7.137088e+00	-9.041288e+01	-1.965268e+00	-4.941707e+01	2.360458e+01
3.290907e+06	-4.285828e+01	-9.404075e+01	-3.064996e+01	-7.132810e+00	-9.249535e+01	-9.533298e+00	-4.944362e+01	2.372107e+01
3.290938e+06	-4.283984e+01	-9.404472e+01	-3.064788e+01	-7.128535e+00	-9.489249e+01	-2.227672e+01	-4.947022e+01	2.383828e+01
3.290969e+06	-4.284602e+01	-9.399995e+01	-3.064841e+01	-7.142124e+00	-9.993401e+01	6.266574e+00	-4.945554e+01	2.390256e+01
3.291000e+06	-4.285219e+01	-9.395511e+01	-3.064893e+01	-7.155714e+00	-1.003238e+02	6.951462e+01	-4.944088e+01	2.396663e+01
3.291032e+06	-4.285836e+01	-9.391021e+01	-3.064946e+01	-7.169306e+00	-9.525777e+01	1.009288e+02	-4.942622e+01	2.403048e+01
3.291063e+06	-4.286454e+01	-9.386525e+01	-3.064998e+01	-7.182900e+00	-9.144420e+01	1.117367e+02	-4.941159e+01	2.409412e+01
3.291094e+06	-4.287067e+01	-9.382081e+01	-3.065053e+01	-7.196302e+00	-8.872633e+01	1.167599e+02	-4.939705e+01	2.415670e+01
3.291126e+06	-4.287203e+01	-9.384902e+01	-3.065443e+01	-7.185786e+00	-9.021455e+01	1.165443e+02	-4.939374e+01	2.411528e+01
3.291157e+06	-4.287338e+01	-9.387723e+01	-3.065832e+01	-7.175262e+00	-9.201136e+01	1.162296e+02	-4.939043e+01	2.407389e+01
3.291188e+06	-4.287474e+01	-9.390546e+01	-3.066222e+01	-7.164727e+00	-9.427895e+01	1.157270e+02	-4.938712e+01	2.403253e+01
3.291219e+06	-4.287609e+01	-9.393370e+01	-3.066612e+01	-7.154183e+00	-9.735431e+01	1.147974e+02	-4.938380e+01	2.399120e+01
3.291250e+06	-4.287736e+01	-9.396041e+01	-3.066991e+01	-7.143708e+00	-1.020885e+02	1.115913e+02	-4.938069e+01	2.394806e+01
3.291282e+06	-4.287338e+01	-9.389264e+01	-3.066676e+01	-7.138006e+00	-9.996327e+01	5.540732e+01	-4.939073e+01	2.379101e+01
3.291313e+06	-4.286940e+01	-9.382494e+01	-3.066360e+01	-7.132309e+00	-9.538434e+01	3.282728e+01	-4.940071e+01	2.363359e+01
3.291344e+06	-4.286541e+01	-9.375730e+01	-3.066045e+01	-7.126616e+00	-9.202311e+01	2.397314e+01	-4.941064e+01	2.347581e+01
3.291376e+06	-4.286141e+01	-9.368972e+01	-3.065730e+01	-7.120927e+00	-8.952592e+01	1.947596e+01	-4.942052e+01	2.331767e+01
3.291407e+06	-4.285763e+01	-9.362526e+01	-3.065423e+01	-7.115699e+00	-8.761130e+01	1.678671e+01	-4.942989e+01	2.316666e+01
3.291438e+06	-4.286340e+01	-9.368536e+01	-3.065418e+01	-7.129016e+00	-8.784939e+01	1.457538e+01	-4.942132e+01	2.331978e+01
3.291469e+06	-4.286916e+01	-9.374555e+01	-3.065413e+01	-7.142333e+00	-8.808014e+01	1.224133e+01	-4.941269e+01	2.347259e+01
3.291500e+06	-4.287492e+01	-9.380581e+01	-3.065409e+01	-7.155650e+00	-8.830159e+01	9.782482e+00	-4.940401e+01	2.362510e+01
3.291532e+06	-4.288067e+01	-9.386615e+01	-3.065404e+01	-7.168966e+00	-8.851158e+01	7.198331e+00	-4.939528e+01	2.377731e+01
3.291563e+06	-4.288642e+01	-9.392657e+01	-3.065399e+01	-7.182283e+00	-8.870779e+01	4.490370e+00	-4.938649e+01	2.392921e+01
3.291594e+06	-4.288705e+01	-9.386367e+01	-3.065495e+01	-7.180574e+00	-8.947198e+01	8.967372e+00	-4.940513e+01	2.386610e+01
3.291626e+06	-4.288767e+01	-9.380075e+01	-3.065591e+01	-7.178865e+00	-9.024031e+01	1.431056e+01	-4.942380e+01	2.380273e+01
3.291657e+06	-4.288828e+01	-9.373783e+01	-3.065687e+01	-7.177156e+00	-9.098426e+01	2.067380e+01	-4.944250e+01	2.373907e+01
3.291688e+06	-4.288888e+01	-9.367490e+01	-3.065784e+01	-7.175446e+00	-9.165956e+01	2.817255e+01	-4.946122e+01	2.367515e+01
3.291719e+06	-4.288952e+01	-9.361315e+01	-3.065878e+01	-7.173774e+00	-9.219266e+01	3.673448e+01	-4.947980e+01	2.361159e+01
3.291750e+06	-4.289514e+01	-9.369970e+01	-3.065716e+01	-7.176713e+00	-9.108456e+01	3.630115e+01	-4.947625e+01	2.362781e+01
3.291782e+06	-4.290075e+01	-9.378635e+01	-3.065555e+01	-7.179652e+00	-9.010162e+01	3.596054e+01	-4.947271e+01	2.364401e+01
3.291813e+06	-4.290634e+01	-9.387312e+01	-3.065394e+01	-7.182589e+00	-8.921847e+01	3.568578e+01	-4.946916e+01	2.366020e+01
3.291844e+06	-4.291192e+01	-9.396000e+01	-3.065233e+01	-7.185526e+00	-8.841673e+01	3.545947e+01	-4.946562e+01	2.367638e+01
3.291876e+06	-4.291724e+01	-9.404488e+01	-3.065072e+01	-7.188318e+00	-8.773235e+01	3.525759e+01	-4.946221e+01	2.369170e+01
3.291907e+06	-4.290806e+01	-9.399970e+01	-3.064955e+01	-7.182326e+00	-9.054596e+01	3.395173e+01	-4.946716e+01	2.365499e+01
3.291938e+06	-4.289888e+01	-9.395461e+01	-3.064837e+01	-7.176336e+00	-9.471759e+01	3.103222e+01	-4.947212e+01	2.361824e+01
3.291969e+06	-4.288971e+01	-9.390962e+01	-3.064720e+01	-7.170347e+00	-1.028017e+02	1.897858e+01	-4.947707e+01	2.358145e+01
3.292000e+06	-4.288054e+01	-9.386473e+01	-3.064603e+01	-7.164360e+00	-1.057147e+02	-1.132306e+02	-4.948203e+01	2.354461e+01
3.292032e+06	-4.287185e+01	-9.382236e+01	-3.064489e+01	-7.158347e+00	-9.599334e+01	-1.324509e+02	-4.948675e+01	2.351064e+01
3.292063e+06	-4.288215e+01	-9.387916e+01	-3.064511e+01	-7.151227e+00	-9.624230e+01	-1.306527e+02	-4.948231e+01	2.359472e+01
3.292094e+06	-4.289245e+01	-9.393609e+01	-3.064533e+01	-7.144106e+00	-9.648928e+01	-1.287487e+02	-4.947784e+01	2.367871e+01
3.292126e+06	-4.290276e+01	-9.399315e+01	-3.064555e+01	-7.136985e+00	-9.673303e+01	-1.267341e+02	-4.947336e+01	2.376262e+01
3.292157e+06	-4.291307e+01	-9.405035e+01	-3.064578e+01	-7.129864e+00	-9.697214e+01	-1.246042e+02	-4.946886e+01	2.384644e+01
3.292188e+06	-4.292338e+01	-9.410769e+01	-3.064600e+01	-7.122742e+00	-9.720499e+01	-1.223554e+02	-4.946435e+01	2.393017e+01
3.292219e+06	-4.291100e+01	-9.406157e+01	-3.064837e+01	-7.125644e+00	-1.038146e+02	-1.315970e+02	-4.946814e+01	2.386684e+01
3.292250e+06	-4.289864e+01	-9.401557e+01	-3.065075e+01	-7.128547e+00	-1.126480e+02	1.202744e+02	-4.947191e+01	2.380345e+01
3.292282e+06	-4.288629e+01	-9.396971e+01	-3.065312e+01	-7.131452e+00	-1.008624e+02	7.770223e+01	-4.947568e+01	2.374001e+01
3.292313e+06	-4.287395e+01	-9.392398e+01	-3.065549e+01	-7.134359e+00	-9.566690e+01	7.220666e+01	-4.947944e+01	2.367651e+01
3.292344e+06	-4.286176e+01	-9.387896e+01	-3.065786e+01	-7.137221e+00	-9.246593e+01	7.016128e+01	-4.948315e+01	2.361457e+01
3.292376e+06	-4.286672e+01	-9.390678e+01	-3.065933e+01	-7.134361e+00	-9.662755e+01	7.402568e+01	-4.948244e+01	2.375186e+01
3.292407e+06	-4.287168e+01	-9.393463e+01	-3.066079e+01	-7.131500e+00	-1.045011e+02	8.965390e+01	-4.948167e+01	2.388913e+01
3.292438e+06	-4.287664e+01	-9.396251e+01	-3.066225e+01	-7.128639e+00	-1.067759e+02	-1.504093e+02	-4.948086e+01	2.402637e+01
3.292469e+06	-4.288161e+01	-9.399042e+01	-3.066372e+01	-7.125776e+00	-9.759444e+01	-1.273759e+02	-4.947999e+01	2.416359e+01
3.292500e+06	-4.288647e+01	-9.401740e+01	-3.066510e+01	-7.123027e+00	-9.318253e+01	-1.224172e+02	-4.947888e+01	2.429788e+01
3.292532e+06	-4.288533e+01	-9.398472e+01	-3.066112e+01	-7.127324e+00	-9.674030e+01	-8.381901e+01	-4.946547e+01	2.425432e+01
3.292563e+06	-4.288418e+01	-9.395206e+01	-3.065714e+01	-7.131618e+00	-9.480902e+01	-3.502641e+01	-4.945208e+01	2.421089e+01
3.292594e+06	-4.288303e+01	-9.391940e+01	-3.065316e+01	-7.135908e+00	-9.077571e+01	-1.277951e+01	-4.943871e+01	2.416760e+01
3.292626e+06	-4.288188e+01	-9.388676e+01	-3.064919e+01	-7.140194e+00	-8.762011e+01	-3.254655e+00	-4.942535e+01	2.412444e+01
3.292657e+06	-4.288097e+01	-9.385514e+01	-3.064534e+01	-7.144474e+00	-8.531029e+01	1.613461e+00	-4.941265e+01	2.408224e+01
3.292688e+06	-4.289003e+01	-9.386495e+01	-3.064643e+01	-7.148694e+00	-8.744586e+01	-7.591880e-01	-4.942589e+01	2.407382e+01
3.292719e+06	-4.289909e+01	-9.387478e+01	-3.064753e+01	-7.152915e+00	-9.024742e+01	-4.950531e+00	-4.943916e+01	2.406538e+01
3.292750e+06	-4.290817e+01	-9.388463e+01	-3.064862e+01	-7.157137e+00	-9.424439e+01	-1.414994e+01	-4.945245e+01	2.405692e+01
3.292782e+06	-4.291725e+01	-9.389451e+01	-3.064972e+01	-7.161360e+00	-1.001912e+02	-4.430184e+01	-4.946575e+01	2.404843e+01
3.292813e+06	-4.292635e+01	-9.390440e+01	-3.065081e+01	-7.165584e+00	-9.988295e+01	-1.183223e+02	-4.947908e+01	2.403991e+01
3.292844e+06	-4.292567e+01	-9.388995e+01	-3.065114e+01	-7.156844e+00	-1.020467e+02	-1.027826e+02	-4.947395e+01	2.393006e+01
3.292876e+06	-4.292499e+01	-9.387551e+01	-3.065146e+01	-7.148102e+00	-1.035843e+02	-7.856199e+01	-4.946879e+01	2.382034e+01
3.292907e+06	-4.292430e+01	-9.386107e+01	-3.065179e+01	-7.139361e+00	-1.032886e+02	-5.031279e+01	-4.946361e+01	2.371074e+01
3.292938e+06	-4.292362e+01	-9.384663e+01	-3.065212e+01	-7.130618e+00	-1.014458e+02	-2.859647e+01	-4.945839e+01	2.360128e+01
3.292969e+06	-4.292290e+01	-9.383239e+01	-3.065243e+01	-7.121906e+00	-9.929357e+01	-1.512161e+01	-4.945328e+01	2.349379e+01
3.293000e+06	-4.291760e+01	-9.384271e+01	-3.065072e+01	-7.117048e+00	-9.938632e+01	-5.103585e+00	-4.946466e+01	2.361342e+01
3.293032e+06	-4.291230e+01	-9.385301e+01	-3.064900e+01	-7.112191e+00	-9.921478e+01	4.823052e+00	-4.947602e+01	2.373336e+01
3.293063e+06	-4.290700e+01	-9.386330e+01	-3.064729e+01	-7.107337e+00	-9.880795e+01	1.410438e+01	-4.948736e+01	2.385362e+01
3.293094e+06	-4.290171e+01	-9.387358e+01	-3.064558e+01	-7.102484e+00	-9.822528e+01	2.237893e+01	-4.949867e+01	2.397419e+01
3.293126e+06	-4.289648e+01	-9.388359e+01	-3.064393e+01	-7.097998e+00	-9.761231e+01	2.964073e+01	-4.950949e+01	2.409278e+01
3.293157e+06	-4.289526e+01	-9.387813e+01	-3.064578e+01	-7.115938e+00	-1.025289e+02	5.594749e+01	-4.949149e+01	2.407052e+01
3.293188e+06	-4.289403e+01	-9.387267e+01	-3.064763e+01	-7.133886e+00	-1.035712e+02	1.175996e+02	-4.947352e+01	2.404834e+01
3.293219e+06	-4.289281e+01	-9.386721e+01	-3.064948e+01	-7.151842e+00	-9.861605e+01	1.517173e+02	-4.945558e+01	2.402626e+01
3.293250e+06	-4.289158e+01	-9.386175e+01	-3.065133e+01	-7.169805e+00	-9.472856e+01	1.634093e+02	-4.943768e+01	2.400427e+01
3.293282e+06	-4.289039e+01	-9.385672e+01	-3.065303e+01	-7.187349e+00	-9.201254e+01	1.685465e+02	-4.942008e+01	2.398291e+01
3.293313e+06	-4.289028e+01	-9.386916e+01	-3.064860e+01	-7.187511e+00	-9.302286e+01	1.613044e+02	-4.941321e+01	2.398357e+01
3.293344e+06	-4.289017e+01	-9.388160e+01	-3.064418e+01	-7.187672e+00	-9.396837e+01	1.522195e+02	-4.940634e+01	2.398423e+01
3.293376e+06	-4.289006e+01	-9.389403e+01	-3.063975e+01	-7.187834e+00	-9.472986e+01	1.411391e+02	-4.939948e+01	2.398490e+01
3.293407e+06	-4.288995e+01	-9.390647e+01	-3.063533e+01	-7.187995e+00	-9.515599e+01	1.284097e+02	-4.939262e+01	2.398556e+01
3.293438e+06	-4.288984e+01	-9.391891e+01	-3.063091e+01	-7.188156e+00	-9.513339e+01	1.150640e+02	-4.938577e+01	2.398622e+01
