# Hz S dB R 50.000
3.288594e+06	-4.292500e+01	-9.830946e+01	-3.066134e+01	-6.475972e+00	-8.917866e+01	2.696149e+01	-4.928883e+01	2.073073e+01
3.288625e+06	-4.292779e+01	-9.830984e+01	-3.065943e+01	-6.456068e+00	-9.057053e+01	2.284642e+01	-4.929664e+01	2.082361e+01
3.288656e+06	-4.293059e+01	-9.831023e+01	-3.065752e+01	-6.436172e+00	-9.215247e+01	1.704631e+01	-4.930443e+01	2.091666e+01
3.288688e+06	-4.293339e+01	-9.831061e+01	-3.065561e+01	-6.416285e+00	-9.392464e+01	8.495387e+00	-4.931221e+01	2.100988e+01
3.288719e+06	-4.293618e+01	-9.831100e+01	-3.065370e+01	-6.396407e+00	-9.577493e+01	-4.544643e+00	-4.931997e+01	2.110326e+01
3.288750e+06	-4.293893e+01	-9.831136e+01	-3.065178e+01	-6.376735e+00	-9.727846e+01	-2.355346e+01	-4.932757e+01	2.119565e+01
3.288782e+06	-4.293486e+01	-9.830870e+01	-3.064896e+01	-6.381647e+00	-9.907215e+01	4.198102e+00	-4.931734e+01	2.114386e+01
3.288813e+06	-4.293080e+01	-9.830605e+01	-3.064615e+01	-6.386555e+00	-9.842944e+01	3.631280e+01	-4.930711e+01	2.109219e+01
3.288844e+06	-4.292673e+01	-9.830340e+01	-3.064333e+01	-6.391460e+00	-9.608393e+01	5.845249e+01	-4.929689e+01	2.104065e+01
3.288875e+06	-4.292267e+01	-9.830075e+01	-3.064052e+01	-6.396363e+00	-9.364255e+01	7.099660e+01	-4.928668e+01	2.098922e+01
3.288906e+06	-4.291878e+01	-9.829847e+01	-3.063776e+01	-6.401155e+00	-9.160717e+01	7.824838e+01	-4.927696e+01	2.093748e+01
3.288938e+06	-4.292477e+01	-9.831839e+01	-3.063862e+01	-6.399378e+00	-9.409060e+01	7.388483e+01	-4.929750e+01	2.085836e+01
3.288969e+06	-4.293077e+01	-9.833833e+01	-3.063948e+01	-6.397601e+00	-9.743462e+01	6.532612e+01	-4.931806e+01	2.077887e+01
3.289000e+06	-4.293676e+01	-9.835830e+01	-3.064033e+01	-6.395824e+00	-1.020341e+02	4.352406e+01	-4.933867e+01	2.069900e+01
3.289032e+06	-4.294277e+01	-9.837830e+01	-3.064119e+01	-6.394047e+00	-1.044225e+02	-1.260595e+01	-4.935930e+01	2.061875e+01
3.289063e+06	-4.294877e+01	-9.839833e+01	-3.064204e+01	-6.392269e+00	-9.995344e+01	-5.340740e+01	-4.937996e+01	2.053812e+01
3.289094e+06	-4.294333e+01	-9.840128e+01	-3.064310e+01	-6.412014e+00	-9.957117e+01	-7.503226e+01	-4.935709e+01	2.058159e+01
3.289125e+06	-4.293780e+01	-9.840408e+01	-3.064416e+01	-6.431938e+00	-9.827004e+01	-9.278893e+01	-4.933391e+01	2.062584e+01
3.289156e+06	-4.293227e+01	-9.840689e+01	-3.064521e+01	-6.451866e+00	-9.662164e+01	-1.053315e+02	-4.931080e+01	2.066984e+01
3.289188e+06	-4.292675e+01	-9.840968e+01	-3.064627e+01	-6.471799e+00	-9.499433e+01	-1.138968e+02	-4.928773e+01	2.071362e+01
3.289219e+06	-4.292123e+01	-9.841248e+01	-3.064732e+01	-6.491737e+00	-9.350870e+01	-1.198708e+02	-4.926473e+01	2.075716e+01
3.289250e+06	-4.291724e+01	-9.835279e+01	-3.064844e+01	-6.490825e+00	-9.512509e+01	-1.100761e+02	-4.927115e+01	2.083076e+01
3.289282e+06	-4.291324e+01	-9.829315e+01	-3.064956e+01	-6.489913e+00	-9.665557e+01	-9.592995e+01	-4.927756e+01	2.090447e+01
3.289313e+06	-4.290923e+01	-9.823357e+01	-3.065068e+01	-6.489000e+00	-9.764406e+01	-7.686619e+01	-4.928395e+01	2.097829e+01
3.289344e+06	-4.290521e+01	-9.817404e+01	-3.065181e+01	-6.488088e+00	-9.756111e+01	-5.561176e+01	-4.929034e+01	2.105222e+01
3.289375e+06	-4.290123e+01	-9.811510e+01	-3.065290e+01	-6.487006e+00	-9.647361e+01	-3.717446e+01	-4.929655e+01	2.112597e+01
3.289406e+06	-4.290226e+01	-9.812300e+01	-3.065072e+01	-6.465074e+00	-9.642351e+01	-2.141629e+01	-4.928187e+01	2.116403e+01
3.289438e+06	-4.290329e+01	-9.813090e+01	-3.064853e+01	-6.443152e+00	-9.577518e+01	-6.903564e+00	-4.926720e+01	2.120196e+01
3.289469e+06	-4.290432e+01	-9.813881e+01	-3.064634e+01	-6.421242e+00	-9.474579e+01	5.018385e+00	-4.925256e+01	2.123977e+01
3.289500e+06	-4.290535e+01	-9.814671e+01	-3.064415e+01	-6.399342e+00	-9.356430e+01	1.423432e+01	-4.923794e+01	2.127745e+01
3.289532e+06	-4.290643e+01	-9.815522e+01	-3.064203e+01	-6.377877e+00	-9.238941e+01	2.143176e+01	-4.922405e+01	2.131303e+01
3.289563e+06	-4.291001e+01	-9.820069e+01	-3.064391e+01	-6.382469e+00	-9.182140e+01	3.896039e+01	-4.925412e+01	2.122714e+01
3.289594e+06	-4.291359e+01	-9.824619e+01	-3.064579e+01	-6.387063e+00	-9.066666e+01	5.326028e+01	-4.928427e+01	2.114065e+01
3.289625e+06	-4.291717e+01	-9.829174e+01	-3.064767e+01	-6.391658e+00	-8.929003e+01	6.389542e+01	-4.931451e+01	2.105356e+01
3.289656e+06	-4.292074e+01	-9.833732e+01	-3.064955e+01	-6.396256e+00	-8.791250e+01	7.161964e+01	-4.934484e+01	2.096586e+01
3.289688e+06	-4.292431e+01	-9.838293e+01	-3.065142e+01	-6.400855e+00	-8.662272e+01	7.729356e+01	-4.937525e+01	2.087754e+01
3.289719e+06	-4.292906e+01	-9.842895e+01	-3.064949e+01	-6.400285e+00	-8.793694e+01	7.983209e+01	-4.933857e+01	2.097461e+01
3.289750e+06	-4.293381e+01	-9.847501e+01	-3.064753e+01	-6.399673e+00	-8.948574e+01	8.334061e+01	-4.930149e+01	2.107235e+01
3.289782e+06	-4.293855e+01	-9.852113e+01	-3.064557e+01	-6.399061e+00	-9.131229e+01	8.851918e+01	-4.926454e+01	2.116925e+01
3.289813e+06	-4.294330e+01	-9.856729e+01	-3.064361e+01	-6.398450e+00	-9.348148e+01	9.673965e+01	-4.922772e+01	2.126533e+01
3.289844e+06	-4.294804e+01	-9.861351e+01	-3.064165e+01	-6.397839e+00	-9.595437e+01	1.108623e+02	-4.919103e+01	2.136061e+01
3.289875e+06	-4.294477e+01	-9.860168e+01	-3.064393e+01	-6.389156e+00	-9.892473e+01	8.315843e+01	-4.920842e+01	2.124729e+01
3.289906e+06	-4.294149e+01	-9.858986e+01	-3.064622e+01	-6.380469e+00	-9.894081e+01	4.218818e+01	-4.922582e+01	2.113351e+01
3.289938e+06	-4.293822e+01	-9.857805e+01	-3.064850e+01	-6.371778e+00	-9.597874e+01	1.434376e+01	-4.924321e+01	2.101927e+01
3.289969e+06	-4.293495e+01	-9.856625e+01	-3.065078e+01	-6.363081e+00	-9.298867e+01	7.295031e-01	-4.926060e+01	2.090458e+01
3.290000e+06	-4.293166e+01	-9.855427e+01	-3.065304e+01	-6.354511e+00	-9.059054e+01	-6.605224e+00	-4.927807e+01	2.079107e+01
3.290032e+06	-4.292501e+01	-9.851945e+01	-3.065184e+01	-6.362193e+00	-9.116237e+01	-2.388074e+01	-4.930467e+01	2.088084e+01
3.290063e+06	-4.291837e+01	-9.848467e+01	-3.065064e+01	-6.369872e+00	-9.090416e+01	-4.181259e+01	-4.933132e+01	2.097117e+01
3.290094e+06	-4.291172e+01	-9.844996e+01	-3.064944e+01	-6.377549e+00	-8.994183e+01	-5.732954e+01	-4.935804e+01	2.106206e+01
3.290125e+06	-4.290508e+01	-9.841529e+01	-3.064824e+01	-6.385224e+00	-8.863446e+01	-6.921784e+01	-4.938481e+01	2.115350e+01
3.290156e+06	-4.289867e+01	-9.838175e+01	-3.064704e+01	-6.392890e+00	-8.729238e+01	-7.779210e+01	-4.941072e+01	2.124238e+01
3.290188e+06	-4.290641e+01	-9.841424e+01	-3.064605e+01	-6.400164e+00	-8.809635e+01	-7.733650e+01	-4.937932e+01	2.113894e+01
3.290219e+06	-4.291414e+01	-9.844679e+01	-3.064507e+01	-6.407436e+00	-8.898166e+01	-7.678309e+01	-4.934801e+01	2.103625e+01
3.290250e+06	-4.292188e+01	-9.847940e+01	-3.064408e+01	-6.414707e+00	-8.996643e+01	-7.609672e+01	-4.931679e+01	2.093429e+01
3.290282e+06	-4.292963e+01	-9.851207e+01	-3.064309e+01	-6.421976e+00	-9.107549e+01	-7.522323e+01	-4.928564e+01	2.083307e+01
3.290313e+06	-4.293738e+01	-9.854480e+01	-3.064210e+01	-6.429243e+00	-9.234411e+01	-7.407468e+01	-4.925459e+01	2.073256e+01
3.290344e+06	-4.293562e+01	-9.851513e+01	-3.063945e+01	-6.424566e+00	-9.510991e+01	-7.682008e+01	-4.928700e+01	2.082918e+01
3.290375e+06	-4.293379e+01	-9.848496e+01	-3.063680e+01	-6.419795e+00	-9.913840e+01	-8.289571e+01	-4.932003e+01	2.092813e+01
3.290406e+06	-4.293195e+01	-9.845481e+01	-3.063414e+01	-6.415027e+00	-1.060476e+02	-1.047873e+02	-4.935316e+01	2.102784e+01
3.290438e+06	-4.293011e+01	-9.842467e+01	-3.063148e+01	-6.410262e+00	-1.076880e+02	1.613567e+02	-4.938638e+01	2.112831e+01
3.290469e+06	-4.292827e+01	-9.839455e+01	-3.062883e+01	-6.405500e+00	-1.000658e+02	1.312836e+02	-4.941971e+01	2.122956e+01
3.290500e+06	-4.292559e+01	-9.843878e+01	-3.063108e+01	-6.390832e+00	-9.567294e+01	1.210384e+02	-4.940054e+01	2.112051e+01
3.290532e+06	-4.292291e+01	-9.848299e+01	-3.063332e+01	-6.376156e+00	-9.268459e+01	1.166776e+02	-4.938138e+01	2.101193e+01
3.290563e+06	-4.292023e+01	-9.852716e+01	-3.063557e+01	-6.361473e+00	-9.044404e+01	1.142908e+02	-4.936223e+01	2.090384e+01
3.290594e+06	-4.291754e+01	-9.857131e+01	-3.063781e+01	-6.346782e+00	-8.865681e+01	1.127899e+02	-4.934309e+01	2.079622e+01
3.290625e+06	-4.291480e+01	-9.861473e+01	-3.064005e+01	-6.332319e+00	-8.721003e+01	1.117756e+02	-4.932400e+01	2.069032e+01
3.290656e+06	-4.290647e+01	-9.857056e+01	-3.064070e+01	-6.347042e+00	-9.153449e+01	1.135259e+02	-4.930881e+01	2.073844e+01
3.290688e+06	-4.289813e+01	-9.852647e+01	-3.064136e+01	-6.361768e+00	-1.004306e+02	1.215704e+02	-4.929365e+01	2.078639e+01
3.290719e+06	-4.288980e+01	-9.848247e+01	-3.064201e+01	-6.376495e+00	-1.018234e+02	-8.565587e+01	-4.927851e+01	2.083418e+01
3.290750e+06	-4.288147e+01	-9.843855e+01	-3.064267e+01	-6.391226e+00	-9.202177e+01	-7.564922e+01	-4.926338e+01	2.088180e+01
3.290782e+06	-4.287351e+01	-9.839436e+01	-3.064329e+01	-6.405612e+00	-8.759045e+01	-7.390287e+01	-4.924875e+01	2.092886e+01
3.290813e+06	-4.288783e+01	-9.832828e+01	-3.064207e+01	-6.398764e+00	-8.954131e+01	-8.578887e+01	-4.926291e+01	2.095118e+01
3.290844e+06	-4.290216e+01	-9.826198e+01	-3.064085e+01	-6.391917e+00	-9.129922e+01	-1.041901e+02	-4.927710e+01	2.097357e+01
3.290875e+06	-4.291650e+01	-9.819546e+01	-3.063964e+01	-6.385072e+00	-9.199442e+01	-1.289417e+02	-4.929131e+01	2.099604e+01
3.290906e+06	-4.293085e+01	-9.812872e+01	-3.063842e+01	-6.378229e+00	-9.106587e+01	-1.529950e+02	-4.930554e+01	2.101858e+01
3.290938e+06	-4.294522e+01	-9.806176e+01	-3.063720e+01	-6.371388e+00	-8.923268e+01	-1.702469e+02	-4.931980e+01	2.104120e+01
3.290969e+06	-4.293870e+01	-9.813628e+01	-3.063983e+01	-6.374731e+00	-9.356951e+01	-1.711147e+02	-4.931786e+01	2.100503e+01
3.291000e+06	-4.293200e+01	-9.821183e+01	-3.064250e+01	-6.378159e+00	-1.028119e+02	-1.747718e+02	-4.931578e+01	2.096840e+01
3.291032e+06	-4.292530e+01	-9.828727e+01	-3.064517e+01	-6.381590e+00	-1.036198e+02	1.693338e+01	-4.931370e+01	2.093178e+01
3.291063e+06	-4.291858e+01	-9.836259e+01	-3.064783e+01	-6.385022e+00	-9.384116e+01	1.279154e+01	-4.931162e+01	2.089519e+01
3.291094e+06	-4.291186e+01	-9.843779e+01	-3.065050e+01	-6.388456e+00	-8.935246e+01	1.199085e+01	-4.930954e+01	2.085861e+01
3.291125e+06	-4.290837e+01	-9.846467e+01	-3.064610e+01	-6.394374e+00	-9.092624e+01	1.663996e+01	-4.929625e+01	2.082591e+01
3.291156e+06	-4.290489e+01	-9.849152e+01	-3.064170e+01	-6.400286e+00	-9.274430e+01	2.351902e+01	-4.928298e+01	2.079332e+01
3.291188e+06	-4.290140e+01	-9.851836e+01	-3.063731e+01	-6.406191e+00	-9.479210e+01	3.429210e+01	-4.926973e+01	2.076082e+01
3.291219e+06	-4.289791e+01	-9.854517e+01	-3.063292e+01	-6.412091e+00	-9.681122e+01	5.166198e+01	-4.925649e+01	2.072842e+01
3.291250e+06	-4.289449e+01	-9.857131e+01	-3.062857e+01	-6.417954e+00	-9.790078e+01	7.671455e+01	-4.924333e+01	2.069703e+01
3.291282e+06	-4.289952e+01	-9.851602e+01	-3.063027e+01	-6.420016e+00	-9.624840e+01	7.126217e+01	-4.923708e+01	2.077863e+01
3.291313e+06	-4.290455e+01	-9.846067e+01	-3.063197e+01	-6.422079e+00	-9.481373e+01	6.744362e+01	-4.923081e+01	2.086010e+01
3.291344e+06	-4.290957e+01	-9.840526e+01	-3.063366e+01	-6.424143e+00	-9.355822e+01	6.464308e+01	-4.922453e+01	2.094146e+01
3.291375e+06	-4.291458e+01	-9.834978e+01	-3.063536e+01	-6.426207e+00	-9.244755e+01	6.251072e+01	-4.921824e+01	2.102270e+01
3.291406e+06	-4.291940e+01	-9.829542e+01	-3.063705e+01	-6.428115e+00	-9.146639e+01	6.070764e+01	-4.921226e+01	2.110170e+01
3.291438e+06	-4.291278e+01	-9.831369e+01	-3.063851e+01	-6.420345e+00	-9.115216e+01	5.141974e+01	-4.922681e+01	2.105061e+01
3.291469e+06	-4.290616e+01	-9.833192e+01	-3.063997e+01	-6.412572e+00	-9.064875e+01	4.297268e+01	-4.924137e+01	2.099934e+01
3.291500e+06	-4.289954e+01	-9.835013e+01	-3.064142e+01	-6.404797e+00	-9.001639e+01	3.556721e+01	-4.925595e+01	2.094790e+01
3.291532e+06	-4.289293e+01	-9.836831e+01	-3.064288e+01	-6.397020e+00	-8.931090e+01	2.922357e+01	-4.927055e+01	2.089628e+01
3.291563e+06	-4.288632e+01	-9.838646e+01	-3.064434e+01	-6.389239e+00	-8.857486e+01	2.385313e+01	-4.928516e+01	2.084450e+01
3.291594e+06	-4.289592e+01	-9.837957e+01	-3.064388e+01	-6.389572e+00	-9.150028e+01	2.222170e+01	-4.928503e+01	2.094007e+01
3.291625e+06	-4.290567e+01	-9.837246e+01	-3.064340e+01	-6.389970e+00	-9.597816e+01	1.845327e+01	-4.928475e+01	2.103683e+01
3.291656e+06	-4.291542e+01	-9.836533e+01	-3.064292e+01	-6.390367e+00	-1.051715e+02	-3.830330e-02	-4.928445e+01	2.113358e+01
3.291688e+06	-4.292518e+01	-9.835819e+01	-3.064244e+01	-6.390765e+00	-1.037956e+02	-1.287677e+02	-4.928412e+01	2.123033e+01
3.291719e+06	-4.293496e+01	-9.835103e+01	-3.064196e+01	-6.391163e+00	-9.542953e+01	-1.434898e+02	-4.928377e+01	2.132707e+01
3.291750e+06	-4.292944e+01	-9.834624e+01	-3.063916e+01	-6.412390e+00	-9.991462e+01	-1.250078e+02	-4.928500e+01	2.123091e+01
3.291782e+06	-4.292392e+01	-9.834145e+01	-3.063635e+01	-6.433604e+00	-1.033750e+02	-7.270070e+01	-4.928620e+01	2.113472e+01
3.291813e+06	-4.291841e+01	-9.833667e+01	-3.063355e+01	-6.454804e+00	-9.926606e+01	-2.544696e+01	-4.928738e+01	2.103851e+01
3.291844e+06	-4.291290e+01	-9.833190e+01	-3.063074e+01	-6.475991e+00	-9.495800e+01	-9.267109e+00	-4.928853e+01	2.094227e+01
3.291875e+06	-4.290745e+01	-9.832743e+01	-3.062796e+01	-6.496866e+00	-9.191938e+01	-2.546388e+00	-4.928964e+01	2.084694e+01
3.291906e+06	-4.290833e+01	-9.836056e+01	-3.062844e+01	-6.480848e+00	-9.434833e+01	-1.569121e+01	-4.928837e+01	2.086772e+01
3.291938e+06	-4.290921e+01	-9.839369e+01	-3.062892e+01	-6.464829e+00	-9.658557e+01	-3.859329e+01	-4.928710e+01	2.088850e+01
3.291969e+06	-4.291009e+01	-9.842682e+01	-3.062940e+01	-6.448807e+00	-9.701098e+01	-7.051492e+01	-4.928583e+01	2.090927e+01
3.292000e+06	-4.291096e+01	-9.845996e+01	-3.062987e+01	-6.432784e+00	-9.514310e+01	-9.712087e+01	-4.928456e+01	2.093004e+01
3.292032e+06	-4.291190e+01	-9.849238e+01	-3.063034e+01	-6.417021e+00	-9.275649e+01	-1.124826e+02	-4.928329e+01	2.095117e+01
3.292063e+06	-4.291698e+01	-9.848008e+01	-3.063009e+01	-6.417355e+00	-9.563664e+01	-9.275241e+01	-4.928182e+01	2.099506e+01
3.292094e+06	-4.292206e+01	-9.846776e+01	-3.062984e+01	-6.417689e+00	-9.721438e+01	-5.841890e+01	-4.928036e+01	2.103892e+01
3.292125e+06	-4.292714e+01	-9.845542e+01	-3.062959e+01	-6.418022e+00	-9.552044e+01	-2.460389e+01	-4.927888e+01	2.108278e+01
3.292156e+06	-4.293222e+01	-9.844307e+01	-3.062934e+01	-6.418356e+00	-9.263679e+01	-5.423345e+00	-4.927740e+01	2.112662e+01
3.292188e+06	-4.293731e+01	-9.843071e+01	-3.062909e+01	-6.418689e+00	-9.007408e+01	4.684445e+00	-4.927592e+01	2.117044e+01
3.292219e+06	-4.292631e+01	-9.839988e+01	-3.063191e+01	-6.415705e+00	-8.962499e+01	-4.550385e+00	-4.928324e+01	2.107503e+01
3.292250e+06	-4.291520e+01	-9.836898e+01	-3.063476e+01	-6.412692e+00	-8.901627e+01	-1.285598e+01	-4.929060e+01	2.097832e+01
3.292282e+06	-4.290410e+01	-9.833816e+01	-3.063761e+01	-6.409677e+00	-8.830091e+01	-1.998065e+01	-4.929795e+01	2.088146e+01
3.292313e+06	-4.289301e+01	-9.830741e+01	-3.064046e+01	-6.406660e+00	-8.753520e+01	-2.598390e+01	-4.930528e+01	2.078443e+01
3.292344e+06	-4.288193e+01	-9.827675e+01	-3.064331e+01	-6.403641e+00	-8.675800e+01	-3.100735e+01	-4.931259e+01	2.068724e+01
3.292375e+06	-4.289535e+01	-9.835309e+01	-3.064284e+01	-6.406140e+00	-9.083379e+01	-2.651167e+01	-4.930188e+01	2.073210e+01
3.292406e+06	-4.290877e+01	-9.842966e+01	-3.064237e+01	-6.408639e+00	-9.826538e+01	-9.363325e+00	-4.929118e+01	2.077684e+01
3.292438e+06	-4.292220e+01	-9.850647e+01	-3.064190e+01	-6.411138e+00	-1.009188e+02	1.003215e+02	-4.928049e+01	2.082148e+01
3.292469e+06	-4.293564e+01	-9.858351e+01	-3.064143e+01	-6.413637e+00	-9.207029e+01	1.278001e+02	-4.926981e+01	2.086601e+01
3.292500e+06	-4.294897e+01	-9.865945e+01	-3.064096e+01	-6.416308e+00	-8.756998e+01	1.334005e+02	-4.925942e+01	2.090968e+01
3.292532e+06	-4.294836e+01	-9.856780e+01	-3.064022e+01	-6.440392e+00	-9.015160e+01	1.271548e+02	-4.928445e+01	2.086130e+01
3.292563e+06	-4.294773e+01	-9.847616e+01	-3.063947e+01	-6.464472e+00	-9.352848e+01	1.146786e+02	-4.930954e+01	2.081264e+01
3.292594e+06	-4.294708e+01	-9.838453e+01	-3.063872e+01	-6.488548e+00	-9.735029e+01	8.501982e+01	-4.933470e+01	2.076369e+01
3.292625e+06	-4.294640e+01	-9.829292e+01	-3.063797e+01	-6.512620e+00	-9.729093e+01	3.528163e+01	-4.935992e+01	2.071446e+01
3.292656e+06	-4.294563e+01	-9.820474e+01	-3.063722e+01	-6.535815e+00	-9.355054e+01	6.377819e+00	-4.938455e+01	2.066658e+01
3.292688e+06	-4.294020e+01	-9.832651e+01	-3.063662e+01	-6.505293e+00	-9.604752e+01	3.927099e+00	-4.936832e+01	2.071925e+01
3.292719e+06	-4.293474e+01	-9.844814e+01	-3.063601e+01	-6.474776e+00	-9.951841e+01	-9.490714e-01	-4.935212e+01	2.077171e+01
3.292750e+06	-4.292923e+01	-9.856961e+01	-3.063541e+01	-6.444264e+00	-1.050401e+02	-1.479807e+01	-4.933593e+01	2.082398e+01
3.292782e+06	-4.292370e+01	-9.869092e+01	-3.063480e+01	-6.413755e+00	-1.113844e+02	-8.457127e+01	-4.931978e+01	2.087605e+01
3.292813e+06	-4.291812e+01	-9.881208e+01	-3.063418e+01	-6.383251e+00	-1.040295e+02	-1.412153e+02	-4.930364e+01	2.092794e+01
3.292844e+06	-4.291613e+01	-9.875919e+01	-3.063572e+01	-6.396539e+00	-1.030561e+02	1.238772e+02	-4.931302e+01	2.087465e+01
3.292875e+06	-4.291415e+01	-9.870492e+01	-3.063728e+01	-6.410185e+00	-9.593325e+01	1.004267e+02	-4.932261e+01	2.082040e+01
3.292906e+06	-4.291217e+01	-9.865068e+01	-3.063884e+01	-6.423836e+00	-9.182073e+01	9.415975e+01	-4.933221e+01	2.076603e+01
3.292938e+06	-4.291018e+01	-9.859646e+01	-3.064039e+01	-6.437491e+00	-8.900706e+01	9.134100e+01	-4.934180e+01	2.071153e+01
3.292969e+06	-4.290818e+01	-9.854226e+01	-3.064195e+01	-6.451152e+00	-8.687594e+01	8.974623e+01	-4.935140e+01	2.065692e+01
3.293000e+06	-4.291691e+01	-9.847883e+01	-3.064118e+01	-6.442485e+00	-8.822285e+01	8.430996e+01	-4.933660e+01	2.077910e+01
3.293032e+06	-4.292564e+01	-9.841528e+01	-3.064040e+01	-6.433819e+00	-8.968788e+01	7.678515e+01	-4.932179e+01	2.090087e+01
3.293063e+06	-4.293436e+01	-9.835160e+01	-3.063963e+01	-6.425155e+00	-9.119322e+01	6.616194e+01	-4.930696e+01	2.102222e+01
3.293094e+06	-4.294309e+01	-9.828779e+01	-3.063886e+01	-6.416492e+00	-9.250751e+01	5.138546e+01	-4.929212e+01	2.114316e+01
3.293125e+06	-4.295165e+01	-9.822470e+01	-3.063808e+01	-6.407888e+00	-9.319461e+01	3.288199e+01	-4.927727e+01	2.126245e+01
3.293156e+06	-4.294087e+01	-9.826689e+01	-3.063626e+01	-6.406447e+00	-9.344425e+01	4.152478e+01	-4.926402e+01	2.122931e+01
3.293188e+06	-4.293010e+01	-9.830898e+01	-3.063445e+01	-6.405007e+00	-9.349105e+01	5.047006e+01	-4.925078e+01	2.119627e+01
3.293219e+06	-4.291934e+01	-9.835096e+01	-3.063264e+01	-6.403567e+00	-9.332850e+01	5.929597e+01	-4.923756e+01	2.116332e+01
3.293250e+06	-4.290858e+01	-9.839284e+01	-3.063083e+01	-6.402128e+00	-9.297857e+01	6.761250e+01	-4.922436e+01	2.113048e+01
3.293282e+06	-4.289797e+01	-9.843392e+01	-3.062908e+01	-6.400685e+00	-9.246506e+01	7.483468e+01	-4.921162e+01	2.109672e+01
3.293313e+06	-4.289567e+01	-9.843228e+01	-3.063125e+01	-6.399014e+00	-9.079758e+01	6.426829e+01	-4.922646e+01	2.100058e+01
3.293344e+06	-4.289337e+01	-9.843063e+01	-3.063342e+01	-6.397341e+00	-8.922654e+01	5.701228e+01	-4.924130e+01	2.090412e+01
3.293375e+06	-4.289107e+01	-9.842899e+01	-3.063559e+01	-6.395668e+00	-8.781195e+01	5.187377e+01	-4.925614e+01	2.080732e+01
3.293406e+06	-4.288878e+01	-9.842735e+01	-3.063776e+01	-6.393994e+00	-8.655120e+01	4.809977e+01	-4.927099e+01	2.071018e+01
3.293438e+06	-4.288648e+01	-9.842570e+01	-3.063993e+01	-6.392319e+00	-8.542525e+01	4.523338e+01	-4.928583e+01	2.061272e+01
3.293469e+06	-4.288851e+01	-9.842667e+01	-3.063852e+01	-6.404744e+00	-8.713414e+01	5.158093e+01	-4.927409e+01	2.072819e+01
3.293500e+06	-4.289057e+01	-9.842766e+01	-3.063707e+01	-6.417278e+00	-8.908437e+01	6.140031e+01	-4.926211e+01	2.084505e+01
3.293532e+06	-4.289263e+01	-9.842866e+01	-3.063562e+01	-6.429808e+00	-9.106859e+01	7.696107e+01	-4.925011e+01	2.096159e+01
3.293563e+06	-4.289470e+01	-9.842965e+01	-3.063418e+01	-6.442333e+00	-9.239495e+01	1.000850e+02	-4.923809e+01	2.107781e+01
3.293594e+06	-4.289676e+01	-9.843064e+01	-3.063273e+01	-6.454855e+00	-9.209442e+01	1.263136e+02	-4.922605e+01	2.119371e+01
