# Hz S dB R 50.000
3.288594e+06	-4.305594e+01	-9.404940e+01	-3.074026e+01	-6.705256e+00	-9.252009e+01	-1.441375e+02	-3.880661e+01	6.055418e+00
3.288625e+06	-4.305373e+01	-9.402929e+01	-3.074147e+01	-6.705970e+00	-9.604376e+01	-1.769380e+02	-3.880740e+01	6.080150e+00
3.288656e+06	-4.305152e+01	-9.400919e+01	-3.074267e+01	-6.706684e+00	-9.522843e+01	1.353368e+02	-3.880819e+01	6.104887e+00
3.288688e+06	-4.304931e+01	-9.398910e+01	-3.074388e+01	-6.707398e+00	-9.146418e+01	1.094416e+02	-3.880898e+01	6.129629e+00
3.288719e+06	-4.304709e+01	-9.396902e+01	-3.074508e+01	-6.708113e+00	-8.826808e+01	9.814014e+01	-3.880977e+01	6.154375e+00
3.288750e+06	-4.304485e+01	-9.394922e+01	-3.074627e+01	-6.708862e+00	-8.583093e+01	9.230085e+01	-3.881056e+01	6.178768e+00
3.288782e+06	-4.303834e+01	-9.396241e+01	-3.074532e+01	-6.713877e+00	-8.729647e+01	9.033318e+01	-3.881210e+01	6.158944e+00
3.288813e+06	-4.303184e+01	-9.397558e+01	-3.074438e+01	-6.718891e+00	-8.904235e+01	8.748467e+01	-3.881363e+01	6.139113e+00
3.288844e+06	-4.302535e+01	-9.398874e+01	-3.074343e+01	-6.723904e+00	-9.118654e+01	8.302420e+01	-3.881517e+01	6.119275e+00
3.288875e+06	-4.301885e+01	-9.400187e+01	-3.074248e+01	-6.728916e+00	-9.391187e+01	7.519405e+01	-3.881670e+01	6.099430e+00
3.288906e+06	-4.301259e+01	-9.401401e+01	-3.074151e+01	-6.733773e+00	-9.736538e+01	5.883407e+01	-3.881822e+01	6.079670e+00
3.288938e+06	-4.302014e+01	-9.396606e+01	-3.073907e+01	-6.729139e+00	-9.780455e+01	1.548658e+01	-3.881875e+01	6.065533e+00
3.288969e+06	-4.302769e+01	-9.391803e+01	-3.073662e+01	-6.724508e+00	-9.469392e+01	-1.482370e+01	-3.881927e+01	6.051394e+00
3.289000e+06	-4.303524e+01	-9.386991e+01	-3.073418e+01	-6.719880e+00	-9.152410e+01	-2.899985e+01	-3.881980e+01	6.037253e+00
3.289032e+06	-4.304279e+01	-9.382170e+01	-3.073174e+01	-6.715254e+00	-8.899660e+01	-3.630162e+01	-3.882033e+01	6.023110e+00
3.289063e+06	-4.305034e+01	-9.377342e+01	-3.072930e+01	-6.710631e+00	-8.697459e+01	-4.061867e+01	-3.882086e+01	6.008966e+00
3.289094e+06	-4.304713e+01	-9.387800e+01	-3.073154e+01	-6.705681e+00	-8.785480e+01	-4.545764e+01	-3.881203e+01	6.051361e+00
3.289125e+06	-4.304381e+01	-9.398373e+01	-3.073382e+01	-6.700725e+00	-8.877526e+01	-5.143937e+01	-3.880313e+01	6.094125e+00
3.289156e+06	-4.304046e+01	-9.408938e+01	-3.073611e+01	-6.695767e+00	-8.967366e+01	-5.882151e+01	-3.879424e+01	6.136801e+00
3.289188e+06	-4.303708e+01	-9.419495e+01	-3.073839e+01	-6.690806e+00	-9.047920e+01	-6.781570e+01	-3.878535e+01	6.179390e+00
3.289219e+06	-4.303367e+01	-9.430044e+01	-3.074067e+01	-6.685843e+00	-9.108876e+01	-7.841834e+01	-3.877646e+01	6.221892e+00
3.289250e+06	-4.303480e+01	-9.422760e+01	-3.073931e+01	-6.694126e+00	-9.477293e+01	-6.412938e+01	-3.878577e+01	6.233056e+00
3.289282e+06	-4.303591e+01	-9.415475e+01	-3.073794e+01	-6.702407e+00	-9.862792e+01	-2.811923e+01	-3.879509e+01	6.244244e+00
3.289313e+06	-4.303701e+01	-9.408188e+01	-3.073658e+01	-6.710685e+00	-9.720984e+01	2.298980e+01	-3.880442e+01	6.255456e+00
3.289344e+06	-4.303810e+01	-9.400899e+01	-3.073521e+01	-6.718960e+00	-9.307960e+01	4.725229e+01	-3.881376e+01	6.266693e+00
3.289375e+06	-4.303922e+01	-9.393656e+01	-3.073387e+01	-6.727191e+00	-8.985061e+01	5.734208e+01	-3.882305e+01	6.277836e+00
3.289406e+06	-4.304708e+01	-9.392456e+01	-3.073541e+01	-6.730144e+00	-9.132701e+01	6.349586e+01	-3.882467e+01	6.274444e+00
3.289438e+06	-4.305495e+01	-9.391253e+01	-3.073695e+01	-6.733099e+00	-9.293165e+01	7.228738e+01	-3.882628e+01	6.271051e+00
3.289469e+06	-4.306283e+01	-9.390047e+01	-3.073849e+01	-6.736054e+00	-9.453128e+01	8.505684e+01	-3.882790e+01	6.267656e+00
3.289500e+06	-4.307071e+01	-9.388840e+01	-3.074003e+01	-6.739011e+00	-9.574951e+01	1.028591e+02	-3.882951e+01	6.264261e+00
3.289532e+06	-4.307836e+01	-9.387654e+01	-3.074155e+01	-6.741768e+00	-9.603637e+01	1.238944e+02	-3.883105e+01	6.260007e+00
3.289563e+06	-4.307174e+01	-9.387899e+01	-3.074161e+01	-6.732197e+00	-9.738657e+01	1.332417e+02	-3.882787e+01	6.203115e+00
3.289594e+06	-4.306512e+01	-9.388144e+01	-3.074166e+01	-6.722626e+00	-9.861303e+01	1.458632e+02	-3.882468e+01	6.146264e+00
3.289625e+06	-4.305851e+01	-9.388389e+01	-3.074172e+01	-6.713055e+00	-9.941700e+01	1.618878e+02	-3.882148e+01	6.089456e+00
3.289656e+06	-4.305191e+01	-9.388633e+01	-3.074177e+01	-6.703484e+00	-9.947846e+01	1.796444e+02	-3.881828e+01	6.032689e+00
3.289688e+06	-4.304530e+01	-9.388877e+01	-3.074183e+01	-6.693913e+00	-9.876790e+01	-1.639155e+02	-3.881507e+01	5.975964e+00
3.289719e+06	-4.303874e+01	-9.392618e+01	-3.074098e+01	-6.686713e+00	-1.079578e+02	-8.016590e+01	-3.880921e+01	6.015968e+00
3.289750e+06	-4.303218e+01	-9.396382e+01	-3.074013e+01	-6.679534e+00	-9.747120e+01	-2.043001e+01	-3.880333e+01	6.056698e+00
3.289782e+06	-4.302562e+01	-9.400139e+01	-3.073928e+01	-6.672357e+00	-9.204714e+01	-1.248033e+01	-3.879745e+01	6.097372e+00
3.289813e+06	-4.301906e+01	-9.403892e+01	-3.073842e+01	-6.665181e+00	-8.869213e+01	-9.595062e+00	-3.879157e+01	6.137992e+00
3.289844e+06	-4.301250e+01	-9.407638e+01	-3.073757e+01	-6.658006e+00	-8.626941e+01	-8.111983e+00	-3.878569e+01	6.178556e+00
3.289875e+06	-4.301181e+01	-9.405945e+01	-3.073767e+01	-6.659079e+00	-8.801456e+01	-1.304687e+01	-3.879142e+01	6.135802e+00
3.289906e+06	-4.301113e+01	-9.404251e+01	-3.073777e+01	-6.660153e+00	-9.007251e+01	-2.070617e+01	-3.879715e+01	6.092991e+00
3.289938e+06	-4.301044e+01	-9.402558e+01	-3.073788e+01	-6.661226e+00	-9.242327e+01	-3.349835e+01	-3.880287e+01	6.050124e+00
3.289969e+06	-4.300975e+01	-9.400866e+01	-3.073798e+01	-6.662300e+00	-9.460479e+01	-5.540508e+01	-3.880860e+01	6.007200e+00
3.290000e+06	-4.300910e+01	-9.399189e+01	-3.073806e+01	-6.663460e+00	-9.516901e+01	-8.580441e+01	-3.881424e+01	5.964643e+00
3.290032e+06	-4.301228e+01	-9.399434e+01	-3.073524e+01	-6.675338e+00	-9.669954e+01	-7.597413e+01	-3.880967e+01	5.974573e+00
3.290063e+06	-4.301546e+01	-9.399679e+01	-3.073243e+01	-6.687209e+00	-9.811539e+01	-6.210655e+01	-3.880511e+01	5.984492e+00
3.290094e+06	-4.301865e+01	-9.399925e+01	-3.072962e+01	-6.699072e+00	-9.900652e+01	-4.389103e+01	-3.880054e+01	5.994400e+00
3.290125e+06	-4.302183e+01	-9.400170e+01	-3.072681e+01	-6.710927e+00	-9.893035e+01	-2.381045e+01	-3.879598e+01	6.004298e+00
3.290156e+06	-4.302505e+01	-9.400307e+01	-3.072408e+01	-6.722518e+00	-9.791710e+01	-6.587999e+00	-3.879160e+01	6.014099e+00
3.290188e+06	-4.303028e+01	-9.393732e+01	-3.072660e+01	-6.718341e+00	-9.583493e+01	-1.590614e+01	-3.879877e+01	6.018541e+00
3.290219e+06	-4.303550e+01	-9.387150e+01	-3.072912e+01	-6.714162e+00	-9.403578e+01	-2.185078e+01	-3.880595e+01	6.022991e+00
3.290250e+06	-4.304072e+01	-9.380559e+01	-3.073164e+01	-6.709980e+00	-9.249254e+01	-2.589270e+01	-3.881313e+01	6.027448e+00
3.290282e+06	-4.304592e+01	-9.373961e+01	-3.073416e+01	-6.705795e+00	-9.115590e+01	-2.879284e+01	-3.882032e+01	6.031912e+00
3.290313e+06	-4.305112e+01	-9.367355e+01	-3.073668e+01	-6.701609e+00	-8.998320e+01	-3.096490e+01	-3.882751e+01	6.036384e+00
3.290344e+06	-4.305135e+01	-9.376437e+01	-3.073748e+01	-6.701610e+00	-9.031351e+01	-2.670435e+01	-3.882497e+01	6.030997e+00
3.290375e+06	-4.305152e+01	-9.385646e+01	-3.073827e+01	-6.701645e+00	-9.061444e+01	-2.206377e+01	-3.882235e+01	6.025534e+00
3.290406e+06	-4.305166e+01	-9.394855e+01	-3.073906e+01	-6.701680e+00	-9.086329e+01	-1.711924e+01	-3.881973e+01	6.020074e+00
3.290438e+06	-4.305179e+01	-9.404065e+01	-3.073985e+01	-6.701715e+00	-9.104948e+01	-1.192007e+01	-3.881712e+01	6.014617e+00
3.290469e+06	-4.305189e+01	-9.413275e+01	-3.074064e+01	-6.701750e+00	-9.116412e+01	-6.537147e+00	-3.881450e+01	6.009164e+00
3.290500e+06	-4.305172e+01	-9.412260e+01	-3.073892e+01	-6.705204e+00	-9.179034e+01	-4.621926e+00	-3.881420e+01	5.999023e+00
3.290532e+06	-4.305155e+01	-9.411244e+01	-3.073721e+01	-6.708656e+00	-9.245308e+01	-2.400178e+00	-3.881390e+01	5.988883e+00
3.290563e+06	-4.305139e+01	-9.410229e+01	-3.073549e+01	-6.712107e+00	-9.315399e+01	1.994868e-01	-3.881359e+01	5.978743e+00
3.290594e+06	-4.305122e+01	-9.409214e+01	-3.073377e+01	-6.715556e+00	-9.389343e+01	3.268466e+00	-3.881329e+01	5.968604e+00
3.290625e+06	-4.305104e+01	-9.408211e+01	-3.073208e+01	-6.718977e+00	-9.465943e+01	6.953202e+00	-3.881298e+01	5.958859e+00
3.290656e+06	-4.304977e+01	-9.408682e+01	-3.073317e+01	-6.718917e+00	-9.417089e+01	1.430348e+01	-3.881163e+01	5.997794e+00
3.290688e+06	-4.304850e+01	-9.409152e+01	-3.073426e+01	-6.718857e+00	-9.358873e+01	2.079740e+01	-3.881029e+01	6.036717e+00
3.290719e+06	-4.304723e+01	-9.409623e+01	-3.073535e+01	-6.718797e+00	-9.295218e+01	2.643823e+01	-3.880893e+01	6.075629e+00
3.290750e+06	-4.304596e+01	-9.410093e+01	-3.073645e+01	-6.718737e+00	-9.229144e+01	3.129443e+01	-3.880758e+01	6.114528e+00
3.290782e+06	-4.304474e+01	-9.410488e+01	-3.073753e+01	-6.718674e+00	-9.164158e+01	3.533277e+01	-3.880620e+01	6.152222e+00
3.290813e+06	-4.304639e+01	-9.406207e+01	-3.073829e+01	-6.718414e+00	-9.183619e+01	3.098928e+01	-3.880374e+01	6.116526e+00
3.290844e+06	-4.304803e+01	-9.401925e+01	-3.073904e+01	-6.718154e+00	-9.198216e+01	2.647176e+01	-3.880128e+01	6.080850e+00
3.290875e+06	-4.304967e+01	-9.397642e+01	-3.073980e+01	-6.717895e+00	-9.207420e+01	2.182845e+01	-3.879882e+01	6.045194e+00
3.290906e+06	-4.305131e+01	-9.393357e+01	-3.074056e+01	-6.717635e+00	-9.210876e+01	1.711683e+01	-3.879636e+01	6.009559e+00
3.290938e+06	-4.305294e+01	-9.389070e+01	-3.074131e+01	-6.717375e+00	-9.208444e+01	1.239963e+01	-3.879389e+01	5.973944e+00
3.290969e+06	-4.305117e+01	-9.392108e+01	-3.073973e+01	-6.711613e+00	-9.310828e+01	2.603731e+01	-3.879411e+01	5.964495e+00
3.291000e+06	-4.304937e+01	-9.395204e+01	-3.073813e+01	-6.705808e+00	-9.360114e+01	4.252500e+01	-3.879435e+01	5.955256e+00
3.291032e+06	-4.304756e+01	-9.398298e+01	-3.073653e+01	-6.700006e+00	-9.334512e+01	5.948203e+01	-3.879459e+01	5.946017e+00
3.291063e+06	-4.304576e+01	-9.401391e+01	-3.073493e+01	-6.694206e+00	-9.245388e+01	7.428926e+01	-3.879483e+01	5.936778e+00
3.291094e+06	-4.304395e+01	-9.404483e+01	-3.073333e+01	-6.688408e+00	-9.123360e+01	8.585048e+01	-3.879507e+01	5.927538e+00
3.291125e+06	-4.304524e+01	-9.405700e+01	-3.073253e+01	-6.692556e+00	-9.152069e+01	7.946405e+01	-3.879889e+01	5.956050e+00
3.291156e+06	-4.304653e+01	-9.406918e+01	-3.073174e+01	-6.696704e+00	-9.169990e+01	7.272381e+01	-3.880270e+01	5.984588e+00
3.291188e+06	-4.304782e+01	-9.408136e+01	-3.073094e+01	-6.700850e+00	-9.175689e+01	6.579687e+01	-3.880652e+01	6.013150e+00
3.291219e+06	-4.304911e+01	-9.409355e+01	-3.073014e+01	-6.704996e+00	-9.168681e+01	5.888041e+01	-3.881034e+01	6.041737e+00
3.291250e+06	-4.305033e+01	-9.410548e+01	-3.072936e+01	-6.709128e+00	-9.151149e+01	5.214808e+01	-3.881406e+01	6.070338e+00
3.291282e+06	-4.304267e+01	-9.408594e+01	-3.073016e+01	-6.711639e+00	-9.327867e+01	4.068363e+01	-3.880657e+01	6.097413e+00
3.291313e+06	-4.303502e+01	-9.406644e+01	-3.073096e+01	-6.714151e+00	-9.484344e+01	2.372427e+01	-3.879909e+01	6.124442e+00
3.291344e+06	-4.302738e+01	-9.404697e+01	-3.073177e+01	-6.716663e+00	-9.553671e+01	1.496279e+00	-3.879161e+01	6.151424e+00
3.291375e+06	-4.301974e+01	-9.402753e+01	-3.073257e+01	-6.719176e+00	-9.488209e+01	-2.083616e+01	-3.878413e+01	6.178359e+00
3.291406e+06	-4.301225e+01	-9.400869e+01	-3.073336e+01	-6.721628e+00	-9.338729e+01	-3.759807e+01	-3.877685e+01	6.204402e+00
3.291438e+06	-4.301343e+01	-9.402424e+01	-3.073331e+01	-6.720299e+00	-9.505186e+01	-2.550556e+01	-3.878142e+01	6.178356e+00
3.291469e+06	-4.301461e+01	-9.403979e+01	-3.073325e+01	-6.718971e+00	-9.642066e+01	-8.224893e+00	-3.878598e+01	6.152282e+00
3.291500e+06	-4.301579e+01	-9.405535e+01	-3.073320e+01	-6.717642e+00	-9.688241e+01	1.328995e+01	-3.879054e+01	6.126180e+00
3.291532e+06	-4.301696e+01	-9.407092e+01	-3.073314e+01	-6.716314e+00	-9.613530e+01	3.407662e+01	-3.879511e+01	6.100051e+00
3.291563e+06	-4.301814e+01	-9.408649e+01	-3.073309e+01	-6.714986e+00	-9.464146e+01	4.999014e+01	-3.879967e+01	6.073894e+00
3.291594e+06	-4.302241e+01	-9.402043e+01	-3.073375e+01	-6.708292e+00	-9.572936e+01	3.512493e+01	-3.880108e+01	6.049583e+00
3.291625e+06	-4.302670e+01	-9.395365e+01	-3.073442e+01	-6.701555e+00	-9.617702e+01	1.699078e+01	-3.880245e+01	6.025279e+00
3.291656e+06	-4.303098e+01	-9.388680e+01	-3.073509e+01	-6.694816e+00	-9.573867e+01	-1.163483e+00	-3.880383e+01	6.000967e+00
3.291688e+06	-4.303524e+01	-9.381989e+01	-3.073575e+01	-6.688077e+00	-9.463221e+01	-1.628161e+01	-3.880520e+01	5.976647e+00
3.291719e+06	-4.303950e+01	-9.375291e+01	-3.073642e+01	-6.681336e+00	-9.324792e+01	-2.757238e+01	-3.880657e+01	5.952320e+00
3.291750e+06	-4.304490e+01	-9.377834e+01	-3.073553e+01	-6.683344e+00	-9.475376e+01	-2.160403e+01	-3.880683e+01	5.969732e+00
3.291782e+06	-4.305030e+01	-9.380380e+01	-3.073464e+01	-6.685351e+00	-9.640945e+01	-1.299848e+01	-3.880709e+01	5.987144e+00
3.291813e+06	-4.305570e+01	-9.382930e+01	-3.073376e+01	-6.687358e+00	-9.809334e+01	-3.019868e-01	-3.880735e+01	6.004558e+00
3.291844e+06	-4.306110e+01	-9.385483e+01	-3.073287e+01	-6.689364e+00	-9.942082e+01	1.780930e+01	-3.880761e+01	6.021973e+00
3.291875e+06	-4.306651e+01	-9.388062e+01	-3.073200e+01	-6.691324e+00	-9.976136e+01	3.959355e+01	-3.880784e+01	6.039547e+00
3.291906e+06	-4.307231e+01	-9.393563e+01	-3.073267e+01	-6.687546e+00	-1.011112e+02	2.129648e+01	-3.880504e+01	6.076808e+00
3.291938e+06	-4.307811e+01	-9.399072e+01	-3.073335e+01	-6.683767e+00	-1.014345e+02	-1.076673e+00	-3.880224e+01	6.114044e+00
3.291969e+06	-4.308390e+01	-9.404588e+01	-3.073403e+01	-6.679988e+00	-1.005070e+02	-2.187379e+01	-3.879944e+01	6.151257e+00
3.292000e+06	-4.308969e+01	-9.410112e+01	-3.073470e+01	-6.676208e+00	-9.890212e+01	-3.725652e+01	-3.879663e+01	6.188445e+00
3.292032e+06	-4.309523e+01	-9.415511e+01	-3.073537e+01	-6.672364e+00	-9.722274e+01	-4.738121e+01	-3.879392e+01	6.224391e+00
3.292063e+06	-4.308598e+01	-9.412831e+01	-3.073561e+01	-6.664606e+00	-9.777591e+01	-3.635486e+01	-3.879697e+01	6.185406e+00
3.292094e+06	-4.307674e+01	-9.410157e+01	-3.073584e+01	-6.656848e+00	-9.799179e+01	-2.429304e+01	-3.880002e+01	6.146393e+00
3.292125e+06	-4.306750e+01	-9.407489e+01	-3.073608e+01	-6.649089e+00	-9.781798e+01	-1.217177e+01	-3.880306e+01	6.107352e+00
3.292156e+06	-4.305827e+01	-9.404826e+01	-3.073631e+01	-6.641330e+00	-9.729709e+01	-9.947441e-01	-3.880611e+01	6.068284e+00
3.292188e+06	-4.304905e+01	-9.402169e+01	-3.073655e+01	-6.633571e+00	-9.653704e+01	8.633959e+00	-3.880915e+01	6.029189e+00
3.292219e+06	-4.305140e+01	-9.401963e+01	-3.073468e+01	-6.658409e+00	-9.416219e+01	-6.736606e+00	-3.881193e+01	6.025211e+00
3.292250e+06	-4.305383e+01	-9.401776e+01	-3.073280e+01	-6.683499e+00	-9.198671e+01	-1.588944e+01	-3.881472e+01	6.021514e+00
3.292282e+06	-4.305627e+01	-9.401589e+01	-3.073092e+01	-6.708578e+00	-9.013455e+01	-2.163130e+01	-3.881751e+01	6.017815e+00
3.292313e+06	-4.305870e+01	-9.401401e+01	-3.072904e+01	-6.733647e+00	-8.855948e+01	-2.549758e+01	-3.882030e+01	6.014113e+00
3.292344e+06	-4.306114e+01	-9.401214e+01	-3.072715e+01	-6.758704e+00	-8.720247e+01	-2.825515e+01	-3.882309e+01	6.010409e+00
3.292375e+06	-4.306110e+01	-9.403014e+01	-3.073006e+01	-6.746404e+00	-8.802777e+01	-2.283366e+01	-3.882609e+01	6.022851e+00
3.292406e+06	-4.306107e+01	-9.404813e+01	-3.073297e+01	-6.734096e+00	-8.883562e+01	-1.628618e+01	-3.882909e+01	6.035301e+00
3.292438e+06	-4.306103e+01	-9.406612e+01	-3.073589e+01	-6.721780e+00	-8.957636e+01	-8.453475e+00	-3.883210e+01	6.047761e+00
3.292469e+06	-4.306099e+01	-9.408412e+01	-3.073880e+01	-6.709455e+00	-9.017857e+01	6.993248e-01	-3.883510e+01	6.060228e+00
3.292500e+06	-4.306088e+01	-9.410171e+01	-3.074169e+01	-6.697200e+00	-9.056152e+01	1.091221e+01	-3.883803e+01	6.072460e+00
3.292532e+06	-4.305268e+01	-9.406863e+01	-3.074207e+01	-6.694527e+00	-9.112356e+01	1.598880e+01	-3.883142e+01	6.054296e+00
3.292563e+06	-4.304447e+01	-9.403562e+01	-3.074245e+01	-6.691855e+00	-9.164180e+01	2.173986e+01	-3.882481e+01	6.036159e+00
3.292594e+06	-4.303627e+01	-9.400267e+01	-3.074283e+01	-6.689182e+00	-9.208882e+01	2.816960e+01	-3.881821e+01	6.018051e+00
3.292625e+06	-4.302808e+01	-9.396979e+01	-3.074321e+01	-6.686509e+00	-9.243374e+01	3.521611e+01	-3.881162e+01	5.999969e+00
3.292656e+06	-4.302012e+01	-9.393757e+01	-3.074351e+01	-6.683964e+00	-9.268382e+01	4.271726e+01	-3.880511e+01	5.982669e+00
3.292688e+06	-4.302621e+01	-9.394267e+01	-3.073927e+01	-6.689364e+00	-9.543532e+01	5.199121e+01	-3.880407e+01	6.011708e+00
3.292719e+06	-4.303231e+01	-9.394778e+01	-3.073503e+01	-6.694759e+00	-9.875819e+01	7.091507e+01	-3.880303e+01	6.040740e+00
3.292750e+06	-4.303841e+01	-9.395289e+01	-3.073079e+01	-6.700149e+00	-1.009617e+02	1.087034e+02	-3.880198e+01	6.069765e+00
3.292782e+06	-4.304452e+01	-9.395801e+01	-3.072655e+01	-6.705533e+00	-9.895598e+01	1.475221e+02	-3.880093e+01	6.098784e+00
3.292813e+06	-4.305063e+01	-9.396314e+01	-3.072231e+01	-6.710912e+00	-9.561908e+01	1.673305e+02	-3.879988e+01	6.127795e+00
3.292844e+06	-4.305129e+01	-9.399896e+01	-3.072456e+01	-6.725925e+00	-9.962588e+01	1.785002e+02	-3.880349e+01	6.128552e+00
3.292875e+06	-4.305191e+01	-9.403503e+01	-3.072686e+01	-6.741023e+00	-1.051026e+02	-1.461826e+02	-3.880714e+01	6.129082e+00
3.292906e+06	-4.305252e+01	-9.407111e+01	-3.072917e+01	-6.756130e+00	-1.036486e+02	-7.945637e+01	-3.881080e+01	6.129612e+00
3.292938e+06	-4.305313e+01	-9.410719e+01	-3.073147e+01	-6.771244e+00	-9.836121e+01	-5.444884e+01	-3.881445e+01	6.130142e+00
3.292969e+06	-4.305374e+01	-9.414328e+01	-3.073377e+01	-6.786367e+00	-9.469917e+01	-4.577154e+01	-3.881811e+01	6.130673e+00
3.293000e+06	-4.305393e+01	-9.407712e+01	-3.073350e+01	-6.774194e+00	-9.645356e+01	-5.072132e+01	-3.881486e+01	6.147837e+00
3.293032e+06	-4.305412e+01	-9.401096e+01	-3.073324e+01	-6.762022e+00	-9.852471e+01	-5.842382e+01	-3.881161e+01	6.164988e+00
3.293063e+06	-4.305429e+01	-9.394480e+01	-3.073297e+01	-6.749850e+00	-1.008922e+02	-7.133416e+01	-3.880836e+01	6.182126e+00
3.293094e+06	-4.305444e+01	-9.387863e+01	-3.073271e+01	-6.737680e+00	-1.030797e+02	-9.351117e+01	-3.880511e+01	6.199251e+00
3.293125e+06	-4.305459e+01	-9.381383e+01	-3.073241e+01	-6.725467e+00	-1.035971e+02	-1.238357e+02	-3.880192e+01	6.215955e+00
3.293156e+06	-4.305496e+01	-9.391935e+01	-3.072880e+01	-6.707972e+00	-1.013976e+02	-8.053320e+01	-3.880623e+01	6.181968e+00
3.293188e+06	-4.305529e+01	-9.402487e+01	-3.072519e+01	-6.690491e+00	-9.770016e+01	-6.017770e+01	-3.881054e+01	6.147948e+00
3.293219e+06	-4.305559e+01	-9.413041e+01	-3.072157e+01	-6.673025e+00	-9.474067e+01	-5.087586e+01	-3.881484e+01	6.113893e+00
3.293250e+06	-4.305587e+01	-9.423594e+01	-3.071796e+01	-6.655573e+00	-9.244060e+01	-4.581474e+01	-3.881915e+01	6.079805e+00
3.293282e+06	-4.305604e+01	-9.433886e+01	-3.071446e+01	-6.638866e+00	-9.063794e+01	-4.269483e+01	-3.882335e+01	6.046697e+00
3.293313e+06	-4.305181e+01	-9.427990e+01	-3.071733e+01	-6.667079e+00	-9.208077e+01	-4.086479e+01	-3.882164e+01	6.075911e+00
3.293344e+06	-4.304756e+01	-9.422100e+01	-3.072020e+01	-6.695310e+00	-9.379639e+01	-3.823173e+01	-3.881992e+01	6.105115e+00
3.293375e+06	-4.304331e+01	-9.416216e+01	-3.072308e+01	-6.723559e+00	-9.590001e+01	-3.414253e+01	-3.881821e+01	6.134307e+00
3.293406e+06	-4.303906e+01	-9.410338e+01	-3.072595e+01	-6.751828e+00	-9.857607e+01	-2.704076e+01	-3.881649e+01	6.163487e+00
3.293438e+06	-4.303479e+01	-9.404465e+01	-3.072882e+01	-6.780115e+00	-1.020410e+02	-1.252087e+01	-3.881476e+01	6.192656e+00
3.293469e+06	-4.303833e+01	-9.402135e+01	-3.072960e+01	-6.764459e+00	-1.047840e+02	-2.393421e+01	-3.880983e+01	6.172199e+00
3.293500e+06	-4.304192e+01	-9.399832e+01	-3.073037e+01	-6.748447e+00	-1.077058e+02	-4.671856e+01	-3.880487e+01	6.151366e+00
3.293532e+06	-4.304552e+01	-9.397527e+01	-3.073113e+01	-6.732432e+00	-1.086908e+02	-8.410731e+01	-3.879992e+01	6.130557e+00
3.293563e+06	-4.304911e+01	-9.395221e+01	-3.073190e+01	-6.716414e+00	-1.063996e+02	-1.156032e+02	-3.879496e+01	6.109772e+00
3.293594e+06	-4.305271e+01	-9.392912e+01	-3.073266e+01	-6.700393e+00	-1.034546e+02	-1.322162e+02	-3.879001e+01	6.089010e+00
