# Hz S dB R 50.000
3.288594e+06	-4.290302e+01	-9.841262e+01	-3.068811e+01	-6.512675e+00	-9.698383e+01	1.353511e+02	-4.457964e+01	1.247862e+01
3.288625e+06	-4.291050e+01	-9.845813e+01	-3.068577e+01	-6.503478e+00	-1.001551e+02	1.746963e+02	-4.457754e+01	1.251598e+01
3.288656e+06	-4.291798e+01	-9.850373e+01	-3.068343e+01	-6.494285e+00	-9.806263e+01	-1.394278e+02	-4.457545e+01	1.255333e+01
3.288688e+06	-4.292546e+01	-9.854940e+01	-3.068109e+01	-6.485098e+00	-9.420835e+01	-1.182060e+02	-4.457335e+01	1.259066e+01
3.288719e+06	-4.293294e+01	-9.859515e+01	-3.067875e+01	-6.475915e+00	-9.115654e+01	-1.087989e+02	-4.457124e+01	1.262797e+01
3.288750e+06	-4.294038e+01	-9.864073e+01	-3.067641e+01	-6.466918e+00	-8.884622e+01	-1.038409e+02	-4.456922e+01	1.266508e+01
3.288782e+06	-4.294279e+01	-9.865535e+01	-3.067354e+01	-6.480253e+00	-9.236229e+01	-1.124180e+02	-4.457764e+01	1.268064e+01
3.288813e+06	-4.294519e+01	-9.866999e+01	-3.067067e+01	-6.493580e+00	-9.733729e+01	-1.357720e+02	-4.458607e+01	1.269623e+01
3.288844e+06	-4.294760e+01	-9.868463e+01	-3.066780e+01	-6.506898e+00	-9.932644e+01	1.621238e+02	-4.459451e+01	1.271185e+01
3.288875e+06	-4.295001e+01	-9.869928e+01	-3.066493e+01	-6.520207e+00	-9.423730e+01	1.239155e+02	-4.460295e+01	1.272749e+01
3.288906e+06	-4.295231e+01	-9.871371e+01	-3.066215e+01	-6.533316e+00	-9.023605e+01	1.115025e+02	-4.461123e+01	1.274349e+01
3.288938e+06	-4.294808e+01	-9.871429e+01	-3.066464e+01	-6.534619e+00	-9.204929e+01	1.027689e+02	-4.460854e+01	1.277923e+01
3.288969e+06	-4.294385e+01	-9.871487e+01	-3.066712e+01	-6.535923e+00	-9.394196e+01	8.931648e+01	-4.460586e+01	1.281494e+01
3.289000e+06	-4.293962e+01	-9.871545e+01	-3.066961e+01	-6.537228e+00	-9.543664e+01	6.922034e+01	-4.460317e+01	1.285064e+01
3.289032e+06	-4.293540e+01	-9.871603e+01	-3.067210e+01	-6.538533e+00	-9.566412e+01	4.445234e+01	-4.460048e+01	1.288631e+01
3.289063e+06	-4.293117e+01	-9.871661e+01	-3.067459e+01	-6.539840e+00	-9.444082e+01	2.251670e+01	-4.459778e+01	1.292195e+01
3.289094e+06	-4.293510e+01	-9.872406e+01	-3.067160e+01	-6.547916e+00	-9.855371e+01	2.661757e+01	-4.459159e+01	1.294072e+01
3.289125e+06	-4.293908e+01	-9.873158e+01	-3.066856e+01	-6.556041e+00	-1.063099e+02	4.367759e+01	-4.458538e+01	1.295932e+01
3.289156e+06	-4.294307e+01	-9.873911e+01	-3.066553e+01	-6.564161e+00	-1.083473e+02	1.587277e+02	-4.457917e+01	1.297789e+01
3.289188e+06	-4.294707e+01	-9.874664e+01	-3.066249e+01	-6.572275e+00	-9.945987e+01	-1.769596e+02	-4.457296e+01	1.299644e+01
3.289219e+06	-4.295106e+01	-9.875418e+01	-3.065946e+01	-6.580383e+00	-9.495901e+01	-1.719028e+02	-4.456676e+01	1.301496e+01
3.289250e+06	-4.295997e+01	-9.868451e+01	-3.066176e+01	-6.572524e+00	-9.773616e+01	-1.626083e+02	-4.457013e+01	1.304120e+01
3.289282e+06	-4.296887e+01	-9.861470e+01	-3.066407e+01	-6.564662e+00	-1.011017e+02	-1.434858e+02	-4.457351e+01	1.306745e+01
3.289313e+06	-4.297777e+01	-9.854475e+01	-3.066637e+01	-6.556795e+00	-1.033011e+02	-1.050458e+02	-4.457688e+01	1.309373e+01
3.289344e+06	-4.298666e+01	-9.847465e+01	-3.066867e+01	-6.548923e+00	-1.011966e+02	-6.610445e+01	-4.458025e+01	1.312002e+01
3.289375e+06	-4.299534e+01	-9.840501e+01	-3.067098e+01	-6.541147e+00	-9.785149e+01	-4.655755e+01	-4.458359e+01	1.314540e+01
3.289406e+06	-4.297731e+01	-9.841053e+01	-3.067379e+01	-6.545586e+00	-9.796343e+01	-3.289600e+01	-4.458222e+01	1.305435e+01
3.289438e+06	-4.295931e+01	-9.841602e+01	-3.067659e+01	-6.550029e+00	-9.759369e+01	-1.964136e+01	-4.458083e+01	1.296332e+01
3.289469e+06	-4.294136e+01	-9.842148e+01	-3.067939e+01	-6.554474e+00	-9.684845e+01	-8.007413e+00	-4.457942e+01	1.287232e+01
3.289500e+06	-4.292344e+01	-9.842693e+01	-3.068220e+01	-6.558922e+00	-9.589110e+01	1.534125e+00	-4.457798e+01	1.278135e+01
3.289532e+06	-4.290596e+01	-9.843291e+01	-3.068494e+01	-6.563152e+00	-9.490304e+01	9.204737e+00	-4.457662e+01	1.269235e+01
3.289563e+06	-4.291377e+01	-9.847382e+01	-3.068385e+01	-6.553809e+00	-9.670665e+01	2.527358e+01	-4.458073e+01	1.272255e+01
3.289594e+06	-4.292157e+01	-9.851481e+01	-3.068275e+01	-6.544467e+00	-9.776322e+01	4.790094e+01	-4.458485e+01	1.275278e+01
3.289625e+06	-4.292938e+01	-9.855586e+01	-3.068165e+01	-6.535128e+00	-9.732666e+01	7.230713e+01	-4.458896e+01	1.278304e+01
3.289656e+06	-4.293719e+01	-9.859700e+01	-3.068056e+01	-6.525791e+00	-9.574193e+01	9.141909e+01	-4.459307e+01	1.281332e+01
3.289688e+06	-4.294501e+01	-9.863820e+01	-3.067946e+01	-6.516457e+00	-9.385246e+01	1.040974e+02	-4.459719e+01	1.284364e+01
3.289719e+06	-4.295080e+01	-9.868435e+01	-3.067697e+01	-6.519673e+00	-9.491159e+01	9.236579e+01	-4.458748e+01	1.281908e+01
3.289750e+06	-4.295658e+01	-9.873060e+01	-3.067448e+01	-6.522989e+00	-9.562124e+01	7.768689e+01	-4.457766e+01	1.279413e+01
3.289782e+06	-4.296236e+01	-9.877691e+01	-3.067199e+01	-6.526302e+00	-9.571496e+01	6.154857e+01	-4.456786e+01	1.276924e+01
3.289813e+06	-4.296813e+01	-9.882328e+01	-3.066949e+01	-6.529614e+00	-9.515446e+01	4.627585e+01	-4.455806e+01	1.274440e+01
3.289844e+06	-4.297390e+01	-9.886972e+01	-3.066700e+01	-6.532924e+00	-9.414617e+01	3.357347e+01	-4.454828e+01	1.271962e+01
3.289875e+06	-4.297006e+01	-9.886781e+01	-3.066737e+01	-6.526954e+00	-9.435216e+01	3.203390e+01	-4.456117e+01	1.276433e+01
3.289906e+06	-4.296622e+01	-9.886590e+01	-3.066775e+01	-6.520984e+00	-9.455641e+01	3.041984e+01	-4.457408e+01	1.280916e+01
3.289938e+06	-4.296239e+01	-9.886400e+01	-3.066812e+01	-6.515013e+00	-9.475819e+01	2.872853e+01	-4.458700e+01	1.285414e+01
3.289969e+06	-4.295855e+01	-9.886210e+01	-3.066850e+01	-6.509042e+00	-9.495664e+01	2.695743e+01	-4.459994e+01	1.289924e+01
3.290000e+06	-4.295475e+01	-9.886016e+01	-3.066888e+01	-6.503261e+00	-9.517189e+01	2.504335e+01	-4.461274e+01	1.294410e+01
3.290032e+06	-4.295491e+01	-9.885451e+01	-3.066954e+01	-6.521158e+00	-9.833043e+01	1.117067e+01	-4.460807e+01	1.294208e+01
3.290063e+06	-4.295506e+01	-9.884885e+01	-3.067020e+01	-6.539057e+00	-1.014904e+02	-1.858229e+01	-4.460341e+01	1.294005e+01
3.290094e+06	-4.295521e+01	-9.884319e+01	-3.067087e+01	-6.556959e+00	-1.011818e+02	-6.214068e+01	-4.459874e+01	1.293803e+01
3.290125e+06	-4.295537e+01	-9.883754e+01	-3.067153e+01	-6.574863e+00	-9.789005e+01	-8.922251e+01	-4.459408e+01	1.293601e+01
3.290156e+06	-4.295546e+01	-9.883053e+01	-3.067217e+01	-6.592265e+00	-9.486136e+01	-1.011823e+02	-4.458939e+01	1.293358e+01
3.290188e+06	-4.295180e+01	-9.874086e+01	-3.067160e+01	-6.578576e+00	-9.375559e+01	-7.045003e+01	-4.458232e+01	1.290578e+01
3.290219e+06	-4.294811e+01	-9.865125e+01	-3.067103e+01	-6.564890e+00	-9.133028e+01	-5.055353e+01	-4.457526e+01	1.287801e+01
3.290250e+06	-4.294441e+01	-9.856173e+01	-3.067046e+01	-6.551205e+00	-8.895683e+01	-3.925838e+01	-4.456820e+01	1.285029e+01
3.290282e+06	-4.294068e+01	-9.847228e+01	-3.066989e+01	-6.537522e+00	-8.693108e+01	-3.247995e+01	-4.456115e+01	1.282262e+01
3.290313e+06	-4.293694e+01	-9.838290e+01	-3.066931e+01	-6.523840e+00	-8.522417e+01	-2.807532e+01	-4.455410e+01	1.279499e+01
3.290344e+06	-4.293317e+01	-9.842684e+01	-3.066906e+01	-6.545127e+00	-8.734280e+01	-2.283471e+01	-4.455420e+01	1.277555e+01
3.290375e+06	-4.292940e+01	-9.847181e+01	-3.066881e+01	-6.566694e+00	-9.002433e+01	-1.366484e+01	-4.455435e+01	1.275617e+01
3.290406e+06	-4.292562e+01	-9.851674e+01	-3.066856e+01	-6.588259e+00	-9.323865e+01	4.646408e+00	-4.455451e+01	1.273680e+01
3.290438e+06	-4.292184e+01	-9.856163e+01	-3.066830e+01	-6.609824e+00	-9.547057e+01	4.067230e+01	-4.455467e+01	1.271742e+01
3.290469e+06	-4.291805e+01	-9.860648e+01	-3.066805e+01	-6.631387e+00	-9.374164e+01	7.922364e+01	-4.455482e+01	1.269804e+01
3.290500e+06	-4.292701e+01	-9.857481e+01	-3.066536e+01	-6.621374e+00	-9.334257e+01	5.403670e+01	-4.455078e+01	1.269331e+01
3.290532e+06	-4.293597e+01	-9.854307e+01	-3.066266e+01	-6.611366e+00	-9.171378e+01	3.434480e+01	-4.454674e+01	1.268858e+01
3.290563e+06	-4.294494e+01	-9.851127e+01	-3.065997e+01	-6.601365e+00	-8.976824e+01	2.144258e+01	-4.454270e+01	1.268386e+01
3.290594e+06	-4.295392e+01	-9.847941e+01	-3.065728e+01	-6.591371e+00	-8.794311e+01	1.312532e+01	-4.453866e+01	1.267915e+01
3.290625e+06	-4.296270e+01	-9.844786e+01	-3.065463e+01	-6.581520e+00	-8.635224e+01	7.584210e+00	-4.453478e+01	1.267474e+01
3.290656e+06	-4.294639e+01	-9.846368e+01	-3.065669e+01	-6.588787e+00	-8.740018e+01	9.121437e+00	-4.454939e+01	1.270821e+01
3.290688e+06	-4.293011e+01	-9.847943e+01	-3.065875e+01	-6.596058e+00	-8.858286e+01	1.110893e+01	-4.456402e+01	1.274179e+01
3.290719e+06	-4.291386e+01	-9.849513e+01	-3.066082e+01	-6.603331e+00	-8.993597e+01	1.377065e+01	-4.457868e+01	1.277548e+01
3.290750e+06	-4.289763e+01	-9.851078e+01	-3.066288e+01	-6.610609e+00	-9.150789e+01	1.749941e+01	-4.459336e+01	1.280929e+01
3.290782e+06	-4.288193e+01	-9.852674e+01	-3.066490e+01	-6.617845e+00	-9.336953e+01	2.292902e+01	-4.460742e+01	1.284189e+01
3.290813e+06	-4.289637e+01	-9.856592e+01	-3.066447e+01	-6.622373e+00	-9.643144e+01	2.320505e+01	-4.458223e+01	1.279346e+01
3.290844e+06	-4.291082e+01	-9.860523e+01	-3.066404e+01	-6.626901e+00	-1.012017e+02	2.388514e+01	-4.455711e+01	1.274531e+01
3.290875e+06	-4.292529e+01	-9.864468e+01	-3.066360e+01	-6.631428e+00	-1.126049e+02	2.826694e+01	-4.453205e+01	1.269744e+01
3.290906e+06	-4.293979e+01	-9.868425e+01	-3.066317e+01	-6.635955e+00	-1.078473e+02	-1.611841e+02	-4.450706e+01	1.264984e+01
3.290938e+06	-4.295430e+01	-9.872396e+01	-3.066273e+01	-6.640481e+00	-9.964132e+01	-1.590685e+02	-4.448214e+01	1.260252e+01
3.290969e+06	-4.295329e+01	-9.869506e+01	-3.066345e+01	-6.618371e+00	-9.935968e+01	-1.230194e+02	-4.450260e+01	1.263957e+01
3.291000e+06	-4.295214e+01	-9.866561e+01	-3.066417e+01	-6.596043e+00	-9.678425e+01	-9.761790e+01	-4.452347e+01	1.267748e+01
3.291032e+06	-4.295100e+01	-9.863617e+01	-3.066490e+01	-6.573711e+00	-9.407397e+01	-8.411962e+01	-4.454439e+01	1.271558e+01
3.291063e+06	-4.294985e+01	-9.860674e+01	-3.066562e+01	-6.551375e+00	-9.179817e+01	-7.656507e+01	-4.456536e+01	1.275386e+01
3.291094e+06	-4.294870e+01	-9.857731e+01	-3.066634e+01	-6.529036e+00	-8.992059e+01	-7.189028e+01	-4.458637e+01	1.279232e+01
3.291125e+06	-4.295547e+01	-9.863734e+01	-3.066447e+01	-6.539401e+00	-9.221770e+01	-6.993901e+01	-4.459004e+01	1.274622e+01
3.291156e+06	-4.296223e+01	-9.869747e+01	-3.066259e+01	-6.549761e+00	-9.532281e+01	-6.630291e+01	-4.459370e+01	1.270008e+01
3.291188e+06	-4.296900e+01	-9.875769e+01	-3.066072e+01	-6.560117e+00	-1.000502e+02	-5.731307e+01	-4.459736e+01	1.265390e+01
3.291219e+06	-4.297575e+01	-9.881801e+01	-3.065885e+01	-6.570468e+00	-1.079759e+02	-1.519511e+01	-4.460101e+01	1.260768e+01
3.291250e+06	-4.298238e+01	-9.887744e+01	-3.065700e+01	-6.580646e+00	-1.035107e+02	6.917095e+01	-4.460466e+01	1.256199e+01
3.291282e+06	-4.297376e+01	-9.881661e+01	-3.065773e+01	-6.569919e+00	-9.947419e+01	5.827592e+01	-4.460876e+01	1.258698e+01
3.291313e+06	-4.296513e+01	-9.875589e+01	-3.065846e+01	-6.559191e+00	-9.662574e+01	5.336808e+01	-4.461285e+01	1.261199e+01
3.291344e+06	-4.295650e+01	-9.869530e+01	-3.065919e+01	-6.548460e+00	-9.445637e+01	5.061616e+01	-4.461695e+01	1.263703e+01
3.291375e+06	-4.294787e+01	-9.863483e+01	-3.065992e+01	-6.537728e+00	-9.271152e+01	4.886299e+01	-4.462104e+01	1.266209e+01
3.291406e+06	-4.293946e+01	-9.857524e+01	-3.066064e+01	-6.527448e+00	-9.131116e+01	4.766527e+01	-4.462495e+01	1.268756e+01
3.291438e+06	-4.294474e+01	-9.856251e+01	-3.066059e+01	-6.545097e+00	-9.385140e+01	4.752783e+01	-4.461764e+01	1.273720e+01
3.291469e+06	-4.295002e+01	-9.854977e+01	-3.066054e+01	-6.562745e+00	-9.745659e+01	4.724899e+01	-4.461032e+01	1.278674e+01
3.291500e+06	-4.295530e+01	-9.853701e+01	-3.066049e+01	-6.580393e+00	-1.037309e+02	4.637934e+01	-4.460300e+01	1.283621e+01
3.291532e+06	-4.296058e+01	-9.852423e+01	-3.066044e+01	-6.598041e+00	-1.272350e+02	-1.057244e+02	-4.459569e+01	1.288559e+01
3.291563e+06	-4.296587e+01	-9.851144e+01	-3.066039e+01	-6.615689e+00	-1.027479e+02	-1.304207e+02	-4.458837e+01	1.293489e+01
3.291594e+06	-4.296130e+01	-9.848357e+01	-3.066094e+01	-6.611866e+00	-1.018820e+02	-1.252487e+02	-4.458309e+01	1.295846e+01
3.291625e+06	-4.295666e+01	-9.845560e+01	-3.066149e+01	-6.607870e+00	-1.010885e+02	-1.209013e+02	-4.457782e+01	1.298180e+01
3.291656e+06	-4.295201e+01	-9.842766e+01	-3.066204e+01	-6.603873e+00	-1.003230e+02	-1.172693e+02	-4.457256e+01	1.300511e+01
3.291688e+06	-4.294736e+01	-9.839976e+01	-3.066259e+01	-6.599876e+00	-9.959253e+01	-1.142124e+02	-4.456730e+01	1.302840e+01
3.291719e+06	-4.294272e+01	-9.837188e+01	-3.066314e+01	-6.595878e+00	-9.889931e+01	-1.116181e+02	-4.456204e+01	1.305165e+01
3.291750e+06	-4.294730e+01	-9.840035e+01	-3.066301e+01	-6.609038e+00	-9.872311e+01	-9.671154e+01	-4.456723e+01	1.298353e+01
3.291782e+06	-4.295189e+01	-9.842886e+01	-3.066289e+01	-6.622198e+00	-9.803207e+01	-8.324959e+01	-4.457241e+01	1.291533e+01
3.291813e+06	-4.295647e+01	-9.845739e+01	-3.066276e+01	-6.635358e+00	-9.702734e+01	-7.220862e+01	-4.457758e+01	1.284705e+01
3.291844e+06	-4.296105e+01	-9.848595e+01	-3.066264e+01	-6.648517e+00	-9.590011e+01	-6.359161e+01	-4.458275e+01	1.277869e+01
3.291875e+06	-4.296557e+01	-9.851463e+01	-3.066251e+01	-6.661446e+00	-9.478814e+01	-5.687376e+01	-4.458786e+01	1.271059e+01
3.291906e+06	-4.296123e+01	-9.855275e+01	-3.066191e+01	-6.645836e+00	-9.587226e+01	-3.789765e+01	-4.458782e+01	1.268592e+01
3.291938e+06	-4.295690e+01	-9.859083e+01	-3.066132e+01	-6.630229e+00	-9.588061e+01	-1.625871e+01	-4.458778e+01	1.266124e+01
3.291969e+06	-4.295256e+01	-9.862888e+01	-3.066073e+01	-6.614623e+00	-9.480769e+01	2.780800e+00	-4.458774e+01	1.263657e+01
3.292000e+06	-4.294822e+01	-9.866689e+01	-3.066013e+01	-6.599020e+00	-9.322617e+01	1.668619e+01	-4.458769e+01	1.261190e+01
3.292032e+06	-4.294391e+01	-9.870372e+01	-3.065957e+01	-6.583456e+00	-9.163350e+01	2.632807e+01	-4.458771e+01	1.258724e+01
3.292063e+06	-4.294165e+01	-9.867049e+01	-3.066067e+01	-6.570178e+00	-9.267974e+01	4.207758e+01	-4.459139e+01	1.256344e+01
3.292094e+06	-4.293939e+01	-9.863729e+01	-3.066177e+01	-6.556897e+00	-9.299601e+01	6.059132e+01	-4.459507e+01	1.253962e+01
3.292125e+06	-4.293712e+01	-9.860409e+01	-3.066288e+01	-6.543613e+00	-9.241975e+01	7.854021e+01	-4.459874e+01	1.251579e+01
3.292156e+06	-4.293485e+01	-9.857092e+01	-3.066398e+01	-6.530325e+00	-9.123155e+01	9.310743e+01	-4.460242e+01	1.249193e+01
3.292188e+06	-4.293258e+01	-9.853777e+01	-3.066508e+01	-6.517034e+00	-8.981957e+01	1.038530e+02	-4.460610e+01	1.246805e+01
3.292219e+06	-4.293562e+01	-9.859056e+01	-3.066670e+01	-6.515478e+00	-8.977642e+01	1.078858e+02	-4.459417e+01	1.253332e+01
3.292250e+06	-4.293870e+01	-9.864409e+01	-3.066833e+01	-6.514015e+00	-8.970326e+01	1.118302e+02	-4.458211e+01	1.259912e+01
3.292282e+06	-4.294178e+01	-9.869766e+01	-3.066996e+01	-6.512553e+00	-8.959077e+01	1.156910e+02	-4.457006e+01	1.266474e+01
3.292313e+06	-4.294485e+01	-9.875126e+01	-3.067158e+01	-6.511089e+00	-8.944194e+01	1.194372e+02	-4.455802e+01	1.273017e+01
3.292344e+06	-4.294791e+01	-9.880490e+01	-3.067321e+01	-6.509625e+00	-8.926049e+01	1.230435e+02	-4.454598e+01	1.279543e+01
3.292375e+06	-4.295504e+01	-9.874980e+01	-3.067051e+01	-6.517321e+00	-9.334801e+01	1.314712e+02	-4.454749e+01	1.274978e+01
3.292406e+06	-4.296216e+01	-9.869461e+01	-3.066780e+01	-6.525013e+00	-9.976109e+01	1.608754e+02	-4.454900e+01	1.270412e+01
3.292438e+06	-4.296929e+01	-9.863933e+01	-3.066510e+01	-6.532699e+00	-9.939978e+01	-1.189061e+02	-4.455051e+01	1.265844e+01
3.292469e+06	-4.297641e+01	-9.858396e+01	-3.066240e+01	-6.540381e+00	-9.309723e+01	-9.167638e+01	-4.455201e+01	1.261274e+01
3.292500e+06	-4.298343e+01	-9.852915e+01	-3.065973e+01	-6.548015e+00	-8.914409e+01	-8.364126e+01	-4.455354e+01	1.256825e+01
3.292532e+06	-4.297819e+01	-9.855560e+01	-3.066152e+01	-6.550286e+00	-9.240315e+01	-7.555297e+01	-4.455997e+01	1.267444e+01
3.292563e+06	-4.297295e+01	-9.858201e+01	-3.066331e+01	-6.552557e+00	-9.690573e+01	-5.544118e+01	-4.456637e+01	1.278079e+01
3.292594e+06	-4.296772e+01	-9.860839e+01	-3.066511e+01	-6.554829e+00	-9.980931e+01	-1.672081e+00	-4.457275e+01	1.288729e+01
3.292625e+06	-4.296248e+01	-9.863474e+01	-3.066690e+01	-6.557102e+00	-9.557874e+01	4.214502e+01	-4.457910e+01	1.299395e+01
3.292656e+06	-4.295729e+01	-9.865987e+01	-3.066863e+01	-6.559432e+00	-9.147664e+01	5.717166e+01	-4.458531e+01	1.309811e+01
3.292688e+06	-4.295475e+01	-9.861171e+01	-3.066685e+01	-6.565187e+00	-9.132518e+01	5.056829e+01	-4.458382e+01	1.303885e+01
3.292719e+06	-4.295221e+01	-9.856358e+01	-3.066506e+01	-6.570940e+00	-9.106824e+01	4.426948e+01	-4.458232e+01	1.297961e+01
3.292750e+06	-4.294966e+01	-9.851548e+01	-3.066328e+01	-6.576690e+00	-9.072360e+01	3.839369e+01	-4.458082e+01	1.292039e+01
3.292782e+06	-4.294711e+01	-9.846741e+01	-3.066150e+01	-6.582438e+00	-9.031160e+01	3.300961e+01	-4.457931e+01	1.286118e+01
3.292813e+06	-4.294455e+01	-9.841936e+01	-3.065971e+01	-6.588184e+00	-8.985200e+01	2.814088e+01	-4.457778e+01	1.280200e+01
3.292844e+06	-4.294891e+01	-9.843118e+01	-3.066052e+01	-6.585817e+00	-9.020314e+01	2.822790e+01	-4.457049e+01	1.279381e+01
3.292875e+06	-4.295334e+01	-9.844349e+01	-3.066134e+01	-6.583384e+00	-9.057622e+01	2.836372e+01	-4.456315e+01	1.278604e+01
3.292906e+06	-4.295776e+01	-9.845581e+01	-3.066217e+01	-6.580951e+00	-9.096600e+01	2.851201e+01	-4.455582e+01	1.277828e+01
3.292938e+06	-4.296218e+01	-9.846814e+01	-3.066299e+01	-6.578517e+00	-9.137403e+01	2.867456e+01	-4.454850e+01	1.277053e+01
3.292969e+06	-4.296661e+01	-9.848049e+01	-3.066382e+01	-6.576083e+00	-9.180209e+01	2.885354e+01	-4.454118e+01	1.276280e+01
3.293000e+06	-4.296422e+01	-9.850589e+01	-3.066307e+01	-6.570876e+00	-9.462538e+01	1.990904e+01	-4.454563e+01	1.270761e+01
3.293032e+06	-4.296183e+01	-9.853128e+01	-3.066233e+01	-6.565671e+00	-9.812551e+01	1.125873e+00	-4.455008e+01	1.265237e+01
3.293063e+06	-4.295944e+01	-9.855666e+01	-3.066158e+01	-6.560466e+00	-1.005478e+02	-3.842301e+01	-4.455451e+01	1.259707e+01
3.293094e+06	-4.295704e+01	-9.858202e+01	-3.066083e+01	-6.555262e+00	-9.831968e+01	-7.904995e+01	-4.455895e+01	1.254172e+01
3.293125e+06	-4.295465e+01	-9.860728e+01	-3.066008e+01	-6.550031e+00	-9.487963e+01	-9.860232e+01	-4.456338e+01	1.248715e+01
3.293156e+06	-4.295208e+01	-9.862199e+01	-3.065896e+01	-6.541304e+00	-1.084073e+02	-1.158938e+02	-4.456866e+01	1.253723e+01
3.293188e+06	-4.294950e+01	-9.863669e+01	-3.065784e+01	-6.532579e+00	-9.916347e+01	9.323217e+01	-4.457393e+01	1.258737e+01
3.293219e+06	-4.294693e+01	-9.865138e+01	-3.065672e+01	-6.523856e+00	-9.190070e+01	8.905901e+01	-4.457920e+01	1.263756e+01
3.293250e+06	-4.294436e+01	-9.866606e+01	-3.065559e+01	-6.515135e+00	-8.799326e+01	8.790663e+01	-4.458446e+01	1.268782e+01
3.293282e+06	-4.294191e+01	-9.867947e+01	-3.065451e+01	-6.506848e+00	-8.536524e+01	8.735261e+01	-4.458957e+01	1.273744e+01
3.293313e+06	-4.294680e+01	-9.861516e+01	-3.065559e+01	-6.525126e+00	-8.682263e+01	8.579511e+01	-4.458528e+01	1.274385e+01
3.293344e+06	-4.295169e+01	-9.855078e+01	-3.065668e+01	-6.543408e+00	-8.856350e+01	8.354399e+01	-4.458099e+01	1.275025e+01
3.293375e+06	-4.295656e+01	-9.848632e+01	-3.065776e+01	-6.561695e+00	-9.071605e+01	8.001839e+01	-4.457670e+01	1.275665e+01
3.293406e+06	-4.296143e+01	-9.842180e+01	-3.065884e+01	-6.579986e+00	-9.350350e+01	7.378367e+01	-4.457241e+01	1.276304e+01
3.293438e+06	-4.296629e+01	-9.835720e+01	-3.065992e+01	-6.598282e+00	-9.728127e+01	6.041249e+01	-4.456812e+01	1.276942e+01
3.293469e+06	-4.296051e+01	-9.841717e+01	-3.065939e+01	-6.588770e+00	-9.659028e+01	4.444182e+01	-4.456409e+01	1.272374e+01
3.293500e+06	-4.295464e+01	-9.847807e+01	-3.065885e+01	-6.579035e+00	-9.542088e+01	3.168867e+01	-4.456005e+01	1.267768e+01
3.293532e+06	-4.294876e+01	-9.853888e+01	-3.065830e+01	-6.569301e+00	-9.410456e+01	2.214424e+01	-4.455601e+01	1.263166e+01
3.293563e+06	-4.294287e+01	-9.859961e+01	-3.065776e+01	-6.559569e+00	-9.280572e+01	1.509606e+01	-4.455197e+01	1.258569e+01
3.293594e+06	-4.293698e+01	-9.866026e+01	-3.065721e+01	-6.549838e+00	-9.158978e+01	9.825522e+00	-4.454792e+01	1.253976e+01
