# Hz S dB R 50.000
3.288594e+06	-4.271533e+01	-9.270405e+01	-3.069184e+01	-6.438381e+00	-9.405205e+01	7.876264e+01	-4.567735e+01	1.287887e+01
3.288625e+06	-4.272184e+01	-9.274331e+01	-3.068942e+01	-6.449366e+00	-9.536775e+01	8.228307e+01	-4.568287e+01	1.280038e+01
3.288656e+06	-4.272835e+01	-9.278263e+01	-3.068700e+01	-6.460344e+00	-9.686476e+01	8.715252e+01	-4.568838e+01	1.272179e+01
3.288688e+06	-4.273486e+01	-9.282200e+01	-3.068459e+01	-6.471316e+00	-9.856309e+01	9.419652e+01	-4.569388e+01	1.264310e+01
3.288719e+06	-4.274137e+01	-9.286144e+01	-3.068217e+01	-6.482283e+00	-1.004243e+02	1.048430e+02	-4.569936e+01	1.256432e+01
3.288750e+06	-4.274779e+01	-9.290038e+01	-3.067978e+01	-6.493035e+00	-1.021722e+02	1.209022e+02	-4.570474e+01	1.248605e+01
3.288782e+06	-4.274216e+01	-9.287051e+01	-3.068067e+01	-6.478038e+00	-1.003578e+02	1.116128e+02	-4.569890e+01	1.248498e+01
3.288813e+06	-4.273654e+01	-9.284067e+01	-3.068156e+01	-6.463037e+00	-9.872880e+01	1.053788e+02	-4.569306e+01	1.248392e+01
3.288844e+06	-4.273092e+01	-9.281088e+01	-3.068245e+01	-6.448033e+00	-9.729592e+01	1.010012e+02	-4.568723e+01	1.248286e+01
3.288875e+06	-4.272531e+01	-9.278112e+01	-3.068334e+01	-6.433027e+00	-9.603403e+01	9.779263e+01	-4.568140e+01	1.248179e+01
3.288906e+06	-4.271974e+01	-9.275208e+01	-3.068419e+01	-6.418377e+00	-9.494799e+01	9.526531e+01	-4.567568e+01	1.248066e+01
3.288938e+06	-4.271705e+01	-9.276489e+01	-3.068211e+01	-6.425894e+00	-9.597058e+01	8.655491e+01	-4.567619e+01	1.247512e+01
3.288969e+06	-4.271435e+01	-9.277769e+01	-3.068003e+01	-6.433407e+00	-9.684502e+01	7.569518e+01	-4.567671e+01	1.246958e+01
3.289000e+06	-4.271166e+01	-9.279049e+01	-3.067796e+01	-6.440916e+00	-9.740707e+01	6.285169e+01	-4.567722e+01	1.246405e+01
3.289032e+06	-4.270897e+01	-9.280327e+01	-3.067588e+01	-6.448422e+00	-9.750573e+01	4.897359e+01	-4.567773e+01	1.245851e+01
3.289063e+06	-4.270628e+01	-9.281605e+01	-3.067381e+01	-6.455924e+00	-9.711005e+01	3.557089e+01	-4.567825e+01	1.245296e+01
3.289094e+06	-4.270240e+01	-9.280330e+01	-3.067559e+01	-6.462355e+00	-9.981676e+01	8.349308e+00	-4.568380e+01	1.247092e+01
3.289125e+06	-4.269850e+01	-9.279037e+01	-3.067741e+01	-6.468780e+00	-9.979112e+01	-3.041075e+01	-4.568940e+01	1.248909e+01
3.289156e+06	-4.269461e+01	-9.277744e+01	-3.067923e+01	-6.475207e+00	-9.703982e+01	-5.745939e+01	-4.569501e+01	1.250729e+01
3.289188e+06	-4.269072e+01	-9.276452e+01	-3.068104e+01	-6.481637e+00	-9.417207e+01	-7.123568e+01	-4.570061e+01	1.252551e+01
3.289219e+06	-4.268683e+01	-9.275162e+01	-3.068286e+01	-6.488070e+00	-9.180627e+01	-7.872599e+01	-4.570622e+01	1.254375e+01
3.289250e+06	-4.269722e+01	-9.274821e+01	-3.068124e+01	-6.473949e+00	-9.221019e+01	-6.395096e+01	-4.570640e+01	1.253549e+01
3.289282e+06	-4.270763e+01	-9.274479e+01	-3.067962e+01	-6.459833e+00	-9.201645e+01	-4.880548e+01	-4.570658e+01	1.252724e+01
3.289313e+06	-4.271804e+01	-9.274136e+01	-3.067800e+01	-6.445723e+00	-9.129588e+01	-3.520405e+01	-4.570676e+01	1.251898e+01
3.289344e+06	-4.272847e+01	-9.273793e+01	-3.067639e+01	-6.431617e+00	-9.026192e+01	-2.412556e+01	-4.570694e+01	1.251072e+01
3.289375e+06	-4.273885e+01	-9.273444e+01	-3.067479e+01	-6.417771e+00	-8.914268e+01	-1.562636e+01	-4.570712e+01	1.250344e+01
3.289406e+06	-4.274173e+01	-9.272610e+01	-3.067553e+01	-6.435409e+00	-9.233690e+01	-2.191991e+01	-4.570667e+01	1.261702e+01
3.289438e+06	-4.274462e+01	-9.271776e+01	-3.067628e+01	-6.453051e+00	-9.697857e+01	-3.759639e+01	-4.570618e+01	1.273059e+01
3.289469e+06	-4.274750e+01	-9.270941e+01	-3.067703e+01	-6.470695e+00	-1.016626e+02	-8.984201e+01	-4.570567e+01	1.284415e+01
3.289500e+06	-4.275038e+01	-9.270105e+01	-3.067778e+01	-6.488343e+00	-9.728391e+01	-1.448200e+02	-4.570512e+01	1.295769e+01
3.289532e+06	-4.275301e+01	-9.269361e+01	-3.067853e+01	-6.505727e+00	-9.260341e+01	-1.614188e+02	-4.570417e+01	1.306819e+01
3.289563e+06	-4.273998e+01	-9.274283e+01	-3.067955e+01	-6.506734e+00	-9.237810e+01	-1.672452e+02	-4.568089e+01	1.299293e+01
3.289594e+06	-4.272695e+01	-9.279191e+01	-3.068057e+01	-6.507742e+00	-9.207615e+01	-1.727274e+02	-4.565766e+01	1.291807e+01
3.289625e+06	-4.271394e+01	-9.284084e+01	-3.068160e+01	-6.508749e+00	-9.171317e+01	-1.778045e+02	-4.563447e+01	1.284361e+01
3.289656e+06	-4.270095e+01	-9.288962e+01	-3.068262e+01	-6.509757e+00	-9.130484e+01	1.775509e+02	-4.561133e+01	1.276955e+01
3.289688e+06	-4.268796e+01	-9.293826e+01	-3.068364e+01	-6.510765e+00	-9.086538e+01	1.733390e+02	-4.558824e+01	1.269588e+01
3.289719e+06	-4.267918e+01	-9.291924e+01	-3.068443e+01	-6.504072e+00	-9.389410e+01	1.717092e+02	-4.561169e+01	1.263776e+01
3.289750e+06	-4.267044e+01	-9.289971e+01	-3.068522e+01	-6.497316e+00	-9.861433e+01	1.677744e+02	-4.563556e+01	1.257945e+01
3.289782e+06	-4.266171e+01	-9.288022e+01	-3.068601e+01	-6.490558e+00	-1.089030e+02	1.450510e+02	-4.565949e+01	1.252081e+01
3.289813e+06	-4.265299e+01	-9.286076e+01	-3.068680e+01	-6.483800e+00	-1.047105e+02	1.624897e+01	-4.568348e+01	1.246186e+01
3.289844e+06	-4.264427e+01	-9.284135e+01	-3.068759e+01	-6.477040e+00	-9.698164e+01	4.856139e+00	-4.570752e+01	1.240257e+01
3.289875e+06	-4.266661e+01	-9.284002e+01	-3.068553e+01	-6.473193e+00	-9.614941e+01	2.199389e+01	-4.570639e+01	1.251960e+01
3.289906e+06	-4.268901e+01	-9.283869e+01	-3.068348e+01	-6.469348e+00	-9.483816e+01	3.530451e+01	-4.570522e+01	1.263660e+01
3.289938e+06	-4.271147e+01	-9.283735e+01	-3.068142e+01	-6.465505e+00	-9.340092e+01	4.496323e+01	-4.570402e+01	1.275356e+01
3.289969e+06	-4.273399e+01	-9.283600e+01	-3.067937e+01	-6.461664e+00	-9.201373e+01	5.192481e+01	-4.570278e+01	1.287050e+01
3.290000e+06	-4.275633e+01	-9.283440e+01	-3.067735e+01	-6.457967e+00	-9.076108e+01	5.695732e+01	-4.570146e+01	1.298581e+01
3.290032e+06	-4.274970e+01	-9.280235e+01	-3.067932e+01	-6.471919e+00	-9.288450e+01	4.917831e+01	-4.569542e+01	1.290447e+01
3.290063e+06	-4.274308e+01	-9.277035e+01	-3.068128e+01	-6.485878e+00	-9.532715e+01	3.594214e+01	-4.568936e+01	1.282325e+01
3.290094e+06	-4.273646e+01	-9.273840e+01	-3.068325e+01	-6.499843e+00	-9.756930e+01	1.282241e+01	-4.568329e+01	1.274214e+01
3.290125e+06	-4.272984e+01	-9.270650e+01	-3.068522e+01	-6.513814e+00	-9.796185e+01	-1.930447e+01	-4.567720e+01	1.266115e+01
3.290156e+06	-4.272340e+01	-9.267494e+01	-3.068711e+01	-6.527376e+00	-9.615255e+01	-4.544623e+01	-4.567120e+01	1.258153e+01
3.290188e+06	-4.272750e+01	-9.266169e+01	-3.068425e+01	-6.515401e+00	-1.006196e+02	-3.828392e+01	-4.567149e+01	1.257935e+01
3.290219e+06	-4.273161e+01	-9.264843e+01	-3.068138e+01	-6.503434e+00	-1.085924e+02	-6.807525e+00	-4.567178e+01	1.257717e+01
3.290250e+06	-4.273572e+01	-9.263515e+01	-3.067852e+01	-6.491474e+00	-1.062173e+02	8.911240e+01	-4.567207e+01	1.257499e+01
3.290282e+06	-4.273983e+01	-9.262187e+01	-3.067566e+01	-6.479522e+00	-9.932194e+01	1.091173e+02	-4.567236e+01	1.257282e+01
3.290313e+06	-4.274394e+01	-9.260857e+01	-3.067279e+01	-6.467579e+00	-9.533366e+01	1.147250e+02	-4.567265e+01	1.257064e+01
3.290344e+06	-4.274429e+01	-9.265293e+01	-3.067347e+01	-6.471846e+00	-9.478089e+01	1.097578e+02	-4.568107e+01	1.253689e+01
3.290375e+06	-4.274460e+01	-9.269776e+01	-3.067418e+01	-6.476244e+00	-9.422448e+01	1.053139e+02	-4.568955e+01	1.250283e+01
3.290406e+06	-4.274491e+01	-9.274259e+01	-3.067489e+01	-6.480643e+00	-9.365838e+01	1.014096e+02	-4.569805e+01	1.246870e+01
3.290438e+06	-4.274521e+01	-9.278742e+01	-3.067559e+01	-6.485043e+00	-9.309362e+01	9.798246e+01	-4.570655e+01	1.243450e+01
3.290469e+06	-4.274551e+01	-9.283226e+01	-3.067630e+01	-6.489444e+00	-9.253767e+01	9.497063e+01	-4.571505e+01	1.240023e+01
3.290500e+06	-4.274395e+01	-9.283303e+01	-3.067449e+01	-6.488012e+00	-9.743190e+01	8.194967e+01	-4.570638e+01	1.241101e+01
3.290532e+06	-4.274238e+01	-9.283380e+01	-3.067268e+01	-6.486580e+00	-1.036325e+02	2.802918e+01	-4.569772e+01	1.242177e+01
3.290563e+06	-4.274082e+01	-9.283457e+01	-3.067087e+01	-6.485149e+00	-9.836996e+01	-3.617778e+01	-4.568906e+01	1.243251e+01
3.290594e+06	-4.273926e+01	-9.283534e+01	-3.066906e+01	-6.483718e+00	-9.312201e+01	-5.175100e+01	-4.568042e+01	1.244322e+01
3.290625e+06	-4.273761e+01	-9.283624e+01	-3.066729e+01	-6.482375e+00	-8.974969e+01	-5.741677e+01	-4.567186e+01	1.245448e+01
3.290656e+06	-4.272541e+01	-9.285398e+01	-3.067021e+01	-6.491760e+00	-9.185894e+01	-5.905414e+01	-4.567248e+01	1.253588e+01
3.290688e+06	-4.271323e+01	-9.287167e+01	-3.067313e+01	-6.501152e+00	-9.463335e+01	-6.192792e+01	-4.567309e+01	1.261728e+01
3.290719e+06	-4.270106e+01	-9.288931e+01	-3.067605e+01	-6.510550e+00	-9.865753e+01	-6.822408e+01	-4.567367e+01	1.269870e+01
3.290750e+06	-4.268890e+01	-9.290690e+01	-3.067897e+01	-6.519954e+00	-1.054976e+02	-9.074880e+01	-4.567424e+01	1.278013e+01
3.290782e+06	-4.267700e+01	-9.292395e+01	-3.068182e+01	-6.529158e+00	-1.074289e+02	1.774901e+02	-4.567494e+01	1.285998e+01
3.290813e+06	-4.267976e+01	-9.291083e+01	-3.068070e+01	-6.525640e+00	-1.039562e+02	3.539175e+01	-4.568417e+01	1.284209e+01
3.290844e+06	-4.268251e+01	-9.289770e+01	-3.067958e+01	-6.522122e+00	-9.578344e+01	2.614208e+01	-4.569341e+01	1.282416e+01
3.290875e+06	-4.268527e+01	-9.288456e+01	-3.067845e+01	-6.518606e+00	-9.161448e+01	2.391743e+01	-4.570267e+01	1.280619e+01
3.290906e+06	-4.268802e+01	-9.287142e+01	-3.067733e+01	-6.515091e+00	-8.880512e+01	2.292143e+01	-4.571193e+01	1.278818e+01
3.290938e+06	-4.269078e+01	-9.285827e+01	-3.067621e+01	-6.511576e+00	-8.668459e+01	2.235682e+01	-4.572120e+01	1.277013e+01
3.290969e+06	-4.269451e+01	-9.284697e+01	-3.067608e+01	-6.521042e+00	-8.689608e+01	1.233637e+01	-4.572149e+01	1.274442e+01
3.291000e+06	-4.269825e+01	-9.283568e+01	-3.067595e+01	-6.530613e+00	-8.684951e+01	2.024139e+00	-4.572170e+01	1.271863e+01
3.291032e+06	-4.270200e+01	-9.282438e+01	-3.067582e+01	-6.540183e+00	-8.653546e+01	-7.864412e+00	-4.572192e+01	1.269285e+01
3.291063e+06	-4.270574e+01	-9.281307e+01	-3.067570e+01	-6.549753e+00	-8.600622e+01	-1.683011e+01	-4.572213e+01	1.266707e+01
3.291094e+06	-4.270949e+01	-9.280175e+01	-3.067557e+01	-6.559323e+00	-8.533291e+01	-2.462886e+01	-4.572234e+01	1.264128e+01
3.291125e+06	-4.271968e+01	-9.275552e+01	-3.067550e+01	-6.551292e+00	-8.699693e+01	-2.577962e+01	-4.571681e+01	1.258588e+01
3.291156e+06	-4.272988e+01	-9.270918e+01	-3.067542e+01	-6.543262e+00	-8.905031e+01	-2.754522e+01	-4.571127e+01	1.253056e+01
3.291188e+06	-4.274008e+01	-9.266274e+01	-3.067535e+01	-6.535231e+00	-9.172514e+01	-3.058919e+01	-4.570572e+01	1.247530e+01
3.291219e+06	-4.275029e+01	-9.261618e+01	-3.067527e+01	-6.527201e+00	-9.552933e+01	-3.701752e+01	-4.570018e+01	1.242011e+01
3.291250e+06	-4.276040e+01	-9.257046e+01	-3.067521e+01	-6.519181e+00	-1.016853e+02	-5.738738e+01	-4.569466e+01	1.236597e+01
3.291282e+06	-4.275651e+01	-9.264160e+01	-3.067706e+01	-6.512460e+00	-1.143161e+02	-7.924087e+01	-4.569356e+01	1.243172e+01
3.291313e+06	-4.275260e+01	-9.271268e+01	-3.067890e+01	-6.505736e+00	-1.062317e+02	1.396812e+02	-4.569246e+01	1.249747e+01
3.291344e+06	-4.274868e+01	-9.278369e+01	-3.068074e+01	-6.499009e+00	-9.892199e+01	1.335522e+02	-4.569134e+01	1.256319e+01
3.291375e+06	-4.274476e+01	-9.285464e+01	-3.068258e+01	-6.492280e+00	-9.499237e+01	1.318747e+02	-4.569020e+01	1.262890e+01
3.291406e+06	-4.274067e+01	-9.292336e+01	-3.068434e+01	-6.485808e+00	-9.236717e+01	1.311261e+02	-4.568911e+01	1.269423e+01
3.291438e+06	-4.272735e+01	-9.285924e+01	-3.068139e+01	-6.495358e+00	-9.495945e+01	1.331741e+02	-4.569111e+01	1.273711e+01
3.291469e+06	-4.271405e+01	-9.279531e+01	-3.067843e+01	-6.504901e+00	-9.863634e+01	1.373919e+02	-4.569310e+01	1.278002e+01
3.291500e+06	-4.270076e+01	-9.273158e+01	-3.067548e+01	-6.514438e+00	-1.048297e+02	1.506377e+02	-4.569509e+01	1.282295e+01
3.291532e+06	-4.268747e+01	-9.266805e+01	-3.067253e+01	-6.523969e+00	-1.114308e+02	-1.210912e+02	-4.569707e+01	1.286589e+01
3.291563e+06	-4.267420e+01	-9.260471e+01	-3.066957e+01	-6.533493e+00	-1.022327e+02	-7.325495e+01	-4.569905e+01	1.290886e+01
3.291594e+06	-4.267632e+01	-9.258660e+01	-3.067424e+01	-6.528700e+00	-1.025203e+02	-7.015918e+01	-4.569763e+01	1.283868e+01
3.291625e+06	-4.267857e+01	-9.256884e+01	-3.067898e+01	-6.523786e+00	-1.028511e+02	-6.691483e+01	-4.569616e+01	1.276761e+01
3.291656e+06	-4.268082e+01	-9.255108e+01	-3.068371e+01	-6.518867e+00	-1.031639e+02	-6.342065e+01	-4.569468e+01	1.269657e+01
3.291688e+06	-4.268307e+01	-9.253330e+01	-3.068845e+01	-6.513943e+00	-1.034524e+02	-5.967565e+01	-4.569319e+01	1.262555e+01
3.291719e+06	-4.268532e+01	-9.251552e+01	-3.069319e+01	-6.509013e+00	-1.037100e+02	-5.568726e+01	-4.569168e+01	1.255456e+01
3.291750e+06	-4.268486e+01	-9.256026e+01	-3.068959e+01	-6.491327e+00	-1.001553e+02	-9.495192e+01	-4.569535e+01	1.258778e+01
3.291782e+06	-4.268439e+01	-9.260499e+01	-3.068599e+01	-6.473655e+00	-9.638172e+01	-1.107485e+02	-4.569902e+01	1.262103e+01
3.291813e+06	-4.268392e+01	-9.264972e+01	-3.068239e+01	-6.455998e+00	-9.353345e+01	-1.180452e+02	-4.570269e+01	1.265430e+01
3.291844e+06	-4.268345e+01	-9.269445e+01	-3.067880e+01	-6.438355e+00	-9.133064e+01	-1.221168e+02	-4.570635e+01	1.268761e+01
3.291875e+06	-4.268301e+01	-9.273907e+01	-3.067523e+01	-6.420927e+00	-8.958691e+01	-1.245967e+02	-4.570994e+01	1.272060e+01
3.291906e+06	-4.268839e+01	-9.277110e+01	-3.067526e+01	-6.428312e+00	-9.258127e+01	-1.109230e+02	-4.570380e+01	1.271136e+01
3.291938e+06	-4.269376e+01	-9.280317e+01	-3.067530e+01	-6.435697e+00	-9.553783e+01	-8.295297e+01	-4.569767e+01	1.270213e+01
3.291969e+06	-4.269914e+01	-9.283529e+01	-3.067533e+01	-6.443081e+00	-9.549409e+01	-4.196684e+01	-4.569154e+01	1.269292e+01
3.292000e+06	-4.270451e+01	-9.286744e+01	-3.067537e+01	-6.450466e+00	-9.251501e+01	-1.437910e+01	-4.568541e+01	1.268372e+01
3.292032e+06	-4.270987e+01	-9.289871e+01	-3.067543e+01	-6.457867e+00	-8.958694e+01	-8.786650e-01	-4.567955e+01	1.267461e+01
3.292063e+06	-4.271395e+01	-9.287295e+01	-3.067717e+01	-6.466274e+00	-9.020925e+01	1.083148e+01	-4.568952e+01	1.266992e+01
3.292094e+06	-4.271803e+01	-9.284718e+01	-3.067891e+01	-6.474684e+00	-9.044849e+01	2.378287e+01	-4.569950e+01	1.266522e+01
3.292125e+06	-4.272212e+01	-9.282137e+01	-3.068065e+01	-6.483097e+00	-9.023855e+01	3.677879e+01	-4.570949e+01	1.266051e+01
3.292156e+06	-4.272620e+01	-9.279555e+01	-3.068239e+01	-6.491514e+00	-8.963785e+01	4.859913e+01	-4.571949e+01	1.265579e+01
3.292188e+06	-4.273029e+01	-9.276970e+01	-3.068413e+01	-6.499934e+00	-8.878401e+01	5.857647e+01	-4.572950e+01	1.265106e+01
3.292219e+06	-4.272097e+01	-9.274447e+01	-3.068303e+01	-6.491288e+00	-9.140420e+01	5.308709e+01	-4.572588e+01	1.264881e+01
3.292250e+06	-4.271156e+01	-9.271930e+01	-3.068190e+01	-6.482506e+00	-9.496595e+01	4.159582e+01	-4.572215e+01	1.264658e+01
3.292282e+06	-4.270215e+01	-9.269419e+01	-3.068078e+01	-6.473727e+00	-9.935539e+01	1.175382e+01	-4.571842e+01	1.264435e+01
3.292313e+06	-4.269275e+01	-9.266913e+01	-3.067965e+01	-6.464951e+00	-9.937093e+01	-4.396680e+01	-4.571469e+01	1.264212e+01
3.292344e+06	-4.268336e+01	-9.264413e+01	-3.067853e+01	-6.456176e+00	-9.498292e+01	-7.393217e+01	-4.571096e+01	1.263990e+01
3.292375e+06	-4.269003e+01	-9.264870e+01	-3.067810e+01	-6.456598e+00	-9.382080e+01	-6.338626e+01	-4.570373e+01	1.267546e+01
3.292406e+06	-4.269671e+01	-9.265327e+01	-3.067768e+01	-6.457019e+00	-9.259783e+01	-5.539189e+01	-4.569650e+01	1.271096e+01
3.292438e+06	-4.270339e+01	-9.265785e+01	-3.067725e+01	-6.457441e+00	-9.141290e+01	-4.934145e+01	-4.568928e+01	1.274640e+01
3.292469e+06	-4.271007e+01	-9.266243e+01	-3.067682e+01	-6.457862e+00	-9.030447e+01	-4.469858e+01	-4.568206e+01	1.278179e+01
3.292500e+06	-4.271671e+01	-9.266705e+01	-3.067640e+01	-6.458322e+00	-8.930237e+01	-4.109092e+01	-4.567496e+01	1.281591e+01
3.292532e+06	-4.271655e+01	-9.267448e+01	-3.067674e+01	-6.463542e+00	-9.106202e+01	-4.073651e+01	-4.568237e+01	1.270142e+01
3.292563e+06	-4.271638e+01	-9.268191e+01	-3.067707e+01	-6.468763e+00	-9.327045e+01	-4.017687e+01	-4.568976e+01	1.258673e+01
3.292594e+06	-4.271622e+01	-9.268935e+01	-3.067741e+01	-6.473984e+00	-9.623707e+01	-3.916137e+01	-4.569712e+01	1.247185e+01
3.292625e+06	-4.271606e+01	-9.269678e+01	-3.067774e+01	-6.479206e+00	-1.007668e+02	-3.675368e+01	-4.570445e+01	1.235677e+01
3.292656e+06	-4.271596e+01	-9.270408e+01	-3.067807e+01	-6.484170e+00	-1.101503e+02	-2.532511e+01	-4.571152e+01	1.224402e+01
3.292688e+06	-4.271964e+01	-9.270352e+01	-3.067793e+01	-6.473309e+00	-1.045858e+02	-4.394728e+01	-4.570464e+01	1.228657e+01
3.292719e+06	-4.272332e+01	-9.270296e+01	-3.067779e+01	-6.462447e+00	-1.010060e+02	-5.034532e+01	-4.569776e+01	1.232906e+01
3.292750e+06	-4.272701e+01	-9.270239e+01	-3.067764e+01	-6.451587e+00	-9.843855e+01	-5.349308e+01	-4.569088e+01	1.237147e+01
3.292782e+06	-4.273069e+01	-9.270183e+01	-3.067750e+01	-6.440726e+00	-9.644706e+01	-5.535479e+01	-4.568400e+01	1.241382e+01
3.292813e+06	-4.273438e+01	-9.270126e+01	-3.067736e+01	-6.429866e+00	-9.482306e+01	-5.658250e+01	-4.567713e+01	1.245610e+01
3.292844e+06	-4.273247e+01	-9.267236e+01	-3.067622e+01	-6.435489e+00	-9.639706e+01	-5.695818e+01	-4.567676e+01	1.249633e+01
3.292875e+06	-4.273052e+01	-9.264324e+01	-3.067507e+01	-6.441244e+00	-9.835548e+01	-5.751537e+01	-4.567644e+01	1.253654e+01
3.292906e+06	-4.272856e+01	-9.261414e+01	-3.067392e+01	-6.446998e+00	-1.008862e+02	-5.844965e+01	-4.567612e+01	1.257674e+01
3.292938e+06	-4.272660e+01	-9.258505e+01	-3.067277e+01	-6.452750e+00	-1.044653e+02	-6.033776e+01	-4.567579e+01	1.261694e+01
3.292969e+06	-4.272464e+01	-9.255597e+01	-3.067162e+01	-6.458500e+00	-1.106010e+02	-6.612438e+01	-4.567546e+01	1.265714e+01
3.293000e+06	-4.272023e+01	-9.258312e+01	-3.067194e+01	-6.463659e+00	-1.037968e+02	3.895009e+01	-4.568294e+01	1.266239e+01
3.293032e+06	-4.271583e+01	-9.261025e+01	-3.067226e+01	-6.468819e+00	-9.709059e+01	5.071120e+01	-4.569042e+01	1.266765e+01
3.293063e+06	-4.271142e+01	-9.263735e+01	-3.067258e+01	-6.473978e+00	-9.328109e+01	5.419360e+01	-4.569791e+01	1.267291e+01
3.293094e+06	-4.270701e+01	-9.266442e+01	-3.067290e+01	-6.479139e+00	-9.063073e+01	5.584814e+01	-4.570541e+01	1.267819e+01
3.293125e+06	-4.270262e+01	-9.269128e+01	-3.067322e+01	-6.484211e+00	-8.862367e+01	5.673467e+01	-4.571285e+01	1.268357e+01
3.293156e+06	-4.270016e+01	-9.269540e+01	-3.067356e+01	-6.478319e+00	-8.978155e+01	4.632236e+01	-4.571342e+01	1.270142e+01
3.293188e+06	-4.269769e+01	-9.269952e+01	-3.067390e+01	-6.472427e+00	-9.069458e+01	3.306113e+01	-4.571399e+01	1.271928e+01
3.293219e+06	-4.269523e+01	-9.270364e+01	-3.067424e+01	-6.466534e+00	-9.110850e+01	1.756021e+01	-4.571456e+01	1.273714e+01
3.293250e+06	-4.269277e+01	-9.270775e+01	-3.067459e+01	-6.460641e+00	-9.086626e+01	1.741828e+00	-4.571512e+01	1.275499e+01
3.293282e+06	-4.269046e+01	-9.271233e+01	-3.067491e+01	-6.454901e+00	-9.011611e+01	-1.190991e+01	-4.571567e+01	1.277245e+01
3.293313e+06	-4.269739e+01	-9.274526e+01	-3.067415e+01	-6.458560e+00	-9.262708e+01	-7.857959e-01	-4.571527e+01	1.276522e+01
3.293344e+06	-4.270433e+01	-9.277824e+01	-3.067339e+01	-6.462219e+00	-9.528473e+01	1.969037e+01	-4.571487e+01	1.275799e+01
3.293375e+06	-4.271127e+01	-9.281128e+01	-3.067263e+01	-6.465878e+00	-9.650280e+01	5.282082e+01	-4.571446e+01	1.275076e+01
3.293406e+06	-4.271821e+01	-9.284437e+01	-3.067187e+01	-6.469536e+00	-9.483034e+01	8.406530e+01	-4.571406e+01	1.274353e+01
3.293438e+06	-4.272515e+01	-9.287751e+01	-3.067111e+01	-6.473193e+00	-9.213636e+01	1.023508e+02	-4.571365e+01	1.273630e+01
3.293469e+06	-4.272549e+01	-9.281469e+01	-3.066914e+01	-6.469303e+00	-9.299948e+01	1.099122e+02	-4.571145e+01	1.270087e+01
3.293500e+06	-4.272576e+01	-9.275109e+01	-3.066716e+01	-6.465354e+00	-9.379031e+01	1.190400e+02	-4.570922e+01	1.266522e+01
3.293532e+06	-4.272602e+01	-9.268748e+01	-3.066518e+01	-6.461407e+00	-9.437557e+01	1.297520e+02	-4.570699e+01	1.262960e+01
3.293563e+06	-4.272627e+01	-9.262387e+01	-3.066321e+01	-6.457462e+00	-9.464422e+01	1.415857e+02	-4.570476e+01	1.259400e+01
3.293594e+06	-4.272651e+01	-9.256026e+01	-3.066123e+01	-6.453518e+00	-9.453340e+01	1.536397e+02	-4.570253e+01	1.255841e+01
