# Hz S dB R 50.000
3.288594e+06	-4.271883e+01	-9.263128e+01	-3.065349e+01	-6.589893e+00	-1.003080e+02	-8.817423e+01	-5.688267e+01	4.900238e+01
3.288625e+06	-4.272212e+01	-9.258254e+01	-3.065322e+01	-6.590033e+00	-9.886633e+01	-5.885400e+01	-5.687049e+01	4.923522e+01
3.288656e+06	-4.272541e+01	-9.253377e+01	-3.065294e+01	-6.590173e+00	-9.640305e+01	-4.065167e+01	-5.685819e+01	4.946740e+01
3.288688e+06	-4.272869e+01	-9.248496e+01	-3.065267e+01	-6.590312e+00	-9.408436e+01	-3.027460e+01	-5.684576e+01	4.969892e+01
3.288719e+06	-4.273197e+01	-9.243611e+01	-3.065239e+01	-6.590452e+00	-9.211552e+01	-2.396211e+01	-5.683321e+01	4.992978e+01
3.288750e+06	-4.273519e+01	-9.238806e+01	-3.065212e+01	-6.590536e+00	-9.047002e+01	-1.984723e+01	-5.682086e+01	5.015636e+01
3.288782e+06	-4.273201e+01	-9.244336e+01	-3.065198e+01	-6.583697e+00	-9.096856e+01	-2.102765e+01	-5.684821e+01	4.993392e+01
3.288813e+06	-4.272882e+01	-9.249862e+01	-3.065185e+01	-6.576858e+00	-9.149306e+01	-2.235564e+01	-5.687552e+01	4.971008e+01
3.288844e+06	-4.272562e+01	-9.255384e+01	-3.065172e+01	-6.570019e+00	-9.204565e+01	-2.385899e+01	-5.690278e+01	4.948483e+01
3.288875e+06	-4.272241e+01	-9.260902e+01	-3.065158e+01	-6.563180e+00	-9.262850e+01	-2.557235e+01	-5.692999e+01	4.925817e+01
3.288906e+06	-4.271927e+01	-9.266249e+01	-3.065139e+01	-6.556315e+00	-9.329435e+01	-2.739944e+01	-5.695688e+01	4.903391e+01
3.288938e+06	-4.272052e+01	-9.261308e+01	-3.064762e+01	-6.547847e+00	-9.812531e+01	-1.568053e+01	-5.696706e+01	4.904476e+01
3.288969e+06	-4.272176e+01	-9.256366e+01	-3.064385e+01	-6.539385e+00	-1.048837e+02	3.478634e+01	-5.697725e+01	4.905564e+01
3.289000e+06	-4.272300e+01	-9.251423e+01	-3.064008e+01	-6.530931e+00	-9.983623e+01	1.046992e+02	-5.698744e+01	4.906654e+01
3.289032e+06	-4.272423e+01	-9.246478e+01	-3.063632e+01	-6.522484e+00	-9.434073e+01	1.208994e+02	-5.699766e+01	4.907747e+01
3.289063e+06	-4.272545e+01	-9.241532e+01	-3.063255e+01	-6.514044e+00	-9.083466e+01	1.265795e+02	-5.700788e+01	4.908842e+01
3.289094e+06	-4.272876e+01	-9.240517e+01	-3.063557e+01	-6.529081e+00	-9.289254e+01	1.258469e+02	-5.700252e+01	4.929253e+01
3.289125e+06	-4.273208e+01	-9.239533e+01	-3.063864e+01	-6.544317e+00	-9.565723e+01	1.245035e+02	-5.699693e+01	4.949793e+01
3.289156e+06	-4.273541e+01	-9.238549e+01	-3.064171e+01	-6.559564e+00	-9.971988e+01	1.215541e+02	-5.699123e+01	4.970306e+01
3.289188e+06	-4.273874e+01	-9.237564e+01	-3.064479e+01	-6.574822e+00	-1.073803e+02	1.101100e+02	-5.698542e+01	4.990792e+01
3.289219e+06	-4.274207e+01	-9.236578e+01	-3.064786e+01	-6.590091e+00	-1.117597e+02	-1.737405e+01	-5.697951e+01	5.011251e+01
3.289250e+06	-4.274675e+01	-9.238967e+01	-3.064967e+01	-6.583637e+00	-1.112578e+02	-5.854494e+01	-5.693492e+01	5.012716e+01
3.289282e+06	-4.275143e+01	-9.241360e+01	-3.065149e+01	-6.577181e+00	-1.081426e+02	-8.427183e+01	-5.689056e+01	5.014167e+01
3.289313e+06	-4.275611e+01	-9.243754e+01	-3.065330e+01	-6.570722e+00	-1.051966e+02	-9.674765e+01	-5.684642e+01	5.015602e+01
3.289344e+06	-4.276079e+01	-9.246151e+01	-3.065512e+01	-6.564260e+00	-1.028279e+02	-1.034758e+02	-5.680251e+01	5.017023e+01
3.289375e+06	-4.276538e+01	-9.248521e+01	-3.065691e+01	-6.557860e+00	-1.009921e+02	-1.072340e+02	-5.675949e+01	5.018276e+01
3.289406e+06	-4.275865e+01	-9.247108e+01	-3.065546e+01	-6.559514e+00	-1.041278e+02	-1.840534e+01	-5.680023e+01	5.000283e+01
3.289438e+06	-4.275193e+01	-9.245698e+01	-3.065400e+01	-6.561168e+00	-9.638902e+01	1.764633e+01	-5.684109e+01	4.982120e+01
3.289469e+06	-4.274522e+01	-9.244290e+01	-3.065255e+01	-6.562820e+00	-9.185346e+01	2.588121e+01	-5.688204e+01	4.963785e+01
3.289500e+06	-4.273851e+01	-9.242884e+01	-3.065110e+01	-6.564473e+00	-8.883563e+01	2.932275e+01	-5.692311e+01	4.945276e+01
3.289532e+06	-4.273208e+01	-9.241527e+01	-3.064966e+01	-6.566118e+00	-8.664715e+01	3.117254e+01	-5.696364e+01	4.926324e+01
3.289563e+06	-4.274268e+01	-9.243000e+01	-3.064905e+01	-6.567384e+00	-8.862771e+01	3.093446e+01	-5.696511e+01	4.890838e+01
3.289594e+06	-4.275329e+01	-9.244477e+01	-3.064844e+01	-6.568649e+00	-9.119719e+01	3.053247e+01	-5.696625e+01	4.855342e+01
3.289625e+06	-4.276392e+01	-9.245958e+01	-3.064783e+01	-6.569914e+00	-9.486086e+01	2.970856e+01	-5.696706e+01	4.819837e+01
3.289656e+06	-4.277455e+01	-9.247442e+01	-3.064722e+01	-6.571179e+00	-1.013093e+02	2.706840e+01	-5.696754e+01	4.784327e+01
3.289688e+06	-4.278520e+01	-9.248930e+01	-3.064661e+01	-6.572444e+00	-1.184947e+02	-1.085111e+02	-5.696768e+01	4.748815e+01
3.289719e+06	-4.278006e+01	-9.246292e+01	-3.064747e+01	-6.575741e+00	-1.060164e+02	-8.272807e+01	-5.694452e+01	4.766814e+01
3.289750e+06	-4.277479e+01	-9.243623e+01	-3.064833e+01	-6.579056e+00	-1.009605e+02	-7.894402e+01	-5.692114e+01	4.785146e+01
3.289782e+06	-4.276952e+01	-9.240958e+01	-3.064920e+01	-6.582371e+00	-9.777543e+01	-7.747968e+01	-5.689774e+01	4.803380e+01
3.289813e+06	-4.276426e+01	-9.238296e+01	-3.065006e+01	-6.585687e+00	-9.544777e+01	-7.670348e+01	-5.687432e+01	4.821515e+01
3.289844e+06	-4.275899e+01	-9.235637e+01	-3.065093e+01	-6.589003e+00	-9.361308e+01	-7.622281e+01	-5.685087e+01	4.839553e+01
3.289875e+06	-4.275520e+01	-9.234679e+01	-3.064970e+01	-6.595713e+00	-9.571724e+01	-5.704604e+01	-5.689453e+01	4.852925e+01
3.289906e+06	-4.275141e+01	-9.233723e+01	-3.064846e+01	-6.602422e+00	-9.663392e+01	-2.932867e+01	-5.693837e+01	4.866432e+01
3.289938e+06	-4.274762e+01	-9.232767e+01	-3.064723e+01	-6.609128e+00	-9.549498e+01	-2.369246e+00	-5.698238e+01	4.880077e+01
3.289969e+06	-4.274383e+01	-9.231812e+01	-3.064599e+01	-6.615833e+00	-9.334083e+01	1.570834e+01	-5.702656e+01	4.893861e+01
3.290000e+06	-4.274007e+01	-9.230902e+01	-3.064475e+01	-6.622364e+00	-9.121509e+01	2.653085e+01	-5.707031e+01	4.907687e+01
3.290032e+06	-4.273931e+01	-9.235470e+01	-3.064210e+01	-6.607578e+00	-9.267256e+01	2.597431e+01	-5.703849e+01	4.909360e+01
3.290063e+06	-4.273854e+01	-9.240038e+01	-3.063946e+01	-6.592802e+00	-9.442346e+01	2.516907e+01	-5.700679e+01	4.911020e+01
3.290094e+06	-4.273777e+01	-9.244605e+01	-3.063681e+01	-6.578035e+00	-9.661528e+01	2.390118e+01	-5.697520e+01	4.912668e+01
3.290125e+06	-4.273699e+01	-9.249172e+01	-3.063416e+01	-6.563276e+00	-9.954319e+01	2.161480e+01	-5.694373e+01	4.914304e+01
3.290156e+06	-4.273625e+01	-9.253583e+01	-3.063163e+01	-6.548970e+00	-1.039167e+02	1.652859e+01	-5.691224e+01	4.915575e+01
3.290188e+06	-4.273783e+01	-9.248523e+01	-3.063617e+01	-6.561904e+00	-1.095842e+02	2.790601e+01	-5.687303e+01	4.895241e+01
3.290219e+06	-4.273940e+01	-9.243461e+01	-3.064071e+01	-6.574852e+00	-1.176171e+02	1.006874e+02	-5.683388e+01	4.875090e+01
3.290250e+06	-4.274097e+01	-9.238397e+01	-3.064525e+01	-6.587814e+00	-1.089413e+02	1.631899e+02	-5.679481e+01	4.855120e+01
3.290282e+06	-4.274253e+01	-9.233332e+01	-3.064979e+01	-6.600789e+00	-1.035562e+02	1.733121e+02	-5.675580e+01	4.835328e+01
3.290313e+06	-4.274409e+01	-9.228265e+01	-3.065433e+01	-6.613778e+00	-1.001895e+02	1.769911e+02	-5.671687e+01	4.815713e+01
3.290344e+06	-4.274885e+01	-9.226873e+01	-3.065417e+01	-6.630705e+00	-1.000728e+02	-1.778564e+02	-5.674480e+01	4.828301e+01
3.290375e+06	-4.275363e+01	-9.225509e+01	-3.065397e+01	-6.647662e+00	-9.991101e+01	-1.728329e+02	-5.677332e+01	4.841233e+01
3.290406e+06	-4.275842e+01	-9.224144e+01	-3.065376e+01	-6.664619e+00	-9.968951e+01	-1.680269e+02	-5.680189e+01	4.854249e+01
3.290438e+06	-4.276321e+01	-9.222777e+01	-3.065356e+01	-6.681575e+00	-9.941723e+01	-1.634870e+02	-5.683050e+01	4.867352e+01
3.290469e+06	-4.276800e+01	-9.221409e+01	-3.065335e+01	-6.698530e+00	-9.910380e+01	-1.592437e+02	-5.685917e+01	4.880541e+01
3.290500e+06	-4.276352e+01	-9.227932e+01	-3.065127e+01	-6.666118e+00	-1.012619e+02	-1.524004e+02	-5.686244e+01	4.890637e+01
3.290532e+06	-4.275902e+01	-9.234448e+01	-3.064918e+01	-6.633721e+00	-1.038425e+02	-1.405351e+02	-5.686569e+01	4.900741e+01
3.290563e+06	-4.275452e+01	-9.240957e+01	-3.064709e+01	-6.601340e+00	-1.064962e+02	-1.184718e+02	-5.686891e+01	4.910852e+01
3.290594e+06	-4.275001e+01	-9.247460e+01	-3.064501e+01	-6.568975e+00	-1.074079e+02	-8.398057e+01	-5.687211e+01	4.920971e+01
3.290625e+06	-4.274551e+01	-9.253912e+01	-3.064294e+01	-6.536964e+00	-1.054462e+02	-5.385820e+01	-5.687545e+01	4.930990e+01
3.290656e+06	-4.274314e+01	-9.254901e+01	-3.064441e+01	-6.546999e+00	-1.028686e+02	-3.535568e+01	-5.690028e+01	4.927776e+01
3.290688e+06	-4.274076e+01	-9.255889e+01	-3.064588e+01	-6.557037e+00	-1.004802e+02	-2.503499e+01	-5.692517e+01	4.924543e+01
3.290719e+06	-4.273839e+01	-9.256877e+01	-3.064735e+01	-6.567079e+00	-9.847231e+01	-1.883497e+01	-5.695014e+01	4.921292e+01
3.290750e+06	-4.273602e+01	-9.257865e+01	-3.064882e+01	-6.577124e+00	-9.678749e+01	-1.478667e+01	-5.697517e+01	4.918021e+01
3.290782e+06	-4.273372e+01	-9.258780e+01	-3.065024e+01	-6.587065e+00	-9.537319e+01	-1.179635e+01	-5.699942e+01	4.914629e+01
3.290813e+06	-4.273615e+01	-9.255274e+01	-3.064805e+01	-6.590378e+00	-9.519517e+01	7.727933e-01	-5.697105e+01	4.904889e+01
3.290844e+06	-4.273858e+01	-9.251767e+01	-3.064587e+01	-6.593690e+00	-9.464558e+01	1.231739e+01	-5.694275e+01	4.895212e+01
3.290875e+06	-4.274100e+01	-9.248257e+01	-3.064369e+01	-6.597000e+00	-9.384528e+01	2.218222e+01	-5.691452e+01	4.885598e+01
3.290906e+06	-4.274342e+01	-9.244746e+01	-3.064151e+01	-6.600309e+00	-9.291904e+01	3.025554e+01	-5.688636e+01	4.876047e+01
3.290938e+06	-4.274584e+01	-9.241232e+01	-3.063933e+01	-6.603616e+00	-9.195633e+01	3.674331e+01	-5.685826e+01	4.866557e+01
3.290969e+06	-4.274773e+01	-9.240639e+01	-3.064118e+01	-6.618790e+00	-9.330704e+01	4.083363e+01	-5.689004e+01	4.868039e+01
3.291000e+06	-4.274962e+01	-9.240069e+01	-3.064306e+01	-6.634067e+00	-9.485849e+01	4.653724e+01	-5.692242e+01	4.869622e+01
3.291032e+06	-4.275150e+01	-9.239500e+01	-3.064494e+01	-6.649351e+00	-9.659260e+01	5.487875e+01	-5.695492e+01	4.871217e+01
3.291063e+06	-4.275339e+01	-9.238929e+01	-3.064682e+01	-6.664641e+00	-9.840668e+01	6.748626e+01	-5.698755e+01	4.872823e+01
3.291094e+06	-4.275528e+01	-9.238359e+01	-3.064870e+01	-6.679938e+00	-9.990473e+01	8.612484e+01	-5.702029e+01	4.874442e+01
3.291125e+06	-4.274857e+01	-9.237252e+01	-3.064899e+01	-6.642376e+00	-9.759711e+01	6.629357e+01	-5.704935e+01	4.928250e+01
3.291156e+06	-4.274187e+01	-9.236146e+01	-3.064928e+01	-6.604811e+00	-9.528515e+01	5.479660e+01	-5.707774e+01	4.982415e+01
3.291188e+06	-4.273518e+01	-9.235043e+01	-3.064956e+01	-6.567243e+00	-9.328896e+01	4.782504e+01	-5.710543e+01	5.036930e+01
3.291219e+06	-4.272848e+01	-9.233941e+01	-3.064985e+01	-6.529674e+00	-9.159719e+01	4.327185e+01	-5.713242e+01	5.091790e+01
3.291250e+06	-4.272188e+01	-9.232861e+01	-3.065012e+01	-6.492541e+00	-9.017134e+01	4.020540e+01	-5.715829e+01	5.146414e+01
3.291282e+06	-4.272561e+01	-9.234334e+01	-3.064984e+01	-6.509854e+00	-9.150208e+01	5.231266e+01	-5.713430e+01	5.130134e+01
3.291313e+06	-4.272934e+01	-9.235809e+01	-3.064956e+01	-6.527167e+00	-9.247127e+01	6.817502e+01	-5.711031e+01	5.113943e+01
3.291344e+06	-4.273307e+01	-9.237286e+01	-3.064928e+01	-6.544479e+00	-9.270255e+01	8.646575e+01	-5.708632e+01	5.097842e+01
3.291375e+06	-4.273681e+01	-9.238763e+01	-3.064901e+01	-6.561789e+00	-9.207934e+01	1.039229e+02	-5.706232e+01	5.081829e+01
3.291406e+06	-4.274043e+01	-9.240249e+01	-3.064872e+01	-6.578833e+00	-9.094044e+01	1.178072e+02	-5.703832e+01	5.065737e+01
3.291438e+06	-4.273740e+01	-9.242205e+01	-3.064820e+01	-6.579525e+00	-9.290607e+01	1.166487e+02	-5.701396e+01	5.039445e+01
3.291469e+06	-4.273436e+01	-9.244160e+01	-3.064767e+01	-6.580217e+00	-9.544276e+01	1.147031e+02	-5.698949e+01	5.013301e+01
3.291500e+06	-4.273133e+01	-9.246113e+01	-3.064715e+01	-6.580909e+00	-9.901030e+01	1.107718e+02	-5.696491e+01	4.987304e+01
3.291532e+06	-4.272830e+01	-9.248065e+01	-3.064663e+01	-6.581601e+00	-1.049222e+02	9.898976e+01	-5.694022e+01	4.961454e+01
3.291563e+06	-4.272526e+01	-9.250015e+01	-3.064610e+01	-6.582292e+00	-1.126931e+02	1.835202e+01	-5.691543e+01	4.935751e+01
3.291594e+06	-4.272263e+01	-9.246154e+01	-3.064568e+01	-6.575574e+00	-1.181820e+02	7.290300e+01	-5.688475e+01	4.909648e+01
3.291625e+06	-4.271999e+01	-9.242249e+01	-3.064527e+01	-6.568796e+00	-1.129367e+02	1.322458e+02	-5.685396e+01	4.883725e+01
3.291656e+06	-4.271736e+01	-9.238346e+01	-3.064485e+01	-6.562019e+00	-1.079072e+02	1.475270e+02	-5.682310e+01	4.857985e+01
3.291688e+06	-4.271471e+01	-9.234445e+01	-3.064443e+01	-6.555242e+00	-1.045795e+02	1.533063e+02	-5.679218e+01	4.832427e+01
3.291719e+06	-4.271207e+01	-9.230547e+01	-3.064401e+01	-6.548466e+00	-1.021450e+02	1.562795e+02	-5.676119e+01	4.807051e+01
3.291750e+06	-4.271789e+01	-9.234712e+01	-3.064319e+01	-6.546109e+00	-1.053972e+02	1.501768e+02	-5.679613e+01	4.821585e+01
3.291782e+06	-4.272370e+01	-9.238883e+01	-3.064236e+01	-6.543752e+00	-1.102000e+02	1.345878e+02	-5.683115e+01	4.836236e+01
3.291813e+06	-4.272952e+01	-9.243059e+01	-3.064154e+01	-6.541395e+00	-1.150913e+02	7.946213e+01	-5.686626e+01	4.851007e+01
3.291844e+06	-4.273533e+01	-9.247241e+01	-3.064072e+01	-6.539039e+00	-1.102233e+02	2.411446e+01	-5.690146e+01	4.865897e+01
3.291875e+06	-4.274111e+01	-9.251414e+01	-3.063991e+01	-6.536714e+00	-1.054726e+02	8.803049e+00	-5.693629e+01	4.880839e+01
3.291906e+06	-4.274277e+01	-9.253832e+01	-3.064132e+01	-6.538259e+00	-1.069471e+02	5.491201e+01	-5.691601e+01	4.887156e+01
3.291938e+06	-4.274443e+01	-9.256251e+01	-3.064273e+01	-6.539805e+00	-1.036878e+02	9.084213e+01	-5.689577e+01	4.893444e+01
3.291969e+06	-4.274609e+01	-9.258671e+01	-3.064414e+01	-6.541351e+00	-1.001725e+02	1.064472e+02	-5.687557e+01	4.899703e+01
3.292000e+06	-4.274775e+01	-9.261091e+01	-3.064554e+01	-6.542898e+00	-9.744296e+01	1.139789e+02	-5.685540e+01	4.905933e+01
3.292032e+06	-4.274930e+01	-9.263387e+01	-3.064692e+01	-6.544542e+00	-9.538711e+01	1.178537e+02	-5.683505e+01	4.912284e+01
3.292063e+06	-4.274442e+01	-9.257945e+01	-3.064614e+01	-6.552163e+00	-9.817225e+01	8.465401e+01	-5.680104e+01	4.927784e+01
3.292094e+06	-4.273954e+01	-9.252508e+01	-3.064537e+01	-6.559782e+00	-9.707778e+01	4.295490e+01	-5.676711e+01	4.943162e+01
3.292125e+06	-4.273465e+01	-9.247078e+01	-3.064460e+01	-6.567401e+00	-9.376508e+01	1.934526e+01	-5.673325e+01	4.958422e+01
3.292156e+06	-4.272976e+01	-9.241654e+01	-3.064382e+01	-6.575018e+00	-9.083505e+01	8.089118e+00	-5.669946e+01	4.973563e+01
3.292188e+06	-4.272486e+01	-9.236236e+01	-3.064305e+01	-6.582633e+00	-8.850623e+01	1.973013e+00	-5.666574e+01	4.988586e+01
3.292219e+06	-4.273235e+01	-9.241156e+01	-3.064214e+01	-6.568361e+00	-8.897565e+01	-2.158104e+00	-5.669265e+01	4.977618e+01
3.292250e+06	-4.273993e+01	-9.246168e+01	-3.064123e+01	-6.553915e+00	-8.944166e+01	-6.764065e+00	-5.672011e+01	4.966371e+01
3.292282e+06	-4.274752e+01	-9.251188e+01	-3.064031e+01	-6.539472e+00	-8.986829e+01	-1.186981e+01	-5.674761e+01	4.955052e+01
3.292313e+06	-4.275510e+01	-9.256217e+01	-3.063940e+01	-6.525032e+00	-9.023742e+01	-1.746692e+01	-5.677518e+01	4.943661e+01
3.292344e+06	-4.276269e+01	-9.261255e+01	-3.063849e+01	-6.510595e+00	-9.052951e+01	-2.350833e+01	-5.680279e+01	4.932197e+01
3.292375e+06	-4.275952e+01	-9.251767e+01	-3.064010e+01	-6.515416e+00	-9.161724e+01	-3.984558e+01	-5.681987e+01	4.915718e+01
3.292406e+06	-4.275633e+01	-9.242285e+01	-3.064172e+01	-6.520239e+00	-9.191360e+01	-5.910725e+01	-5.683692e+01	4.899174e+01
3.292438e+06	-4.275312e+01	-9.232811e+01	-3.064333e+01	-6.525063e+00	-9.125604e+01	-7.755540e+01	-5.685392e+01	4.882564e+01
3.292469e+06	-4.274988e+01	-9.223344e+01	-3.064495e+01	-6.529890e+00	-8.997947e+01	-9.222683e+01	-5.687089e+01	4.865890e+01
3.292500e+06	-4.274660e+01	-9.214008e+01	-3.064654e+01	-6.534787e+00	-8.852189e+01	-1.028043e+02	-5.688760e+01	4.849358e+01
3.292532e+06	-4.274085e+01	-9.220091e+01	-3.064550e+01	-6.548279e+00	-8.932781e+01	-1.051728e+02	-5.687766e+01	4.858483e+01
3.292563e+06	-4.273508e+01	-9.226166e+01	-3.064445e+01	-6.561768e+00	-9.019630e+01	-1.080454e+02	-5.686771e+01	4.867587e+01
3.292594e+06	-4.272931e+01	-9.232233e+01	-3.064341e+01	-6.575254e+00	-9.113134e+01	-1.115816e+02	-5.685775e+01	4.876670e+01
3.292625e+06	-4.272354e+01	-9.238292e+01	-3.064236e+01	-6.588736e+00	-9.213269e+01	-1.160026e+02	-5.684778e+01	4.885732e+01
3.292656e+06	-4.271785e+01	-9.244311e+01	-3.064133e+01	-6.601707e+00	-9.322829e+01	-1.213352e+02	-5.683830e+01	4.894916e+01
3.292688e+06	-4.271799e+01	-9.248350e+01	-3.064158e+01	-6.583398e+00	-9.724962e+01	-1.037487e+02	-5.685978e+01	4.912923e+01
3.292719e+06	-4.271812e+01	-9.252390e+01	-3.064183e+01	-6.565087e+00	-1.005646e+02	-5.907045e+01	-5.688122e+01	4.931019e+01
3.292750e+06	-4.271825e+01	-9.256430e+01	-3.064208e+01	-6.546776e+00	-9.759941e+01	-1.201465e+01	-5.690263e+01	4.949204e+01
3.292782e+06	-4.271838e+01	-9.260470e+01	-3.064232e+01	-6.528463e+00	-9.350308e+01	6.931007e+00	-5.692400e+01	4.967479e+01
3.292813e+06	-4.271850e+01	-9.264511e+01	-3.064257e+01	-6.510150e+00	-9.043112e+01	1.510864e+01	-5.694534e+01	4.985845e+01
3.292844e+06	-4.272095e+01	-9.263040e+01	-3.064297e+01	-6.525021e+00	-9.053590e+01	4.303753e+00	-5.694290e+01	4.969812e+01
3.292875e+06	-4.272342e+01	-9.261524e+01	-3.064337e+01	-6.540161e+00	-9.034803e+01	-6.556731e+00	-5.694019e+01	4.953512e+01
3.292906e+06	-4.272590e+01	-9.260007e+01	-3.064378e+01	-6.555303e+00	-8.988166e+01	-1.662069e+01	-5.693742e+01	4.937222e+01
3.292938e+06	-4.272837e+01	-9.258489e+01	-3.064418e+01	-6.570446e+00	-8.921611e+01	-2.544449e+01	-5.693458e+01	4.920943e+01
3.292969e+06	-4.273084e+01	-9.256970e+01	-3.064458e+01	-6.585590e+00	-8.843584e+01	-3.290683e+01	-5.693167e+01	4.904674e+01
3.293000e+06	-4.273946e+01	-9.251616e+01	-3.064359e+01	-6.571698e+00	-9.116608e+01	-3.333192e+01	-5.693099e+01	4.930443e+01
3.293032e+06	-4.274808e+01	-9.246252e+01	-3.064260e+01	-6.557809e+00	-9.516855e+01	-3.425477e+01	-5.693014e+01	4.956207e+01
3.293063e+06	-4.275670e+01	-9.240877e+01	-3.064161e+01	-6.543924e+00	-1.027941e+02	-3.777676e+01	-5.692911e+01	4.981966e+01
3.293094e+06	-4.276533e+01	-9.235491e+01	-3.064062e+01	-6.530041e+00	-1.101713e+02	1.624395e+02	-5.692790e+01	5.007718e+01
3.293125e+06	-4.277386e+01	-9.230152e+01	-3.063963e+01	-6.516352e+00	-9.761219e+01	1.517414e+02	-5.692643e+01	5.033232e+01
3.293156e+06	-4.277136e+01	-9.231941e+01	-3.063775e+01	-6.526172e+00	-9.675015e+01	1.732403e+02	-5.691412e+01	5.030284e+01
3.293188e+06	-4.276886e+01	-9.233728e+01	-3.063588e+01	-6.535988e+00	-9.513678e+01	-1.707618e+02	-5.690182e+01	5.027345e+01
3.293219e+06	-4.276635e+01	-9.235515e+01	-3.063401e+01	-6.545799e+00	-9.338624e+01	-1.599778e+02	-5.688953e+01	5.024413e+01
3.293250e+06	-4.276385e+01	-9.237300e+01	-3.063213e+01	-6.555607e+00	-9.175428e+01	-1.526957e+02	-5.687726e+01	5.021490e+01
3.293282e+06	-4.276122e+01	-9.239065e+01	-3.063032e+01	-6.565026e+00	-9.037757e+01	-1.477764e+02	-5.686513e+01	5.018819e+01
3.293313e+06	-4.275040e+01	-9.239633e+01	-3.063210e+01	-6.550813e+00	-9.496221e+01	-1.593090e+02	-5.686065e+01	5.031125e+01
3.293344e+06	-4.273960e+01	-9.240199e+01	-3.063389e+01	-6.536594e+00	-1.013492e+02	1.556961e+02	-5.685614e+01	5.043419e+01
3.293375e+06	-4.272881e+01	-9.240763e+01	-3.063568e+01	-6.522369e+00	-9.745574e+01	8.527908e+01	-5.685158e+01	5.055699e+01
3.293406e+06	-4.271804e+01	-9.241327e+01	-3.063746e+01	-6.508138e+00	-9.195145e+01	6.665675e+01	-5.684699e+01	5.067967e+01
3.293438e+06	-4.270728e+01	-9.241889e+01	-3.063925e+01	-6.493902e+00	-8.839082e+01	6.019969e+01	-5.684237e+01	5.080222e+01
3.293469e+06	-4.271642e+01	-9.240020e+01	-3.063862e+01	-6.497495e+00	-9.025312e+01	5.874057e+01	-5.681531e+01	5.068400e+01
3.293500e+06	-4.272573e+01	-9.238128e+01	-3.063798e+01	-6.501231e+00	-9.267611e+01	5.638103e+01	-5.678811e+01	5.056459e+01
3.293532e+06	-4.273505e+01	-9.236232e+01	-3.063734e+01	-6.504966e+00	-9.600621e+01	5.180149e+01	-5.676096e+01	5.044593e+01
3.293563e+06	-4.274437e+01	-9.234332e+01	-3.063670e+01	-6.508701e+00	-1.011981e+02	3.950445e+01	-5.673386e+01	5.032800e+01
3.293594e+06	-4.275371e+01	-9.232428e+01	-3.063606e+01	-6.512435e+00	-1.081886e+02	-2.047889e+01	-5.670681e+01	5.021081e+01
