# Hz S dB R 50.000
3.288438e+06	-4.298885e+01	-9.298265e+01	-3.065656e+01	-6.872522e+00	-9.272685e+01	-4.180595e+01	-5.169280e+01	2.956190e+01
3.288469e+06	-4.298331e+01	-9.290161e+01	-3.065920e+01	-6.870149e+00	-9.431960e+01	-1.826233e+01	-5.170286e+01	2.963273e+01
3.288500e+06	-4.297775e+01	-9.282067e+01	-3.066184e+01	-6.867775e+00	-9.415774e+01	9.835692e+00	-5.171292e+01	2.970372e+01
3.288532e+06	-4.297218e+01	-9.273983e+01	-3.066448e+01	-6.865400e+00	-9.239686e+01	3.201190e+01	-5.172298e+01	2.977487e+01
3.288563e+06	-4.296660e+01	-9.265910e+01	-3.066712e+01	-6.863022e+00	-9.024242e+01	4.592748e+01	-5.173304e+01	2.984620e+01
3.288594e+06	-4.296109e+01	-9.257999e+01	-3.066974e+01	-6.860668e+00	-8.828540e+01	5.444103e+01	-5.174311e+01	2.991644e+01
3.288626e+06	-4.296593e+01	-9.268866e+01	-3.066926e+01	-6.861270e+00	-9.000342e+01	5.135144e+01	-5.175545e+01	2.983261e+01
3.288657e+06	-4.297073e+01	-9.279746e+01	-3.066879e+01	-6.861872e+00	-9.209705e+01	4.655654e+01	-5.176779e+01	2.974854e+01
3.288688e+06	-4.297551e+01	-9.290638e+01	-3.066831e+01	-6.862475e+00	-9.471743e+01	3.828698e+01	-5.178013e+01	2.966424e+01
3.288719e+06	-4.298026e+01	-9.301541e+01	-3.066784e+01	-6.863077e+00	-9.794164e+01	2.191392e+01	-5.179246e+01	2.957969e+01
3.288750e+06	-4.298484e+01	-9.312266e+01	-3.066734e+01	-6.863551e+00	-1.006675e+02	-1.157923e+01	-5.180458e+01	2.949944e+01
3.288782e+06	-4.298018e+01	-9.311254e+01	-3.066516e+01	-6.856186e+00	-1.035727e+02	-4.325119e+01	-5.180303e+01	2.969796e+01
3.288813e+06	-4.297553e+01	-9.310243e+01	-3.066299e+01	-6.848824e+00	-1.027964e+02	-8.538684e+01	-5.180139e+01	2.989641e+01
3.288844e+06	-4.297089e+01	-9.309234e+01	-3.066082e+01	-6.841466e+00	-9.952551e+01	-1.102851e+02	-5.179963e+01	3.009479e+01
3.288876e+06	-4.296624e+01	-9.308225e+01	-3.065865e+01	-6.834112e+00	-9.655631e+01	-1.221293e+02	-5.179778e+01	3.029308e+01
3.288907e+06	-4.296171e+01	-9.307273e+01	-3.065658e+01	-6.826989e+00	-9.428443e+01	-1.284779e+02	-5.179553e+01	3.048232e+01
3.288938e+06	-4.296168e+01	-9.308557e+01	-3.065871e+01	-6.829113e+00	-9.617652e+01	-1.330692e+02	-5.178119e+01	3.030737e+01
3.288969e+06	-4.296164e+01	-9.309841e+01	-3.066084e+01	-6.831239e+00	-9.847957e+01	-1.405242e+02	-5.176680e+01	3.013300e+01
3.289000e+06	-4.296161e+01	-9.311125e+01	-3.066296e+01	-6.833365e+00	-1.012449e+02	-1.539715e+02	-5.175235e+01	2.995920e+01
3.289032e+06	-4.296157e+01	-9.312409e+01	-3.066509e+01	-6.835493e+00	-1.039085e+02	-1.797233e+02	-5.173784e+01	2.978598e+01
3.289063e+06	-4.296154e+01	-9.313693e+01	-3.066722e+01	-6.837621e+00	-1.041273e+02	1.430147e+02	-5.172328e+01	2.961334e+01
3.289094e+06	-4.295890e+01	-9.308396e+01	-3.066566e+01	-6.845953e+00	-1.014472e+02	-1.733577e+02	-5.173903e+01	2.963738e+01
3.289126e+06	-4.295626e+01	-9.303101e+01	-3.066410e+01	-6.854282e+00	-9.762193e+01	-1.543159e+02	-5.175480e+01	2.966150e+01
3.289157e+06	-4.295362e+01	-9.297810e+01	-3.066254e+01	-6.862608e+00	-9.465474e+01	-1.457320e+02	-5.177060e+01	2.968571e+01
3.289188e+06	-4.295096e+01	-9.292522e+01	-3.066099e+01	-6.870931e+00	-9.236476e+01	-1.410581e+02	-5.178642e+01	2.971001e+01
3.289219e+06	-4.294831e+01	-9.287330e+01	-3.065946e+01	-6.879188e+00	-9.056315e+01	-1.383205e+02	-5.180198e+01	2.973334e+01
3.289250e+06	-4.294675e+01	-9.293559e+01	-3.066183e+01	-6.879574e+00	-9.340808e+01	-1.648301e+02	-5.178118e+01	2.962623e+01
3.289282e+06	-4.294519e+01	-9.299786e+01	-3.066419e+01	-6.879960e+00	-9.359148e+01	1.559320e+02	-5.176039e+01	2.951964e+01
3.289313e+06	-4.294361e+01	-9.306011e+01	-3.066656e+01	-6.880347e+00	-9.085239e+01	1.278127e+02	-5.173962e+01	2.941355e+01
3.289344e+06	-4.294203e+01	-9.312233e+01	-3.066893e+01	-6.880733e+00	-8.793313e+01	1.135901e+02	-5.171888e+01	2.930797e+01
3.289376e+06	-4.294049e+01	-9.318313e+01	-3.067122e+01	-6.881205e+00	-8.560868e+01	1.059692e+02	-5.169884e+01	2.920307e+01
3.289407e+06	-4.294227e+01	-9.315770e+01	-3.066863e+01	-6.886864e+00	-8.909579e+01	9.981825e+01	-5.172145e+01	2.910887e+01
3.289438e+06	-4.294404e+01	-9.313226e+01	-3.066605e+01	-6.892520e+00	-9.446548e+01	8.253791e+01	-5.174409e+01	2.901419e+01
3.289469e+06	-4.294582e+01	-9.310681e+01	-3.066346e+01	-6.898173e+00	-9.895247e+01	1.502382e+01	-5.176676e+01	2.891901e+01
3.289500e+06	-4.294759e+01	-9.308135e+01	-3.066088e+01	-6.903822e+00	-9.267316e+01	-3.371390e+01	-5.178947e+01	2.882333e+01
3.289532e+06	-4.294932e+01	-9.305711e+01	-3.065842e+01	-6.908805e+00	-8.807705e+01	-4.579757e+01	-5.181184e+01	2.873440e+01
3.289563e+06	-4.294950e+01	-9.308294e+01	-3.066072e+01	-6.886782e+00	-8.892726e+01	-4.592847e+01	-5.181881e+01	2.894034e+01
3.289594e+06	-4.294967e+01	-9.310876e+01	-3.066302e+01	-6.864747e+00	-8.986976e+01	-4.608938e+01	-5.182568e+01	2.914661e+01
3.289626e+06	-4.294984e+01	-9.313459e+01	-3.066532e+01	-6.842701e+00	-9.092703e+01	-4.629195e+01	-5.183244e+01	2.935320e+01
3.289657e+06	-4.295001e+01	-9.316042e+01	-3.066762e+01	-6.820643e+00	-9.213089e+01	-4.655475e+01	-5.183910e+01	2.956011e+01
3.289688e+06	-4.295018e+01	-9.318625e+01	-3.066992e+01	-6.798574e+00	-9.352858e+01	-4.690932e+01	-5.184564e+01	2.976734e+01
3.289719e+06	-4.295059e+01	-9.320393e+01	-3.066702e+01	-6.814451e+00	-9.282023e+01	-2.708126e+01	-5.184300e+01	2.967964e+01
3.289750e+06	-4.295100e+01	-9.322161e+01	-3.066413e+01	-6.830317e+00	-9.141725e+01	-1.165467e+01	-5.184034e+01	2.959199e+01
3.289782e+06	-4.295141e+01	-9.323929e+01	-3.066124e+01	-6.846173e+00	-8.982406e+01	-7.952837e-01	-5.183766e+01	2.950440e+01
3.289813e+06	-4.295182e+01	-9.325697e+01	-3.065834e+01	-6.862018e+00	-8.829239e+01	6.759436e+00	-5.183496e+01	2.941686e+01
3.289844e+06	-4.295225e+01	-9.327421e+01	-3.065546e+01	-6.877855e+00	-8.692093e+01	1.213908e+01	-5.183207e+01	2.933071e+01
3.289876e+06	-4.295448e+01	-9.323646e+01	-3.065468e+01	-6.893951e+00	-8.858431e+01	1.667921e+01	-5.180837e+01	2.940893e+01
3.289907e+06	-4.295672e+01	-9.319869e+01	-3.065389e+01	-6.910045e+00	-9.053874e+01	2.357452e+01	-5.178471e+01	2.948672e+01
3.289938e+06	-4.295895e+01	-9.316090e+01	-3.065310e+01	-6.926135e+00	-9.279189e+01	3.481208e+01	-5.176111e+01	2.956409e+01
3.289969e+06	-4.296117e+01	-9.312309e+01	-3.065231e+01	-6.942223e+00	-9.504821e+01	5.393024e+01	-5.173755e+01	2.964104e+01
3.290000e+06	-4.296343e+01	-9.308534e+01	-3.065154e+01	-6.957921e+00	-9.608761e+01	8.219075e+01	-5.171480e+01	2.971597e+01
3.290032e+06	-4.296775e+01	-9.305221e+01	-3.065242e+01	-6.949860e+00	-9.408828e+01	8.390624e+01	-5.173850e+01	2.969122e+01
3.290063e+06	-4.297207e+01	-9.301905e+01	-3.065329e+01	-6.941797e+00	-9.245989e+01	8.503595e+01	-5.176226e+01	2.966633e+01
3.290094e+06	-4.297639e+01	-9.298586e+01	-3.065416e+01	-6.933733e+00	-9.108708e+01	8.583558e+01	-5.178609e+01	2.964132e+01
3.290126e+06	-4.298071e+01	-9.295263e+01	-3.065503e+01	-6.925667e+00	-8.990083e+01	8.643115e+01	-5.180998e+01	2.961616e+01
3.290157e+06	-4.298494e+01	-9.292044e+01	-3.065588e+01	-6.917432e+00	-8.893029e+01	8.687960e+01	-5.183337e+01	2.959171e+01
3.290188e+06	-4.298557e+01	-9.293157e+01	-3.065567e+01	-6.902404e+00	-9.132015e+01	8.674672e+01	-5.183385e+01	2.960170e+01
3.290219e+06	-4.298621e+01	-9.294271e+01	-3.065546e+01	-6.887377e+00	-9.462802e+01	8.649065e+01	-5.183433e+01	2.961169e+01
3.290250e+06	-4.298684e+01	-9.295385e+01	-3.065526e+01	-6.872351e+00	-1.000358e+02	8.579217e+01	-5.183481e+01	2.962168e+01
3.290282e+06	-4.298748e+01	-9.296500e+01	-3.065505e+01	-6.857325e+00	-1.172217e+02	7.633418e+01	-5.183529e+01	2.963168e+01
3.290313e+06	-4.298811e+01	-9.297614e+01	-3.065484e+01	-6.842300e+00	-1.027854e+02	-9.063245e+01	-5.183577e+01	2.964167e+01
3.290344e+06	-4.298452e+01	-9.300064e+01	-3.065594e+01	-6.848177e+00	-1.056021e+02	-7.499227e+01	-5.185824e+01	2.974182e+01
3.290376e+06	-4.298093e+01	-9.302512e+01	-3.065703e+01	-6.854055e+00	-1.079270e+02	-4.582948e+01	-5.188073e+01	2.984250e+01
3.290407e+06	-4.297734e+01	-9.304958e+01	-3.065813e+01	-6.859935e+00	-1.073463e+02	-9.269296e+00	-5.190326e+01	2.994369e+01
3.290438e+06	-4.297374e+01	-9.307402e+01	-3.065922e+01	-6.865816e+00	-1.046287e+02	1.477631e+01	-5.192582e+01	3.004542e+01
3.290469e+06	-4.297018e+01	-9.309815e+01	-3.066032e+01	-6.871798e+00	-1.019314e+02	2.742489e+01	-5.194805e+01	3.014741e+01
3.290500e+06	-4.296997e+01	-9.308542e+01	-3.066108e+01	-6.890053e+00	-1.001454e+02	3.896338e+01	-5.192497e+01	3.021774e+01
3.290532e+06	-4.296977e+01	-9.307270e+01	-3.066184e+01	-6.908312e+00	-9.846619e+01	4.667710e+01	-5.190195e+01	3.028769e+01
3.290563e+06	-4.296957e+01	-9.305997e+01	-3.066260e+01	-6.926574e+00	-9.696688e+01	5.201846e+01	-5.187897e+01	3.035727e+01
3.290594e+06	-4.296936e+01	-9.304725e+01	-3.066336e+01	-6.944839e+00	-9.564163e+01	5.587433e+01	-5.185604e+01	3.042648e+01
3.290626e+06	-4.296920e+01	-9.303485e+01	-3.066408e+01	-6.962483e+00	-9.450607e+01	5.847717e+01	-5.183343e+01	3.048990e+01
3.290657e+06	-4.297160e+01	-9.304249e+01	-3.066205e+01	-6.941753e+00	-9.557803e+01	4.068043e+01	-5.182719e+01	3.021952e+01
3.290688e+06	-4.297400e+01	-9.305014e+01	-3.066001e+01	-6.921032e+00	-9.570537e+01	2.013839e+01	-5.182076e+01	2.994954e+01
3.290719e+06	-4.297640e+01	-9.305779e+01	-3.065798e+01	-6.900321e+00	-9.481064e+01	1.401445e+00	-5.181414e+01	2.967996e+01
3.290750e+06	-4.297880e+01	-9.306545e+01	-3.065595e+01	-6.879620e+00	-9.335998e+01	-1.279279e+01	-5.180734e+01	2.941079e+01
3.290782e+06	-4.298096e+01	-9.307312e+01	-3.065398e+01	-6.859800e+00	-9.190534e+01	-2.253739e+01	-5.180060e+01	2.915515e+01
3.290813e+06	-4.297317e+01	-9.308151e+01	-3.065474e+01	-6.875437e+00	-9.583678e+01	-2.044527e+01	-5.180395e+01	2.943215e+01
3.290844e+06	-4.296538e+01	-9.308988e+01	-3.065550e+01	-6.891076e+00	-1.031182e+02	-1.281713e+01	-5.180709e+01	2.970937e+01
3.290876e+06	-4.295760e+01	-9.309823e+01	-3.065627e+01	-6.906718e+00	-1.105781e+02	1.207503e+02	-5.181004e+01	2.998678e+01
3.290907e+06	-4.294983e+01	-9.310657e+01	-3.065703e+01	-6.922363e+00	-9.851548e+01	1.459972e+02	-5.181277e+01	3.026437e+01
3.290938e+06	-4.294206e+01	-9.311490e+01	-3.065779e+01	-6.938011e+00	-9.351869e+01	1.494277e+02	-5.181531e+01	3.054213e+01
3.290969e+06	-4.295037e+01	-9.311719e+01	-3.065601e+01	-6.927216e+00	-9.371955e+01	1.574547e+02	-5.179573e+01	3.026017e+01
3.291000e+06	-4.295869e+01	-9.311949e+01	-3.065422e+01	-6.916426e+00	-9.374626e+01	1.656963e+02	-5.177599e+01	2.997949e+01
3.291032e+06	-4.296702e+01	-9.312179e+01	-3.065244e+01	-6.905640e+00	-9.359566e+01	1.738204e+02	-5.175609e+01	2.970009e+01
3.291063e+06	-4.297535e+01	-9.312410e+01	-3.065066e+01	-6.894859e+00	-9.328510e+01	-1.784782e+02	-5.173603e+01	2.942197e+01
3.291094e+06	-4.298360e+01	-9.312628e+01	-3.064890e+01	-6.884042e+00	-9.287161e+01	-1.714071e+02	-5.171604e+01	2.914749e+01
3.291126e+06	-4.297931e+01	-9.311217e+01	-3.065065e+01	-6.868318e+00	-9.588138e+01	-1.601305e+02	-5.172439e+01	2.916590e+01
3.291157e+06	-4.297503e+01	-9.309807e+01	-3.065239e+01	-6.852587e+00	-9.932569e+01	-1.358562e+02	-5.173275e+01	2.918434e+01
3.291188e+06	-4.297074e+01	-9.308399e+01	-3.065413e+01	-6.836850e+00	-1.003535e+02	-9.238806e+01	-5.174111e+01	2.920282e+01
3.291219e+06	-4.296646e+01	-9.306993e+01	-3.065588e+01	-6.821107e+00	-9.734466e+01	-5.918187e+01	-5.174948e+01	2.922134e+01
3.291250e+06	-4.296219e+01	-9.305600e+01	-3.065758e+01	-6.805807e+00	-9.408665e+01	-4.397033e+01	-5.175766e+01	2.924007e+01
3.291282e+06	-4.295824e+01	-9.304972e+01	-3.065695e+01	-6.818190e+00	-9.319708e+01	-4.391577e+01	-5.175322e+01	2.927005e+01
3.291313e+06	-4.295430e+01	-9.304345e+01	-3.065631e+01	-6.830571e+00	-9.239020e+01	-4.387088e+01	-5.174877e+01	2.929999e+01
3.291344e+06	-4.295036e+01	-9.303719e+01	-3.065568e+01	-6.842949e+00	-9.165195e+01	-4.383331e+01	-5.174433e+01	2.932991e+01
3.291376e+06	-4.294642e+01	-9.303093e+01	-3.065504e+01	-6.855327e+00	-9.097155e+01	-4.380140e+01	-5.173989e+01	2.935979e+01
3.291407e+06	-4.294262e+01	-9.302484e+01	-3.065446e+01	-6.867424e+00	-9.039489e+01	-4.373531e+01	-5.173587e+01	2.938773e+01
3.291438e+06	-4.294413e+01	-9.302526e+01	-3.065596e+01	-6.868231e+00	-9.222734e+01	-4.170496e+01	-5.174935e+01	2.933759e+01
3.291469e+06	-4.294565e+01	-9.302567e+01	-3.065746e+01	-6.869038e+00	-9.452973e+01	-3.843565e+01	-5.176283e+01	2.928730e+01
3.291500e+06	-4.294717e+01	-9.302609e+01	-3.065896e+01	-6.869846e+00	-9.759632e+01	-3.236152e+01	-5.177633e+01	2.923686e+01
3.291532e+06	-4.294869e+01	-9.302650e+01	-3.066046e+01	-6.870653e+00	-1.019802e+02	-1.791350e+01	-5.178985e+01	2.918625e+01
3.291563e+06	-4.295021e+01	-9.302692e+01	-3.066196e+01	-6.871461e+00	-1.068277e+02	2.832084e+01	-5.180338e+01	2.913549e+01
3.291594e+06	-4.295924e+01	-9.297915e+01	-3.065918e+01	-6.866475e+00	-9.978628e+01	3.499551e+01	-5.179502e+01	2.936070e+01
3.291626e+06	-4.296827e+01	-9.293129e+01	-3.065641e+01	-6.861492e+00	-9.592763e+01	3.689450e+01	-5.178653e+01	2.958548e+01
3.291657e+06	-4.297730e+01	-9.288332e+01	-3.065363e+01	-6.856512e+00	-9.326190e+01	3.779037e+01	-5.177792e+01	2.980981e+01
3.291688e+06	-4.298634e+01	-9.283526e+01	-3.065086e+01	-6.851535e+00	-9.122407e+01	3.831163e+01	-5.176919e+01	3.003370e+01
3.291719e+06	-4.299524e+01	-9.278766e+01	-3.064811e+01	-6.846518e+00	-8.960780e+01	3.860485e+01	-5.176056e+01	3.025455e+01
3.291750e+06	-4.298704e+01	-9.280961e+01	-3.064824e+01	-6.836083e+00	-9.273839e+01	3.041009e+01	-5.178077e+01	3.015402e+01
3.291782e+06	-4.297885e+01	-9.283153e+01	-3.064836e+01	-6.825649e+00	-9.695204e+01	1.101962e+01	-5.180099e+01	3.005302e+01
3.291813e+06	-4.297066e+01	-9.285341e+01	-3.064849e+01	-6.815214e+00	-9.987929e+01	-3.804253e+01	-5.182124e+01	2.995155e+01
3.291844e+06	-4.296248e+01	-9.287524e+01	-3.064862e+01	-6.804779e+00	-9.627943e+01	-8.239987e+01	-5.184151e+01	2.984960e+01
3.291876e+06	-4.295452e+01	-9.289721e+01	-3.064873e+01	-6.794703e+00	-9.231329e+01	-9.928631e+01	-5.186101e+01	2.974786e+01
3.291907e+06	-4.296016e+01	-9.292961e+01	-3.064836e+01	-6.806731e+00	-9.461887e+01	-1.184182e+02	-5.183257e+01	2.968785e+01
3.291938e+06	-4.296580e+01	-9.296206e+01	-3.064799e+01	-6.818758e+00	-9.573983e+01	-1.475128e+02	-5.180421e+01	2.962823e+01
3.291969e+06	-4.297145e+01	-9.299454e+01	-3.064762e+01	-6.830784e+00	-9.454158e+01	-1.763253e+02	-5.177593e+01	2.956900e+01
3.292000e+06	-4.297709e+01	-9.302707e+01	-3.064724e+01	-6.842809e+00	-9.222253e+01	1.649232e+02	-5.174774e+01	2.951015e+01
3.292032e+06	-4.298260e+01	-9.305813e+01	-3.064694e+01	-6.854457e+00	-9.005194e+01	1.542387e+02	-5.172024e+01	2.945277e+01
3.292063e+06	-4.298257e+01	-9.302784e+01	-3.064925e+01	-6.850840e+00	-9.228977e+01	1.564364e+02	-5.171776e+01	2.943973e+01
3.292094e+06	-4.298254e+01	-9.299755e+01	-3.065157e+01	-6.847220e+00	-9.527908e+01	1.604503e+02	-5.171528e+01	2.942670e+01
3.292126e+06	-4.298251e+01	-9.296725e+01	-3.065389e+01	-6.843599e+00	-9.970402e+01	1.699104e+02	-5.171281e+01	2.941367e+01
3.292157e+06	-4.298248e+01	-9.293696e+01	-3.065621e+01	-6.839975e+00	-1.066249e+02	-1.527266e+02	-5.171033e+01	2.940066e+01
3.292188e+06	-4.298244e+01	-9.290667e+01	-3.065853e+01	-6.836350e+00	-1.039099e+02	-7.270179e+01	-5.170785e+01	2.938765e+01
3.292219e+06	-4.297706e+01	-9.287828e+01	-3.065635e+01	-6.833127e+00	-1.024233e+02	-7.681627e+01	-5.174864e+01	2.937866e+01
3.292250e+06	-4.297168e+01	-9.284993e+01	-3.065417e+01	-6.829906e+00	-1.011263e+02	-7.980136e+01	-5.178962e+01	2.936959e+01
3.292282e+06	-4.296631e+01	-9.282162e+01	-3.065198e+01	-6.826687e+00	-9.998241e+01	-8.205471e+01	-5.183079e+01	2.936043e+01
3.292313e+06	-4.296093e+01	-9.279334e+01	-3.064980e+01	-6.823469e+00	-9.896246e+01	-8.381098e+01	-5.187216e+01	2.935119e+01
3.292344e+06	-4.295555e+01	-9.276593e+01	-3.064764e+01	-6.820240e+00	-9.808465e+01	-8.510818e+01	-5.191307e+01	2.934110e+01
3.292376e+06	-4.294952e+01	-9.284258e+01	-3.064790e+01	-6.815371e+00	-1.031771e+02	-6.252319e+01	-5.187218e+01	2.923767e+01
3.292407e+06	-4.294348e+01	-9.291911e+01	-3.064816e+01	-6.810502e+00	-1.054508e+02	1.218158e+00	-5.183145e+01	2.913521e+01
3.292438e+06	-4.293743e+01	-9.299554e+01	-3.064842e+01	-6.805632e+00	-1.001504e+02	4.048563e+01	-5.179089e+01	2.903370e+01
3.292469e+06	-4.293137e+01	-9.307186e+01	-3.064868e+01	-6.800762e+00	-9.597926e+01	5.276683e+01	-5.175048e+01	2.893313e+01
3.292500e+06	-4.292542e+01	-9.314610e+01	-3.064892e+01	-6.796169e+00	-9.308960e+01	5.809001e+01	-5.171094e+01	2.883702e+01
3.292532e+06	-4.292702e+01	-9.309828e+01	-3.064854e+01	-6.808586e+00	-9.328431e+01	5.795973e+01	-5.171466e+01	2.895832e+01
3.292563e+06	-4.292863e+01	-9.305045e+01	-3.064815e+01	-6.821002e+00	-9.348344e+01	5.782340e+01	-5.171834e+01	2.907973e+01
3.292594e+06	-4.293022e+01	-9.300260e+01	-3.064777e+01	-6.833417e+00	-9.368719e+01	5.768060e+01	-5.172198e+01	2.920124e+01
3.292626e+06	-4.293181e+01	-9.295473e+01	-3.064738e+01	-6.845830e+00	-9.389578e+01	5.753086e+01	-5.172559e+01	2.932285e+01
3.292657e+06	-4.293341e+01	-9.290815e+01	-3.064699e+01	-6.857771e+00	-9.413770e+01	5.732665e+01	-5.172944e+01	2.944182e+01
3.292688e+06	-4.293538e+01	-9.291461e+01	-3.064652e+01	-6.850536e+00	-9.565175e+01	5.479294e+01	-5.174500e+01	2.944916e+01
3.292719e+06	-4.293736e+01	-9.292106e+01	-3.064606e+01	-6.843300e+00	-9.745589e+01	5.107906e+01	-5.176059e+01	2.945654e+01
3.292750e+06	-4.293933e+01	-9.292752e+01	-3.064559e+01	-6.836066e+00	-9.966048e+01	4.518073e+01	-5.177621e+01	2.946394e+01
3.292782e+06	-4.294130e+01	-9.293399e+01	-3.064513e+01	-6.828833e+00	-1.023939e+02	3.472693e+01	-5.179185e+01	2.947137e+01
3.292813e+06	-4.294328e+01	-9.294045e+01	-3.064466e+01	-6.821600e+00	-1.055093e+02	1.388574e+01	-5.180752e+01	2.947882e+01
3.292844e+06	-4.294842e+01	-9.296599e+01	-3.064467e+01	-6.817762e+00	-1.016393e+02	-5.130249e+00	-5.180836e+01	2.946729e+01
3.292876e+06	-4.295355e+01	-9.299156e+01	-3.064469e+01	-6.813924e+00	-9.865487e+01	-1.364149e+01	-5.180919e+01	2.945575e+01
3.292907e+06	-4.295869e+01	-9.301716e+01	-3.064470e+01	-6.810086e+00	-9.635711e+01	-1.826271e+01	-5.181003e+01	2.944422e+01
3.292938e+06	-4.296383e+01	-9.304279e+01	-3.064472e+01	-6.806248e+00	-9.451334e+01	-2.112946e+01	-5.181086e+01	2.943268e+01
3.292969e+06	-4.296895e+01	-9.306787e+01	-3.064475e+01	-6.802469e+00	-9.300297e+01	-2.307937e+01	-5.181179e+01	2.942164e+01
3.293000e+06	-4.297098e+01	-9.302194e+01	-3.064723e+01	-6.805927e+00	-9.446101e+01	-2.602880e+01	-5.182450e+01	2.947245e+01
3.293032e+06	-4.297300e+01	-9.297598e+01	-3.064971e+01	-6.809387e+00	-9.617361e+01	-3.027967e+01	-5.183722e+01	2.952341e+01
3.293063e+06	-4.297503e+01	-9.293000e+01	-3.065219e+01	-6.812850e+00	-9.821479e+01	-3.683684e+01	-5.184995e+01	2.957452e+01
3.293094e+06	-4.297704e+01	-9.288400e+01	-3.065468e+01	-6.816314e+00	-1.006298e+02	-4.783313e+01	-5.186269e+01	2.962578e+01
3.293126e+06	-4.297900e+01	-9.283969e+01	-3.065711e+01	-6.819833e+00	-1.030980e+02	-6.655094e+01	-5.187457e+01	2.967896e+01
3.293157e+06	-4.297789e+01	-9.290103e+01	-3.065621e+01	-6.826588e+00	-1.006389e+02	-3.897455e+01	-5.183289e+01	2.983993e+01
3.293188e+06	-4.297678e+01	-9.296235e+01	-3.065532e+01	-6.833342e+00	-9.785989e+01	-2.430246e+01	-5.179134e+01	2.999938e+01
3.293219e+06	-4.297565e+01	-9.302366e+01	-3.065443e+01	-6.840095e+00	-9.551137e+01	-1.623395e+01	-5.174992e+01	3.015730e+01
3.293250e+06	-4.297451e+01	-9.308495e+01	-3.065354e+01	-6.846846e+00	-9.357965e+01	-1.131494e+01	-5.170864e+01	3.031373e+01
3.293282e+06	-4.297349e+01	-9.314349e+01	-3.065267e+01	-6.853651e+00	-9.204237e+01	-7.785866e+00	-5.166880e+01	3.045910e+01
3.293313e+06	-4.297782e+01	-9.309107e+01	-3.065253e+01	-6.862703e+00	-9.361195e+01	8.829534e+00	-5.168267e+01	3.021374e+01
3.293344e+06	-4.298213e+01	-9.303860e+01	-3.065240e+01	-6.871754e+00	-9.435263e+01	3.073497e+01	-5.169639e+01	2.996760e+01
3.293376e+06	-4.298644e+01	-9.298608e+01	-3.065227e+01	-6.880804e+00	-9.376687e+01	5.305563e+01	-5.170998e+01	2.972068e+01
3.293407e+06	-4.299075e+01	-9.293351e+01	-3.065213e+01	-6.889855e+00	-9.225978e+01	7.042134e+01	-5.172343e+01	2.947300e+01
3.293438e+06	-4.299505e+01	-9.288088e+01	-3.065200e+01	-6.898905e+00	-9.050687e+01	8.225489e+01	-5.173673e+01	2.922455e+01
