# Hz S dB R 50.000
3.288594e+06	-2.672611e+01	1.705612e+02	-3.108724e+01	-3.360502e+00	-9.761612e+01	1.057412e+02	-2.575499e+01	1.687533e+02
3.288625e+06	-2.672508e+01	1.705606e+02	-3.108872e+01	-3.364665e+00	-9.781048e+01	6.567684e+01	-2.575523e+01	1.687561e+02
3.288656e+06	-2.672405e+01	1.705600e+02	-3.109021e+01	-3.368830e+00	-9.498832e+01	3.727723e+01	-2.575548e+01	1.687589e+02
3.288688e+06	-2.672302e+01	1.705594e+02	-3.109169e+01	-3.372997e+00	-9.202249e+01	2.313891e+01	-2.575572e+01	1.687617e+02
3.288719e+06	-2.672199e+01	1.705588e+02	-3.109318e+01	-3.377164e+00	-8.959629e+01	1.559432e+01	-2.575597e+01	1.687644e+02
3.288750e+06	-2.672098e+01	1.705581e+02	-3.109464e+01	-3.381356e+00	-8.765868e+01	1.105214e+01	-2.575622e+01	1.687673e+02
3.288782e+06	-2.672204e+01	1.705473e+02	-3.109356e+01	-3.388409e+00	-8.980566e+01	6.224864e+00	-2.575685e+01	1.687771e+02
3.288813e+06	-2.672309e+01	1.705365e+02	-3.109248e+01	-3.395459e+00	-9.251420e+01	-2.238529e+00	-2.575748e+01	1.687869e+02
3.288844e+06	-2.672415e+01	1.705257e+02	-3.109140e+01	-3.402508e+00	-9.587201e+01	-1.945061e+01	-2.575811e+01	1.687967e+02
3.288875e+06	-2.672521e+01	1.705148e+02	-3.109032e+01	-3.409555e+00	-9.852782e+01	-5.570306e+01	-2.575874e+01	1.688065e+02
3.288906e+06	-2.672623e+01	1.705044e+02	-3.108927e+01	-3.416338e+00	-9.695336e+01	-9.654980e+01	-2.575933e+01	1.688160e+02
3.288938e+06	-2.672487e+01	1.705144e+02	-3.108975e+01	-3.406936e+00	-9.850811e+01	-7.986599e+01	-2.575746e+01	1.688093e+02
3.288969e+06	-2.672351e+01	1.705244e+02	-3.109023e+01	-3.397533e+00	-9.922528e+01	-5.797027e+01	-2.575560e+01	1.688026e+02
3.289000e+06	-2.672215e+01	1.705343e+02	-3.109071e+01	-3.388129e+00	-9.862343e+01	-3.576644e+01	-2.575373e+01	1.687959e+02
3.289032e+06	-2.672079e+01	1.705443e+02	-3.109119e+01	-3.378724e+00	-9.711545e+01	-1.852452e+01	-2.575187e+01	1.687892e+02
3.289063e+06	-2.671943e+01	1.705543e+02	-3.109167e+01	-3.369318e+00	-9.536829e+01	-6.767244e+00	-2.575000e+01	1.687826e+02
3.289094e+06	-2.671987e+01	1.705546e+02	-3.108888e+01	-3.374586e+00	-9.445697e+01	6.211419e+00	-2.575112e+01	1.687848e+02
3.289125e+06	-2.672031e+01	1.705547e+02	-3.108607e+01	-3.379969e+00	-9.331790e+01	1.646739e+01	-2.575226e+01	1.687871e+02
3.289156e+06	-2.672076e+01	1.705549e+02	-3.108326e+01	-3.385348e+00	-9.212213e+01	2.428840e+01	-2.575340e+01	1.687894e+02
3.289188e+06	-2.672121e+01	1.705550e+02	-3.108046e+01	-3.390724e+00	-9.096207e+01	3.024370e+01	-2.575454e+01	1.687917e+02
3.289219e+06	-2.672166e+01	1.705552e+02	-3.107765e+01	-3.396096e+00	-8.987452e+01	3.483787e+01	-2.575568e+01	1.687940e+02
3.289250e+06	-2.672167e+01	1.705530e+02	-3.107918e+01	-3.396919e+00	-9.012040e+01	3.857333e+01	-2.575473e+01	1.687963e+02
3.289282e+06	-2.672167e+01	1.705508e+02	-3.108071e+01	-3.397743e+00	-9.033339e+01	4.251174e+01	-2.575378e+01	1.687985e+02
3.289313e+06	-2.672168e+01	1.705486e+02	-3.108224e+01	-3.398566e+00	-9.050775e+01	4.663007e+01	-2.575284e+01	1.688008e+02
3.289344e+06	-2.672168e+01	1.705464e+02	-3.108377e+01	-3.399390e+00	-9.063826e+01	5.089578e+01	-2.575189e+01	1.688031e+02
3.289375e+06	-2.672169e+01	1.705442e+02	-3.108531e+01	-3.400225e+00	-9.072082e+01	5.516804e+01	-2.575095e+01	1.688053e+02
3.289406e+06	-2.672171e+01	1.705459e+02	-3.108750e+01	-3.402316e+00	-9.070924e+01	4.712078e+01	-2.575151e+01	1.688049e+02
3.289438e+06	-2.672173e+01	1.705475e+02	-3.108970e+01	-3.404408e+00	-9.053055e+01	3.924899e+01	-2.575207e+01	1.688045e+02
3.289469e+06	-2.672176e+01	1.705491e+02	-3.109190e+01	-3.406502e+00	-9.020412e+01	3.182451e+01	-2.575263e+01	1.688041e+02
3.289500e+06	-2.672178e+01	1.705508e+02	-3.109410e+01	-3.408596e+00	-8.976095e+01	2.503267e+01	-2.575319e+01	1.688037e+02
3.289532e+06	-2.672181e+01	1.705525e+02	-3.109621e+01	-3.410510e+00	-8.926684e+01	1.894591e+01	-2.575374e+01	1.688033e+02
3.289563e+06	-2.672231e+01	1.705576e+02	-3.109326e+01	-3.401241e+00	-9.072133e+01	1.107624e+01	-2.575373e+01	1.688004e+02
3.289594e+06	-2.672282e+01	1.705627e+02	-3.109030e+01	-3.391978e+00	-9.218930e+01	2.504946e-02	-2.575372e+01	1.687975e+02
3.289625e+06	-2.672332e+01	1.705678e+02	-3.108734e+01	-3.382722e+00	-9.341858e+01	-1.513337e+01	-2.575371e+01	1.687946e+02
3.289656e+06	-2.672382e+01	1.705729e+02	-3.108439e+01	-3.373472e+00	-9.397680e+01	-3.387122e+01	-2.575370e+01	1.687917e+02
3.289688e+06	-2.672433e+01	1.705781e+02	-3.108143e+01	-3.364228e+00	-9.357183e+01	-5.295538e+01	-2.575369e+01	1.687888e+02
3.289719e+06	-2.672457e+01	1.705712e+02	-3.108322e+01	-3.367778e+00	-9.583298e+01	-3.639995e+01	-2.575466e+01	1.687859e+02
3.289750e+06	-2.672481e+01	1.705642e+02	-3.108505e+01	-3.371432e+00	-9.731688e+01	-9.903856e+00	-2.575565e+01	1.687830e+02
3.289782e+06	-2.672506e+01	1.705572e+02	-3.108688e+01	-3.375088e+00	-9.667036e+01	1.952149e+01	-2.575663e+01	1.687801e+02
3.289813e+06	-2.672530e+01	1.705503e+02	-3.108870e+01	-3.378745e+00	-9.455486e+01	4.046622e+01	-2.575761e+01	1.687772e+02
3.289844e+06	-2.672554e+01	1.705433e+02	-3.109053e+01	-3.382404e+00	-9.228572e+01	5.292732e+01	-2.575859e+01	1.687743e+02
3.289875e+06	-2.672426e+01	1.705570e+02	-3.108848e+01	-3.374927e+00	-9.239029e+01	4.737759e+01	-2.575738e+01	1.687792e+02
3.289906e+06	-2.672298e+01	1.705707e+02	-3.108643e+01	-3.367454e+00	-9.241251e+01	4.174599e+01	-2.575617e+01	1.687840e+02
3.289938e+06	-2.672170e+01	1.705844e+02	-3.108438e+01	-3.359985e+00	-9.235109e+01	3.613983e+01	-2.575496e+01	1.687888e+02
3.289969e+06	-2.672042e+01	1.705980e+02	-3.108233e+01	-3.352519e+00	-9.220951e+01	3.066357e+01	-2.575375e+01	1.687937e+02
3.290000e+06	-2.671916e+01	1.706115e+02	-3.108029e+01	-3.345144e+00	-9.200604e+01	2.545237e+01	-2.575256e+01	1.687985e+02
3.290032e+06	-2.672017e+01	1.705967e+02	-3.107887e+01	-3.348604e+00	-9.317693e+01	2.597698e+01	-2.575349e+01	1.688037e+02
3.290063e+06	-2.672118e+01	1.705819e+02	-3.107744e+01	-3.352063e+00	-9.452949e+01	2.667845e+01	-2.575443e+01	1.688088e+02
3.290094e+06	-2.672219e+01	1.705671e+02	-3.107602e+01	-3.355520e+00	-9.613002e+01	2.766399e+01	-2.575536e+01	1.688140e+02
3.290125e+06	-2.672320e+01	1.705524e+02	-3.107460e+01	-3.358977e+00	-9.808879e+01	2.914878e+01	-2.575630e+01	1.688191e+02
3.290156e+06	-2.672420e+01	1.705378e+02	-3.107323e+01	-3.362454e+00	-1.005401e+02	3.157494e+01	-2.575722e+01	1.688241e+02
3.290188e+06	-2.672478e+01	1.705394e+02	-3.107529e+01	-3.367238e+00	-9.925102e+01	3.114110e+01	-2.575741e+01	1.688151e+02
3.290219e+06	-2.672536e+01	1.705409e+02	-3.107736e+01	-3.372025e+00	-9.812841e+01	3.081245e+01	-2.575760e+01	1.688061e+02
3.290250e+06	-2.672594e+01	1.705425e+02	-3.107942e+01	-3.376814e+00	-9.713422e+01	3.055488e+01	-2.575779e+01	1.687971e+02
3.290282e+06	-2.672652e+01	1.705440e+02	-3.108148e+01	-3.381606e+00	-9.624210e+01	3.034759e+01	-2.575798e+01	1.687881e+02
3.290313e+06	-2.672711e+01	1.705456e+02	-3.108354e+01	-3.386400e+00	-9.543305e+01	3.017717e+01	-2.575817e+01	1.687792e+02
3.290344e+06	-2.672594e+01	1.705554e+02	-3.108144e+01	-3.376828e+00	-9.590484e+01	2.149272e+01	-2.575821e+01	1.687815e+02
3.290375e+06	-2.672476e+01	1.705653e+02	-3.107931e+01	-3.367146e+00	-9.618176e+01	1.193698e+01	-2.575826e+01	1.687839e+02
3.290406e+06	-2.672357e+01	1.705752e+02	-3.107717e+01	-3.357468e+00	-9.620982e+01	2.036376e+00	-2.575830e+01	1.687863e+02
3.290438e+06	-2.672239e+01	1.705851e+02	-3.107503e+01	-3.347795e+00	-9.598430e+01	-7.639528e+00	-2.575835e+01	1.687887e+02
3.290469e+06	-2.672121e+01	1.705950e+02	-3.107290e+01	-3.338127e+00	-9.554140e+01	-1.659262e+01	-2.575839e+01	1.687911e+02
3.290500e+06	-2.672180e+01	1.705905e+02	-3.107382e+01	-3.349270e+00	-9.721990e+01	3.330194e+00	-2.575837e+01	1.687931e+02
3.290532e+06	-2.672240e+01	1.705860e+02	-3.107475e+01	-3.360416e+00	-9.763182e+01	2.901834e+01	-2.575836e+01	1.687950e+02
3.290563e+06	-2.672299e+01	1.705815e+02	-3.107567e+01	-3.371563e+00	-9.642687e+01	5.232483e+01	-2.575834e+01	1.687970e+02
3.290594e+06	-2.672359e+01	1.705770e+02	-3.107659e+01	-3.382714e+00	-9.449574e+01	6.833122e+01	-2.575833e+01	1.687990e+02
3.290625e+06	-2.672418e+01	1.705725e+02	-3.107751e+01	-3.393725e+00	-9.257090e+01	7.842842e+01	-2.575830e+01	1.688009e+02
3.290656e+06	-2.672393e+01	1.705710e+02	-3.107740e+01	-3.387194e+00	-9.242643e+01	7.712885e+01	-2.575745e+01	1.688055e+02
3.290688e+06	-2.672369e+01	1.705696e+02	-3.107729e+01	-3.380663e+00	-9.228008e+01	7.587208e+01	-2.575660e+01	1.688100e+02
3.290719e+06	-2.672344e+01	1.705682e+02	-3.107718e+01	-3.374132e+00	-9.213217e+01	7.465719e+01	-2.575574e+01	1.688146e+02
3.290750e+06	-2.672319e+01	1.705667e+02	-3.107707e+01	-3.367602e+00	-9.198303e+01	7.348314e+01	-2.575489e+01	1.688191e+02
3.290782e+06	-2.672296e+01	1.705653e+02	-3.107697e+01	-3.361231e+00	-9.186999e+01	7.260785e+01	-2.575403e+01	1.688234e+02
3.290813e+06	-2.672384e+01	1.705640e+02	-3.107729e+01	-3.364652e+00	-9.385263e+01	9.198775e+01	-2.575307e+01	1.688138e+02
3.290844e+06	-2.672472e+01	1.705627e+02	-3.107761e+01	-3.368074e+00	-9.462184e+01	1.190862e+02	-2.575211e+01	1.688042e+02
3.290875e+06	-2.672560e+01	1.705613e+02	-3.107794e+01	-3.371495e+00	-9.347194e+01	1.449344e+02	-2.575115e+01	1.687946e+02
3.290906e+06	-2.672648e+01	1.705600e+02	-3.107826e+01	-3.374917e+00	-9.139307e+01	1.624300e+02	-2.575019e+01	1.687850e+02
3.290938e+06	-2.672736e+01	1.705587e+02	-3.107859e+01	-3.378340e+00	-8.930687e+01	1.731561e+02	-2.574923e+01	1.687754e+02
3.290969e+06	-2.672542e+01	1.705619e+02	-3.107919e+01	-3.375297e+00	-9.119039e+01	-1.791119e+02	-2.575046e+01	1.687787e+02
3.291000e+06	-2.672346e+01	1.705652e+02	-3.107979e+01	-3.372202e+00	-9.331614e+01	-1.667718e+02	-2.575170e+01	1.687820e+02
3.291032e+06	-2.672150e+01	1.705684e+02	-3.108039e+01	-3.369106e+00	-9.525190e+01	-1.468266e+02	-2.575295e+01	1.687854e+02
3.291063e+06	-2.671954e+01	1.705717e+02	-3.108099e+01	-3.366010e+00	-9.589257e+01	-1.195096e+02	-2.575419e+01	1.687888e+02
3.291094e+06	-2.671758e+01	1.705749e+02	-3.108159e+01	-3.362914e+00	-9.464432e+01	-9.417472e+01	-2.575544e+01	1.687922e+02
3.291125e+06	-2.671852e+01	1.705748e+02	-3.108067e+01	-3.357347e+00	-9.792076e+01	-7.196715e+01	-2.575551e+01	1.687908e+02
3.291156e+06	-2.671945e+01	1.705746e+02	-3.107976e+01	-3.351781e+00	-9.931015e+01	-3.166965e+01	-2.575559e+01	1.687894e+02
3.291188e+06	-2.672039e+01	1.705745e+02	-3.107884e+01	-3.346217e+00	-9.676459e+01	2.812633e+00	-2.575566e+01	1.687880e+02
3.291219e+06	-2.672132e+01	1.705743e+02	-3.107792e+01	-3.340654e+00	-9.354891e+01	1.976976e+01	-2.575574e+01	1.687866e+02
3.291250e+06	-2.672224e+01	1.705742e+02	-3.107702e+01	-3.335137e+00	-9.095931e+01	2.836602e+01	-2.575581e+01	1.687852e+02
3.291282e+06	-2.672138e+01	1.705767e+02	-3.107861e+01	-3.335252e+00	-9.479791e+01	4.726903e+01	-2.575637e+01	1.687893e+02
3.291313e+06	-2.672052e+01	1.705792e+02	-3.108019e+01	-3.335366e+00	-9.753066e+01	9.092674e+01	-2.575692e+01	1.687934e+02
3.291344e+06	-2.671966e+01	1.705817e+02	-3.108178e+01	-3.335481e+00	-9.471513e+01	1.340681e+02	-2.575748e+01	1.687975e+02
3.291375e+06	-2.671881e+01	1.705842e+02	-3.108336e+01	-3.335596e+00	-9.089079e+01	1.526326e+02	-2.575803e+01	1.688016e+02
3.291406e+06	-2.671798e+01	1.705865e+02	-3.108486e+01	-3.335965e+00	-8.800984e+01	1.608209e+02	-2.575857e+01	1.688056e+02
3.291438e+06	-2.671902e+01	1.705784e+02	-3.108142e+01	-3.351975e+00	-8.998952e+01	1.523613e+02	-2.575800e+01	1.688060e+02
3.291469e+06	-2.672006e+01	1.705703e+02	-3.107797e+01	-3.367972e+00	-9.214890e+01	1.386565e+02	-2.575742e+01	1.688064e+02
3.291500e+06	-2.672110e+01	1.705622e+02	-3.107452e+01	-3.383956e+00	-9.394553e+01	1.167190e+02	-2.575684e+01	1.688069e+02
3.291532e+06	-2.672214e+01	1.705541e+02	-3.107107e+01	-3.399928e+00	-9.417100e+01	8.858563e+01	-2.575627e+01	1.688073e+02
3.291563e+06	-2.672318e+01	1.705461e+02	-3.106763e+01	-3.415886e+00	-9.260819e+01	6.474213e+01	-2.575569e+01	1.688077e+02
3.291594e+06	-2.672356e+01	1.705536e+02	-3.106891e+01	-3.407255e+00	-9.245741e+01	6.563917e+01	-2.575676e+01	1.688065e+02
3.291625e+06	-2.672394e+01	1.705612e+02	-3.107024e+01	-3.398424e+00	-9.232119e+01	6.666667e+01	-2.575784e+01	1.688053e+02
3.291656e+06	-2.672432e+01	1.705689e+02	-3.107156e+01	-3.389589e+00	-9.218442e+01	6.766237e+01	-2.575893e+01	1.688041e+02
3.291688e+06	-2.672469e+01	1.705765e+02	-3.107289e+01	-3.380752e+00	-9.204726e+01	6.862715e+01	-2.576001e+01	1.688029e+02
3.291719e+06	-2.672507e+01	1.705842e+02	-3.107421e+01	-3.371912e+00	-9.190989e+01	6.956192e+01	-2.576109e+01	1.688017e+02
3.291750e+06	-2.672529e+01	1.705888e+02	-3.107591e+01	-3.364617e+00	-9.416797e+01	6.568039e+01	-2.575968e+01	1.688086e+02
3.291782e+06	-2.672550e+01	1.705935e+02	-3.107760e+01	-3.357318e+00	-9.712424e+01	5.859282e+01	-2.575827e+01	1.688155e+02
3.291813e+06	-2.672572e+01	1.705981e+02	-3.107930e+01	-3.350017e+00	-1.011423e+02	4.260626e+01	-2.575686e+01	1.688224e+02
3.291844e+06	-2.672594e+01	1.706028e+02	-3.108100e+01	-3.342713e+00	-1.049590e+02	-1.411002e-01	-2.575545e+01	1.688293e+02
3.291875e+06	-2.672615e+01	1.706074e+02	-3.108267e+01	-3.335556e+00	-1.023867e+02	-5.038055e+01	-2.575406e+01	1.688361e+02
3.291906e+06	-2.672553e+01	1.706047e+02	-3.108081e+01	-3.346922e+00	-1.073072e+02	2.858470e+01	-2.575497e+01	1.688246e+02
3.291938e+06	-2.672491e+01	1.706021e+02	-3.107895e+01	-3.358283e+00	-9.970614e+01	7.471242e+01	-2.575587e+01	1.688131e+02
3.291969e+06	-2.672429e+01	1.705994e+02	-3.107709e+01	-3.369639e+00	-9.490861e+01	8.467215e+01	-2.575678e+01	1.688016e+02
3.292000e+06	-2.672368e+01	1.705968e+02	-3.107523e+01	-3.380990e+00	-9.176235e+01	8.864605e+01	-2.575769e+01	1.687901e+02
3.292032e+06	-2.672306e+01	1.705942e+02	-3.107344e+01	-3.392048e+00	-8.949738e+01	9.081945e+01	-2.575858e+01	1.687790e+02
3.292063e+06	-2.672260e+01	1.705937e+02	-3.107564e+01	-3.385358e+00	-9.110073e+01	9.710098e+01	-2.575886e+01	1.687916e+02
3.292094e+06	-2.672214e+01	1.705932e+02	-3.107785e+01	-3.378664e+00	-9.287561e+01	1.063909e+02	-2.575914e+01	1.688042e+02
3.292125e+06	-2.672168e+01	1.705927e+02	-3.108006e+01	-3.371967e+00	-9.466489e+01	1.204739e+02	-2.575941e+01	1.688169e+02
3.292156e+06	-2.672122e+01	1.705922e+02	-3.108226e+01	-3.365267e+00	-9.595764e+01	1.407760e+02	-2.575968e+01	1.688295e+02
3.292188e+06	-2.672075e+01	1.705917e+02	-3.108447e+01	-3.358563e+00	-9.598740e+01	1.646067e+02	-2.575996e+01	1.688421e+02
3.292219e+06	-2.672142e+01	1.705896e+02	-3.108041e+01	-3.360800e+00	-9.851175e+01	1.335666e+02	-2.575941e+01	1.688402e+02
3.292250e+06	-2.672210e+01	1.705874e+02	-3.107630e+01	-3.363107e+00	-9.765074e+01	9.427172e+01	-2.575885e+01	1.688382e+02
3.292282e+06	-2.672278e+01	1.705853e+02	-3.107220e+01	-3.365412e+00	-9.460430e+01	7.045116e+01	-2.575829e+01	1.688363e+02
3.292313e+06	-2.672346e+01	1.705831e+02	-3.106809e+01	-3.367715e+00	-9.177330e+01	5.860455e+01	-2.575774e+01	1.688343e+02
3.292344e+06	-2.672414e+01	1.705810e+02	-3.106399e+01	-3.370016e+00	-8.948120e+01	5.206899e+01	-2.575718e+01	1.688323e+02
3.292375e+06	-2.672387e+01	1.705824e+02	-3.106590e+01	-3.390832e+00	-9.120704e+01	4.629970e+01	-2.575744e+01	1.688246e+02
3.292406e+06	-2.672361e+01	1.705839e+02	-3.106781e+01	-3.411656e+00	-9.319017e+01	3.743693e+01	-2.575769e+01	1.688170e+02
3.292438e+06	-2.672334e+01	1.705853e+02	-3.106971e+01	-3.432490e+00	-9.531680e+01	2.311987e+01	-2.575795e+01	1.688093e+02
3.292469e+06	-2.672307e+01	1.705868e+02	-3.107162e+01	-3.453334e+00	-9.698644e+01	6.102737e-01	-2.575821e+01	1.688016e+02
3.292500e+06	-2.672282e+01	1.705882e+02	-3.107351e+01	-3.473900e+00	-9.700489e+01	-2.698881e+01	-2.575846e+01	1.687940e+02
3.292532e+06	-2.672347e+01	1.705913e+02	-3.107372e+01	-3.458965e+00	-9.377680e+01	-2.906313e+01	-2.575847e+01	1.687928e+02
3.292563e+06	-2.672413e+01	1.705944e+02	-3.107393e+01	-3.444030e+00	-9.142413e+01	-3.015400e+01	-2.575848e+01	1.687917e+02
3.292594e+06	-2.672478e+01	1.705975e+02	-3.107414e+01	-3.429095e+00	-8.957322e+01	-3.082632e+01	-2.575848e+01	1.687906e+02
3.292625e+06	-2.672544e+01	1.706006e+02	-3.107435e+01	-3.414158e+00	-8.804760e+01	-3.128209e+01	-2.575849e+01	1.687894e+02
3.292656e+06	-2.672606e+01	1.706036e+02	-3.107456e+01	-3.399347e+00	-8.679348e+01	-3.159320e+01	-2.575851e+01	1.687884e+02
3.292688e+06	-2.672475e+01	1.706066e+02	-3.107442e+01	-3.392308e+00	-8.845464e+01	-3.055883e+01	-2.575886e+01	1.687917e+02
3.292719e+06	-2.672344e+01	1.706095e+02	-3.107428e+01	-3.385269e+00	-9.050497e+01	-2.897291e+01	-2.575921e+01	1.687950e+02
3.292750e+06	-2.672213e+01	1.706124e+02	-3.107413e+01	-3.378230e+00	-9.317827e+01	-2.624034e+01	-2.575957e+01	1.687983e+02
3.292782e+06	-2.672082e+01	1.706153e+02	-3.107399e+01	-3.371192e+00	-9.699484e+01	-2.046422e+01	-2.575992e+01	1.688016e+02
3.292813e+06	-2.671951e+01	1.706182e+02	-3.107385e+01	-3.364153e+00	-1.033321e+02	-1.562633e+00	-2.576028e+01	1.688049e+02
3.292844e+06	-2.672016e+01	1.706090e+02	-3.107190e+01	-3.368712e+00	-9.785792e+01	1.590457e+01	-2.576000e+01	1.687997e+02
3.292875e+06	-2.672083e+01	1.705996e+02	-3.106993e+01	-3.373363e+00	-9.429368e+01	2.188777e+01	-2.575973e+01	1.687945e+02
3.292906e+06	-2.672150e+01	1.705903e+02	-3.106796e+01	-3.378011e+00	-9.173878e+01	2.484156e+01	-2.575945e+01	1.687893e+02
3.292938e+06	-2.672216e+01	1.705810e+02	-3.106599e+01	-3.382658e+00	-8.975616e+01	2.659293e+01	-2.575917e+01	1.687841e+02
3.292969e+06	-2.672283e+01	1.705717e+02	-3.106402e+01	-3.387302e+00	-8.813860e+01	2.774993e+01	-2.575889e+01	1.687789e+02
3.293000e+06	-2.672296e+01	1.705759e+02	-3.106403e+01	-3.397286e+00	-9.051737e+01	3.801642e+01	-2.575865e+01	1.687892e+02
3.293032e+06	-2.672309e+01	1.705802e+02	-3.106403e+01	-3.407271e+00	-9.308705e+01	5.638096e+01	-2.575840e+01	1.687995e+02
3.293063e+06	-2.672322e+01	1.705844e+02	-3.106404e+01	-3.417255e+00	-9.461232e+01	8.670087e+01	-2.575816e+01	1.688099e+02
3.293094e+06	-2.672335e+01	1.705886e+02	-3.106404e+01	-3.427239e+00	-9.345599e+01	1.184858e+02	-2.575791e+01	1.688202e+02
3.293125e+06	-2.672348e+01	1.705928e+02	-3.106406e+01	-3.436953e+00	-9.096595e+01	1.385651e+02	-2.575766e+01	1.688304e+02
3.293156e+06	-2.672370e+01	1.705964e+02	-3.106558e+01	-3.413114e+00	-9.344927e+01	1.449621e+02	-2.575587e+01	1.688276e+02
3.293188e+06	-2.672391e+01	1.706000e+02	-3.106709e+01	-3.389267e+00	-9.663002e+01	1.573113e+02	-2.575409e+01	1.688248e+02
3.293219e+06	-2.672412e+01	1.706036e+02	-3.106861e+01	-3.365411e+00	-1.001505e+02	-1.751331e+02	-2.575231e+01	1.688220e+02
3.293250e+06	-2.672434e+01	1.706072e+02	-3.107012e+01	-3.341546e+00	-1.004622e+02	-1.291483e+02	-2.575053e+01	1.688192e+02
3.293282e+06	-2.672455e+01	1.706106e+02	-3.107160e+01	-3.318004e+00	-9.710622e+01	-9.904171e+01	-2.574880e+01	1.688164e+02
3.293313e+06	-2.672468e+01	1.706012e+02	-3.107103e+01	-3.314762e+00	-9.674500e+01	-8.693049e+01	-2.575013e+01	1.688141e+02
3.293344e+06	-2.672481e+01	1.705918e+02	-3.107045e+01	-3.311521e+00	-9.606860e+01	-7.620024e+01	-2.575146e+01	1.688119e+02
3.293375e+06	-2.672493e+01	1.705825e+02	-3.106988e+01	-3.308280e+00	-9.520447e+01	-6.722973e+01	-2.575280e+01	1.688097e+02
3.293406e+06	-2.672506e+01	1.705731e+02	-3.106930e+01	-3.305040e+00	-9.426095e+01	-5.995484e+01	-2.575413e+01	1.688074e+02
3.293438e+06	-2.672519e+01	1.705638e+02	-3.106872e+01	-3.301800e+00	-9.330804e+01	-5.411245e+01	-2.575546e+01	1.688052e+02
3.293469e+06	-2.672455e+01	1.705751e+02	-3.106737e+01	-3.333027e+00	-9.609224e+01	-6.690059e+01	-2.575599e+01	1.688046e+02
3.293500e+06	-2.672390e+01	1.705865e+02	-3.106600e+01	-3.364523e+00	-9.892255e+01	-9.221711e+01	-2.575652e+01	1.688040e+02
3.293532e+06	-2.672325e+01	1.705979e+02	-3.106463e+01	-3.396008e+00	-9.933160e+01	-1.305993e+02	-2.575704e+01	1.688035e+02
3.293563e+06	-2.672261e+01	1.706094e+02	-3.106325e+01	-3.427483e+00	-9.674996e+01	-1.595134e+02	-2.575757e+01	1.688029e+02
3.293594e+06	-2.672196e+01	1.706208e+02	-3.106188e+01	-3.458949e+00	-9.384791e+01	-1.744153e+02	-2.575809e+01	1.688023e+02
3.293625e+06	-2.672151e+01	1.706128e+02	-3.106237e+01	-3.449256e+00	-9.714412e+01	1.703726e+02	-2.575750e+01	1.688040e+02
3.293656e+06	-2.672105e+01	1.706049e+02	-3.106286e+01	-3.439562e+00	-1.002000e+02	1.373345e+02	-2.575691e+01	1.688057e+02
