# Hz S dB R 50.000
3.288594e+06	-2.671321e+01	1.705764e+02	-3.107205e+01	-3.696597e+00	-9.041266e+01	1.559013e+02	-2.566382e+01	1.688517e+02
3.288625e+06	-2.671378e+01	1.705721e+02	-3.107308e+01	-3.709505e+00	-9.737021e+01	1.601612e+02	-2.566369e+01	1.688460e+02
3.288656e+06	-2.671436e+01	1.705678e+02	-3.107412e+01	-3.722416e+00	-1.085328e+02	-5.658324e+01	-2.566355e+01	1.688402e+02
3.288688e+06	-2.671493e+01	1.705635e+02	-3.107515e+01	-3.735331e+00	-9.396049e+01	-3.275403e+01	-2.566342e+01	1.688345e+02
3.288719e+06	-2.671550e+01	1.705593e+02	-3.107619e+01	-3.748248e+00	-8.870825e+01	-3.039131e+01	-2.566328e+01	1.688287e+02
3.288750e+06	-2.671607e+01	1.705551e+02	-3.107720e+01	-3.760933e+00	-8.549357e+01	-2.953729e+01	-2.566315e+01	1.688230e+02
3.288782e+06	-2.671604e+01	1.705614e+02	-3.107597e+01	-3.744454e+00	-8.793824e+01	-3.423508e+01	-2.566304e+01	1.688268e+02
3.288813e+06	-2.671601e+01	1.705678e+02	-3.107474e+01	-3.727979e+00	-9.118635e+01	-4.331043e+01	-2.566293e+01	1.688306e+02
3.288844e+06	-2.671599e+01	1.705742e+02	-3.107351e+01	-3.711509e+00	-9.548704e+01	-6.540595e+01	-2.566282e+01	1.688344e+02
3.288875e+06	-2.671596e+01	1.705805e+02	-3.107228e+01	-3.695044e+00	-9.762611e+01	-1.175445e+02	-2.566272e+01	1.688383e+02
3.288906e+06	-2.671594e+01	1.705868e+02	-3.107108e+01	-3.678920e+00	-9.377649e+01	-1.570316e+02	-2.566263e+01	1.688420e+02
3.288938e+06	-2.671636e+01	1.705888e+02	-3.107153e+01	-3.683471e+00	-9.758799e+01	-1.691153e+02	-2.566376e+01	1.688411e+02
3.288969e+06	-2.671678e+01	1.705908e+02	-3.107198e+01	-3.688023e+00	-1.022838e+02	1.570039e+02	-2.566490e+01	1.688401e+02
3.289000e+06	-2.671721e+01	1.705928e+02	-3.107243e+01	-3.692575e+00	-1.013276e+02	9.797416e+01	-2.566604e+01	1.688392e+02
3.289032e+06	-2.671763e+01	1.705948e+02	-3.107288e+01	-3.697128e+00	-9.661680e+01	7.145293e+01	-2.566717e+01	1.688382e+02
3.289063e+06	-2.671806e+01	1.705968e+02	-3.107333e+01	-3.701682e+00	-9.308109e+01	6.150276e+01	-2.566831e+01	1.688373e+02
3.289094e+06	-2.671774e+01	1.705885e+02	-3.107345e+01	-3.700997e+00	-9.303537e+01	4.733890e+01	-2.566705e+01	1.688277e+02
3.289125e+06	-2.671743e+01	1.705801e+02	-3.107357e+01	-3.700271e+00	-9.251641e+01	3.398664e+01	-2.566578e+01	1.688181e+02
3.289156e+06	-2.671711e+01	1.705717e+02	-3.107368e+01	-3.699544e+00	-9.164849e+01	2.263343e+01	-2.566450e+01	1.688084e+02
3.289188e+06	-2.671679e+01	1.705634e+02	-3.107380e+01	-3.698818e+00	-9.061027e+01	1.353867e+01	-2.566323e+01	1.687987e+02
3.289219e+06	-2.671647e+01	1.705550e+02	-3.107392e+01	-3.698091e+00	-8.952922e+01	6.424591e+00	-2.566195e+01	1.687891e+02
3.289250e+06	-2.671686e+01	1.705576e+02	-3.107156e+01	-3.702242e+00	-9.150004e+01	9.772576e+00	-2.566211e+01	1.688018e+02
3.289282e+06	-2.671726e+01	1.705602e+02	-3.106919e+01	-3.706390e+00	-9.398700e+01	1.537166e+01	-2.566227e+01	1.688145e+02
3.289313e+06	-2.671765e+01	1.705629e+02	-3.106683e+01	-3.710536e+00	-9.724504e+01	2.626839e+01	-2.566243e+01	1.688273e+02
3.289344e+06	-2.671805e+01	1.705655e+02	-3.106446e+01	-3.714680e+00	-1.012046e+02	5.198653e+01	-2.566259e+01	1.688400e+02
3.289375e+06	-2.671844e+01	1.705681e+02	-3.106214e+01	-3.718766e+00	-1.021579e+02	1.011499e+02	-2.566275e+01	1.688526e+02
3.289406e+06	-2.671810e+01	1.705690e+02	-3.106492e+01	-3.715916e+00	-9.968131e+01	7.864125e+01	-2.566274e+01	1.688472e+02
3.289438e+06	-2.671777e+01	1.705700e+02	-3.106770e+01	-3.713065e+00	-9.716050e+01	6.620564e+01	-2.566273e+01	1.688419e+02
3.289469e+06	-2.671744e+01	1.705709e+02	-3.107048e+01	-3.710211e+00	-9.501879e+01	5.897328e+01	-2.566271e+01	1.688365e+02
3.289500e+06	-2.671711e+01	1.705718e+02	-3.107326e+01	-3.707356e+00	-9.322995e+01	5.438063e+01	-2.566270e+01	1.688312e+02
3.289532e+06	-2.671678e+01	1.705726e+02	-3.107599e+01	-3.704893e+00	-9.173291e+01	5.129165e+01	-2.566269e+01	1.688260e+02
3.289563e+06	-2.671656e+01	1.705680e+02	-3.107530e+01	-3.726691e+00	-9.144225e+01	5.169284e+01	-2.566294e+01	1.688314e+02
3.289594e+06	-2.671634e+01	1.705633e+02	-3.107461e+01	-3.748486e+00	-9.116062e+01	5.206844e+01	-2.566319e+01	1.688367e+02
3.289625e+06	-2.671613e+01	1.705587e+02	-3.107392e+01	-3.770278e+00	-9.088749e+01	5.242081e+01	-2.566343e+01	1.688421e+02
3.289656e+06	-2.671591e+01	1.705541e+02	-3.107323e+01	-3.792066e+00	-9.062239e+01	5.275200e+01	-2.566368e+01	1.688475e+02
3.289688e+06	-2.671569e+01	1.705494e+02	-3.107254e+01	-3.813851e+00	-9.036488e+01	5.306386e+01	-2.566393e+01	1.688529e+02
3.289719e+06	-2.671402e+01	1.705595e+02	-3.107254e+01	-3.794893e+00	-9.247251e+01	4.102893e+01	-2.566517e+01	1.688530e+02
3.289750e+06	-2.671233e+01	1.705697e+02	-3.107256e+01	-3.775606e+00	-9.443778e+01	2.139065e+01	-2.566641e+01	1.688532e+02
3.289782e+06	-2.671065e+01	1.705799e+02	-3.107257e+01	-3.756319e+00	-9.515175e+01	-5.836241e+00	-2.566766e+01	1.688533e+02
3.289813e+06	-2.670896e+01	1.705901e+02	-3.107258e+01	-3.737033e+00	-9.395537e+01	-3.148149e+01	-2.566890e+01	1.688535e+02
3.289844e+06	-2.670728e+01	1.706003e+02	-3.107259e+01	-3.717746e+00	-9.186763e+01	-4.873123e+01	-2.567015e+01	1.688536e+02
3.289875e+06	-2.670902e+01	1.705906e+02	-3.107230e+01	-3.712547e+00	-9.124681e+01	-5.400224e+01	-2.566972e+01	1.688530e+02
3.289906e+06	-2.671077e+01	1.705810e+02	-3.107201e+01	-3.707349e+00	-9.060798e+01	-5.856005e+01	-2.566928e+01	1.688524e+02
3.289938e+06	-2.671251e+01	1.705713e+02	-3.107172e+01	-3.702151e+00	-8.996865e+01	-6.249311e+01	-2.566885e+01	1.688518e+02
3.289969e+06	-2.671425e+01	1.705616e+02	-3.107143e+01	-3.696954e+00	-8.934016e+01	-6.589135e+01	-2.566842e+01	1.688512e+02
3.290000e+06	-2.671598e+01	1.705521e+02	-3.107114e+01	-3.691849e+00	-8.874646e+01	-6.881469e+01	-2.566799e+01	1.688505e+02
3.290032e+06	-2.671604e+01	1.705607e+02	-3.107096e+01	-3.698277e+00	-9.044266e+01	-6.871746e+01	-2.566788e+01	1.688387e+02
3.290063e+06	-2.671610e+01	1.705694e+02	-3.107078e+01	-3.704704e+00	-9.255247e+01	-6.856676e+01	-2.566777e+01	1.688269e+02
3.290094e+06	-2.671616e+01	1.705780e+02	-3.107060e+01	-3.711130e+00	-9.534487e+01	-6.830177e+01	-2.566766e+01	1.688151e+02
3.290125e+06	-2.671622e+01	1.705867e+02	-3.107042e+01	-3.717557e+00	-9.948483e+01	-6.771314e+01	-2.566755e+01	1.688033e+02
3.290156e+06	-2.671626e+01	1.705952e+02	-3.107024e+01	-3.723953e+00	-1.074124e+02	-6.405364e+01	-2.566745e+01	1.687917e+02
3.290188e+06	-2.671526e+01	1.705948e+02	-3.107032e+01	-3.728487e+00	-1.016303e+02	-1.643766e+01	-2.566784e+01	1.687934e+02
3.290219e+06	-2.671426e+01	1.705944e+02	-3.107040e+01	-3.733022e+00	-9.703879e+01	-3.508544e+00	-2.566823e+01	1.687952e+02
3.290250e+06	-2.671326e+01	1.705941e+02	-3.107047e+01	-3.737557e+00	-9.392229e+01	1.777047e+00	-2.566862e+01	1.687969e+02
3.290282e+06	-2.671226e+01	1.705937e+02	-3.107055e+01	-3.742092e+00	-9.160315e+01	4.601090e+00	-2.566901e+01	1.687986e+02
3.290313e+06	-2.671126e+01	1.705933e+02	-3.107063e+01	-3.746627e+00	-8.976395e+01	6.350316e+00	-2.566941e+01	1.688003e+02
3.290344e+06	-2.671132e+01	1.705975e+02	-3.106979e+01	-3.743439e+00	-9.114535e+01	8.048555e+00	-2.566878e+01	1.688105e+02
3.290375e+06	-2.671140e+01	1.706017e+02	-3.106895e+01	-3.740190e+00	-9.280927e+01	1.046726e+01	-2.566815e+01	1.688209e+02
3.290406e+06	-2.671147e+01	1.706059e+02	-3.106811e+01	-3.736941e+00	-9.483930e+01	1.416940e+01	-2.566752e+01	1.688312e+02
3.290438e+06	-2.671155e+01	1.706101e+02	-3.106726e+01	-3.733693e+00	-9.740974e+01	2.046518e+01	-2.566689e+01	1.688415e+02
3.290469e+06	-2.671162e+01	1.706143e+02	-3.106642e+01	-3.730445e+00	-1.007608e+02	3.298832e+01	-2.566626e+01	1.688518e+02
3.290500e+06	-2.671211e+01	1.706015e+02	-3.106507e+01	-3.715736e+00	-9.916960e+01	3.332393e+01	-2.566529e+01	1.688482e+02
3.290532e+06	-2.671260e+01	1.705888e+02	-3.106372e+01	-3.701031e+00	-9.782508e+01	3.356328e+01	-2.566432e+01	1.688445e+02
3.290563e+06	-2.671309e+01	1.705760e+02	-3.106237e+01	-3.686332e+00	-9.666095e+01	3.374260e+01	-2.566335e+01	1.688409e+02
3.290594e+06	-2.671358e+01	1.705633e+02	-3.106102e+01	-3.671636e+00	-9.563451e+01	3.388194e+01	-2.566237e+01	1.688373e+02
3.290625e+06	-2.671407e+01	1.705507e+02	-3.105971e+01	-3.657034e+00	-9.474137e+01	3.398989e+01	-2.566142e+01	1.688337e+02
3.290656e+06	-2.671449e+01	1.705615e+02	-3.106328e+01	-3.653360e+00	-9.731356e+01	3.354549e+01	-2.566250e+01	1.688370e+02
3.290688e+06	-2.671490e+01	1.705724e+02	-3.106686e+01	-3.649682e+00	-1.009824e+02	3.263381e+01	-2.566359e+01	1.688402e+02
3.290719e+06	-2.671531e+01	1.705833e+02	-3.107043e+01	-3.646002e+00	-1.074449e+02	2.970573e+01	-2.566467e+01	1.688435e+02
3.290750e+06	-2.671572e+01	1.705941e+02	-3.107401e+01	-3.642319e+00	-1.240436e+02	-1.036876e+02	-2.566575e+01	1.688467e+02
3.290782e+06	-2.671612e+01	1.706047e+02	-3.107751e+01	-3.638880e+00	-1.058681e+02	-1.398643e+02	-2.566681e+01	1.688498e+02
3.290813e+06	-2.671573e+01	1.706000e+02	-3.107616e+01	-3.650640e+00	-1.083368e+02	-1.200626e+02	-2.566617e+01	1.688436e+02
3.290844e+06	-2.671534e+01	1.705953e+02	-3.107481e+01	-3.662397e+00	-1.095008e+02	-8.908702e+01	-2.566552e+01	1.688375e+02
3.290875e+06	-2.671495e+01	1.705906e+02	-3.107345e+01	-3.674150e+00	-1.080831e+02	-5.909626e+01	-2.566488e+01	1.688313e+02
3.290906e+06	-2.671456e+01	1.705859e+02	-3.107210e+01	-3.685899e+00	-1.055819e+02	-4.053315e+01	-2.566424e+01	1.688252e+02
3.290938e+06	-2.671417e+01	1.705811e+02	-3.107075e+01	-3.697645e+00	-1.032290e+02	-3.004383e+01	-2.566360e+01	1.688190e+02
3.290969e+06	-2.671457e+01	1.705838e+02	-3.106906e+01	-3.698274e+00	-1.024428e+02	1.553969e+01	-2.566289e+01	1.688220e+02
3.291000e+06	-2.671498e+01	1.705864e+02	-3.106736e+01	-3.698812e+00	-9.884960e+01	4.134348e+01	-2.566218e+01	1.688250e+02
3.291032e+06	-2.671539e+01	1.705891e+02	-3.106567e+01	-3.699351e+00	-9.571921e+01	5.292276e+01	-2.566147e+01	1.688280e+02
3.291063e+06	-2.671579e+01	1.705918e+02	-3.106397e+01	-3.699889e+00	-9.328003e+01	5.899089e+01	-2.566077e+01	1.688310e+02
3.291094e+06	-2.671620e+01	1.705945e+02	-3.106228e+01	-3.700427e+00	-9.133061e+01	6.264774e+01	-2.566006e+01	1.688340e+02
3.291125e+06	-2.671613e+01	1.705908e+02	-3.106462e+01	-3.690499e+00	-9.143094e+01	7.041314e+01	-2.566143e+01	1.688361e+02
3.291156e+06	-2.671606e+01	1.705871e+02	-3.106695e+01	-3.680566e+00	-9.137053e+01	7.821454e+01	-2.566280e+01	1.688383e+02
3.291188e+06	-2.671599e+01	1.705834e+02	-3.106929e+01	-3.670627e+00	-9.115585e+01	8.577128e+01	-2.566417e+01	1.688404e+02
3.291219e+06	-2.671592e+01	1.705798e+02	-3.107162e+01	-3.660684e+00	-9.080830e+01	9.285187e+01	-2.566554e+01	1.688426e+02
3.291250e+06	-2.671585e+01	1.705761e+02	-3.107392e+01	-3.650930e+00	-9.034850e+01	9.926641e+01	-2.566690e+01	1.688447e+02
3.291282e+06	-2.671637e+01	1.705747e+02	-3.107151e+01	-3.665464e+00	-8.883058e+01	1.000225e+02	-2.566645e+01	1.688439e+02
3.291313e+06	-2.671689e+01	1.705734e+02	-3.106911e+01	-3.679990e+00	-8.753794e+01	1.005695e+02	-2.566601e+01	1.688432e+02
3.291344e+06	-2.671740e+01	1.705721e+02	-3.106670e+01	-3.694508e+00	-8.641246e+01	1.009836e+02	-2.566556e+01	1.688424e+02
3.291375e+06	-2.671792e+01	1.705707e+02	-3.106430e+01	-3.709017e+00	-8.541591e+01	1.013080e+02	-2.566512e+01	1.688416e+02
3.291406e+06	-2.671841e+01	1.705695e+02	-3.106194e+01	-3.723253e+00	-8.455331e+01	1.015969e+02	-2.566467e+01	1.688409e+02
3.291438e+06	-2.671713e+01	1.705759e+02	-3.106266e+01	-3.721098e+00	-8.574453e+01	1.038816e+02	-2.566433e+01	1.688422e+02
3.291469e+06	-2.671584e+01	1.705823e+02	-3.106338e+01	-3.718943e+00	-8.710378e+01	1.069467e+02	-2.566399e+01	1.688435e+02
3.291500e+06	-2.671456e+01	1.705887e+02	-3.106410e+01	-3.716788e+00	-8.867400e+01	1.112432e+02	-2.566364e+01	1.688448e+02
3.291532e+06	-2.671327e+01	1.705951e+02	-3.106482e+01	-3.714633e+00	-9.050210e+01	1.176041e+02	-2.566330e+01	1.688461e+02
3.291563e+06	-2.671199e+01	1.706014e+02	-3.106554e+01	-3.712477e+00	-9.260094e+01	1.276316e+02	-2.566295e+01	1.688474e+02
3.291594e+06	-2.671224e+01	1.706011e+02	-3.106685e+01	-3.710352e+00	-9.330808e+01	1.204824e+02	-2.566420e+01	1.688500e+02
3.291625e+06	-2.671251e+01	1.706006e+02	-3.106815e+01	-3.708226e+00	-9.388590e+01	1.120166e+02	-2.566546e+01	1.688526e+02
3.291656e+06	-2.671278e+01	1.706002e+02	-3.106946e+01	-3.706100e+00	-9.427766e+01	1.025422e+02	-2.566671e+01	1.688552e+02
3.291688e+06	-2.671304e+01	1.705997e+02	-3.107076e+01	-3.703973e+00	-9.442368e+01	9.245658e+01	-2.566797e+01	1.688578e+02
3.291719e+06	-2.671331e+01	1.705993e+02	-3.107207e+01	-3.701845e+00	-9.429852e+01	8.234644e+01	-2.566923e+01	1.688604e+02
3.291750e+06	-2.671280e+01	1.705992e+02	-3.107037e+01	-3.711225e+00	-9.547613e+01	8.037785e+01	-2.566821e+01	1.688632e+02
3.291782e+06	-2.671229e+01	1.705991e+02	-3.106868e+01	-3.720600e+00	-9.682278e+01	7.774494e+01	-2.566719e+01	1.688661e+02
3.291813e+06	-2.671178e+01	1.705990e+02	-3.106698e+01	-3.729973e+00	-9.838641e+01	7.406284e+01	-2.566617e+01	1.688689e+02
3.291844e+06	-2.671127e+01	1.705989e+02	-3.106528e+01	-3.739341e+00	-1.002286e+02	6.860849e+01	-2.566515e+01	1.688717e+02
3.291875e+06	-2.671077e+01	1.705989e+02	-3.106363e+01	-3.748622e+00	-1.023538e+02	5.996144e+01	-2.566414e+01	1.688745e+02
3.291906e+06	-2.671127e+01	1.706055e+02	-3.106775e+01	-3.747554e+00	-9.891853e+01	5.563937e+01	-2.566476e+01	1.688711e+02
3.291938e+06	-2.671176e+01	1.706122e+02	-3.107187e+01	-3.746485e+00	-9.644450e+01	5.345202e+01	-2.566537e+01	1.688677e+02
3.291969e+06	-2.671226e+01	1.706188e+02	-3.107599e+01	-3.745415e+00	-9.451506e+01	5.213475e+01	-2.566598e+01	1.688643e+02
3.292000e+06	-2.671275e+01	1.706255e+02	-3.108012e+01	-3.744344e+00	-9.293473e+01	5.125538e+01	-2.566660e+01	1.688609e+02
3.292032e+06	-2.671323e+01	1.706319e+02	-3.108415e+01	-3.743165e+00	-9.161645e+01	5.054928e+01	-2.566720e+01	1.688576e+02
3.292063e+06	-2.671279e+01	1.706263e+02	-3.108212e+01	-3.735399e+00	-9.155857e+01	4.518254e+01	-2.566729e+01	1.688626e+02
3.292094e+06	-2.671234e+01	1.706207e+02	-3.108009e+01	-3.727638e+00	-9.142705e+01	3.993189e+01	-2.566738e+01	1.688676e+02
3.292125e+06	-2.671189e+01	1.706151e+02	-3.107806e+01	-3.719879e+00	-9.122836e+01	3.487762e+01	-2.566747e+01	1.688726e+02
3.292156e+06	-2.671144e+01	1.706095e+02	-3.107603e+01	-3.712125e+00	-9.097144e+01	3.008225e+01	-2.566756e+01	1.688776e+02
3.292188e+06	-2.671099e+01	1.706038e+02	-3.107401e+01	-3.704374e+00	-9.066651e+01	2.558790e+01	-2.566765e+01	1.688827e+02
3.292219e+06	-2.671298e+01	1.705944e+02	-3.107377e+01	-3.704056e+00	-9.196690e+01	3.494313e+01	-2.566708e+01	1.688769e+02
3.292250e+06	-2.671498e+01	1.705849e+02	-3.107356e+01	-3.703798e+00	-9.313973e+01	4.757650e+01	-2.566651e+01	1.688710e+02
3.292282e+06	-2.671699e+01	1.705753e+02	-3.107334e+01	-3.703540e+00	-9.388348e+01	6.340210e+01	-2.566594e+01	1.688651e+02
3.292313e+06	-2.671899e+01	1.705658e+02	-3.107312e+01	-3.703282e+00	-9.390805e+01	8.073553e+01	-2.566536e+01	1.688593e+02
3.292344e+06	-2.672100e+01	1.705563e+02	-3.107290e+01	-3.703024e+00	-9.320209e+01	9.672453e+01	-2.566479e+01	1.688534e+02
3.292375e+06	-2.671916e+01	1.705730e+02	-3.107286e+01	-3.702420e+00	-9.454182e+01	8.551643e+01	-2.566542e+01	1.688559e+02
3.292406e+06	-2.671733e+01	1.705897e+02	-3.107282e+01	-3.701817e+00	-9.560265e+01	7.066875e+01	-2.566604e+01	1.688584e+02
3.292438e+06	-2.671549e+01	1.706063e+02	-3.107278e+01	-3.701213e+00	-9.602191e+01	5.297936e+01	-2.566667e+01	1.688609e+02
3.292469e+06	-2.671365e+01	1.706230e+02	-3.107274e+01	-3.700610e+00	-9.560001e+01	3.529551e+01	-2.566730e+01	1.688634e+02
3.292500e+06	-2.671183e+01	1.706394e+02	-3.107271e+01	-3.699987e+00	-9.457897e+01	2.055947e+01	-2.566792e+01	1.688659e+02
3.292532e+06	-2.671180e+01	1.706305e+02	-3.107354e+01	-3.696989e+00	-9.977764e+01	1.961099e+01	-2.566768e+01	1.688674e+02
3.292563e+06	-2.671176e+01	1.706215e+02	-3.107438e+01	-3.693990e+00	-1.145135e+02	1.015502e+01	-2.566743e+01	1.688690e+02
3.292594e+06	-2.671173e+01	1.706125e+02	-3.107521e+01	-3.690990e+00	-1.036381e+02	-1.549984e+02	-2.566719e+01	1.688705e+02
3.292625e+06	-2.671169e+01	1.706035e+02	-3.107605e+01	-3.687990e+00	-9.648873e+01	-1.568417e+02	-2.566695e+01	1.688720e+02
3.292656e+06	-2.671168e+01	1.705947e+02	-3.107689e+01	-3.684939e+00	-9.268485e+01	-1.572001e+02	-2.566671e+01	1.688734e+02
3.292688e+06	-2.671284e+01	1.705957e+02	-3.107810e+01	-3.678827e+00	-9.354338e+01	-1.464549e+02	-2.566691e+01	1.688678e+02
3.292719e+06	-2.671401e+01	1.705967e+02	-3.107931e+01	-3.672713e+00	-9.409642e+01	-1.337844e+02	-2.566710e+01	1.688622e+02
3.292750e+06	-2.671518e+01	1.705978e+02	-3.108053e+01	-3.666597e+00	-9.419903e+01	-1.201019e+02	-2.566729e+01	1.688566e+02
3.292782e+06	-2.671634e+01	1.705988e+02	-3.108174e+01	-3.660479e+00	-9.381984e+01	-1.068562e+02	-2.566749e+01	1.688510e+02
3.292813e+06	-2.671751e+01	1.705998e+02	-3.108295e+01	-3.654360e+00	-9.306755e+01	-9.525247e+01	-2.566768e+01	1.688453e+02
3.292844e+06	-2.671548e+01	1.705968e+02	-3.107979e+01	-3.663135e+00	-9.354096e+01	-6.910625e+01	-2.566777e+01	1.688466e+02
3.292875e+06	-2.671342e+01	1.705937e+02	-3.107660e+01	-3.672023e+00	-9.232314e+01	-4.509990e+01	-2.566787e+01	1.688479e+02
3.292906e+06	-2.671137e+01	1.705906e+02	-3.107342e+01	-3.680905e+00	-9.033796e+01	-2.875817e+01	-2.566796e+01	1.688492e+02
3.292938e+06	-2.670931e+01	1.705876e+02	-3.107023e+01	-3.689780e+00	-8.835426e+01	-1.849516e+01	-2.566806e+01	1.688505e+02
3.292969e+06	-2.670726e+01	1.705845e+02	-3.106704e+01	-3.698649e+00	-8.659051e+01	-1.184929e+01	-2.566815e+01	1.688518e+02
3.293000e+06	-2.670803e+01	1.705916e+02	-3.106754e+01	-3.690782e+00	-8.835797e+01	-1.561391e+01	-2.566803e+01	1.688576e+02
3.293032e+06	-2.670881e+01	1.705988e+02	-3.106803e+01	-3.682914e+00	-9.050348e+01	-2.152718e+01	-2.566792e+01	1.688634e+02
3.293063e+06	-2.670958e+01	1.706060e+02	-3.106852e+01	-3.675045e+00	-9.313656e+01	-3.181497e+01	-2.566780e+01	1.688692e+02
3.293094e+06	-2.671035e+01	1.706131e+02	-3.106902e+01	-3.667175e+00	-9.611008e+01	-5.172595e+01	-2.566769e+01	1.688750e+02
3.293125e+06	-2.671113e+01	1.706202e+02	-3.106951e+01	-3.659466e+00	-9.775491e+01	-8.675492e+01	-2.566757e+01	1.688807e+02
3.293156e+06	-2.671266e+01	1.706172e+02	-3.106957e+01	-3.671809e+00	-9.952681e+01	-8.566293e+01	-2.566719e+01	1.688784e+02
3.293188e+06	-2.671420e+01	1.706141e+02	-3.106963e+01	-3.684153e+00	-1.017488e+02	-8.393329e+01	-2.566681e+01	1.688762e+02
3.293219e+06	-2.671573e+01	1.706111e+02	-3.106969e+01	-3.696497e+00	-1.047220e+02	-8.078650e+01	-2.566644e+01	1.688739e+02
3.293250e+06	-2.671726e+01	1.706081e+02	-3.106974e+01	-3.708841e+00	-1.091741e+02	-7.337124e+01	-2.566606e+01	1.688716e+02
3.293282e+06	-2.671876e+01	1.706050e+02	-3.106977e+01	-3.721025e+00	-1.172181e+02	-4.154946e+01	-2.566568e+01	1.688693e+02
3.293313e+06	-2.671799e+01	1.705989e+02	-3.106768e+01	-3.723335e+00	-1.110232e+02	1.058876e+02	-2.566520e+01	1.688646e+02
3.293344e+06	-2.671722e+01	1.705927e+02	-3.106559e+01	-3.725644e+00	-1.033203e+02	1.121258e+02	-2.566472e+01	1.688599e+02
3.293375e+06	-2.671645e+01	1.705866e+02	-3.106350e+01	-3.727951e+00	-9.928636e+01	1.137379e+02	-2.566423e+01	1.688552e+02
3.293406e+06	-2.671568e+01	1.705805e+02	-3.106141e+01	-3.730258e+00	-9.654010e+01	1.144765e+02	-2.566375e+01	1.688505e+02
3.293438e+06	-2.671492e+01	1.705743e+02	-3.105932e+01	-3.732564e+00	-9.445608e+01	1.148999e+02	-2.566326e+01	1.688457e+02
3.293469e+06	-2.671535e+01	1.705803e+02	-3.106105e+01	-3.723813e+00	-9.423581e+01	1.150641e+02	-2.566484e+01	1.688522e+02
3.293500e+06	-2.671580e+01	1.705864e+02	-3.106281e+01	-3.714970e+00	-9.403343e+01	1.152194e+02	-2.566644e+01	1.688588e+02
3.293532e+06	-2.671624e+01	1.705925e+02	-3.106457e+01	-3.706124e+00	-9.383560e+01	1.153678e+02	-2.566803e+01	1.688654e+02
3.293563e+06	-2.671669e+01	1.705986e+02	-3.106633e+01	-3.697274e+00	-9.364212e+01	1.155096e+02	-2.566963e+01	1.688720e+02
3.293594e+06	-2.671713e+01	1.706047e+02	-3.106809e+01	-3.688420e+00	-9.345281e+01	1.156453e+02	-2.567122e+01	1.688786e+02
3.293625e+06	-2.671657e+01	1.706080e+02	-3.106800e+01	-3.685497e+00	-9.346705e+01	1.018090e+02	-2.567145e+01	1.688731e+02
3.293656e+06	-2.671602e+01	1.706114e+02	-3.106791e+01	-3.682575e+00	-9.300218e+01	8.868514e+01	-2.567168e+01	1.688677e+02
