# Hz S dB R 50.000
3.288594e+06	-2.671204e+01	1.706220e+02	-3.106497e+01	-3.971553e+00	-9.327311e+01	-1.062385e+02	-2.561383e+01	1.688139e+02
3.288625e+06	-2.671172e+01	1.706205e+02	-3.106800e+01	-3.974575e+00	-9.387916e+01	-1.031129e+02	-2.561252e+01	1.688159e+02
3.288656e+06	-2.671140e+01	1.706191e+02	-3.107102e+01	-3.977600e+00	-9.449861e+01	-9.951306e+01	-2.561121e+01	1.688180e+02
3.288688e+06	-2.671108e+01	1.706176e+02	-3.107405e+01	-3.980626e+00	-9.512294e+01	-9.535811e+01	-2.560991e+01	1.688200e+02
3.288719e+06	-2.671076e+01	1.706162e+02	-3.107708e+01	-3.983655e+00	-9.573874e+01	-9.056411e+01	-2.560860e+01	1.688221e+02
3.288750e+06	-2.671043e+01	1.706147e+02	-3.108009e+01	-3.986614e+00	-9.629777e+01	-8.511718e+01	-2.560731e+01	1.688241e+02
3.288782e+06	-2.670977e+01	1.706154e+02	-3.107970e+01	-3.980755e+00	-9.372816e+01	-8.645395e+01	-2.560803e+01	1.688234e+02
3.288813e+06	-2.670910e+01	1.706161e+02	-3.107931e+01	-3.974896e+00	-9.174551e+01	-8.724538e+01	-2.560876e+01	1.688227e+02
3.288844e+06	-2.670843e+01	1.706169e+02	-3.107892e+01	-3.969037e+00	-9.013146e+01	-8.776847e+01	-2.560949e+01	1.688219e+02
3.288875e+06	-2.670776e+01	1.706176e+02	-3.107853e+01	-3.963180e+00	-8.877042e+01	-8.813984e+01	-2.561021e+01	1.688212e+02
3.288906e+06	-2.670711e+01	1.706182e+02	-3.107813e+01	-3.957586e+00	-8.763653e+01	-8.844300e+01	-2.561093e+01	1.688205e+02
3.288938e+06	-2.670791e+01	1.706132e+02	-3.107661e+01	-3.968239e+00	-8.936255e+01	-9.071826e+01	-2.561068e+01	1.688204e+02
3.288969e+06	-2.670872e+01	1.706082e+02	-3.107510e+01	-3.978887e+00	-9.149146e+01	-9.426590e+01	-2.561042e+01	1.688203e+02
3.289000e+06	-2.670952e+01	1.706032e+02	-3.107358e+01	-3.989532e+00	-9.423692e+01	-1.004923e+02	-2.561017e+01	1.688202e+02
3.289032e+06	-2.671032e+01	1.705982e+02	-3.107207e+01	-4.000173e+00	-9.793188e+01	-1.136514e+02	-2.560992e+01	1.688201e+02
3.289063e+06	-2.671112e+01	1.705932e+02	-3.107055e+01	-4.010811e+00	-1.021177e+02	-1.479878e+02	-2.560967e+01	1.688200e+02
3.289094e+06	-2.671045e+01	1.705960e+02	-3.107326e+01	-4.008222e+00	-1.081182e+02	-1.148311e+02	-2.560892e+01	1.688222e+02
3.289125e+06	-2.670977e+01	1.705987e+02	-3.107601e+01	-4.005525e+00	-1.068333e+02	-4.171256e+01	-2.560817e+01	1.688244e+02
3.289156e+06	-2.670909e+01	1.706015e+02	-3.107875e+01	-4.002827e+00	-1.011022e+02	-1.645748e+01	-2.560742e+01	1.688266e+02
3.289188e+06	-2.670840e+01	1.706043e+02	-3.108150e+01	-4.000126e+00	-9.730532e+01	-8.267625e+00	-2.560666e+01	1.688288e+02
3.289219e+06	-2.670772e+01	1.706071e+02	-3.108425e+01	-3.997424e+00	-9.461027e+01	-4.399225e+00	-2.560591e+01	1.688310e+02
3.289250e+06	-2.670860e+01	1.706130e+02	-3.108089e+01	-4.007494e+00	-9.757169e+01	1.621577e+01	-2.560614e+01	1.688265e+02
3.289282e+06	-2.670947e+01	1.706189e+02	-3.107753e+01	-4.017555e+00	-9.904264e+01	5.212482e+01	-2.560637e+01	1.688219e+02
3.289313e+06	-2.671035e+01	1.706248e+02	-3.107417e+01	-4.027609e+00	-9.709619e+01	8.585316e+01	-2.560660e+01	1.688174e+02
3.289344e+06	-2.671122e+01	1.706307e+02	-3.107082e+01	-4.037656e+00	-9.412967e+01	1.042374e+02	-2.560682e+01	1.688128e+02
3.289375e+06	-2.671209e+01	1.706366e+02	-3.106749e+01	-4.047558e+00	-9.160325e+01	1.136464e+02	-2.560704e+01	1.688083e+02
3.289406e+06	-2.671247e+01	1.706304e+02	-3.106739e+01	-4.040568e+00	-9.479091e+01	8.917575e+01	-2.560640e+01	1.688073e+02
3.289438e+06	-2.671284e+01	1.706242e+02	-3.106729e+01	-4.033578e+00	-9.560832e+01	4.811267e+01	-2.560576e+01	1.688063e+02
3.289469e+06	-2.671322e+01	1.706180e+02	-3.106718e+01	-4.026588e+00	-9.283557e+01	1.647971e+01	-2.560512e+01	1.688053e+02
3.289500e+06	-2.671359e+01	1.706118e+02	-3.106708e+01	-4.019598e+00	-8.971138e+01	1.053435e+00	-2.560448e+01	1.688043e+02
3.289532e+06	-2.671393e+01	1.706057e+02	-3.106702e+01	-4.012695e+00	-8.722634e+01	-6.871651e+00	-2.560387e+01	1.688033e+02
3.289563e+06	-2.671205e+01	1.706073e+02	-3.106945e+01	-4.011140e+00	-8.868574e+01	-1.117976e+01	-2.560488e+01	1.688045e+02
3.289594e+06	-2.671017e+01	1.706088e+02	-3.107187e+01	-4.009584e+00	-9.035475e+01	-1.736193e+01	-2.560589e+01	1.688056e+02
3.289625e+06	-2.670830e+01	1.706103e+02	-3.107430e+01	-4.008028e+00	-9.222986e+01	-2.668203e+01	-2.560690e+01	1.688068e+02
3.289656e+06	-2.670642e+01	1.706119e+02	-3.107673e+01	-4.006470e+00	-9.415670e+01	-4.121206e+01	-2.560791e+01	1.688079e+02
3.289688e+06	-2.670455e+01	1.706134e+02	-3.107916e+01	-4.004911e+00	-9.555532e+01	-6.279937e+01	-2.560892e+01	1.688091e+02
3.289719e+06	-2.670675e+01	1.706223e+02	-3.107879e+01	-3.991836e+00	-9.557833e+01	-7.573558e+01	-2.560852e+01	1.688100e+02
3.289750e+06	-2.670899e+01	1.706313e+02	-3.107840e+01	-3.978669e+00	-9.518036e+01	-8.801758e+01	-2.560810e+01	1.688110e+02
3.289782e+06	-2.671122e+01	1.706404e+02	-3.107801e+01	-3.965504e+00	-9.446513e+01	-9.880322e+01	-2.560768e+01	1.688119e+02
3.289813e+06	-2.671346e+01	1.706494e+02	-3.107761e+01	-3.952339e+00	-9.356814e+01	-1.077451e+02	-2.560727e+01	1.688129e+02
3.289844e+06	-2.671570e+01	1.706584e+02	-3.107722e+01	-3.939176e+00	-9.260007e+01	-1.149489e+02	-2.560685e+01	1.688138e+02
3.289875e+06	-2.671413e+01	1.706589e+02	-3.107615e+01	-3.947423e+00	-9.505339e+01	-1.126171e+02	-2.560657e+01	1.688148e+02
3.289906e+06	-2.671256e+01	1.706594e+02	-3.107509e+01	-3.955667e+00	-9.844317e+01	-1.080443e+02	-2.560628e+01	1.688157e+02
3.289938e+06	-2.671099e+01	1.706598e+02	-3.107402e+01	-3.963910e+00	-1.037900e+02	-9.545332e+01	-2.560600e+01	1.688167e+02
3.289969e+06	-2.670943e+01	1.706603e+02	-3.107296e+01	-3.972150e+00	-1.107729e+02	-3.110926e+01	-2.560571e+01	1.688176e+02
3.290000e+06	-2.670787e+01	1.706607e+02	-3.107190e+01	-3.980419e+00	-1.037052e+02	3.107034e+01	-2.560544e+01	1.688186e+02
3.290032e+06	-2.670811e+01	1.706537e+02	-3.107156e+01	-3.992474e+00	-9.871869e+01	-6.197645e+00	-2.560627e+01	1.688145e+02
3.290063e+06	-2.670834e+01	1.706466e+02	-3.107123e+01	-4.004528e+00	-9.469719e+01	-1.859307e+01	-2.560710e+01	1.688104e+02
3.290094e+06	-2.670858e+01	1.706395e+02	-3.107089e+01	-4.016581e+00	-9.182536e+01	-2.416347e+01	-2.560794e+01	1.688064e+02
3.290125e+06	-2.670881e+01	1.706325e+02	-3.107056e+01	-4.028633e+00	-8.963504e+01	-2.727023e+01	-2.560877e+01	1.688023e+02
3.290156e+06	-2.670906e+01	1.706255e+02	-3.107021e+01	-4.040572e+00	-8.793332e+01	-2.918179e+01	-2.560958e+01	1.687984e+02
3.290188e+06	-2.671001e+01	1.706242e+02	-3.106921e+01	-4.045615e+00	-9.033682e+01	-2.642534e+01	-2.560895e+01	1.688018e+02
3.290219e+06	-2.671097e+01	1.706229e+02	-3.106820e+01	-4.050656e+00	-9.361442e+01	-2.111822e+01	-2.560831e+01	1.688052e+02
3.290250e+06	-2.671192e+01	1.706216e+02	-3.106719e+01	-4.055697e+00	-9.858570e+01	-7.285462e+00	-2.560768e+01	1.688086e+02
3.290282e+06	-2.671288e+01	1.706203e+02	-3.106619e+01	-4.060736e+00	-1.044794e+02	4.935467e+01	-2.560705e+01	1.688120e+02
3.290313e+06	-2.671383e+01	1.706190e+02	-3.106518e+01	-4.065775e+00	-9.897779e+01	1.102580e+02	-2.560642e+01	1.688154e+02
3.290344e+06	-2.671318e+01	1.706194e+02	-3.106522e+01	-4.039204e+00	-9.713268e+01	9.664827e+01	-2.560630e+01	1.688208e+02
3.290375e+06	-2.671252e+01	1.706198e+02	-3.106526e+01	-4.012377e+00	-9.535189e+01	8.746607e+01	-2.560620e+01	1.688263e+02
3.290406e+06	-2.671186e+01	1.706201e+02	-3.106531e+01	-3.985551e+00	-9.374763e+01	8.126190e+01	-2.560609e+01	1.688317e+02
3.290438e+06	-2.671120e+01	1.706205e+02	-3.106535e+01	-3.958724e+00	-9.233249e+01	7.688379e+01	-2.560599e+01	1.688372e+02
3.290469e+06	-2.671054e+01	1.706209e+02	-3.106539e+01	-3.931897e+00	-9.108351e+01	7.366356e+01	-2.560588e+01	1.688426e+02
3.290500e+06	-2.671076e+01	1.706243e+02	-3.106515e+01	-3.945319e+00	-9.275639e+01	8.183246e+01	-2.560620e+01	1.688432e+02
3.290532e+06	-2.671098e+01	1.706276e+02	-3.106491e+01	-3.958741e+00	-9.449871e+01	9.398628e+01	-2.560653e+01	1.688438e+02
3.290563e+06	-2.671120e+01	1.706310e+02	-3.106468e+01	-3.972162e+00	-9.595771e+01	1.117062e+02	-2.560685e+01	1.688443e+02
3.290594e+06	-2.671141e+01	1.706344e+02	-3.106444e+01	-3.985582e+00	-9.645342e+01	1.341130e+02	-2.560718e+01	1.688449e+02
3.290625e+06	-2.671163e+01	1.706378e+02	-3.106421e+01	-3.998862e+00	-9.566172e+01	1.553154e+02	-2.560750e+01	1.688455e+02
3.290656e+06	-2.671150e+01	1.706454e+02	-3.106600e+01	-3.994853e+00	-9.595321e+01	1.274006e+02	-2.560764e+01	1.688416e+02
3.290688e+06	-2.671137e+01	1.706530e+02	-3.106778e+01	-3.990842e+00	-9.444805e+01	1.033774e+02	-2.560778e+01	1.688378e+02
3.290719e+06	-2.671124e+01	1.706607e+02	-3.106957e+01	-3.986829e+00	-9.231321e+01	8.784767e+01	-2.560792e+01	1.688340e+02
3.290750e+06	-2.671111e+01	1.706683e+02	-3.107135e+01	-3.982815e+00	-9.027877e+01	7.831149e+01	-2.560805e+01	1.688302e+02
3.290782e+06	-2.671096e+01	1.706757e+02	-3.107310e+01	-3.978760e+00	-8.853831e+01	7.225646e+01	-2.560818e+01	1.688264e+02
3.290813e+06	-2.670942e+01	1.706685e+02	-3.107235e+01	-3.972349e+00	-8.908278e+01	7.215244e+01	-2.560751e+01	1.688275e+02
3.290844e+06	-2.670788e+01	1.706613e+02	-3.107159e+01	-3.965939e+00	-8.966363e+01	7.203404e+01	-2.560685e+01	1.688286e+02
3.290875e+06	-2.670634e+01	1.706541e+02	-3.107084e+01	-3.959530e+00	-9.028609e+01	7.189804e+01	-2.560618e+01	1.688298e+02
3.290906e+06	-2.670480e+01	1.706469e+02	-3.107009e+01	-3.953122e+00	-9.095656e+01	7.174021e+01	-2.560551e+01	1.688309e+02
3.290938e+06	-2.670326e+01	1.706398e+02	-3.106934e+01	-3.946715e+00	-9.168306e+01	7.155484e+01	-2.560485e+01	1.688320e+02
3.290969e+06	-2.670434e+01	1.706353e+02	-3.106858e+01	-3.952199e+00	-9.396202e+01	7.524694e+01	-2.560521e+01	1.688341e+02
3.291000e+06	-2.670544e+01	1.706309e+02	-3.106782e+01	-3.957779e+00	-9.698275e+01	8.210765e+01	-2.560559e+01	1.688361e+02
3.291032e+06	-2.670653e+01	1.706265e+02	-3.106706e+01	-3.963357e+00	-1.011654e+02	9.799601e+01	-2.560596e+01	1.688382e+02
3.291063e+06	-2.670763e+01	1.706220e+02	-3.106630e+01	-3.968934e+00	-1.052234e+02	1.429858e+02	-2.560634e+01	1.688403e+02
3.291094e+06	-2.670873e+01	1.706176e+02	-3.106554e+01	-3.974510e+00	-1.021440e+02	-1.647075e+02	-2.560671e+01	1.688424e+02
3.291125e+06	-2.670913e+01	1.706281e+02	-3.106463e+01	-3.983378e+00	-1.040606e+02	-1.790511e+02	-2.560610e+01	1.688374e+02
3.291156e+06	-2.670952e+01	1.706385e+02	-3.106372e+01	-3.992245e+00	-1.054715e+02	1.596410e+02	-2.560548e+01	1.688323e+02
3.291188e+06	-2.670991e+01	1.706490e+02	-3.106281e+01	-4.001109e+00	-1.054713e+02	1.343347e+02	-2.560487e+01	1.688273e+02
3.291219e+06	-2.671031e+01	1.706594e+02	-3.106189e+01	-4.009972e+00	-1.040603e+02	1.130281e+02	-2.560425e+01	1.688223e+02
3.291250e+06	-2.671070e+01	1.706698e+02	-3.106098e+01	-4.018721e+00	-1.021584e+02	9.833456e+01	-2.560365e+01	1.688174e+02
3.291282e+06	-2.671061e+01	1.706644e+02	-3.106005e+01	-4.013643e+00	-9.923834e+01	5.472491e+01	-2.560488e+01	1.688319e+02
3.291313e+06	-2.671052e+01	1.706590e+02	-3.105912e+01	-4.008566e+00	-9.536235e+01	3.633904e+01	-2.560611e+01	1.688463e+02
3.291344e+06	-2.671043e+01	1.706536e+02	-3.105818e+01	-4.003490e+00	-9.239525e+01	2.809098e+01	-2.560734e+01	1.688608e+02
3.291375e+06	-2.671034e+01	1.706482e+02	-3.105725e+01	-3.998415e+00	-9.011158e+01	2.359569e+01	-2.560857e+01	1.688753e+02
3.291406e+06	-2.671026e+01	1.706430e+02	-3.105635e+01	-3.993266e+00	-8.830882e+01	2.077307e+01	-2.560978e+01	1.688894e+02
3.291438e+06	-2.671081e+01	1.706484e+02	-3.105757e+01	-3.983524e+00	-8.855198e+01	1.675787e+01	-2.560965e+01	1.688859e+02
3.291469e+06	-2.671136e+01	1.706538e+02	-3.105878e+01	-3.973779e+00	-8.875594e+01	1.253019e+01	-2.560953e+01	1.688823e+02
3.291500e+06	-2.671191e+01	1.706592e+02	-3.106000e+01	-3.964031e+00	-8.891432e+01	8.122074e+00	-2.560940e+01	1.688787e+02
3.291532e+06	-2.671246e+01	1.706646e+02	-3.106121e+01	-3.954281e+00	-8.902167e+01	3.576729e+00	-2.560928e+01	1.688751e+02
3.291563e+06	-2.671301e+01	1.706701e+02	-3.106243e+01	-3.944528e+00	-8.907401e+01	-1.053136e+00	-2.560915e+01	1.688715e+02
3.291594e+06	-2.671251e+01	1.706634e+02	-3.106289e+01	-3.945298e+00	-9.143565e+01	-1.610584e+00	-2.560918e+01	1.688607e+02
3.291625e+06	-2.671200e+01	1.706567e+02	-3.106335e+01	-3.946153e+00	-9.471904e+01	-2.615056e+00	-2.560921e+01	1.688498e+02
3.291656e+06	-2.671149e+01	1.706500e+02	-3.106381e+01	-3.947008e+00	-1.000479e+02	-5.323324e+00	-2.560923e+01	1.688388e+02
3.291688e+06	-2.671098e+01	1.706432e+02	-3.106426e+01	-3.947864e+00	-1.150389e+02	-3.467890e+01	-2.560926e+01	1.688279e+02
3.291719e+06	-2.671047e+01	1.706365e+02	-3.106472e+01	-3.948719e+00	-1.030053e+02	-1.711220e+02	-2.560929e+01	1.688170e+02
3.291750e+06	-2.670994e+01	1.706424e+02	-3.106635e+01	-3.951529e+00	-1.051670e+02	1.739610e+02	-2.560916e+01	1.688195e+02
3.291782e+06	-2.670941e+01	1.706483e+02	-3.106798e+01	-3.954340e+00	-1.067937e+02	1.504976e+02	-2.560902e+01	1.688219e+02
3.291813e+06	-2.670888e+01	1.706542e+02	-3.106960e+01	-3.957153e+00	-1.066680e+02	1.222505e+02	-2.560889e+01	1.688244e+02
3.291844e+06	-2.670835e+01	1.706601e+02	-3.107123e+01	-3.959966e+00	-1.049117e+02	9.985006e+01	-2.560875e+01	1.688269e+02
3.291875e+06	-2.670783e+01	1.706659e+02	-3.107284e+01	-3.962706e+00	-1.027533e+02	8.587423e+01	-2.560863e+01	1.688293e+02
3.291906e+06	-2.670827e+01	1.706626e+02	-3.107133e+01	-3.956257e+00	-1.015342e+02	8.362894e+01	-2.560973e+01	1.688319e+02
3.291938e+06	-2.670871e+01	1.706594e+02	-3.106982e+01	-3.949811e+00	-1.004562e+02	8.190560e+01	-2.561082e+01	1.688345e+02
3.291969e+06	-2.670914e+01	1.706562e+02	-3.106831e+01	-3.943366e+00	-9.949183e+01	8.054343e+01	-2.561192e+01	1.688371e+02
3.292000e+06	-2.670958e+01	1.706530e+02	-3.106680e+01	-3.936924e+00	-9.862032e+01	7.944081e+01	-2.561302e+01	1.688397e+02
3.292032e+06	-2.671001e+01	1.706500e+02	-3.106535e+01	-3.930668e+00	-9.788159e+01	7.849097e+01	-2.561409e+01	1.688422e+02
3.292063e+06	-2.670972e+01	1.706614e+02	-3.106731e+01	-3.935719e+00	-1.011230e+02	7.365123e+01	-2.561367e+01	1.688415e+02
3.292094e+06	-2.670943e+01	1.706728e+02	-3.106926e+01	-3.940773e+00	-1.060630e+02	6.115362e+01	-2.561325e+01	1.688407e+02
3.292125e+06	-2.670913e+01	1.706841e+02	-3.107122e+01	-3.945829e+00	-1.125971e+02	6.971618e+00	-2.561282e+01	1.688400e+02
3.292156e+06	-2.670884e+01	1.706955e+02	-3.107318e+01	-3.950888e+00	-1.071129e+02	-5.924330e+01	-2.561240e+01	1.688392e+02
3.292188e+06	-2.670855e+01	1.707069e+02	-3.107513e+01	-3.955949e+00	-1.017665e+02	-7.449027e+01	-2.561197e+01	1.688385e+02
3.292219e+06	-2.670785e+01	1.706953e+02	-3.107201e+01	-3.972708e+00	-1.034228e+02	-1.302395e+02	-2.561240e+01	1.688400e+02
3.292250e+06	-2.670714e+01	1.706834e+02	-3.106884e+01	-3.989550e+00	-9.901475e+01	-1.677461e+02	-2.561284e+01	1.688415e+02
3.292282e+06	-2.670644e+01	1.706716e+02	-3.106567e+01	-4.006380e+00	-9.511924e+01	1.787175e+02	-2.561327e+01	1.688429e+02
3.292313e+06	-2.670573e+01	1.706597e+02	-3.106250e+01	-4.023197e+00	-9.227632e+01	1.725319e+02	-2.561371e+01	1.688444e+02
3.292344e+06	-2.670502e+01	1.706479e+02	-3.105933e+01	-4.040002e+00	-9.009366e+01	1.690684e+02	-2.561414e+01	1.688459e+02
3.292375e+06	-2.670579e+01	1.706512e+02	-3.105911e+01	-4.025979e+00	-9.408530e+01	1.762012e+02	-2.561214e+01	1.688474e+02
3.292406e+06	-2.670657e+01	1.706546e+02	-3.105889e+01	-4.011956e+00	-1.006101e+02	-1.591713e+02	-2.561014e+01	1.688489e+02
3.292438e+06	-2.670734e+01	1.706579e+02	-3.105868e+01	-3.997934e+00	-1.016587e+02	-7.391317e+01	-2.560814e+01	1.688503e+02
3.292469e+06	-2.670811e+01	1.706613e+02	-3.105846e+01	-3.983913e+00	-9.475676e+01	-4.338407e+01	-2.560613e+01	1.688518e+02
3.292500e+06	-2.670888e+01	1.706646e+02	-3.105826e+01	-3.969992e+00	-9.057857e+01	-3.527822e+01	-2.560415e+01	1.688533e+02
3.292532e+06	-2.670844e+01	1.706670e+02	-3.106042e+01	-3.968345e+00	-9.401548e+01	-2.817354e+01	-2.560446e+01	1.688548e+02
3.292563e+06	-2.670800e+01	1.706695e+02	-3.106257e+01	-3.966697e+00	-9.909591e+01	-8.920387e+00	-2.560476e+01	1.688563e+02
3.292594e+06	-2.670756e+01	1.706719e+02	-3.106473e+01	-3.965048e+00	-1.026257e+02	5.377238e+01	-2.560507e+01	1.688578e+02
3.292625e+06	-2.670712e+01	1.706743e+02	-3.106689e+01	-3.963398e+00	-9.718623e+01	9.926701e+01	-2.560537e+01	1.688592e+02
3.292656e+06	-2.670670e+01	1.706766e+02	-3.106901e+01	-3.961955e+00	-9.281608e+01	1.121992e+02	-2.560568e+01	1.688606e+02
3.292688e+06	-2.670709e+01	1.706686e+02	-3.106816e+01	-3.973239e+00	-9.422713e+01	1.015436e+02	-2.560639e+01	1.688561e+02
3.292719e+06	-2.670748e+01	1.706605e+02	-3.106732e+01	-3.984520e+00	-9.542202e+01	8.708969e+01	-2.560711e+01	1.688516e+02
3.292750e+06	-2.670787e+01	1.706525e+02	-3.106648e+01	-3.995800e+00	-9.601651e+01	6.922916e+01	-2.560782e+01	1.688471e+02
3.292782e+06	-2.670826e+01	1.706445e+02	-3.106563e+01	-4.007078e+00	-9.572360e+01	5.071513e+01	-2.560853e+01	1.688426e+02
3.292813e+06	-2.670865e+01	1.706365e+02	-3.106479e+01	-4.018353e+00	-9.469388e+01	3.489098e+01	-2.560924e+01	1.688381e+02
3.292844e+06	-2.670937e+01	1.706368e+02	-3.106373e+01	-4.006392e+00	-9.747483e+01	4.052122e+01	-2.560968e+01	1.688446e+02
3.292875e+06	-2.671009e+01	1.706372e+02	-3.106268e+01	-3.994247e+00	-1.013480e+02	5.306556e+01	-2.561012e+01	1.688512e+02
3.292906e+06	-2.671081e+01	1.706375e+02	-3.106162e+01	-3.982105e+00	-1.060198e+02	8.857933e+01	-2.561055e+01	1.688578e+02
3.292938e+06	-2.671154e+01	1.706379e+02	-3.106057e+01	-3.969966e+00	-1.046944e+02	1.472199e+02	-2.561099e+01	1.688644e+02
3.292969e+06	-2.671226e+01	1.706383e+02	-3.105951e+01	-3.957830e+00	-9.999621e+01	1.724853e+02	-2.561142e+01	1.688710e+02
3.293000e+06	-2.671212e+01	1.706447e+02	-3.106099e+01	-3.964376e+00	-1.023320e+02	-1.651032e+02	-2.561033e+01	1.688658e+02
3.293032e+06	-2.671197e+01	1.706511e+02	-3.106247e+01	-3.970924e+00	-1.029197e+02	-1.328397e+02	-2.560925e+01	1.688607e+02
3.293063e+06	-2.671183e+01	1.706575e+02	-3.106394e+01	-3.977474e+00	-1.010849e+02	-1.052965e+02	-2.560816e+01	1.688555e+02
3.293094e+06	-2.671168e+01	1.706639e+02	-3.106542e+01	-3.984027e+00	-9.857066e+01	-8.901994e+01	-2.560708e+01	1.688503e+02
3.293125e+06	-2.671152e+01	1.706704e+02	-3.106690e+01	-3.990588e+00	-9.632731e+01	-7.982725e+01	-2.560600e+01	1.688452e+02
3.293156e+06	-2.670954e+01	1.706772e+02	-3.106802e+01	-3.997955e+00	-9.734838e+01	-8.693080e+01	-2.560599e+01	1.688444e+02
3.293188e+06	-2.670756e+01	1.706839e+02	-3.106914e+01	-4.005324e+00	-9.831419e+01	-9.587355e+01	-2.560597e+01	1.688436e+02
3.293219e+06	-2.670557e+01	1.706907e+02	-3.107026e+01	-4.012695e+00	-9.910798e+01	-1.068470e+02	-2.560596e+01	1.688428e+02
3.293250e+06	-2.670359e+01	1.706975e+02	-3.107139e+01	-4.020067e+00	-9.957568e+01	-1.195625e+02	-2.560594e+01	1.688421e+02
3.293282e+06	-2.670166e+01	1.707041e+02	-3.107247e+01	-4.027094e+00	-9.964317e+01	-1.331801e+02	-2.560594e+01	1.688413e+02
3.293313e+06	-2.670320e+01	1.706976e+02	-3.107115e+01	-4.012705e+00	-1.017814e+02	-1.646392e+02	-2.560673e+01	1.688423e+02
3.293344e+06	-2.670474e+01	1.706910e+02	-3.106984e+01	-3.998321e+00	-1.007374e+02	1.590645e+02	-2.560752e+01	1.688432e+02
3.293375e+06	-2.670628e+01	1.706845e+02	-3.106852e+01	-3.983941e+00	-9.788738e+01	1.368492e+02	-2.560831e+01	1.688442e+02
3.293406e+06	-2.670782e+01	1.706780e+02	-3.106721e+01	-3.969566e+00	-9.521198e+01	1.253045e+02	-2.560910e+01	1.688451e+02
3.293438e+06	-2.670936e+01	1.706715e+02	-3.106589e+01	-3.955195e+00	-9.301105e+01	1.187494e+02	-2.560989e+01	1.688461e+02
3.293469e+06	-2.670975e+01	1.706741e+02	-3.106744e+01	-3.951530e+00	-9.448088e+01	1.256820e+02	-2.560871e+01	1.688501e+02
3.293500e+06	-2.671013e+01	1.706768e+02	-3.106902e+01	-3.947951e+00	-9.606236e+01	1.357149e+02	-2.560751e+01	1.688542e+02
3.293532e+06	-2.671051e+01	1.706796e+02	-3.107059e+01	-3.944370e+00	-9.752623e+01	1.500369e+02	-2.560631e+01	1.688583e+02
3.293563e+06	-2.671089e+01	1.706823e+02	-3.107216e+01	-3.940788e+00	-9.842162e+01	1.689765e+02	-2.560511e+01	1.688623e+02
3.293594e+06	-2.671127e+01	1.706850e+02	-3.107374e+01	-3.937204e+00	-9.827351e+01	-1.703077e+02	-2.560391e+01	1.688664e+02
3.293625e+06	-2.671134e+01	1.706796e+02	-3.107114e+01	-3.945328e+00	-1.006054e+02	1.692597e+02	-2.560296e+01	1.688634e+02
3.293656e+06	-2.671140e+01	1.706741e+02	-3.106853e+01	-3.953448e+00	-1.015307e+02	1.387324e+02	-2.560202e+01	1.688604e+02
