# Hz S dB R 50.000
3.288438e+06	-2.671706e+01	1.705718e+02	-3.108092e+01	-4.522802e+00	-9.539249e+01	-1.507554e+02	-2.553483e+01	1.687617e+02
3.288469e+06	-2.671727e+01	1.705724e+02	-3.108084e+01	-4.507093e+00	-9.791886e+01	-1.447103e+02	-2.553527e+01	1.687707e+02
3.288500e+06	-2.671747e+01	1.705730e+02	-3.108075e+01	-4.491384e+00	-1.012113e+02	-1.328350e+02	-2.553571e+01	1.687797e+02
3.288532e+06	-2.671768e+01	1.705737e+02	-3.108067e+01	-4.475675e+00	-1.050235e+02	-1.050424e+02	-2.553615e+01	1.687887e+02
3.288563e+06	-2.671789e+01	1.705743e+02	-3.108058e+01	-4.459966e+00	-1.053984e+02	-5.600946e+01	-2.553659e+01	1.687977e+02
3.288594e+06	-2.671810e+01	1.705749e+02	-3.108050e+01	-4.444336e+00	-1.016950e+02	-2.514485e+01	-2.553702e+01	1.688065e+02
3.288626e+06	-2.671891e+01	1.705810e+02	-3.108064e+01	-4.438359e+00	-9.944265e+01	-1.711775e+01	-2.553763e+01	1.687965e+02
3.288657e+06	-2.671973e+01	1.705871e+02	-3.108078e+01	-4.432382e+00	-9.756957e+01	-1.213565e+01	-2.553823e+01	1.687866e+02
3.288688e+06	-2.672054e+01	1.705932e+02	-3.108092e+01	-4.426404e+00	-9.599267e+01	-8.788975e+00	-2.553883e+01	1.687766e+02
3.288719e+06	-2.672136e+01	1.705993e+02	-3.108105e+01	-4.420426e+00	-9.464041e+01	-6.400975e+00	-2.553943e+01	1.687666e+02
3.288750e+06	-2.672214e+01	1.706052e+02	-3.108116e+01	-4.414710e+00	-9.348988e+01	-4.225181e+00	-2.554000e+01	1.687569e+02
3.288782e+06	-2.672093e+01	1.706003e+02	-3.107915e+01	-4.425073e+00	-9.326678e+01	2.211616e+01	-2.553885e+01	1.687663e+02
3.288813e+06	-2.671971e+01	1.705953e+02	-3.107715e+01	-4.435431e+00	-9.163468e+01	4.311705e+01	-2.553771e+01	1.687756e+02
3.288844e+06	-2.671850e+01	1.705904e+02	-3.107514e+01	-4.445785e+00	-8.961487e+01	5.673050e+01	-2.553656e+01	1.687849e+02
3.288876e+06	-2.671728e+01	1.705854e+02	-3.107314e+01	-4.456133e+00	-8.771977e+01	6.535572e+01	-2.553541e+01	1.687942e+02
3.288907e+06	-2.671608e+01	1.705807e+02	-3.107117e+01	-4.466325e+00	-8.613394e+01	7.100413e+01	-2.553429e+01	1.688032e+02
3.288938e+06	-2.671544e+01	1.705849e+02	-3.107087e+01	-4.470321e+00	-8.801854e+01	7.352306e+01	-2.553446e+01	1.688010e+02
3.288969e+06	-2.671479e+01	1.705890e+02	-3.107057e+01	-4.474318e+00	-9.039253e+01	7.763816e+01	-2.553462e+01	1.687987e+02
3.289000e+06	-2.671415e+01	1.705932e+02	-3.107027e+01	-4.478314e+00	-9.354662e+01	8.543199e+01	-2.553478e+01	1.687965e+02
3.289032e+06	-2.671350e+01	1.705973e+02	-3.106996e+01	-4.482310e+00	-9.787431e+01	1.041497e+02	-2.553495e+01	1.687942e+02
3.289063e+06	-2.671286e+01	1.706015e+02	-3.106966e+01	-4.486305e+00	-1.011200e+02	1.542745e+02	-2.553511e+01	1.687920e+02
3.289094e+06	-2.671318e+01	1.706001e+02	-3.106977e+01	-4.500911e+00	-1.107891e+02	-5.379360e+01	-2.553430e+01	1.687852e+02
3.289126e+06	-2.671349e+01	1.705987e+02	-3.106988e+01	-4.515517e+00	-9.698507e+01	-3.679777e+01	-2.553350e+01	1.687785e+02
3.289157e+06	-2.671381e+01	1.705973e+02	-3.106999e+01	-4.530124e+00	-9.185158e+01	-3.490473e+01	-2.553269e+01	1.687717e+02
3.289188e+06	-2.671413e+01	1.705959e+02	-3.107010e+01	-4.544731e+00	-8.864430e+01	-3.418021e+01	-2.553189e+01	1.687649e+02
3.289219e+06	-2.671445e+01	1.705945e+02	-3.107023e+01	-4.559080e+00	-8.633925e+01	-3.377211e+01	-2.553111e+01	1.687582e+02
3.289250e+06	-2.671579e+01	1.705923e+02	-3.107302e+01	-4.541384e+00	-8.862442e+01	-2.923759e+01	-2.553320e+01	1.687606e+02
3.289282e+06	-2.671713e+01	1.705901e+02	-3.107581e+01	-4.523676e+00	-9.159178e+01	-2.091551e+01	-2.553530e+01	1.687631e+02
3.289313e+06	-2.671847e+01	1.705879e+02	-3.107859e+01	-4.505957e+00	-9.545719e+01	-2.382660e+00	-2.553739e+01	1.687655e+02
3.289344e+06	-2.671981e+01	1.705857e+02	-3.108138e+01	-4.488226e+00	-9.832360e+01	4.124267e+01	-2.553949e+01	1.687679e+02
3.289376e+06	-2.672113e+01	1.705836e+02	-3.108411e+01	-4.470717e+00	-9.561806e+01	8.456775e+01	-2.554152e+01	1.687704e+02
3.289407e+06	-2.672127e+01	1.705883e+02	-3.108361e+01	-4.467513e+00	-9.745334e+01	6.648787e+01	-2.553966e+01	1.687753e+02
3.289438e+06	-2.672141e+01	1.705930e+02	-3.108310e+01	-4.464310e+00	-9.826901e+01	4.158358e+01	-2.553779e+01	1.687802e+02
3.289469e+06	-2.672155e+01	1.705977e+02	-3.108259e+01	-4.461107e+00	-9.740060e+01	1.684022e+01	-2.553593e+01	1.687850e+02
3.289500e+06	-2.672169e+01	1.706024e+02	-3.108208e+01	-4.457904e+00	-9.554906e+01	-9.795204e-01	-2.553407e+01	1.687899e+02
3.289532e+06	-2.672179e+01	1.706071e+02	-3.108156e+01	-4.454684e+00	-9.365593e+01	-1.214078e+01	-2.553229e+01	1.687947e+02
3.289563e+06	-2.672067e+01	1.706117e+02	-3.108014e+01	-4.450746e+00	-9.532435e+01	-1.304902e+01	-2.553409e+01	1.687935e+02
3.289594e+06	-2.671956e+01	1.706162e+02	-3.107873e+01	-4.446809e+00	-9.738706e+01	-1.444468e+01	-2.553588e+01	1.687923e+02
3.289626e+06	-2.671844e+01	1.706208e+02	-3.107732e+01	-4.442873e+00	-1.000852e+02	-1.685965e+01	-2.553768e+01	1.687911e+02
3.289657e+06	-2.671732e+01	1.706253e+02	-3.107590e+01	-4.438938e+00	-1.039683e+02	-2.201705e+01	-2.553947e+01	1.687899e+02
3.289688e+06	-2.671620e+01	1.706299e+02	-3.107449e+01	-4.435005e+00	-1.106303e+02	-3.963536e+01	-2.554127e+01	1.687887e+02
3.289719e+06	-2.671606e+01	1.706197e+02	-3.107172e+01	-4.443784e+00	-1.043003e+02	-4.972044e+01	-2.553963e+01	1.687879e+02
3.289750e+06	-2.671591e+01	1.706096e+02	-3.106895e+01	-4.452558e+00	-1.006218e+02	-5.289172e+01	-2.553799e+01	1.687871e+02
3.289782e+06	-2.671577e+01	1.705994e+02	-3.106618e+01	-4.461326e+00	-9.803619e+01	-5.443292e+01	-2.553635e+01	1.687863e+02
3.289813e+06	-2.671562e+01	1.705893e+02	-3.106341e+01	-4.470089e+00	-9.604333e+01	-5.534262e+01	-2.553471e+01	1.687855e+02
3.289844e+06	-2.671549e+01	1.705792e+02	-3.106069e+01	-4.478768e+00	-9.443035e+01	-5.601481e+01	-2.553308e+01	1.687847e+02
3.289876e+06	-2.671625e+01	1.705821e+02	-3.106460e+01	-4.477799e+00	-9.386717e+01	-6.496446e+01	-2.553335e+01	1.687904e+02
3.289907e+06	-2.671702e+01	1.705850e+02	-3.106851e+01	-4.476828e+00	-9.316626e+01	-7.269398e+01	-2.553362e+01	1.687960e+02
3.289938e+06	-2.671779e+01	1.705878e+02	-3.107242e+01	-4.475857e+00	-9.239408e+01	-7.921201e+01	-2.553389e+01	1.688016e+02
3.289969e+06	-2.671855e+01	1.705907e+02	-3.107634e+01	-4.474885e+00	-9.159858e+01	-8.465011e+01	-2.553416e+01	1.688072e+02
3.290000e+06	-2.671931e+01	1.705935e+02	-3.108012e+01	-4.474128e+00	-9.088699e+01	-8.916279e+01	-2.553446e+01	1.688127e+02
3.290032e+06	-2.671940e+01	1.705949e+02	-3.107590e+01	-4.486672e+00	-9.629687e+01	-9.497974e+01	-2.553609e+01	1.688104e+02
3.290063e+06	-2.671949e+01	1.705964e+02	-3.107168e+01	-4.499204e+00	-1.087505e+02	-1.474004e+02	-2.553773e+01	1.688082e+02
3.290094e+06	-2.671958e+01	1.705978e+02	-3.106746e+01	-4.511724e+00	-9.819607e+01	1.130695e+02	-2.553937e+01	1.688060e+02
3.290126e+06	-2.671967e+01	1.705992e+02	-3.106324e+01	-4.524232e+00	-9.187708e+01	1.049436e+02	-2.554100e+01	1.688038e+02
3.290157e+06	-2.671978e+01	1.706007e+02	-3.105916e+01	-4.536424e+00	-8.830583e+01	1.023384e+02	-2.554259e+01	1.688017e+02
3.290188e+06	-2.672064e+01	1.706044e+02	-3.106063e+01	-4.536248e+00	-8.881579e+01	9.894722e+01	-2.554204e+01	1.688045e+02
3.290219e+06	-2.672150e+01	1.706082e+02	-3.106211e+01	-4.536071e+00	-8.932117e+01	9.513495e+01	-2.554150e+01	1.688073e+02
3.290250e+06	-2.672236e+01	1.706119e+02	-3.106359e+01	-4.535895e+00	-8.981192e+01	9.085859e+01	-2.554095e+01	1.688101e+02
3.290282e+06	-2.672322e+01	1.706157e+02	-3.106506e+01	-4.535718e+00	-9.027477e+01	8.608490e+01	-2.554041e+01	1.688130e+02
3.290313e+06	-2.672408e+01	1.706194e+02	-3.106654e+01	-4.535542e+00	-9.069312e+01	8.080012e+01	-2.553986e+01	1.688158e+02
3.290344e+06	-2.672230e+01	1.706138e+02	-3.106676e+01	-4.516755e+00	-9.312185e+01	8.268552e+01	-2.553899e+01	1.688139e+02
3.290376e+06	-2.672052e+01	1.706082e+02	-3.106697e+01	-4.497968e+00	-9.647823e+01	8.635732e+01	-2.553812e+01	1.688120e+02
3.290407e+06	-2.671874e+01	1.706026e+02	-3.106719e+01	-4.479179e+00	-1.018365e+02	9.641617e+01	-2.553726e+01	1.688101e+02
3.290438e+06	-2.671696e+01	1.705970e+02	-3.106740e+01	-4.460390e+00	-1.105171e+02	1.579740e+02	-2.553639e+01	1.688083e+02
3.290469e+06	-2.671520e+01	1.705915e+02	-3.106762e+01	-4.441811e+00	-1.026713e+02	-1.288129e+02	-2.553553e+01	1.688065e+02
3.290500e+06	-2.671561e+01	1.706013e+02	-3.106940e+01	-4.449494e+00	-1.048239e+02	-1.519841e+02	-2.553567e+01	1.688168e+02
3.290532e+06	-2.671601e+01	1.706111e+02	-3.107117e+01	-4.457180e+00	-1.051388e+02	1.764985e+02	-2.553580e+01	1.688272e+02
3.290563e+06	-2.671642e+01	1.706210e+02	-3.107294e+01	-4.464869e+00	-1.032654e+02	1.505926e+02	-2.553594e+01	1.688376e+02
3.290594e+06	-2.671682e+01	1.706308e+02	-3.107472e+01	-4.472561e+00	-1.008360e+02	1.351535e+02	-2.553608e+01	1.688479e+02
3.290626e+06	-2.671722e+01	1.706405e+02	-3.107643e+01	-4.480051e+00	-9.871810e+01	1.264101e+02	-2.553621e+01	1.688579e+02
3.290657e+06	-2.671738e+01	1.706374e+02	-3.107475e+01	-4.474904e+00	-1.016473e+02	1.389034e+02	-2.553594e+01	1.688452e+02
3.290688e+06	-2.671754e+01	1.706344e+02	-3.107306e+01	-4.469759e+00	-1.047329e+02	1.645210e+02	-2.553567e+01	1.688325e+02
3.290719e+06	-2.671770e+01	1.706313e+02	-3.107137e+01	-4.464616e+00	-1.052400e+02	-1.546463e+02	-2.553541e+01	1.688198e+02
3.290750e+06	-2.671786e+01	1.706283e+02	-3.106969e+01	-4.459475e+00	-1.024173e+02	-1.245903e+02	-2.553514e+01	1.688071e+02
3.290782e+06	-2.671800e+01	1.706252e+02	-3.106806e+01	-4.454265e+00	-9.947811e+01	-1.098634e+02	-2.553488e+01	1.687947e+02
3.290813e+06	-2.671749e+01	1.706214e+02	-3.106900e+01	-4.446167e+00	-1.015873e+02	-9.771622e+01	-2.553487e+01	1.687966e+02
3.290844e+06	-2.671698e+01	1.706175e+02	-3.106994e+01	-4.438068e+00	-1.035255e+02	-7.812407e+01	-2.553487e+01	1.687984e+02
3.290876e+06	-2.671648e+01	1.706137e+02	-3.107088e+01	-4.429968e+00	-1.042211e+02	-5.111699e+01	-2.553486e+01	1.688002e+02
3.290907e+06	-2.671597e+01	1.706098e+02	-3.107181e+01	-4.421865e+00	-1.030393e+02	-2.568877e+01	-2.553486e+01	1.688021e+02
3.290938e+06	-2.671546e+01	1.706060e+02	-3.107275e+01	-4.413761e+00	-1.009742e+02	-8.503757e+00	-2.553485e+01	1.688039e+02
3.290969e+06	-2.671842e+01	1.706041e+02	-3.107111e+01	-4.425625e+00	-1.023324e+02	6.257853e+01	-2.553513e+01	1.688029e+02
3.291000e+06	-2.672138e+01	1.706021e+02	-3.106948e+01	-4.437485e+00	-9.647688e+01	9.688793e+01	-2.553541e+01	1.688018e+02
3.291032e+06	-2.672434e+01	1.706002e+02	-3.106784e+01	-4.449340e+00	-9.236746e+01	1.071975e+02	-2.553569e+01	1.688008e+02
3.291063e+06	-2.672730e+01	1.705982e+02	-3.106620e+01	-4.461191e+00	-8.949795e+01	1.117938e+02	-2.553596e+01	1.687997e+02
3.291094e+06	-2.673023e+01	1.705963e+02	-3.106460e+01	-4.472966e+00	-8.734663e+01	1.143329e+02	-2.553624e+01	1.687988e+02
3.291126e+06	-2.672879e+01	1.705934e+02	-3.106652e+01	-4.476003e+00	-8.881939e+01	1.122984e+02	-2.553639e+01	1.688056e+02
3.291157e+06	-2.672734e+01	1.705906e+02	-3.106844e+01	-4.479040e+00	-9.057444e+01	1.093475e+02	-2.553653e+01	1.688124e+02
3.291188e+06	-2.672590e+01	1.705877e+02	-3.107037e+01	-4.482079e+00	-9.272972e+01	1.047157e+02	-2.553668e+01	1.688192e+02
3.291219e+06	-2.672446e+01	1.705849e+02	-3.107229e+01	-4.485120e+00	-9.546416e+01	9.656438e+01	-2.553683e+01	1.688260e+02
3.291250e+06	-2.672304e+01	1.705823e+02	-3.107417e+01	-4.488201e+00	-9.887038e+01	8.006407e+01	-2.553698e+01	1.688326e+02
3.291282e+06	-2.672280e+01	1.705934e+02	-3.107296e+01	-4.493705e+00	-1.000739e+02	7.266923e+01	-2.553773e+01	1.688283e+02
3.291313e+06	-2.672257e+01	1.706046e+02	-3.107175e+01	-4.499207e+00	-1.012484e+02	6.292567e+01	-2.553847e+01	1.688239e+02
3.291344e+06	-2.672234e+01	1.706158e+02	-3.107053e+01	-4.504708e+00	-1.022313e+02	5.039547e+01	-2.553921e+01	1.688196e+02
3.291376e+06	-2.672211e+01	1.706269e+02	-3.106932e+01	-4.510207e+00	-1.027795e+02	3.539795e+01	-2.553995e+01	1.688152e+02
3.291407e+06	-2.672186e+01	1.706378e+02	-3.106813e+01	-4.515458e+00	-1.027986e+02	2.014757e+01	-2.554068e+01	1.688111e+02
3.291438e+06	-2.672113e+01	1.706375e+02	-3.106774e+01	-4.510688e+00	-1.074900e+02	3.646844e+01	-2.554048e+01	1.688136e+02
3.291469e+06	-2.672039e+01	1.706371e+02	-3.106734e+01	-4.505917e+00	-1.119612e+02	9.027067e+01	-2.554028e+01	1.688161e+02
3.291500e+06	-2.671965e+01	1.706368e+02	-3.106695e+01	-4.501147e+00	-1.074173e+02	1.434252e+02	-2.554008e+01	1.688186e+02
3.291532e+06	-2.671892e+01	1.706364e+02	-3.106655e+01	-4.496378e+00	-1.027491e+02	1.595118e+02	-2.553988e+01	1.688212e+02
3.291563e+06	-2.671818e+01	1.706361e+02	-3.106616e+01	-4.491609e+00	-9.953539e+01	1.659322e+02	-2.553968e+01	1.688237e+02
3.291594e+06	-2.671902e+01	1.706305e+02	-3.106666e+01	-4.491160e+00	-9.963329e+01	1.682571e+02	-2.553983e+01	1.688162e+02
3.291626e+06	-2.671985e+01	1.706249e+02	-3.106717e+01	-4.490711e+00	-9.971755e+01	1.706312e+02	-2.553998e+01	1.688088e+02
3.291657e+06	-2.672069e+01	1.706193e+02	-3.106767e+01	-4.490262e+00	-9.978730e+01	1.730479e+02	-2.554013e+01	1.688013e+02
3.291688e+06	-2.672153e+01	1.706137e+02	-3.106818e+01	-4.489813e+00	-9.984181e+01	1.754994e+02	-2.554028e+01	1.687938e+02
3.291719e+06	-2.672235e+01	1.706081e+02	-3.106867e+01	-4.489429e+00	-9.990650e+01	1.779130e+02	-2.554044e+01	1.687864e+02
3.291750e+06	-2.672050e+01	1.706124e+02	-3.106778e+01	-4.497217e+00	-1.039306e+02	1.690298e+02	-2.554107e+01	1.687891e+02
3.291782e+06	-2.671866e+01	1.706167e+02	-3.106688e+01	-4.505003e+00	-1.100401e+02	1.393013e+02	-2.554171e+01	1.687917e+02
3.291813e+06	-2.671682e+01	1.706210e+02	-3.106598e+01	-4.512787e+00	-1.097700e+02	6.306065e+01	-2.554234e+01	1.687944e+02
3.291844e+06	-2.671498e+01	1.706253e+02	-3.106508e+01	-4.520570e+00	-1.037305e+02	3.504218e+01	-2.554298e+01	1.687971e+02
3.291876e+06	-2.671320e+01	1.706295e+02	-3.106415e+01	-4.528206e+00	-9.981090e+01	2.634600e+01	-2.554359e+01	1.687997e+02
3.291907e+06	-2.671539e+01	1.706305e+02	-3.106133e+01	-4.526890e+00	-9.871483e+01	1.321062e+01	-2.554317e+01	1.687974e+02
3.291938e+06	-2.671757e+01	1.706316e+02	-3.105850e+01	-4.525575e+00	-9.743275e+01	3.258605e+00	-2.554275e+01	1.687952e+02
3.291969e+06	-2.671975e+01	1.706326e+02	-3.105567e+01	-4.524261e+00	-9.614483e+01	-4.127721e+00	-2.554233e+01	1.687930e+02
3.292000e+06	-2.672194e+01	1.706336e+02	-3.105285e+01	-4.522948e+00	-9.492849e+01	-9.657225e+00	-2.554191e+01	1.687908e+02
3.292032e+06	-2.672404e+01	1.706346e+02	-3.105023e+01	-4.521627e+00	-9.388003e+01	-1.383091e+01	-2.554147e+01	1.687887e+02
3.292063e+06	-2.672282e+01	1.706326e+02	-3.105596e+01	-4.519965e+00	-9.610661e+01	-1.604621e+01	-2.554037e+01	1.687942e+02
3.292094e+06	-2.672160e+01	1.706307e+02	-3.106169e+01	-4.518300e+00	-9.907501e+01	-2.007737e+01	-2.553927e+01	1.687998e+02
3.292126e+06	-2.672038e+01	1.706288e+02	-3.106743e+01	-4.516634e+00	-1.034510e+02	-2.950170e+01	-2.553817e+01	1.688053e+02
3.292157e+06	-2.671916e+01	1.706269e+02	-3.107317e+01	-4.514965e+00	-1.102625e+02	-6.591913e+01	-2.553706e+01	1.688108e+02
3.292188e+06	-2.671794e+01	1.706250e+02	-3.107892e+01	-4.513294e+00	-1.078381e+02	-1.455849e+02	-2.553596e+01	1.688163e+02
3.292219e+06	-2.671856e+01	1.706332e+02	-3.107404e+01	-4.510207e+00	-1.054948e+02	-1.452080e+02	-2.553597e+01	1.688140e+02
3.292250e+06	-2.671918e+01	1.706414e+02	-3.106916e+01	-4.507123e+00	-1.036511e+02	-1.449752e+02	-2.553599e+01	1.688117e+02
3.292282e+06	-2.671980e+01	1.706496e+02	-3.106429e+01	-4.504043e+00	-1.021309e+02	-1.448172e+02	-2.553600e+01	1.688094e+02
3.292313e+06	-2.672042e+01	1.706579e+02	-3.105942e+01	-4.500966e+00	-1.008376e+02	-1.447029e+02	-2.553602e+01	1.688071e+02
3.292344e+06	-2.672103e+01	1.706659e+02	-3.105460e+01	-4.497892e+00	-9.974472e+01	-1.443919e+02	-2.553603e+01	1.688048e+02
3.292376e+06	-2.672129e+01	1.706575e+02	-3.105593e+01	-4.494741e+00	-1.014998e+02	-1.073201e+02	-2.553556e+01	1.688044e+02
3.292407e+06	-2.672155e+01	1.706490e+02	-3.105726e+01	-4.491589e+00	-9.948095e+01	-7.153233e+01	-2.553510e+01	1.688039e+02
3.292438e+06	-2.672181e+01	1.706406e+02	-3.105860e+01	-4.488437e+00	-9.634983e+01	-5.267471e+01	-2.553464e+01	1.688035e+02
3.292469e+06	-2.672207e+01	1.706321e+02	-3.105993e+01	-4.485283e+00	-9.368600e+01	-4.312738e+01	-2.553418e+01	1.688030e+02
3.292500e+06	-2.672232e+01	1.706238e+02	-3.106124e+01	-4.482126e+00	-9.159967e+01	-3.768810e+01	-2.553374e+01	1.688027e+02
3.292532e+06	-2.672199e+01	1.706245e+02	-3.106151e+01	-4.478821e+00	-9.353674e+01	-3.481622e+01	-2.553495e+01	1.688089e+02
3.292563e+06	-2.672165e+01	1.706253e+02	-3.106177e+01	-4.475515e+00	-9.598545e+01	-3.005440e+01	-2.553615e+01	1.688150e+02
3.292594e+06	-2.672131e+01	1.706260e+02	-3.106204e+01	-4.472209e+00	-9.923663e+01	-2.084698e+01	-2.553736e+01	1.688212e+02
3.292626e+06	-2.672097e+01	1.706267e+02	-3.106230e+01	-4.468903e+00	-1.035187e+02	1.542246e+00	-2.553856e+01	1.688274e+02
3.292657e+06	-2.672063e+01	1.706274e+02	-3.106255e+01	-4.465619e+00	-1.056026e+02	5.243823e+01	-2.553975e+01	1.688333e+02
3.292688e+06	-2.672030e+01	1.706262e+02	-3.106214e+01	-4.463241e+00	-1.055234e+02	6.143740e+01	-2.554028e+01	1.688279e+02
3.292719e+06	-2.671997e+01	1.706249e+02	-3.106172e+01	-4.460863e+00	-1.052417e+02	7.006743e+01	-2.554081e+01	1.688224e+02
3.292750e+06	-2.671964e+01	1.706237e+02	-3.106131e+01	-4.458486e+00	-1.047936e+02	7.799724e+01	-2.554134e+01	1.688170e+02
3.292782e+06	-2.671931e+01	1.706225e+02	-3.106089e+01	-4.456109e+00	-1.042267e+02	8.504780e+01	-2.554186e+01	1.688116e+02
3.292813e+06	-2.671898e+01	1.706213e+02	-3.106048e+01	-4.453732e+00	-1.035871e+02	9.118023e+01	-2.554239e+01	1.688062e+02
3.292844e+06	-2.671999e+01	1.706279e+02	-3.106134e+01	-4.459688e+00	-1.012595e+02	1.097402e+02	-2.554156e+01	1.688070e+02
3.292876e+06	-2.672100e+01	1.706344e+02	-3.106221e+01	-4.465646e+00	-9.899469e+01	1.205525e+02	-2.554074e+01	1.688079e+02
3.292907e+06	-2.672201e+01	1.706410e+02	-3.106307e+01	-4.471605e+00	-9.704555e+01	1.271839e+02	-2.553991e+01	1.688087e+02
3.292938e+06	-2.672303e+01	1.706476e+02	-3.106393e+01	-4.477565e+00	-9.539074e+01	1.315578e+02	-2.553908e+01	1.688096e+02
3.292969e+06	-2.672403e+01	1.706541e+02	-3.106477e+01	-4.483452e+00	-9.397972e+01	1.345987e+02	-2.553826e+01	1.688105e+02
3.293000e+06	-2.672379e+01	1.706502e+02	-3.106238e+01	-4.480205e+00	-9.374521e+01	1.337794e+02	-2.553868e+01	1.688170e+02
3.293032e+06	-2.672356e+01	1.706464e+02	-3.105999e+01	-4.476959e+00	-9.351523e+01	1.330028e+02	-2.553910e+01	1.688236e+02
3.293063e+06	-2.672333e+01	1.706425e+02	-3.105760e+01	-4.473715e+00	-9.328971e+01	1.322659e+02	-2.553952e+01	1.688301e+02
3.293094e+06	-2.672309e+01	1.706387e+02	-3.105521e+01	-4.470473e+00	-9.306856e+01	1.315660e+02	-2.553994e+01	1.688367e+02
3.293126e+06	-2.672287e+01	1.706349e+02	-3.105289e+01	-4.467316e+00	-9.288672e+01	1.309190e+02	-2.554035e+01	1.688432e+02
3.293157e+06	-2.672342e+01	1.706362e+02	-3.105447e+01	-4.469242e+00	-9.512997e+01	1.315848e+02	-2.554039e+01	1.688494e+02
3.293188e+06	-2.672397e+01	1.706375e+02	-3.105605e+01	-4.471168e+00	-9.815920e+01	1.328064e+02	-2.554043e+01	1.688557e+02
3.293219e+06	-2.672452e+01	1.706388e+02	-3.105763e+01	-4.473096e+00	-1.028338e+02	1.357734e+02	-2.554047e+01	1.688619e+02
3.293250e+06	-2.672506e+01	1.706400e+02	-3.105921e+01	-4.475024e+00	-1.132143e+02	1.528063e+02	-2.554050e+01	1.688681e+02
3.293282e+06	-2.672557e+01	1.706413e+02	-3.106074e+01	-4.476870e+00	-1.099359e+02	-6.747892e+01	-2.554054e+01	1.688740e+02
3.293313e+06	-2.672440e+01	1.706431e+02	-3.105980e+01	-4.475384e+00	-1.091011e+02	-6.052141e+01	-2.554065e+01	1.688660e+02
3.293344e+06	-2.672322e+01	1.706448e+02	-3.105885e+01	-4.473897e+00	-1.082431e+02	-5.480042e+01	-2.554076e+01	1.688580e+02
3.293376e+06	-2.672205e+01	1.706465e+02	-3.105791e+01	-4.472411e+00	-1.073974e+02	-5.010095e+01	-2.554087e+01	1.688500e+02
3.293407e+06	-2.672087e+01	1.706483e+02	-3.105697e+01	-4.470925e+00	-1.065825e+02	-4.622067e+01	-2.554097e+01	1.688420e+02
3.293438e+06	-2.671970e+01	1.706500e+02	-3.105603e+01	-4.469440e+00	-1.058072e+02	-4.299029e+01	-2.554108e+01	1.688340e+02
3.293469e+06	-2.671926e+01	1.706449e+02	-3.105551e+01	-4.469029e+00	-1.018829e+02	-1.966585e+01	-2.554078e+01	1.688344e+02
3.293500e+06	-2.671882e+01	1.706398e+02	-3.105498e+01	-4.468618e+00	-9.872892e+01	-9.571368e+00	-2.554048e+01	1.688347e+02
