# Hz S dB R 50.000
3.288438e+06	-2.671708e+01	1.706612e+02	-3.106851e+01	-4.273039e+00	-9.373102e+01	1.568921e+02	-2.556188e+01	1.688980e+02
3.288469e+06	-2.671625e+01	1.706619e+02	-3.107076e+01	-4.257462e+00	-9.640153e+01	1.581638e+02	-2.556150e+01	1.688960e+02
3.288500e+06	-2.671541e+01	1.706627e+02	-3.107300e+01	-4.241876e+00	-1.002632e+02	1.608624e+02	-2.556111e+01	1.688940e+02
3.288532e+06	-2.671458e+01	1.706634e+02	-3.107525e+01	-4.226283e+00	-1.072387e+02	1.702985e+02	-2.556073e+01	1.688919e+02
3.288563e+06	-2.671375e+01	1.706642e+02	-3.107749e+01	-4.210682e+00	-1.148120e+02	-7.077990e+01	-2.556035e+01	1.688899e+02
3.288594e+06	-2.671292e+01	1.706649e+02	-3.107971e+01	-4.195252e+00	-1.032666e+02	-3.727949e+01	-2.555997e+01	1.688880e+02
3.288626e+06	-2.671335e+01	1.706641e+02	-3.107809e+01	-4.202120e+00	-9.992026e+01	-3.575183e+01	-2.555987e+01	1.688944e+02
3.288657e+06	-2.671378e+01	1.706633e+02	-3.107647e+01	-4.208985e+00	-9.750816e+01	-3.496467e+01	-2.555977e+01	1.689008e+02
3.288688e+06	-2.671420e+01	1.706626e+02	-3.107484e+01	-4.215847e+00	-9.562158e+01	-3.448480e+01	-2.555967e+01	1.689072e+02
3.288719e+06	-2.671463e+01	1.706618e+02	-3.107322e+01	-4.222707e+00	-9.407219e+01	-3.416171e+01	-2.555957e+01	1.689137e+02
3.288750e+06	-2.671504e+01	1.706610e+02	-3.107165e+01	-4.229492e+00	-9.277164e+01	-3.390509e+01	-2.555948e+01	1.689198e+02
3.288782e+06	-2.671447e+01	1.706626e+02	-3.107296e+01	-4.231806e+00	-9.242920e+01	-3.225457e+01	-2.556005e+01	1.689091e+02
3.288813e+06	-2.671390e+01	1.706642e+02	-3.107426e+01	-4.234121e+00	-9.209334e+01	-3.072808e+01	-2.556062e+01	1.688983e+02
3.288844e+06	-2.671333e+01	1.706657e+02	-3.107557e+01	-4.236436e+00	-9.176447e+01	-2.931407e+01	-2.556119e+01	1.688875e+02
3.288876e+06	-2.671276e+01	1.706673e+02	-3.107687e+01	-4.238752e+00	-9.144287e+01	-2.800210e+01	-2.556176e+01	1.688767e+02
3.288907e+06	-2.671220e+01	1.706687e+02	-3.107812e+01	-4.240802e+00	-9.114793e+01	-2.702128e+01	-2.556233e+01	1.688662e+02
3.288938e+06	-2.671215e+01	1.706662e+02	-3.107678e+01	-4.232030e+00	-9.153897e+01	-3.623874e+01	-2.556268e+01	1.688672e+02
3.288969e+06	-2.671210e+01	1.706636e+02	-3.107545e+01	-4.223260e+00	-9.169797e+01	-4.606457e+01	-2.556304e+01	1.688681e+02
3.289000e+06	-2.671205e+01	1.706610e+02	-3.107412e+01	-4.214492e+00	-9.159856e+01	-5.595872e+01	-2.556340e+01	1.688691e+02
3.289032e+06	-2.671200e+01	1.706585e+02	-3.107278e+01	-4.205728e+00	-9.125748e+01	-6.535906e+01	-2.556375e+01	1.688700e+02
3.289063e+06	-2.671195e+01	1.706559e+02	-3.107145e+01	-4.196966e+00	-9.072614e+01	-7.385409e+01	-2.556411e+01	1.688710e+02
3.289094e+06	-2.671170e+01	1.706533e+02	-3.107148e+01	-4.210550e+00	-9.075643e+01	-6.846332e+01	-2.556283e+01	1.688745e+02
3.289126e+06	-2.671145e+01	1.706507e+02	-3.107150e+01	-4.224135e+00	-9.070986e+01	-6.308268e+01	-2.556154e+01	1.688781e+02
3.289157e+06	-2.671120e+01	1.706480e+02	-3.107153e+01	-4.237719e+00	-9.058887e+01	-5.780513e+01	-2.556026e+01	1.688816e+02
3.289188e+06	-2.671095e+01	1.706454e+02	-3.107156e+01	-4.251304e+00	-9.039944e+01	-5.271336e+01	-2.555897e+01	1.688851e+02
3.289219e+06	-2.671070e+01	1.706428e+02	-3.107159e+01	-4.264876e+00	-9.016154e+01	-4.793287e+01	-2.555771e+01	1.688886e+02
3.289250e+06	-2.671109e+01	1.706415e+02	-3.107267e+01	-4.276850e+00	-9.136381e+01	-5.114509e+01	-2.555863e+01	1.688832e+02
3.289282e+06	-2.671148e+01	1.706403e+02	-3.107374e+01	-4.288828e+00	-9.271663e+01	-5.545772e+01	-2.555956e+01	1.688778e+02
3.289313e+06	-2.671187e+01	1.706390e+02	-3.107482e+01	-4.300808e+00	-9.423738e+01	-6.146678e+01	-2.556048e+01	1.688724e+02
3.289344e+06	-2.671227e+01	1.706377e+02	-3.107590e+01	-4.312791e+00	-9.591160e+01	-7.016495e+01	-2.556141e+01	1.688670e+02
3.289376e+06	-2.671266e+01	1.706366e+02	-3.107696e+01	-4.324231e+00	-9.758067e+01	-8.302551e+01	-2.556232e+01	1.688619e+02
3.289407e+06	-2.671346e+01	1.706406e+02	-3.107705e+01	-4.302055e+00	-9.694147e+01	-9.586031e+01	-2.556236e+01	1.688712e+02
3.289438e+06	-2.671425e+01	1.706447e+02	-3.107713e+01	-4.279878e+00	-9.600802e+01	-1.065419e+02	-2.556239e+01	1.688806e+02
3.289469e+06	-2.671505e+01	1.706487e+02	-3.107722e+01	-4.257701e+00	-9.494808e+01	-1.150149e+02	-2.556243e+01	1.688900e+02
3.289500e+06	-2.671584e+01	1.706527e+02	-3.107730e+01	-4.235523e+00	-9.387058e+01	-1.216301e+02	-2.556247e+01	1.688994e+02
3.289532e+06	-2.671658e+01	1.706568e+02	-3.107738e+01	-4.213939e+00	-9.290164e+01	-1.263632e+02	-2.556248e+01	1.689087e+02
3.289563e+06	-2.671476e+01	1.706595e+02	-3.107727e+01	-4.216533e+00	-9.467417e+01	-1.088211e+02	-2.556164e+01	1.689112e+02
3.289594e+06	-2.671294e+01	1.706622e+02	-3.107716e+01	-4.219126e+00	-9.550116e+01	-8.483189e+01	-2.556081e+01	1.689138e+02
3.289626e+06	-2.671113e+01	1.706649e+02	-3.107705e+01	-4.221719e+00	-9.474487e+01	-6.063413e+01	-2.555997e+01	1.689163e+02
3.289657e+06	-2.670931e+01	1.706677e+02	-3.107694e+01	-4.224312e+00	-9.299592e+01	-4.274435e+01	-2.555914e+01	1.689189e+02
3.289688e+06	-2.670750e+01	1.706704e+02	-3.107683e+01	-4.226905e+00	-9.107540e+01	-3.112905e+01	-2.555830e+01	1.689214e+02
3.289719e+06	-2.670836e+01	1.706714e+02	-3.107740e+01	-4.217464e+00	-9.363774e+01	-3.386383e+01	-2.555851e+01	1.689143e+02
3.289750e+06	-2.670923e+01	1.706724e+02	-3.107797e+01	-4.208021e+00	-9.722694e+01	-3.942308e+01	-2.555873e+01	1.689073e+02
3.289782e+06	-2.671009e+01	1.706733e+02	-3.107854e+01	-4.198577e+00	-1.029635e+02	-5.589027e+01	-2.555894e+01	1.689002e+02
3.289813e+06	-2.671095e+01	1.706743e+02	-3.107911e+01	-4.189132e+00	-1.078887e+02	-1.312110e+02	-2.555915e+01	1.688932e+02
3.289844e+06	-2.671181e+01	1.706753e+02	-3.107967e+01	-4.179747e+00	-1.006812e+02	-1.787840e+02	-2.555937e+01	1.688862e+02
3.289876e+06	-2.671145e+01	1.706726e+02	-3.107843e+01	-4.177936e+00	-1.010595e+02	1.751908e+02	-2.556030e+01	1.688877e+02
3.289907e+06	-2.671110e+01	1.706699e+02	-3.107719e+01	-4.176126e+00	-1.013466e+02	1.686840e+02	-2.556124e+01	1.688892e+02
3.289938e+06	-2.671075e+01	1.706673e+02	-3.107596e+01	-4.174316e+00	-1.015214e+02	1.618202e+02	-2.556218e+01	1.688907e+02
3.289969e+06	-2.671040e+01	1.706646e+02	-3.107472e+01	-4.172508e+00	-1.015694e+02	1.547771e+02	-2.556312e+01	1.688921e+02
3.290000e+06	-2.671006e+01	1.706621e+02	-3.107351e+01	-4.170985e+00	-1.014982e+02	1.484717e+02	-2.556405e+01	1.688936e+02
3.290032e+06	-2.671060e+01	1.706689e+02	-3.107423e+01	-4.187060e+00	-1.003547e+02	-1.765937e+02	-2.556444e+01	1.688909e+02
3.290063e+06	-2.671114e+01	1.706757e+02	-3.107495e+01	-4.203138e+00	-9.758143e+01	-1.551989e+02	-2.556483e+01	1.688883e+02
3.290094e+06	-2.671168e+01	1.706825e+02	-3.107567e+01	-4.219218e+00	-9.497671e+01	-1.438723e+02	-2.556522e+01	1.688856e+02
3.290126e+06	-2.671221e+01	1.706894e+02	-3.107639e+01	-4.235301e+00	-9.282024e+01	-1.373538e+02	-2.556561e+01	1.688830e+02
3.290157e+06	-2.671272e+01	1.706961e+02	-3.107705e+01	-4.250822e+00	-9.114237e+01	-1.334272e+02	-2.556597e+01	1.688805e+02
3.290188e+06	-2.671173e+01	1.706993e+02	-3.107551e+01	-4.243381e+00	-9.447433e+01	-1.413287e+02	-2.556511e+01	1.688832e+02
3.290219e+06	-2.671075e+01	1.707026e+02	-3.107396e+01	-4.235943e+00	-9.916953e+01	-1.615955e+02	-2.556425e+01	1.688860e+02
3.290250e+06	-2.670977e+01	1.707059e+02	-3.107242e+01	-4.228507e+00	-1.021340e+02	1.416146e+02	-2.556340e+01	1.688888e+02
3.290282e+06	-2.670878e+01	1.707091e+02	-3.107087e+01	-4.221074e+00	-9.751456e+01	9.786414e+01	-2.556254e+01	1.688915e+02
3.290313e+06	-2.670780e+01	1.707124e+02	-3.106933e+01	-4.213643e+00	-9.328608e+01	8.340477e+01	-2.556168e+01	1.688943e+02
3.290344e+06	-2.670844e+01	1.707122e+02	-3.107006e+01	-4.209540e+00	-9.406575e+01	9.289311e+01	-2.556260e+01	1.688999e+02
3.290376e+06	-2.670907e+01	1.707120e+02	-3.107079e+01	-4.205436e+00	-9.461671e+01	1.039707e+02	-2.556351e+01	1.689055e+02
3.290407e+06	-2.670971e+01	1.707118e+02	-3.107152e+01	-4.201332e+00	-9.482704e+01	1.160776e+02	-2.556443e+01	1.689111e+02
3.290438e+06	-2.671035e+01	1.707116e+02	-3.107225e+01	-4.197227e+00	-9.464533e+01	1.282252e+02	-2.556535e+01	1.689167e+02
3.290469e+06	-2.671098e+01	1.707113e+02	-3.107297e+01	-4.193128e+00	-9.412881e+01	1.393277e+02	-2.556625e+01	1.689222e+02
3.290500e+06	-2.671147e+01	1.707032e+02	-3.107224e+01	-4.189897e+00	-9.507559e+01	1.401513e+02	-2.556554e+01	1.689253e+02
3.290532e+06	-2.671196e+01	1.706950e+02	-3.107152e+01	-4.186666e+00	-9.613579e+01	1.411891e+02	-2.556482e+01	1.689283e+02
3.290563e+06	-2.671245e+01	1.706868e+02	-3.107079e+01	-4.183436e+00	-9.733938e+01	1.425359e+02	-2.556410e+01	1.689314e+02
3.290594e+06	-2.671294e+01	1.706786e+02	-3.107006e+01	-4.180206e+00	-9.872940e+01	1.443514e+02	-2.556339e+01	1.689344e+02
3.290626e+06	-2.671341e+01	1.706706e+02	-3.106935e+01	-4.177148e+00	-1.003972e+02	1.466496e+02	-2.556267e+01	1.689373e+02
3.290657e+06	-2.671308e+01	1.706698e+02	-3.106983e+01	-4.184555e+00	-1.041780e+02	1.240691e+02	-2.556198e+01	1.689317e+02
3.290688e+06	-2.671274e+01	1.706689e+02	-3.107031e+01	-4.191962e+00	-1.058494e+02	7.807108e+01	-2.556129e+01	1.689262e+02
3.290719e+06	-2.671240e+01	1.706681e+02	-3.107079e+01	-4.199371e+00	-1.026251e+02	4.108987e+01	-2.556060e+01	1.689206e+02
3.290750e+06	-2.671206e+01	1.706673e+02	-3.107127e+01	-4.206781e+00	-9.906191e+01	2.510652e+01	-2.555991e+01	1.689150e+02
3.290782e+06	-2.671172e+01	1.706667e+02	-3.107177e+01	-4.213963e+00	-9.643008e+01	1.791937e+01	-2.555925e+01	1.689096e+02
3.290813e+06	-2.671129e+01	1.706761e+02	-3.107315e+01	-4.211867e+00	-9.958809e+01	3.753339e+01	-2.555968e+01	1.689082e+02
3.290844e+06	-2.671087e+01	1.706856e+02	-3.107452e+01	-4.209770e+00	-1.014644e+02	7.435324e+01	-2.556012e+01	1.689068e+02
3.290876e+06	-2.671044e+01	1.706950e+02	-3.107590e+01	-4.207673e+00	-9.951597e+01	1.108192e+02	-2.556055e+01	1.689054e+02
3.290907e+06	-2.671002e+01	1.707044e+02	-3.107727e+01	-4.205575e+00	-9.636035e+01	1.301029e+02	-2.556099e+01	1.689041e+02
3.290938e+06	-2.670959e+01	1.707138e+02	-3.107865e+01	-4.203476e+00	-9.366966e+01	1.398017e+02	-2.556142e+01	1.689027e+02
3.290969e+06	-2.670988e+01	1.707113e+02	-3.107679e+01	-4.213363e+00	-9.639791e+01	1.221334e+02	-2.556212e+01	1.689042e+02
3.291000e+06	-2.671018e+01	1.707088e+02	-3.107494e+01	-4.223246e+00	-9.822599e+01	9.128021e+01	-2.556282e+01	1.689056e+02
3.291032e+06	-2.671047e+01	1.707062e+02	-3.107308e+01	-4.233125e+00	-9.713683e+01	5.733646e+01	-2.556352e+01	1.689071e+02
3.291063e+06	-2.671077e+01	1.707037e+02	-3.107123e+01	-4.243000e+00	-9.446298e+01	3.610982e+01	-2.556422e+01	1.689085e+02
3.291094e+06	-2.671106e+01	1.707012e+02	-3.106939e+01	-4.252797e+00	-9.193970e+01	2.461022e+01	-2.556490e+01	1.689100e+02
3.291126e+06	-2.671070e+01	1.706959e+02	-3.106980e+01	-4.253607e+00	-9.283565e+01	6.943873e+00	-2.556402e+01	1.689042e+02
3.291157e+06	-2.671034e+01	1.706906e+02	-3.107021e+01	-4.254416e+00	-9.281991e+01	-1.267970e+01	-2.556313e+01	1.688985e+02
3.291188e+06	-2.670998e+01	1.706854e+02	-3.107061e+01	-4.255225e+00	-9.190140e+01	-3.023290e+01	-2.556225e+01	1.688928e+02
3.291219e+06	-2.670961e+01	1.706801e+02	-3.107102e+01	-4.256035e+00	-9.050787e+01	-4.359527e+01	-2.556136e+01	1.688870e+02
3.291250e+06	-2.670927e+01	1.706749e+02	-3.107144e+01	-4.256736e+00	-8.905163e+01	-5.300160e+01	-2.556051e+01	1.688814e+02
3.291282e+06	-2.670975e+01	1.706767e+02	-3.107240e+01	-4.250797e+00	-9.000251e+01	-5.260725e+01	-2.556158e+01	1.688822e+02
3.291313e+06	-2.671024e+01	1.706785e+02	-3.107336e+01	-4.244858e+00	-9.106984e+01	-5.210974e+01	-2.556266e+01	1.688829e+02
3.291344e+06	-2.671073e+01	1.706803e+02	-3.107433e+01	-4.238917e+00	-9.228597e+01	-5.146263e+01	-2.556374e+01	1.688837e+02
3.291376e+06	-2.671121e+01	1.706821e+02	-3.107529e+01	-4.232974e+00	-9.369876e+01	-5.058678e+01	-2.556482e+01	1.688845e+02
3.291407e+06	-2.671168e+01	1.706840e+02	-3.107621e+01	-4.227169e+00	-9.534522e+01	-4.957024e+01	-2.556587e+01	1.688855e+02
3.291438e+06	-2.671132e+01	1.706868e+02	-3.107518e+01	-4.227017e+00	-9.551615e+01	-5.803633e+01	-2.556573e+01	1.688959e+02
3.291469e+06	-2.671096e+01	1.706895e+02	-3.107415e+01	-4.226865e+00	-9.549405e+01	-6.664985e+01	-2.556560e+01	1.689063e+02
3.291500e+06	-2.671060e+01	1.706923e+02	-3.107313e+01	-4.226712e+00	-9.528179e+01	-7.503238e+01	-2.556546e+01	1.689167e+02
3.291532e+06	-2.671024e+01	1.706951e+02	-3.107210e+01	-4.226560e+00	-9.490526e+01	-8.286196e+01	-2.556533e+01	1.689272e+02
3.291563e+06	-2.670988e+01	1.706979e+02	-3.107108e+01	-4.226408e+00	-9.440397e+01	-8.993488e+01	-2.556519e+01	1.689376e+02
3.291594e+06	-2.671101e+01	1.706945e+02	-3.107146e+01	-4.216949e+00	-9.679637e+01	-9.857834e+01	-2.556448e+01	1.689295e+02
3.291626e+06	-2.671215e+01	1.706911e+02	-3.107183e+01	-4.207489e+00	-9.958501e+01	-1.144139e+02	-2.556377e+01	1.689214e+02
3.291657e+06	-2.671328e+01	1.706877e+02	-3.107221e+01	-4.198029e+00	-1.018366e+02	-1.435909e+02	-2.556306e+01	1.689133e+02
3.291688e+06	-2.671442e+01	1.706844e+02	-3.107259e+01	-4.188567e+00	-1.012167e+02	-1.796243e+02	-2.556235e+01	1.689052e+02
3.291719e+06	-2.671552e+01	1.706810e+02	-3.107295e+01	-4.179257e+00	-9.857675e+01	1.565469e+02	-2.556165e+01	1.688973e+02
3.291750e+06	-2.671351e+01	1.706765e+02	-3.107220e+01	-4.188726e+00	-9.958414e+01	1.183228e+02	-2.556194e+01	1.689039e+02
3.291782e+06	-2.671150e+01	1.706721e+02	-3.107144e+01	-4.198194e+00	-9.719803e+01	8.645754e+01	-2.556222e+01	1.689106e+02
3.291813e+06	-2.670949e+01	1.706677e+02	-3.107068e+01	-4.207659e+00	-9.419611e+01	6.996428e+01	-2.556251e+01	1.689172e+02
3.291844e+06	-2.670748e+01	1.706633e+02	-3.106993e+01	-4.217124e+00	-9.167657e+01	6.131721e+01	-2.556279e+01	1.689239e+02
3.291876e+06	-2.670553e+01	1.706591e+02	-3.106918e+01	-4.226598e+00	-8.969792e+01	5.621161e+01	-2.556307e+01	1.689304e+02
3.291907e+06	-2.670770e+01	1.706718e+02	-3.106909e+01	-4.236768e+00	-9.223252e+01	5.034956e+01	-2.556281e+01	1.689295e+02
3.291938e+06	-2.670987e+01	1.706845e+02	-3.106900e+01	-4.246938e+00	-9.555676e+01	3.878344e+01	-2.556256e+01	1.689286e+02
3.291969e+06	-2.671204e+01	1.706972e+02	-3.106891e+01	-4.257109e+00	-9.949326e+01	1.123239e+01	-2.556231e+01	1.689277e+02
3.292000e+06	-2.671420e+01	1.707100e+02	-3.106882e+01	-4.267278e+00	-9.997159e+01	-3.902598e+01	-2.556206e+01	1.689268e+02
3.292032e+06	-2.671630e+01	1.707221e+02	-3.106868e+01	-4.276827e+00	-9.634492e+01	-6.969910e+01	-2.556180e+01	1.689257e+02
3.292063e+06	-2.671543e+01	1.707112e+02	-3.106648e+01	-4.261122e+00	-1.013599e+02	-3.936474e+01	-2.556150e+01	1.689180e+02
3.292094e+06	-2.671456e+01	1.707002e+02	-3.106427e+01	-4.245426e+00	-1.012598e+02	2.342716e+01	-2.556120e+01	1.689103e+02
3.292126e+06	-2.671369e+01	1.706892e+02	-3.106207e+01	-4.229737e+00	-9.625018e+01	5.302047e+01	-2.556090e+01	1.689026e+02
3.292157e+06	-2.671282e+01	1.706783e+02	-3.105987e+01	-4.214056e+00	-9.251785e+01	6.341966e+01	-2.556059e+01	1.688949e+02
3.292188e+06	-2.671195e+01	1.706673e+02	-3.105767e+01	-4.198383e+00	-8.981489e+01	6.835577e+01	-2.556029e+01	1.688872e+02
3.292219e+06	-2.671210e+01	1.706705e+02	-3.106004e+01	-4.208827e+00	-9.006006e+01	5.260742e+01	-2.556218e+01	1.688908e+02
3.292250e+06	-2.671225e+01	1.706736e+02	-3.106241e+01	-4.219277e+00	-8.965400e+01	3.715538e+01	-2.556407e+01	1.688944e+02
3.292282e+06	-2.671241e+01	1.706768e+02	-3.106478e+01	-4.229733e+00	-8.874996e+01	2.390956e+01	-2.556597e+01	1.688980e+02
3.292313e+06	-2.671256e+01	1.706800e+02	-3.106716e+01	-4.240194e+00	-8.759930e+01	1.348962e+01	-2.556786e+01	1.689015e+02
3.292344e+06	-2.671271e+01	1.706831e+02	-3.106950e+01	-4.250418e+00	-8.640934e+01	5.635971e+00	-2.556973e+01	1.689051e+02
3.292376e+06	-2.671288e+01	1.706871e+02	-3.106788e+01	-4.230558e+00	-8.783068e+01	7.548725e+00	-2.556857e+01	1.689096e+02
3.292407e+06	-2.671304e+01	1.706910e+02	-3.106626e+01	-4.210705e+00	-8.951417e+01	1.028390e+01	-2.556741e+01	1.689141e+02
3.292438e+06	-2.671320e+01	1.706950e+02	-3.106464e+01	-4.190860e+00	-9.156565e+01	1.449076e+01	-2.556624e+01	1.689185e+02
3.292469e+06	-2.671337e+01	1.706989e+02	-3.106302e+01	-4.171022e+00	-9.414781e+01	2.167514e+01	-2.556508e+01	1.689230e+02
3.292500e+06	-2.671350e+01	1.707028e+02	-3.106146e+01	-4.151754e+00	-9.737112e+01	3.547805e+01	-2.556395e+01	1.689274e+02
3.292532e+06	-2.671181e+01	1.707018e+02	-3.106326e+01	-4.167063e+00	-9.729159e+01	2.985612e+01	-2.556430e+01	1.689265e+02
3.292563e+06	-2.671012e+01	1.707008e+02	-3.106505e+01	-4.182378e+00	-9.713222e+01	2.438717e+01	-2.556466e+01	1.689256e+02
3.292594e+06	-2.670842e+01	1.706998e+02	-3.106685e+01	-4.197700e+00	-9.690147e+01	1.915911e+01	-2.556502e+01	1.689247e+02
3.292626e+06	-2.670673e+01	1.706988e+02	-3.106865e+01	-4.213028e+00	-9.661038e+01	1.423667e+01	-2.556538e+01	1.689238e+02
3.292657e+06	-2.670508e+01	1.706978e+02	-3.107034e+01	-4.227851e+00	-9.628500e+01	1.004910e+01	-2.556571e+01	1.689230e+02
3.292688e+06	-2.670527e+01	1.706981e+02	-3.106794e+01	-4.221912e+00	-9.631539e+01	2.201211e+01	-2.556508e+01	1.689279e+02
3.292719e+06	-2.670545e+01	1.706984e+02	-3.106554e+01	-4.215975e+00	-9.598042e+01	3.355711e+01	-2.556444e+01	1.689329e+02
3.292750e+06	-2.670563e+01	1.706987e+02	-3.106313e+01	-4.210042e+00	-9.535475e+01	4.387928e+01	-2.556380e+01	1.689378e+02
3.292782e+06	-2.670582e+01	1.706990e+02	-3.106073e+01	-4.204113e+00	-9.454824e+01	5.261896e+01	-2.556317e+01	1.689427e+02
3.292813e+06	-2.670600e+01	1.706993e+02	-3.105833e+01	-4.198186e+00	-9.365791e+01	5.979865e+01	-2.556253e+01	1.689476e+02
3.292844e+06	-2.670702e+01	1.707015e+02	-3.105617e+01	-4.188816e+00	-9.385739e+01	4.494609e+01	-2.556205e+01	1.689404e+02
3.292876e+06	-2.670804e+01	1.707037e+02	-3.105401e+01	-4.179450e+00	-9.347983e+01	3.040167e+01	-2.556157e+01	1.689331e+02
3.292907e+06	-2.670906e+01	1.707060e+02	-3.105185e+01	-4.170089e+00	-9.265334e+01	1.777346e+01	-2.556109e+01	1.689259e+02
3.292938e+06	-2.671008e+01	1.707082e+02	-3.104969e+01	-4.160732e+00	-9.158889e+01	7.645142e+00	-2.556062e+01	1.689187e+02
3.292969e+06	-2.671109e+01	1.707104e+02	-3.104756e+01	-4.151603e+00	-9.047254e+01	-1.070856e-01	-2.556015e+01	1.689115e+02
3.293000e+06	-2.671137e+01	1.707078e+02	-3.104858e+01	-4.170163e+00	-9.193944e+01	5.478904e+00	-2.556105e+01	1.689143e+02
3.293032e+06	-2.671165e+01	1.707052e+02	-3.104960e+01	-4.188727e+00	-9.356119e+01	1.346346e+01	-2.556196e+01	1.689171e+02
3.293063e+06	-2.671193e+01	1.707026e+02	-3.105063e+01	-4.207295e+00	-9.524684e+01	2.519221e+01	-2.556287e+01	1.689199e+02
3.293094e+06	-2.671221e+01	1.707000e+02	-3.105165e+01	-4.225867e+00	-9.668004e+01	4.211571e+01	-2.556378e+01	1.689227e+02
3.293126e+06	-2.671248e+01	1.706975e+02	-3.105267e+01	-4.244154e+00	-9.728816e+01	6.302240e+01	-2.556465e+01	1.689255e+02
3.293157e+06	-2.671213e+01	1.706976e+02	-3.105399e+01	-4.244566e+00	-9.977490e+01	4.323324e+01	-2.556371e+01	1.689283e+02
3.293188e+06	-2.671177e+01	1.706977e+02	-3.105532e+01	-4.244978e+00	-1.009586e+02	1.212863e+01	-2.556276e+01	1.689310e+02
3.293219e+06	-2.671141e+01	1.706978e+02	-3.105664e+01	-4.245390e+00	-9.953348e+01	-1.803304e+01	-2.556181e+01	1.689337e+02
3.293250e+06	-2.671106e+01	1.706979e+02	-3.105797e+01	-4.245802e+00	-9.701676e+01	-3.664458e+01	-2.556086e+01	1.689364e+02
3.293282e+06	-2.671072e+01	1.706980e+02	-3.105930e+01	-4.245855e+00	-9.471153e+01	-4.688323e+01	-2.555995e+01	1.689390e+02
3.293313e+06	-2.671094e+01	1.706986e+02	-3.106117e+01	-4.231274e+00	-9.491716e+01	-4.454806e+01	-2.556028e+01	1.689344e+02
3.293344e+06	-2.671117e+01	1.706991e+02	-3.106304e+01	-4.216687e+00	-9.511230e+01	-4.210256e+01	-2.556062e+01	1.689298e+02
3.293376e+06	-2.671139e+01	1.706996e+02	-3.106491e+01	-4.202094e+00	-9.529501e+01	-3.954825e+01	-2.556095e+01	1.689251e+02
3.293407e+06	-2.671162e+01	1.707002e+02	-3.106677e+01	-4.187494e+00	-9.546329e+01	-3.688853e+01	-2.556129e+01	1.689205e+02
3.293438e+06	-2.671184e+01	1.707007e+02	-3.106864e+01	-4.172888e+00	-9.561509e+01	-3.412890e+01	-2.556162e+01	1.689159e+02
3.293469e+06	-2.671284e+01	1.707008e+02	-3.106670e+01	-4.192945e+00	-9.790919e+01	-2.495573e+01	-2.556151e+01	1.689150e+02
3.293500e+06	-2.671383e+01	1.707009e+02	-3.106476e+01	-4.212993e+00	-1.004786e+02	-8.751028e+00	-2.556141e+01	1.689141e+02
