# Hz S dB R 50.000
3.288594e+06	-2.671417e+01	1.705487e+02	-3.107762e+01	-3.532159e+00	-1.020113e+02	1.446834e+02	-2.569217e+01	1.687608e+02
3.288625e+06	-2.671532e+01	1.705432e+02	-3.107704e+01	-3.524263e+00	-1.016671e+02	1.209904e+02	-2.569402e+01	1.687693e+02
3.288656e+06	-2.671648e+01	1.705376e+02	-3.107645e+01	-3.516369e+00	-1.001956e+02	1.019620e+02	-2.569587e+01	1.687777e+02
3.288688e+06	-2.671763e+01	1.705321e+02	-3.107587e+01	-3.508475e+00	-9.837589e+01	8.906458e+01	-2.569772e+01	1.687862e+02
3.288719e+06	-2.671879e+01	1.705266e+02	-3.107529e+01	-3.500582e+00	-9.662774e+01	8.055254e+01	-2.569957e+01	1.687947e+02
3.288750e+06	-2.671992e+01	1.705211e+02	-3.107471e+01	-3.492907e+00	-9.505906e+01	7.479427e+01	-2.570139e+01	1.688031e+02
3.288782e+06	-2.671894e+01	1.705265e+02	-3.107464e+01	-3.512080e+00	-9.332612e+01	7.521850e+01	-2.570002e+01	1.688024e+02
3.288813e+06	-2.671796e+01	1.705318e+02	-3.107458e+01	-3.531252e+00	-9.188180e+01	7.551277e+01	-2.569866e+01	1.688017e+02
3.288844e+06	-2.671698e+01	1.705371e+02	-3.107451e+01	-3.550423e+00	-9.064361e+01	7.572885e+01	-2.569729e+01	1.688009e+02
3.288875e+06	-2.671600e+01	1.705425e+02	-3.107444e+01	-3.569595e+00	-8.956002e+01	7.589424e+01	-2.569592e+01	1.688002e+02
3.288906e+06	-2.671506e+01	1.705477e+02	-3.107440e+01	-3.588518e+00	-8.863333e+01	7.594444e+01	-2.569458e+01	1.687994e+02
3.288938e+06	-2.671611e+01	1.705485e+02	-3.107613e+01	-3.592226e+00	-9.008947e+01	7.011028e+01	-2.569461e+01	1.687929e+02
3.288969e+06	-2.671717e+01	1.705492e+02	-3.107786e+01	-3.595934e+00	-9.168351e+01	6.180683e+01	-2.569465e+01	1.687865e+02
3.289000e+06	-2.671823e+01	1.705500e+02	-3.107959e+01	-3.599644e+00	-9.330715e+01	4.973315e+01	-2.569468e+01	1.687800e+02
3.289032e+06	-2.671928e+01	1.705507e+02	-3.108132e+01	-3.603356e+00	-9.462756e+01	3.266179e+01	-2.569472e+01	1.687735e+02
3.289063e+06	-2.672034e+01	1.705515e+02	-3.108306e+01	-3.607069e+00	-9.506698e+01	1.159264e+01	-2.569475e+01	1.687671e+02
3.289094e+06	-2.671962e+01	1.705505e+02	-3.108149e+01	-3.588422e+00	-9.396078e+01	2.081891e+01	-2.569537e+01	1.687693e+02
3.289125e+06	-2.671889e+01	1.705495e+02	-3.107989e+01	-3.569601e+00	-9.281073e+01	2.811473e+01	-2.569599e+01	1.687716e+02
3.289156e+06	-2.671816e+01	1.705484e+02	-3.107829e+01	-3.550787e+00	-9.169885e+01	3.373167e+01	-2.569662e+01	1.687740e+02
3.289188e+06	-2.671743e+01	1.705474e+02	-3.107669e+01	-3.531980e+00	-9.065520e+01	3.811143e+01	-2.569724e+01	1.687763e+02
3.289219e+06	-2.671670e+01	1.705464e+02	-3.107509e+01	-3.513180e+00	-8.968745e+01	4.158458e+01	-2.569787e+01	1.687786e+02
3.289250e+06	-2.671721e+01	1.705427e+02	-3.107524e+01	-3.517692e+00	-9.165968e+01	3.716939e+01	-2.569767e+01	1.687738e+02
3.289282e+06	-2.671773e+01	1.705389e+02	-3.107539e+01	-3.522204e+00	-9.410047e+01	2.981811e+01	-2.569748e+01	1.687690e+02
3.289313e+06	-2.671824e+01	1.705352e+02	-3.107554e+01	-3.526716e+00	-9.711165e+01	1.594996e+01	-2.569728e+01	1.687642e+02
3.289344e+06	-2.671876e+01	1.705314e+02	-3.107569e+01	-3.531228e+00	-1.000539e+02	-1.245408e+01	-2.569708e+01	1.687594e+02
3.289375e+06	-2.671926e+01	1.705277e+02	-3.107584e+01	-3.535780e+00	-9.996716e+01	-5.308302e+01	-2.569688e+01	1.687547e+02
3.289406e+06	-2.671849e+01	1.705275e+02	-3.107545e+01	-3.545258e+00	-1.038814e+02	-2.164368e+01	-2.569599e+01	1.687636e+02
3.289438e+06	-2.671773e+01	1.705273e+02	-3.107507e+01	-3.554735e+00	-1.034398e+02	2.943183e+01	-2.569510e+01	1.687725e+02
3.289469e+06	-2.671696e+01	1.705271e+02	-3.107468e+01	-3.564211e+00	-9.943491e+01	5.722450e+01	-2.569420e+01	1.687814e+02
3.289500e+06	-2.671619e+01	1.705269e+02	-3.107430e+01	-3.573686e+00	-9.607786e+01	6.874838e+01	-2.569331e+01	1.687903e+02
3.289532e+06	-2.671544e+01	1.705268e+02	-3.107390e+01	-3.582912e+00	-9.357051e+01	7.441871e+01	-2.569242e+01	1.687991e+02
3.289563e+06	-2.671579e+01	1.705356e+02	-3.107278e+01	-3.576839e+00	-9.394209e+01	6.991413e+01	-2.569184e+01	1.688009e+02
3.289594e+06	-2.671614e+01	1.705443e+02	-3.107166e+01	-3.570767e+00	-9.426946e+01	6.503121e+01	-2.569126e+01	1.688027e+02
3.289625e+06	-2.671649e+01	1.705530e+02	-3.107055e+01	-3.564697e+00	-9.453943e+01	5.979973e+01	-2.569068e+01	1.688045e+02
3.289656e+06	-2.671685e+01	1.705617e+02	-3.106943e+01	-3.558628e+00	-9.473918e+01	5.427667e+01	-2.569010e+01	1.688063e+02
3.289688e+06	-2.671720e+01	1.705704e+02	-3.106831e+01	-3.552562e+00	-9.485799e+01	4.854661e+01	-2.568951e+01	1.688081e+02
3.289719e+06	-2.671744e+01	1.705727e+02	-3.106818e+01	-3.549070e+00	-9.612782e+01	4.232211e+01	-2.569066e+01	1.688128e+02
3.289750e+06	-2.671768e+01	1.705749e+02	-3.106807e+01	-3.545599e+00	-9.746406e+01	3.390159e+01	-2.569181e+01	1.688175e+02
3.289782e+06	-2.671793e+01	1.705771e+02	-3.106795e+01	-3.542128e+00	-9.874052e+01	2.249164e+01	-2.569297e+01	1.688222e+02
3.289813e+06	-2.671817e+01	1.705793e+02	-3.106784e+01	-3.538658e+00	-9.970952e+01	7.647597e+00	-2.569412e+01	1.688270e+02
3.289844e+06	-2.671841e+01	1.705815e+02	-3.106772e+01	-3.535187e+00	-1.000381e+02	-9.657955e+00	-2.569528e+01	1.688317e+02
3.289875e+06	-2.671681e+01	1.705762e+02	-3.106833e+01	-3.537694e+00	-1.033169e+02	-3.268597e+01	-2.569560e+01	1.688248e+02
3.289906e+06	-2.671521e+01	1.705708e+02	-3.106894e+01	-3.540200e+00	-1.045201e+02	-7.363279e+01	-2.569592e+01	1.688179e+02
3.289938e+06	-2.671361e+01	1.705655e+02	-3.106955e+01	-3.542708e+00	-1.018506e+02	-1.072441e+02	-2.569624e+01	1.688110e+02
3.289969e+06	-2.671202e+01	1.705602e+02	-3.107016e+01	-3.545215e+00	-9.864702e+01	-1.235950e+02	-2.569656e+01	1.688041e+02
3.290000e+06	-2.671043e+01	1.705549e+02	-3.107077e+01	-3.547712e+00	-9.608209e+01	-1.316193e+02	-2.569687e+01	1.687972e+02
3.290032e+06	-2.671096e+01	1.705588e+02	-3.107251e+01	-3.548883e+00	-9.827540e+01	-9.435758e+01	-2.569588e+01	1.687960e+02
3.290063e+06	-2.671149e+01	1.705627e+02	-3.107425e+01	-3.550054e+00	-9.634686e+01	-5.573432e+01	-2.569488e+01	1.687949e+02
3.290094e+06	-2.671202e+01	1.705666e+02	-3.107599e+01	-3.551226e+00	-9.304559e+01	-3.574492e+01	-2.569388e+01	1.687937e+02
3.290125e+06	-2.671255e+01	1.705706e+02	-3.107773e+01	-3.552398e+00	-9.026461e+01	-2.597371e+01	-2.569289e+01	1.687925e+02
3.290156e+06	-2.671306e+01	1.705744e+02	-3.107942e+01	-3.553522e+00	-8.810517e+01	-2.061875e+01	-2.569193e+01	1.687915e+02
3.290188e+06	-2.671218e+01	1.705757e+02	-3.107835e+01	-3.551640e+00	-8.967409e+01	-2.484840e+01	-2.569287e+01	1.687972e+02
3.290219e+06	-2.671131e+01	1.705769e+02	-3.107727e+01	-3.549758e+00	-9.150305e+01	-3.110977e+01	-2.569381e+01	1.688030e+02
3.290250e+06	-2.671044e+01	1.705782e+02	-3.107620e+01	-3.547876e+00	-9.360984e+01	-4.098954e+01	-2.569476e+01	1.688087e+02
3.290282e+06	-2.670957e+01	1.705794e+02	-3.107512e+01	-3.545995e+00	-9.581421e+01	-5.736056e+01	-2.569570e+01	1.688144e+02
3.290313e+06	-2.670870e+01	1.705807e+02	-3.107405e+01	-3.544115e+00	-9.727302e+01	-8.281041e+01	-2.569664e+01	1.688202e+02
3.290344e+06	-2.670999e+01	1.705767e+02	-3.107153e+01	-3.542128e+00	-1.002847e+02	-1.412024e+01	-2.569641e+01	1.688137e+02
3.290375e+06	-2.671131e+01	1.705726e+02	-3.106900e+01	-3.540141e+00	-9.425873e+01	2.752069e+01	-2.569616e+01	1.688071e+02
3.290406e+06	-2.671262e+01	1.705686e+02	-3.106647e+01	-3.538155e+00	-8.985598e+01	3.905768e+01	-2.569591e+01	1.688005e+02
3.290438e+06	-2.671394e+01	1.705645e+02	-3.106394e+01	-3.536170e+00	-8.684123e+01	4.394201e+01	-2.569567e+01	1.687939e+02
3.290469e+06	-2.671525e+01	1.705605e+02	-3.106141e+01	-3.534187e+00	-8.458096e+01	4.660079e+01	-2.569542e+01	1.687873e+02
3.290500e+06	-2.671456e+01	1.705548e+02	-3.106209e+01	-3.538768e+00	-8.568927e+01	4.328116e+01	-2.569554e+01	1.687933e+02
3.290532e+06	-2.671387e+01	1.705490e+02	-3.106277e+01	-3.543350e+00	-8.691582e+01	3.893600e+01	-2.569566e+01	1.687992e+02
3.290563e+06	-2.671318e+01	1.705433e+02	-3.106345e+01	-3.547932e+00	-8.826534e+01	3.308611e+01	-2.569578e+01	1.688052e+02
3.290594e+06	-2.671249e+01	1.705376e+02	-3.106413e+01	-3.552515e+00	-8.971373e+01	2.500016e+01	-2.569590e+01	1.688112e+02
3.290625e+06	-2.671183e+01	1.705320e+02	-3.106483e+01	-3.557079e+00	-9.116176e+01	1.381892e+01	-2.569602e+01	1.688171e+02
3.290656e+06	-2.671381e+01	1.705409e+02	-3.106835e+01	-3.559166e+00	-9.310836e+01	1.866880e+01	-2.569620e+01	1.688232e+02
3.290688e+06	-2.671580e+01	1.705498e+02	-3.107188e+01	-3.561256e+00	-9.548452e+01	2.666272e+01	-2.569638e+01	1.688292e+02
3.290719e+06	-2.671779e+01	1.705587e+02	-3.107540e+01	-3.563346e+00	-9.831771e+01	4.133765e+01	-2.569656e+01	1.688352e+02
3.290750e+06	-2.671978e+01	1.705676e+02	-3.107893e+01	-3.565439e+00	-1.008497e+02	6.936190e+01	-2.569673e+01	1.688413e+02
3.290782e+06	-2.672173e+01	1.705765e+02	-3.108234e+01	-3.567766e+00	-1.006911e+02	1.063093e+02	-2.569691e+01	1.688469e+02
3.290813e+06	-2.672113e+01	1.705801e+02	-3.107866e+01	-3.584415e+00	-1.088320e+02	9.898750e+01	-2.569702e+01	1.688310e+02
3.290844e+06	-2.672053e+01	1.705838e+02	-3.107498e+01	-3.601050e+00	-1.129320e+02	-4.957141e+01	-2.569712e+01	1.688151e+02
3.290875e+06	-2.671993e+01	1.705875e+02	-3.107130e+01	-3.617670e+00	-1.021251e+02	-6.351669e+01	-2.569722e+01	1.687991e+02
3.290906e+06	-2.671933e+01	1.705912e+02	-3.106763e+01	-3.634277e+00	-9.740581e+01	-6.582845e+01	-2.569733e+01	1.687832e+02
3.290938e+06	-2.671872e+01	1.705949e+02	-3.106395e+01	-3.650869e+00	-9.436095e+01	-6.677390e+01	-2.569743e+01	1.687672e+02
3.290969e+06	-2.671879e+01	1.706021e+02	-3.106558e+01	-3.634184e+00	-9.870281e+01	-7.104316e+01	-2.569804e+01	1.687766e+02
3.291000e+06	-2.671886e+01	1.706094e+02	-3.106725e+01	-3.617224e+00	-1.073770e+02	-9.068908e+01	-2.569865e+01	1.687862e+02
3.291032e+06	-2.671894e+01	1.706167e+02	-3.106891e+01	-3.600258e+00	-1.067974e+02	1.479338e+02	-2.569926e+01	1.687957e+02
3.291063e+06	-2.671901e+01	1.706240e+02	-3.107058e+01	-3.583285e+00	-9.845745e+01	1.301309e+02	-2.569988e+01	1.688053e+02
3.291094e+06	-2.671908e+01	1.706313e+02	-3.107225e+01	-3.566305e+00	-9.416223e+01	1.260374e+02	-2.570049e+01	1.688149e+02
3.291125e+06	-2.671934e+01	1.706244e+02	-3.107454e+01	-3.561780e+00	-9.705230e+01	1.502896e+02	-2.570012e+01	1.688120e+02
3.291156e+06	-2.671960e+01	1.706175e+02	-3.107683e+01	-3.557252e+00	-9.771402e+01	-1.715214e+02	-2.569974e+01	1.688091e+02
3.291188e+06	-2.671986e+01	1.706106e+02	-3.107912e+01	-3.552722e+00	-9.522983e+01	-1.414392e+02	-2.569937e+01	1.688062e+02
3.291219e+06	-2.672011e+01	1.706037e+02	-3.108142e+01	-3.548190e+00	-9.229818e+01	-1.258528e+02	-2.569900e+01	1.688034e+02
3.291250e+06	-2.672036e+01	1.705967e+02	-3.108367e+01	-3.543752e+00	-8.987648e+01	-1.176118e+02	-2.569863e+01	1.688005e+02
3.291282e+06	-2.671918e+01	1.705826e+02	-3.108144e+01	-3.551336e+00	-9.207693e+01	-1.205854e+02	-2.569806e+01	1.688011e+02
3.291313e+06	-2.671799e+01	1.705685e+02	-3.107920e+01	-3.558917e+00	-9.497210e+01	-1.259373e+02	-2.569749e+01	1.688016e+02
3.291344e+06	-2.671680e+01	1.705544e+02	-3.107696e+01	-3.566494e+00	-9.906541e+01	-1.379736e+02	-2.569692e+01	1.688022e+02
3.291375e+06	-2.671562e+01	1.705403e+02	-3.107473e+01	-3.574067e+00	-1.043048e+02	-1.756113e+02	-2.569635e+01	1.688027e+02
3.291406e+06	-2.671446e+01	1.705267e+02	-3.107254e+01	-3.581490e+00	-1.025004e+02	1.210769e+02	-2.569579e+01	1.688034e+02
3.291438e+06	-2.671534e+01	1.705373e+02	-3.107319e+01	-3.579924e+00	-1.027940e+02	1.005960e+02	-2.569596e+01	1.688073e+02
3.291469e+06	-2.671621e+01	1.705479e+02	-3.107383e+01	-3.578358e+00	-1.020241e+02	8.125310e+01	-2.569613e+01	1.688112e+02
3.291500e+06	-2.671709e+01	1.705585e+02	-3.107448e+01	-3.576791e+00	-1.006143e+02	6.631871e+01	-2.569629e+01	1.688151e+02
3.291532e+06	-2.671796e+01	1.705691e+02	-3.107513e+01	-3.575224e+00	-9.903993e+01	5.578697e+01	-2.569646e+01	1.688190e+02
3.291563e+06	-2.671883e+01	1.705797e+02	-3.107577e+01	-3.573658e+00	-9.753156e+01	4.842305e+01	-2.569663e+01	1.688230e+02
3.291594e+06	-2.671912e+01	1.705721e+02	-3.107490e+01	-3.572245e+00	-1.013267e+02	2.372900e+00	-2.569688e+01	1.688235e+02
3.291625e+06	-2.671940e+01	1.705643e+02	-3.107401e+01	-3.570833e+00	-9.807427e+01	-4.824504e+01	-2.569713e+01	1.688241e+02
3.291656e+06	-2.671969e+01	1.705565e+02	-3.107312e+01	-3.569422e+00	-9.371643e+01	-6.701871e+01	-2.569739e+01	1.688246e+02
3.291688e+06	-2.671997e+01	1.705488e+02	-3.107223e+01	-3.568011e+00	-9.054937e+01	-7.479621e+01	-2.569764e+01	1.688252e+02
3.291719e+06	-2.672025e+01	1.705410e+02	-3.107134e+01	-3.566601e+00	-8.816894e+01	-7.889354e+01	-2.569789e+01	1.688257e+02
3.291750e+06	-2.672041e+01	1.705429e+02	-3.107109e+01	-3.564564e+00	-9.006768e+01	-7.368090e+01	-2.569802e+01	1.688244e+02
3.291782e+06	-2.672057e+01	1.705447e+02	-3.107084e+01	-3.562527e+00	-9.234728e+01	-6.522905e+01	-2.569816e+01	1.688232e+02
3.291813e+06	-2.672073e+01	1.705466e+02	-3.107059e+01	-3.560489e+00	-9.497277e+01	-5.024631e+01	-2.569829e+01	1.688219e+02
3.291844e+06	-2.672089e+01	1.705485e+02	-3.107035e+01	-3.558453e+00	-9.717190e+01	-2.346761e+01	-2.569843e+01	1.688207e+02
3.291875e+06	-2.672105e+01	1.705503e+02	-3.107011e+01	-3.556528e+00	-9.696843e+01	1.062645e+01	-2.569856e+01	1.688194e+02
3.291906e+06	-2.672145e+01	1.705528e+02	-3.107186e+01	-3.568522e+00	-1.026131e+02	1.596028e+01	-2.569800e+01	1.688204e+02
3.291938e+06	-2.672185e+01	1.705554e+02	-3.107361e+01	-3.580521e+00	-1.165546e+02	7.837579e+01	-2.569744e+01	1.688214e+02
3.291969e+06	-2.672224e+01	1.705579e+02	-3.107535e+01	-3.592525e+00	-1.036404e+02	1.723326e+02	-2.569688e+01	1.688224e+02
3.292000e+06	-2.672264e+01	1.705604e+02	-3.107710e+01	-3.604534e+00	-9.749829e+01	1.787178e+02	-2.569633e+01	1.688233e+02
3.292032e+06	-2.672303e+01	1.705630e+02	-3.107878e+01	-3.616216e+00	-9.402886e+01	-1.790353e+02	-2.569579e+01	1.688244e+02
3.292063e+06	-2.672313e+01	1.705663e+02	-3.107631e+01	-3.607553e+00	-9.929280e+01	-1.565903e+02	-2.569661e+01	1.688309e+02
3.292094e+06	-2.672323e+01	1.705696e+02	-3.107384e+01	-3.598895e+00	-1.016338e+02	-9.018670e+01	-2.569743e+01	1.688374e+02
3.292125e+06	-2.672334e+01	1.705729e+02	-3.107137e+01	-3.590241e+00	-9.604927e+01	-5.107634e+01	-2.569825e+01	1.688439e+02
3.292156e+06	-2.672344e+01	1.705762e+02	-3.106890e+01	-3.581593e+00	-9.182559e+01	-3.930921e+01	-2.569907e+01	1.688504e+02
3.292188e+06	-2.672354e+01	1.705795e+02	-3.106643e+01	-3.572949e+00	-8.888061e+01	-3.418344e+01	-2.569988e+01	1.688568e+02
3.292219e+06	-2.672228e+01	1.705750e+02	-3.106564e+01	-3.561830e+00	-9.000421e+01	-3.567589e+01	-2.569872e+01	1.688478e+02
3.292250e+06	-2.672101e+01	1.705704e+02	-3.106487e+01	-3.550693e+00	-9.132364e+01	-3.771283e+01	-2.569753e+01	1.688387e+02
3.292282e+06	-2.671975e+01	1.705658e+02	-3.106410e+01	-3.539558e+00	-9.286179e+01	-4.054384e+01	-2.569635e+01	1.688296e+02
3.292313e+06	-2.671848e+01	1.705613e+02	-3.106332e+01	-3.528425e+00	-9.469346e+01	-4.471868e+01	-2.569516e+01	1.688204e+02
3.292344e+06	-2.671721e+01	1.705567e+02	-3.106255e+01	-3.517294e+00	-9.692141e+01	-5.139010e+01	-2.569398e+01	1.688113e+02
3.292375e+06	-2.671780e+01	1.705620e+02	-3.106500e+01	-3.535457e+00	-9.780792e+01	-3.281075e+01	-2.569391e+01	1.688116e+02
3.292406e+06	-2.671839e+01	1.705674e+02	-3.106745e+01	-3.553630e+00	-9.769008e+01	-1.243963e+01	-2.569385e+01	1.688118e+02
3.292438e+06	-2.671898e+01	1.705727e+02	-3.106991e+01	-3.571814e+00	-9.663862e+01	5.273730e+00	-2.569378e+01	1.688121e+02
3.292469e+06	-2.671957e+01	1.705780e+02	-3.107236e+01	-3.590008e+00	-9.514937e+01	1.839969e+01	-2.569372e+01	1.688123e+02
3.292500e+06	-2.672016e+01	1.705833e+02	-3.107478e+01	-3.607867e+00	-9.361173e+01	2.750707e+01	-2.569365e+01	1.688126e+02
3.292532e+06	-2.671986e+01	1.705822e+02	-3.107323e+01	-3.583009e+00	-9.327041e+01	2.226899e+01	-2.569389e+01	1.688093e+02
3.292563e+06	-2.671955e+01	1.705810e+02	-3.107167e+01	-3.558160e+00	-9.287780e+01	1.745637e+01	-2.569412e+01	1.688061e+02
3.292594e+06	-2.671925e+01	1.705799e+02	-3.107012e+01	-3.533320e+00	-9.244881e+01	1.307900e+01	-2.569436e+01	1.688029e+02
3.292625e+06	-2.671895e+01	1.705788e+02	-3.106856e+01	-3.508489e+00	-9.199634e+01	9.124758e+00	-2.569460e+01	1.687997e+02
3.292656e+06	-2.671866e+01	1.705778e+02	-3.106706e+01	-3.484420e+00	-9.156668e+01	5.394149e+00	-2.569486e+01	1.687966e+02
3.292688e+06	-2.671924e+01	1.705839e+02	-3.106897e+01	-3.506643e+00	-9.313907e+01	-1.196117e+01	-2.569665e+01	1.688026e+02
3.292719e+06	-2.671983e+01	1.705900e+02	-3.107088e+01	-3.528877e+00	-9.379040e+01	-3.462548e+01	-2.569844e+01	1.688087e+02
3.292750e+06	-2.672042e+01	1.705961e+02	-3.107278e+01	-3.551120e+00	-9.305959e+01	-5.707202e+01	-2.570024e+01	1.688147e+02
3.292782e+06	-2.672100e+01	1.706022e+02	-3.107469e+01	-3.573373e+00	-9.145640e+01	-7.404077e+01	-2.570203e+01	1.688207e+02
3.292813e+06	-2.672159e+01	1.706083e+02	-3.107659e+01	-3.595636e+00	-8.966581e+01	-8.542901e+01	-2.570383e+01	1.688268e+02
3.292844e+06	-2.672138e+01	1.706067e+02	-3.107383e+01	-3.589103e+00	-9.127061e+01	-7.665349e+01	-2.570211e+01	1.688233e+02
3.292875e+06	-2.672116e+01	1.706050e+02	-3.107103e+01	-3.582342e+00	-9.289688e+01	-6.363208e+01	-2.570036e+01	1.688199e+02
3.292906e+06	-2.672095e+01	1.706033e+02	-3.106823e+01	-3.575586e+00	-9.411960e+01	-4.540520e+01	-2.569862e+01	1.688164e+02
3.292938e+06	-2.672073e+01	1.706017e+02	-3.106543e+01	-3.568834e+00	-9.433522e+01	-2.374442e+01	-2.569687e+01	1.688129e+02
3.292969e+06	-2.672052e+01	1.706000e+02	-3.106263e+01	-3.562086e+00	-9.340128e+01	-3.878915e+00	-2.569513e+01	1.688094e+02
3.293000e+06	-2.672080e+01	1.705938e+02	-3.106313e+01	-3.552662e+00	-9.620714e+01	-6.433904e-01	-2.569548e+01	1.688140e+02
3.293032e+06	-2.672107e+01	1.705876e+02	-3.106362e+01	-3.543237e+00	-1.002790e+02	6.513565e+00	-2.569583e+01	1.688187e+02
3.293063e+06	-2.672135e+01	1.705814e+02	-3.106411e+01	-3.533812e+00	-1.070286e+02	3.217562e+01	-2.569618e+01	1.688233e+02
3.293094e+06	-2.672163e+01	1.705752e+02	-3.106461e+01	-3.524385e+00	-1.075404e+02	1.197789e+02	-2.569653e+01	1.688280e+02
3.293125e+06	-2.672190e+01	1.705692e+02	-3.106509e+01	-3.515011e+00	-1.006550e+02	1.478418e+02	-2.569688e+01	1.688326e+02
3.293156e+06	-2.672204e+01	1.705760e+02	-3.106351e+01	-3.512389e+00	-1.006994e+02	1.080005e+02	-2.569736e+01	1.688279e+02
3.293188e+06	-2.672218e+01	1.705828e+02	-3.106193e+01	-3.509768e+00	-9.785903e+01	8.033327e+01	-2.569784e+01	1.688232e+02
3.293219e+06	-2.672232e+01	1.705896e+02	-3.106034e+01	-3.507148e+00	-9.492444e+01	6.651594e+01	-2.569832e+01	1.688186e+02
3.293250e+06	-2.672246e+01	1.705964e+02	-3.105876e+01	-3.504528e+00	-9.252352e+01	5.909178e+01	-2.569880e+01	1.688139e+02
3.293282e+06	-2.672257e+01	1.706031e+02	-3.105725e+01	-3.502130e+00	-9.063256e+01	5.467900e+01	-2.569927e+01	1.688094e+02
3.293313e+06	-2.672067e+01	1.706023e+02	-3.105955e+01	-3.513254e+00	-9.280577e+01	5.633298e+01	-2.569940e+01	1.688153e+02
3.293344e+06	-2.671877e+01	1.706015e+02	-3.106186e+01	-3.524384e+00	-9.569282e+01	5.929560e+01	-2.569954e+01	1.688212e+02
3.293375e+06	-2.671688e+01	1.706008e+02	-3.106416e+01	-3.535520e+00	-9.996014e+01	6.605969e+01	-2.569967e+01	1.688271e+02
3.293406e+06	-2.671498e+01	1.706000e+02	-3.106647e+01	-3.546661e+00	-1.074280e+02	9.311294e+01	-2.569980e+01	1.688330e+02
3.293438e+06	-2.671309e+01	1.705992e+02	-3.106877e+01	-3.557809e+00	-1.067628e+02	-1.713530e+02	-2.569993e+01	1.688389e+02
3.293469e+06	-2.671426e+01	1.705984e+02	-3.106961e+01	-3.564355e+00	-1.117685e+02	-1.048874e+02	-2.569951e+01	1.688419e+02
3.293500e+06	-2.671547e+01	1.705977e+02	-3.107044e+01	-3.570866e+00	-1.053774e+02	-5.248662e+01	-2.569909e+01	1.688449e+02
3.293532e+06	-2.671667e+01	1.705969e+02	-3.107127e+01	-3.577378e+00	-1.005199e+02	-3.995373e+01	-2.569867e+01	1.688480e+02
3.293563e+06	-2.671788e+01	1.705962e+02	-3.107210e+01	-3.583891e+00	-9.730868e+01	-3.503699e+01	-2.569825e+01	1.688510e+02
3.293594e+06	-2.671908e+01	1.705954e+02	-3.107293e+01	-3.590406e+00	-9.494378e+01	-3.245184e+01	-2.569783e+01	1.688540e+02
3.293625e+06	-2.671803e+01	1.705970e+02	-3.107153e+01	-3.582847e+00	-9.969039e+01	-4.572905e+01	-2.569735e+01	1.688519e+02
3.293656e+06	-2.671698e+01	1.705986e+02	-3.107013e+01	-3.575290e+00	-1.055555e+02	-9.692120e+01	-2.569686e+01	1.688497e+02
