# Hz S dB R 50.000
3.288594e+06	-4.325615e+01	-9.001650e+01	-3.063071e+01	-6.284494e+00	-9.287216e+01	1.419167e+02	-5.715210e+01	9.726428e+01
3.288625e+06	-4.325102e+01	-8.996541e+01	-3.063009e+01	-6.265715e+00	-9.206640e+01	1.468660e+02	-5.721682e+01	9.694883e+01
3.288656e+06	-4.324588e+01	-8.991438e+01	-3.062947e+01	-6.246938e+00	-9.127955e+01	1.509846e+02	-5.728175e+01	9.662863e+01
3.288688e+06	-4.324073e+01	-8.986342e+01	-3.062886e+01	-6.228164e+00	-9.052353e+01	1.544320e+02	-5.734689e+01	9.630360e+01
3.288719e+06	-4.323559e+01	-8.981251e+01	-3.062824e+01	-6.209393e+00	-8.980360e+01	1.573402e+02	-5.741224e+01	9.597366e+01
3.288750e+06	-4.323054e+01	-8.976187e+01	-3.062764e+01	-6.190814e+00	-8.914940e+01	1.598416e+02	-5.747684e+01	9.564146e+01
3.288782e+06	-4.323824e+01	-8.973638e+01	-3.062956e+01	-6.195667e+00	-9.253752e+01	1.682813e+02	-5.742355e+01	9.564863e+01
3.288813e+06	-4.324595e+01	-8.971086e+01	-3.063148e+01	-6.200522e+00	-9.725584e+01	-1.698050e+02	-5.737058e+01	9.565571e+01
3.288844e+06	-4.325366e+01	-8.968528e+01	-3.063341e+01	-6.205380e+00	-9.965851e+01	-1.118933e+02	-5.731794e+01	9.566270e+01
3.288875e+06	-4.326138e+01	-8.965966e+01	-3.063534e+01	-6.210239e+00	-9.497970e+01	-7.120671e+01	-5.726561e+01	9.566961e+01
3.288906e+06	-4.326897e+01	-8.963511e+01	-3.063719e+01	-6.215192e+00	-9.095811e+01	-5.736712e+01	-5.721508e+01	9.567685e+01
3.288938e+06	-4.326830e+01	-8.967894e+01	-3.063455e+01	-6.225733e+00	-9.213504e+01	-3.905893e+01	-5.725614e+01	9.570962e+01
3.288969e+06	-4.326762e+01	-8.972277e+01	-3.063192e+01	-6.236268e+00	-9.230014e+01	-1.755201e+01	-5.729739e+01	9.574271e+01
3.289000e+06	-4.326694e+01	-8.976659e+01	-3.062929e+01	-6.246797e+00	-9.134552e+01	2.005886e+00	-5.733884e+01	9.577611e+01
3.289032e+06	-4.326626e+01	-8.981040e+01	-3.062665e+01	-6.257319e+00	-8.980506e+01	1.655300e+01	-5.738048e+01	9.580983e+01
3.289063e+06	-4.326557e+01	-8.985421e+01	-3.062402e+01	-6.267835e+00	-8.816499e+01	2.658286e+01	-5.742232e+01	9.584388e+01
3.289094e+06	-4.326622e+01	-8.988305e+01	-3.062343e+01	-6.270192e+00	-8.931829e+01	2.482218e+01	-5.739702e+01	9.583568e+01
3.289125e+06	-4.326688e+01	-8.991178e+01	-3.062285e+01	-6.272482e+00	-9.066344e+01	2.236309e+01	-5.737125e+01	9.582719e+01
3.289156e+06	-4.326753e+01	-8.994051e+01	-3.062228e+01	-6.274772e+00	-9.222890e+01	1.892409e+01	-5.734555e+01	9.581874e+01
3.289188e+06	-4.326819e+01	-8.996925e+01	-3.062170e+01	-6.277062e+00	-9.408215e+01	1.382279e+01	-5.731993e+01	9.581035e+01
3.289219e+06	-4.326884e+01	-8.999799e+01	-3.062113e+01	-6.279352e+00	-9.629695e+01	5.657343e+00	-5.729439e+01	9.580201e+01
3.289250e+06	-4.326613e+01	-8.995267e+01	-3.062210e+01	-6.264296e+00	-9.761339e+01	4.795232e+00	-5.732579e+01	9.563605e+01
3.289282e+06	-4.326341e+01	-8.990738e+01	-3.062307e+01	-6.249236e+00	-9.916236e+01	3.596151e+00	-5.735723e+01	9.546888e+01
3.289313e+06	-4.326069e+01	-8.986212e+01	-3.062405e+01	-6.234173e+00	-1.010418e+02	1.816611e+00	-5.738871e+01	9.530049e+01
3.289344e+06	-4.325796e+01	-8.981689e+01	-3.062502e+01	-6.219107e+00	-1.034255e+02	-1.091304e+00	-5.742023e+01	9.513088e+01
3.289375e+06	-4.325523e+01	-8.977221e+01	-3.062596e+01	-6.204268e+00	-1.066039e+02	-7.303105e+00	-5.745121e+01	9.496438e+01
3.289406e+06	-4.325296e+01	-8.979264e+01	-3.062344e+01	-6.217975e+00	-1.002767e+02	-5.619892e+01	-5.741049e+01	9.533378e+01
3.289438e+06	-4.325069e+01	-8.981306e+01	-3.062092e+01	-6.231674e+00	-9.555832e+01	-6.839503e+01	-5.736960e+01	9.569972e+01
3.289469e+06	-4.324842e+01	-8.983347e+01	-3.061840e+01	-6.245365e+00	-9.240627e+01	-7.329221e+01	-5.732855e+01	9.606223e+01
3.289500e+06	-4.324615e+01	-8.985386e+01	-3.061588e+01	-6.259048e+00	-9.007260e+01	-7.589404e+01	-5.728736e+01	9.642133e+01
3.289532e+06	-4.324388e+01	-8.987393e+01	-3.061346e+01	-6.272383e+00	-8.827612e+01	-7.754615e+01	-5.724679e+01	9.676623e+01
3.289563e+06	-4.324150e+01	-8.987431e+01	-3.061699e+01	-6.264806e+00	-8.984571e+01	-8.245982e+01	-5.725370e+01	9.644551e+01
3.289594e+06	-4.323911e+01	-8.987469e+01	-3.062053e+01	-6.257223e+00	-9.164556e+01	-8.971264e+01	-5.726034e+01	9.612428e+01
3.289625e+06	-4.323673e+01	-8.987507e+01	-3.062407e+01	-6.249634e+00	-9.363914e+01	-1.009800e+02	-5.726671e+01	9.580257e+01
3.289656e+06	-4.323434e+01	-8.987546e+01	-3.062761e+01	-6.242038e+00	-9.552635e+01	-1.187650e+02	-5.727281e+01	9.548040e+01
3.289688e+06	-4.323196e+01	-8.987584e+01	-3.063115e+01	-6.234437e+00	-9.643571e+01	-1.436922e+02	-5.727863e+01	9.515779e+01
3.289719e+06	-4.322852e+01	-8.991019e+01	-3.063096e+01	-6.249076e+00	-1.043191e+02	-9.969730e+01	-5.727907e+01	9.528067e+01
3.289750e+06	-4.322508e+01	-8.994478e+01	-3.063074e+01	-6.263894e+00	-9.943112e+01	-1.680825e+01	-5.727942e+01	9.540714e+01
3.289782e+06	-4.322163e+01	-8.997935e+01	-3.063052e+01	-6.278710e+00	-9.336470e+01	-4.799270e-01	-5.727973e+01	9.553363e+01
3.289813e+06	-4.321818e+01	-9.001390e+01	-3.063030e+01	-6.293527e+00	-8.967599e+01	4.766916e+00	-5.728000e+01	9.566013e+01
3.289844e+06	-4.321473e+01	-9.004841e+01	-3.063008e+01	-6.308342e+00	-8.706877e+01	7.305763e+00	-5.728022e+01	9.578663e+01
3.289875e+06	-4.322405e+01	-9.005071e+01	-3.062936e+01	-6.282644e+00	-8.756313e+01	5.496967e+00	-5.728824e+01	9.580242e+01
3.289906e+06	-4.323338e+01	-9.005302e+01	-3.062864e+01	-6.256949e+00	-8.807701e+01	3.465452e+00	-5.729627e+01	9.581825e+01
3.289938e+06	-4.324272e+01	-9.005534e+01	-3.062792e+01	-6.231260e+00	-8.861009e+01	1.173565e+00	-5.730430e+01	9.583410e+01
3.289969e+06	-4.325207e+01	-9.005765e+01	-3.062719e+01	-6.205574e+00	-8.916124e+01	-1.423228e+00	-5.731234e+01	9.584998e+01
3.290000e+06	-4.326133e+01	-9.006012e+01	-3.062646e+01	-6.180151e+00	-8.974692e+01	-4.328608e+00	-5.732032e+01	9.586504e+01
3.290032e+06	-4.325737e+01	-9.008071e+01	-3.062568e+01	-6.186798e+00	-9.330884e+01	5.755300e-02	-5.732037e+01	9.577488e+01
3.290063e+06	-4.325341e+01	-9.010127e+01	-3.062489e+01	-6.193443e+00	-9.914639e+01	1.310098e+01	-5.732040e+01	9.568472e+01
3.290094e+06	-4.324945e+01	-9.012181e+01	-3.062410e+01	-6.200087e+00	-1.060535e+02	9.131331e+01	-5.732041e+01	9.559456e+01
3.290125e+06	-4.324549e+01	-9.014234e+01	-3.062331e+01	-6.206730e+00	-9.754340e+01	1.457963e+02	-5.732040e+01	9.550440e+01
3.290156e+06	-4.324169e+01	-9.016211e+01	-3.062253e+01	-6.213460e+00	-9.248007e+01	1.554901e+02	-5.731997e+01	9.542271e+01
3.290188e+06	-4.324711e+01	-9.013633e+01	-3.062203e+01	-6.225662e+00	-9.358446e+01	1.590434e+02	-5.729474e+01	9.586049e+01
3.290219e+06	-4.325254e+01	-9.011052e+01	-3.062152e+01	-6.237863e+00	-9.479957e+01	1.636865e+02	-5.726907e+01	9.629572e+01
3.290250e+06	-4.325797e+01	-9.008468e+01	-3.062102e+01	-6.250062e+00	-9.612289e+01	1.699110e+02	-5.724299e+01	9.672836e+01
3.290282e+06	-4.326340e+01	-9.005880e+01	-3.062051e+01	-6.262259e+00	-9.751710e+01	1.784367e+02	-5.721649e+01	9.715840e+01
3.290313e+06	-4.326883e+01	-9.003290e+01	-3.062000e+01	-6.274455e+00	-9.886022e+01	-1.698406e+02	-5.718959e+01	9.758579e+01
3.290344e+06	-4.326738e+01	-8.999855e+01	-3.062034e+01	-6.271830e+00	-1.034593e+02	1.681941e+02	-5.723410e+01	9.723447e+01
3.290375e+06	-4.326587e+01	-8.996415e+01	-3.062069e+01	-6.269084e+00	-1.057339e+02	1.115881e+02	-5.727908e+01	9.687316e+01
3.290406e+06	-4.326437e+01	-8.992976e+01	-3.062104e+01	-6.266338e+00	-1.012195e+02	7.141251e+01	-5.732394e+01	9.650809e+01
3.290438e+06	-4.326285e+01	-8.989539e+01	-3.062138e+01	-6.263592e+00	-9.717782e+01	5.747255e+01	-5.736868e+01	9.613924e+01
3.290469e+06	-4.326134e+01	-8.986102e+01	-3.062173e+01	-6.260846e+00	-9.426293e+01	5.126402e+01	-5.741329e+01	9.576658e+01
3.290500e+06	-4.325562e+01	-8.984991e+01	-3.062167e+01	-6.245028e+00	-9.264790e+01	5.542164e+01	-5.741193e+01	9.575231e+01
3.290532e+06	-4.324990e+01	-8.983881e+01	-3.062160e+01	-6.229210e+00	-9.125895e+01	5.836237e+01	-5.741056e+01	9.573804e+01
3.290563e+06	-4.324418e+01	-8.982773e+01	-3.062154e+01	-6.213392e+00	-9.004701e+01	6.054170e+01	-5.740920e+01	9.572378e+01
3.290594e+06	-4.323847e+01	-8.981666e+01	-3.062147e+01	-6.197575e+00	-8.897511e+01	6.221699e+01	-5.740783e+01	9.570952e+01
3.290625e+06	-4.323291e+01	-8.980598e+01	-3.062142e+01	-6.181980e+00	-8.803756e+01	6.354776e+01	-5.740621e+01	9.569845e+01
3.290656e+06	-4.324488e+01	-8.984231e+01	-3.062273e+01	-6.193927e+00	-9.005999e+01	6.582185e+01	-5.737244e+01	9.608062e+01
3.290688e+06	-4.325686e+01	-8.987873e+01	-3.062405e+01	-6.205878e+00	-9.266939e+01	6.969994e+01	-5.733842e+01	9.645982e+01
3.290719e+06	-4.326886e+01	-8.991526e+01	-3.062536e+01	-6.217833e+00	-9.629132e+01	7.766617e+01	-5.730416e+01	9.683605e+01
3.290750e+06	-4.328087e+01	-8.995189e+01	-3.062668e+01	-6.229791e+00	-1.016451e+02	1.005900e+02	-5.726966e+01	9.720931e+01
3.290782e+06	-4.329252e+01	-8.998719e+01	-3.062794e+01	-6.241531e+00	-1.039898e+02	1.668391e+02	-5.723616e+01	9.756514e+01
3.290813e+06	-4.328124e+01	-8.993446e+01	-3.062601e+01	-6.239600e+00	-1.087870e+02	1.009338e+02	-5.727756e+01	9.702721e+01
3.290844e+06	-4.326997e+01	-8.988187e+01	-3.062407e+01	-6.237669e+00	-1.025741e+02	5.007656e+01	-5.731839e+01	9.648416e+01
3.290875e+06	-4.325870e+01	-8.982941e+01	-3.062214e+01	-6.235739e+00	-9.779661e+01	3.743629e+01	-5.735861e+01	9.593602e+01
3.290906e+06	-4.324744e+01	-8.977709e+01	-3.062021e+01	-6.233810e+00	-9.461380e+01	3.241551e+01	-5.739822e+01	9.538282e+01
3.290938e+06	-4.323619e+01	-8.972491e+01	-3.061828e+01	-6.231882e+00	-9.226265e+01	2.976291e+01	-5.743719e+01	9.482459e+01
3.290969e+06	-4.323686e+01	-8.976971e+01	-3.061950e+01	-6.211851e+00	-9.417618e+01	2.723976e+01	-5.743063e+01	9.488535e+01
3.291000e+06	-4.323761e+01	-8.981530e+01	-3.062074e+01	-6.191668e+00	-9.664733e+01	2.304262e+01	-5.742370e+01	9.495101e+01
3.291032e+06	-4.323836e+01	-8.986090e+01	-3.062199e+01	-6.171479e+00	-9.997875e+01	1.483573e+01	-5.741677e+01	9.501658e+01
3.291063e+06	-4.323911e+01	-8.990651e+01	-3.062324e+01	-6.151284e+00	-1.046170e+02	-6.099777e+00	-5.740983e+01	9.508204e+01
3.291094e+06	-4.323985e+01	-8.995212e+01	-3.062448e+01	-6.131083e+00	-1.073171e+02	-6.237441e+01	-5.740288e+01	9.514739e+01
3.291125e+06	-4.324051e+01	-8.993900e+01	-3.062357e+01	-6.155472e+00	-1.040958e+02	-8.156983e+01	-5.736836e+01	9.554040e+01
3.291156e+06	-4.324117e+01	-8.992588e+01	-3.062265e+01	-6.179857e+00	-1.013792e+02	-9.112336e+01	-5.733357e+01	9.593028e+01
3.291188e+06	-4.324183e+01	-8.991276e+01	-3.062173e+01	-6.204236e+00	-9.920478e+01	-9.654644e+01	-5.729852e+01	9.631704e+01
3.291219e+06	-4.324249e+01	-8.989964e+01	-3.062081e+01	-6.228610e+00	-9.742676e+01	-9.998387e+01	-5.726322e+01	9.670068e+01
3.291250e+06	-4.324316e+01	-8.988663e+01	-3.061990e+01	-6.252835e+00	-9.597444e+01	-1.022451e+02	-5.722816e+01	9.707648e+01
3.291282e+06	-4.324555e+01	-8.988763e+01	-3.061938e+01	-6.259260e+00	-1.004747e+02	-8.497005e+01	-5.725214e+01	9.686454e+01
3.291313e+06	-4.324795e+01	-8.988864e+01	-3.061886e+01	-6.265684e+00	-1.043888e+02	-3.349170e+01	-5.727607e+01	9.665142e+01
3.291344e+06	-4.325034e+01	-8.988964e+01	-3.061834e+01	-6.272108e+00	-1.003180e+02	1.671679e+01	-5.729995e+01	9.643713e+01
3.291375e+06	-4.325274e+01	-8.989065e+01	-3.061782e+01	-6.278530e+00	-9.586262e+01	3.345006e+01	-5.732376e+01	9.622166e+01
3.291406e+06	-4.325521e+01	-8.989277e+01	-3.061730e+01	-6.284598e+00	-9.275522e+01	4.006344e+01	-5.734786e+01	9.600903e+01
3.291438e+06	-4.326191e+01	-8.996340e+01	-3.061695e+01	-6.268935e+00	-9.247140e+01	2.789839e+01	-5.739285e+01	9.604351e+01
3.291469e+06	-4.326860e+01	-9.003413e+01	-3.061659e+01	-6.253273e+00	-9.185589e+01	1.694552e+01	-5.743808e+01	9.607835e+01
3.291500e+06	-4.327528e+01	-9.010498e+01	-3.061623e+01	-6.237612e+00	-9.103025e+01	7.683305e+00	-5.748354e+01	9.611356e+01
3.291532e+06	-4.328195e+01	-9.017593e+01	-3.061586e+01	-6.221952e+00	-9.010656e+01	1.216516e-01	-5.752924e+01	9.614914e+01
3.291563e+06	-4.328862e+01	-9.024699e+01	-3.061550e+01	-6.206294e+00	-8.916107e+01	-5.969712e+00	-5.757517e+01	9.618509e+01
3.291594e+06	-4.328501e+01	-9.014197e+01	-3.061496e+01	-6.209489e+00	-8.958144e+01	-4.096741e-01	-5.750911e+01	9.641227e+01
3.291625e+06	-4.328128e+01	-9.003561e+01	-3.061442e+01	-6.212835e+00	-8.993834e+01	5.775443e+00	-5.744253e+01	9.663751e+01
3.291656e+06	-4.327753e+01	-8.992935e+01	-3.061388e+01	-6.216181e+00	-9.019723e+01	1.241695e+01	-5.737631e+01	9.685933e+01
3.291688e+06	-4.327376e+01	-8.982318e+01	-3.061334e+01	-6.219527e+00	-9.033820e+01	1.937286e+01	-5.731048e+01	9.707781e+01
3.291719e+06	-4.326995e+01	-8.971710e+01	-3.061280e+01	-6.222872e+00	-9.034922e+01	2.645218e+01	-5.724501e+01	9.729301e+01
3.291750e+06	-4.326429e+01	-8.969107e+01	-3.061424e+01	-6.227073e+00	-9.298688e+01	1.153521e+01	-5.727698e+01	9.716619e+01
3.291782e+06	-4.325864e+01	-8.966507e+01	-3.061569e+01	-6.231275e+00	-9.521346e+01	-1.525106e+01	-5.730903e+01	9.703844e+01
3.291813e+06	-4.325299e+01	-8.963910e+01	-3.061713e+01	-6.235479e+00	-9.497836e+01	-4.977814e+01	-5.734115e+01	9.690974e+01
3.291844e+06	-4.324733e+01	-8.961317e+01	-3.061858e+01	-6.239684e+00	-9.257318e+01	-7.450087e+01	-5.737335e+01	9.678008e+01
3.291875e+06	-4.324175e+01	-8.958793e+01	-3.062001e+01	-6.243844e+00	-9.001242e+01	-8.801106e+01	-5.740515e+01	9.664858e+01
3.291906e+06	-4.324431e+01	-8.964360e+01	-3.061941e+01	-6.242243e+00	-9.314302e+01	-8.761062e+01	-5.737895e+01	9.640873e+01
3.291938e+06	-4.324685e+01	-8.969930e+01	-3.061882e+01	-6.240642e+00	-9.808380e+01	-8.659641e+01	-5.735268e+01	9.617032e+01
3.291969e+06	-4.324939e+01	-8.975504e+01	-3.061823e+01	-6.239041e+00	-1.106197e+02	-7.898933e+01	-5.732634e+01	9.593336e+01
3.292000e+06	-4.325193e+01	-8.981081e+01	-3.061764e+01	-6.237441e+00	-1.035086e+02	8.669850e+01	-5.729993e+01	9.569783e+01
3.292032e+06	-4.325446e+01	-8.986613e+01	-3.061705e+01	-6.235712e+00	-9.593311e+01	8.936152e+01	-5.727362e+01	9.546555e+01
3.292063e+06	-4.325739e+01	-8.989207e+01	-3.061662e+01	-6.226082e+00	-1.000195e+02	1.003522e+02	-5.725717e+01	9.534650e+01
3.292094e+06	-4.326032e+01	-8.991801e+01	-3.061618e+01	-6.216454e+00	-1.055971e+02	1.358035e+02	-5.724072e+01	9.522790e+01
3.292125e+06	-4.326324e+01	-8.994398e+01	-3.061575e+01	-6.206826e+00	-1.040765e+02	-1.564827e+02	-5.722426e+01	9.510974e+01
3.292156e+06	-4.326617e+01	-8.996996e+01	-3.061531e+01	-6.197200e+00	-9.872192e+01	-1.316925e+02	-5.720779e+01	9.499204e+01
3.292188e+06	-4.326910e+01	-8.999596e+01	-3.061487e+01	-6.187574e+00	-9.504644e+01	-1.231665e+02	-5.719132e+01	9.487478e+01
3.292219e+06	-4.326334e+01	-9.000669e+01	-3.061386e+01	-6.197834e+00	-1.039584e+02	-1.247945e+02	-5.722471e+01	9.504658e+01
3.292250e+06	-4.325751e+01	-9.001728e+01	-3.061284e+01	-6.208252e+00	-1.057323e+02	6.100004e+01	-5.725854e+01	9.522207e+01
3.292282e+06	-4.325169e+01	-9.002786e+01	-3.061183e+01	-6.218668e+00	-9.556790e+01	5.879782e+01	-5.729243e+01	9.539893e+01
3.292313e+06	-4.324587e+01	-9.003842e+01	-3.061081e+01	-6.229081e+00	-9.101031e+01	5.839356e+01	-5.732637e+01	9.557718e+01
3.292344e+06	-4.324005e+01	-9.004897e+01	-3.060979e+01	-6.239492e+00	-8.803644e+01	5.822370e+01	-5.736035e+01	9.575683e+01
3.292375e+06	-4.324681e+01	-9.000429e+01	-3.061127e+01	-6.255653e+00	-9.029324e+01	6.637618e+01	-5.734466e+01	9.584973e+01
3.292406e+06	-4.325358e+01	-8.995954e+01	-3.061274e+01	-6.271819e+00	-9.291299e+01	8.077179e+01	-5.732897e+01	9.594229e+01
3.292438e+06	-4.326034e+01	-8.991472e+01	-3.061421e+01	-6.287991e+00	-9.520696e+01	1.067315e+02	-5.731330e+01	9.603453e+01
3.292469e+06	-4.326711e+01	-8.986983e+01	-3.061569e+01	-6.304169e+00	-9.515336e+01	1.412410e+02	-5.729762e+01	9.612642e+01
3.292500e+06	-4.327382e+01	-8.982544e+01	-3.061715e+01	-6.320180e+00	-9.284595e+01	1.665711e+02	-5.728190e+01	9.621761e+01
3.292532e+06	-4.327411e+01	-8.985113e+01	-3.061721e+01	-6.314873e+00	-9.360020e+01	1.654621e+02	-5.725911e+01	9.626168e+01
3.292563e+06	-4.327439e+01	-8.987683e+01	-3.061728e+01	-6.309566e+00	-9.442195e+01	1.641324e+02	-5.723637e+01	9.630551e+01
3.292594e+06	-4.327467e+01	-8.990253e+01	-3.061734e+01	-6.304259e+00	-9.532330e+01	1.625110e+02	-5.721368e+01	9.634911e+01
3.292625e+06	-4.327496e+01	-8.992824e+01	-3.061741e+01	-6.298951e+00	-9.631943e+01	1.604934e+02	-5.719105e+01	9.639249e+01
3.292656e+06	-4.327512e+01	-8.995285e+01	-3.061746e+01	-6.293806e+00	-9.741460e+01	1.579529e+02	-5.717026e+01	9.643644e+01
3.292688e+06	-4.326842e+01	-8.991056e+01	-3.061712e+01	-6.298603e+00	-9.768126e+01	1.569340e+02	-5.725921e+01	9.653035e+01
3.292719e+06	-4.326172e+01	-8.986833e+01	-3.061677e+01	-6.303400e+00	-9.795334e+01	1.558498e+02	-5.734906e+01	9.662622e+01
3.292750e+06	-4.325502e+01	-8.982617e+01	-3.061643e+01	-6.308197e+00	-9.823080e+01	1.546949e+02	-5.743982e+01	9.672411e+01
3.292782e+06	-4.324831e+01	-8.978407e+01	-3.061608e+01	-6.312993e+00	-9.851352e+01	1.534629e+02	-5.753152e+01	9.682407e+01
3.292813e+06	-4.324161e+01	-8.974204e+01	-3.061573e+01	-6.317789e+00	-9.880133e+01	1.521474e+02	-5.762416e+01	9.692617e+01
3.292844e+06	-4.324927e+01	-8.975358e+01	-3.061580e+01	-6.307044e+00	-1.035069e+02	1.605597e+02	-5.756874e+01	9.683177e+01
3.292875e+06	-4.325705e+01	-8.976558e+01	-3.061587e+01	-6.296173e+00	-1.117163e+02	-1.586724e+02	-5.751245e+01	9.673701e+01
3.292906e+06	-4.326484e+01	-8.977760e+01	-3.061594e+01	-6.285303e+00	-1.072047e+02	-7.041749e+01	-5.745650e+01	9.664346e+01
3.292938e+06	-4.327264e+01	-8.978964e+01	-3.061601e+01	-6.274432e+00	-1.008888e+02	-5.371747e+01	-5.740089e+01	9.655111e+01
3.292969e+06	-4.328044e+01	-8.980170e+01	-3.061608e+01	-6.263561e+00	-9.711952e+01	-4.855475e+01	-5.734561e+01	9.645993e+01
3.293000e+06	-4.327889e+01	-8.984470e+01	-3.061658e+01	-6.255052e+00	-9.794721e+01	-4.422643e+01	-5.731372e+01	9.630791e+01
3.293032e+06	-4.327733e+01	-8.988769e+01	-3.061709e+01	-6.246542e+00	-9.879540e+01	-3.897462e+01	-5.728189e+01	9.615699e+01
3.293063e+06	-4.327577e+01	-8.993066e+01	-3.061759e+01	-6.238031e+00	-9.963676e+01	-3.259086e+01	-5.725012e+01	9.600718e+01
3.293094e+06	-4.327421e+01	-8.997362e+01	-3.061809e+01	-6.229520e+00	-1.004238e+02	-2.488343e+01	-5.721840e+01	9.585846e+01
3.293125e+06	-4.327260e+01	-9.001586e+01	-3.061859e+01	-6.221170e+00	-1.011538e+02	-1.548297e+01	-5.718729e+01	9.571134e+01
3.293156e+06	-4.326615e+01	-8.997050e+01	-3.061832e+01	-6.233046e+00	-1.030925e+02	7.909911e+01	-5.722517e+01	9.562799e+01
3.293188e+06	-4.325970e+01	-8.992521e+01	-3.061805e+01	-6.244922e+00	-9.533845e+01	1.097843e+02	-5.726320e+01	9.554391e+01
3.293219e+06	-4.325325e+01	-8.987999e+01	-3.061778e+01	-6.256797e+00	-9.093106e+01	1.170128e+02	-5.730137e+01	9.545910e+01
3.293250e+06	-4.324680e+01	-8.983484e+01	-3.061751e+01	-6.268671e+00	-8.797888e+01	1.201040e+02	-5.733969e+01	9.537353e+01
3.293282e+06	-4.324049e+01	-8.979142e+01	-3.061722e+01	-6.280121e+00	-8.581071e+01	1.217442e+02	-5.737713e+01	9.528635e+01
3.293313e+06	-4.324313e+01	-8.985085e+01	-3.061554e+01	-6.265486e+00	-8.649088e+01	1.187596e+02	-5.735100e+01	9.514658e+01
3.293344e+06	-4.324577e+01	-8.991032e+01	-3.061386e+01	-6.250856e+00	-8.719877e+01	1.152571e+02	-5.732489e+01	9.500765e+01
3.293375e+06	-4.324839e+01	-8.996982e+01	-3.061218e+01	-6.236232e+00	-8.792768e+01	1.111236e+02	-5.729882e+01	9.486956e+01
3.293406e+06	-4.325101e+01	-9.002936e+01	-3.061050e+01	-6.221614e+00	-8.866478e+01	1.062284e+02	-5.727277e+01	9.473229e+01
3.293438e+06	-4.325362e+01	-9.008893e+01	-3.060882e+01	-6.207002e+00	-8.938803e+01	1.004341e+02	-5.724675e+01	9.459584e+01
3.293469e+06	-4.325989e+01	-9.004245e+01	-3.061131e+01	-6.217828e+00	-9.262589e+01	9.473361e+01	-5.724017e+01	9.464429e+01
3.293500e+06	-4.326619e+01	-8.999504e+01	-3.061383e+01	-6.228865e+00	-9.749148e+01	8.013037e+01	-5.723376e+01	9.469415e+01
3.293532e+06	-4.327249e+01	-8.994756e+01	-3.061635e+01	-6.239909e+00	-1.028934e+02	2.482224e+01	-5.722734e+01	9.474395e+01
3.293563e+06	-4.327878e+01	-8.990001e+01	-3.061888e+01	-6.250959e+00	-9.780321e+01	-3.363710e+01	-5.722091e+01	9.479367e+01
3.293594e+06	-4.328508e+01	-8.985239e+01	-3.062140e+01	-6.262016e+00	-9.282668e+01	-4.914961e+01	-5.721449e+01	9.484331e+01
