!CETC41,AV3656A,ZGL00048,1.3.2
!Calibration ON (Full Solt 2-Port(Omit Isolation))
!Measurements: S11 S21 S12 S22
!2025-07-09 22:09
# Hz  S  dB  R 50.000
9.990000e+006	-4.259514e+001	-8.533441e+001	-3.077920e+001	-2.120863e+001	-8.912428e+001	4.402294e+001	-3.669342e+001	1.377969e+001
9.990005e+006	-4.256963e+001	-8.534109e+001	-3.078173e+001	-2.111582e+001	-9.174306e+001	5.787966e+001	-3.668476e+001	1.383143e+001
9.990009e+006	-4.258492e+001	-8.522590e+001	-3.078567e+001	-2.117175e+001	-8.622992e+001	1.021688e+002	-3.666716e+001	1.371116e+001
9.990014e+006	-4.257690e+001	-8.522921e+001	-3.079002e+001	-2.118638e+001	-1.013932e+002	1.603956e+002	-3.669418e+001	1.387133e+001
9.990019e+006	-4.258548e+001	-8.542423e+001	-3.078619e+001	-2.120898e+001	-8.886480e+001	6.054888e+001	-3.667462e+001	1.379122e+001
9.990023e+006	-4.260182e+001	-8.528160e+001	-3.078913e+001	-2.124156e+001	-9.589598e+001	-9.925407e+001	-3.666187e+001	1.384174e+001
9.990028e+006	-4.259821e+001	-8.525268e+001	-3.079169e+001	-2.115188e+001	-9.797364e+001	9.913266e+001	-3.666355e+001	1.373665e+001
9.990033e+006	-4.257776e+001	-8.535377e+001	-3.078877e+001	-2.119825e+001	-9.335636e+001	1.683955e+002	-3.667717e+001	1.384170e+001
9.990038e+006	-4.258057e+001	-8.527111e+001	-3.077896e+001	-2.118071e+001	-1.010152e+002	-4.977345e+001	-3.667266e+001	1.380079e+001
9.990042e+006	-4.257315e+001	-8.504528e+001	-3.077823e+001	-2.121391e+001	-9.118050e+001	1.227136e+002	-3.667502e+001	1.371690e+001
9.990047e+006	-4.255870e+001	-8.526480e+001	-3.078790e+001	-2.124355e+001	-8.924301e+001	1.658588e+002	-3.667608e+001	1.384564e+001
9.990052e+006	-4.253166e+001	-8.515572e+001	-3.078699e+001	-2.119884e+001	-9.870839e+001	1.027098e+002	-3.667083e+001	1.375049e+001
9.990056e+006	-4.256017e+001	-8.530282e+001	-3.078494e+001	-2.123310e+001	-8.598957e+001	8.899389e+001	-3.667772e+001	1.374577e+001
9.990061e+006	-4.261225e+001	-8.518708e+001	-3.079305e+001	-2.119385e+001	-9.523657e+001	1.552757e+002	-3.666222e+001	1.383446e+001
9.990066e+006	-4.257859e+001	-8.521531e+001	-3.079890e+001	-2.127686e+001	-9.101008e+001	-1.394528e+002	-3.665941e+001	1.387504e+001
9.990070e+006	-4.257334e+001	-8.513571e+001	-3.081155e+001	-2.123069e+001	-9.329927e+001	4.793202e+001	-3.668469e+001	1.378769e+001
9.990075e+006	-4.256527e+001	-8.531898e+001	-3.080742e+001	-2.118063e+001	-9.475678e+001	-3.451114e+001	-3.669101e+001	1.375047e+001
9.990080e+006	-4.259274e+001	-8.513637e+001	-3.079891e+001	-2.122871e+001	-9.573161e+001	1.409971e+002	-3.666562e+001	1.375934e+001
9.990084e+006	-4.256663e+001	-8.533474e+001	-3.081712e+001	-2.114838e+001	-9.013182e+001	6.375269e+001	-3.666361e+001	1.370854e+001
9.990089e+006	-4.258074e+001	-8.525624e+001	-3.079227e+001	-2.114160e+001	-9.161431e+001	9.616850e+001	-3.667319e+001	1.376786e+001
9.990094e+006	-4.259387e+001	-8.492804e+001	-3.079325e+001	-2.114263e+001	-1.025565e+002	1.474642e+002	-3.667455e+001	1.372835e+001
9.990098e+006	-4.260986e+001	-8.519357e+001	-3.079512e+001	-2.112699e+001	-9.224136e+001	6.305219e+001	-3.666467e+001	1.380073e+001
9.990103e+006	-4.256707e+001	-8.535346e+001	-3.079149e+001	-2.121004e+001	-8.927270e+001	1.073309e+002	-3.668368e+001	1.368716e+001
9.990108e+006	-4.258917e+001	-8.540006e+001	-3.079148e+001	-2.120895e+001	-8.822006e+001	6.005675e+001	-3.667911e+001	1.382882e+001
9.990113e+006	-4.260992e+001	-8.501633e+001	-3.078922e+001	-2.124776e+001	-9.289806e+001	7.423200e+001	-3.668093e+001	1.388004e+001
9.990117e+006	-4.255679e+001	-8.522971e+001	-3.080303e+001	-2.123818e+001	-1.042209e+002	1.606780e+002	-3.668081e+001	1.378716e+001
9.990122e+006	-4.257092e+001	-8.506715e+001	-3.079919e+001	-2.120937e+001	-9.363611e+001	-1.755493e+002	-3.667301e+001	1.363774e+001
9.990127e+006	-4.258431e+001	-8.502920e+001	-3.079657e+001	-2.116111e+001	-9.482885e+001	1.428285e+002	-3.668913e+001	1.381965e+001
9.990131e+006	-4.255637e+001	-8.527296e+001	-3.079972e+001	-2.123952e+001	-9.053268e+001	1.481589e+002	-3.667652e+001	1.373681e+001
9.990136e+006	-4.257845e+001	-8.537374e+001	-3.079303e+001	-2.116328e+001	-9.473081e+001	-1.340798e+002	-3.668441e+001	1.381301e+001
9.990141e+006	-4.257442e+001	-8.520639e+001	-3.078904e+001	-2.124307e+001	-9.510055e+001	9.618178e+001	-3.667848e+001	1.384380e+001
9.990145e+006	-4.256596e+001	-8.526673e+001	-3.079162e+001	-2.123151e+001	-9.534486e+001	4.806240e+001	-3.668592e+001	1.363594e+001
9.990150e+006	-4.259361e+001	-8.503595e+001	-3.079303e+001	-2.115892e+001	-9.864999e+001	1.374542e+002	-3.668360e+001	1.375564e+001
9.990155e+006	-4.257182e+001	-8.558187e+001	-3.079192e+001	-2.121482e+001	-8.867282e+001	1.198393e+002	-3.668341e+001	1.370333e+001
9.990159e+006	-4.259312e+001	-8.517655e+001	-3.078677e+001	-2.126403e+001	-8.594516e+001	7.389835e+001	-3.667843e+001	1.383668e+001
9.990164e+006	-4.258964e+001	-8.521454e+001	-3.079440e+001	-2.124562e+001	-1.003367e+002	2.582690e+001	-3.669322e+001	1.374208e+001
9.990169e+006	-4.258147e+001	-8.500426e+001	-3.078899e+001	-2.124903e+001	-9.509687e+001	8.540468e+001	-3.668459e+001	1.381644e+001
9.990173e+006	-4.259748e+001	-8.511470e+001	-3.079469e+001	-2.118029e+001	-9.853268e+001	1.295956e+002	-3.669163e+001	1.378616e+001
9.990178e+006	-4.259599e+001	-8.527122e+001	-3.079568e+001	-2.117717e+001	-1.043222e+002	-8.238627e-002	-3.667285e+001	1.381080e+001
9.990183e+006	-4.258676e+001	-8.516635e+001	-3.078758e+001	-2.118031e+001	-9.584491e+001	9.708817e+001	-3.667908e+001	1.374812e+001
9.990188e+006	-4.257643e+001	-8.526721e+001	-3.078686e+001	-2.121663e+001	-8.780959e+001	9.629696e+001	-3.666652e+001	1.377546e+001
9.990192e+006	-4.254866e+001	-8.514693e+001	-3.079124e+001	-2.125783e+001	-9.545614e+001	4.604568e+001	-3.667774e+001	1.373512e+001
9.990197e+006	-4.257367e+001	-8.506229e+001	-3.078959e+001	-2.117038e+001	-8.728054e+001	1.486024e+002	-3.667489e+001	1.376506e+001
9.990202e+006	-4.255735e+001	-8.518602e+001	-3.080001e+001	-2.120322e+001	-8.696951e+001	1.174280e+002	-3.666559e+001	1.390345e+001
9.990206e+006	-4.255379e+001	-8.526243e+001	-3.078664e+001	-2.113386e+001	-9.538938e+001	1.790258e+002	-3.667874e+001	1.360770e+001
9.990211e+006	-4.256456e+001	-8.523925e+001	-3.079496e+001	-2.123715e+001	-8.814802e+001	8.534925e+001	-3.668202e+001	1.363010e+001
9.990216e+006	-4.255352e+001	-8.512670e+001	-3.079013e+001	-2.127115e+001	-1.064369e+002	7.342263e+001	-3.668928e+001	1.386134e+001
9.990220e+006	-4.258629e+001	-8.518359e+001	-3.079996e+001	-2.116897e+001	-8.713053e+001	1.553484e+002	-3.666466e+001	1.381500e+001
9.990225e+006	-4.259475e+001	-8.510486e+001	-3.079184e+001	-2.117239e+001	-9.089432e+001	9.819730e+001	-3.667589e+001	1.371919e+001
9.990230e+006	-4.257890e+001	-8.532027e+001	-3.079487e+001	-2.114549e+001	-1.004323e+002	1.272182e+002	-3.668702e+001	1.374749e+001
9.990234e+006	-4.258314e+001	-8.527957e+001	-3.079290e+001	-2.119681e+001	-9.622667e+001	1.263894e+002	-3.667937e+001	1.383306e+001
9.990239e+006	-4.259669e+001	-8.512687e+001	-3.078850e+001	-2.121166e+001	-9.853709e+001	1.617350e+001	-3.668170e+001	1.384662e+001
9.990244e+006	-4.257451e+001	-8.518096e+001	-3.078748e+001	-2.124832e+001	-8.799687e+001	1.362268e+002	-3.666981e+001	1.377560e+001
9.990248e+006	-4.255803e+001	-8.523554e+001	-3.080054e+001	-2.120965e+001	-8.767788e+001	1.530659e+002	-3.668418e+001	1.364348e+001
9.990253e+006	-4.255315e+001	-8.508477e+001	-3.079099e+001	-2.117777e+001	-9.421853e+001	-1.375585e+002	-3.667598e+001	1.372261e+001
9.990258e+006	-4.257752e+001	-8.523660e+001	-3.079118e+001	-2.115125e+001	-8.627133e+001	1.337933e+002	-3.667732e+001	1.385321e+001
9.990263e+006	-4.255590e+001	-8.517030e+001	-3.078219e+001	-2.114282e+001	-9.248469e+001	1.062135e+002	-3.667870e+001	1.366172e+001
9.990267e+006	-4.259466e+001	-8.499797e+001	-3.079434e+001	-2.121104e+001	-1.052070e+002	1.111267e+002	-3.668221e+001	1.374025e+001
9.990272e+006	-4.259514e+001	-8.517131e+001	-3.079057e+001	-2.114923e+001	-1.002810e+002	-1.711915e+002	-3.669545e+001	1.387405e+001
9.990277e+006	-4.255976e+001	-8.503200e+001	-3.078515e+001	-2.115182e+001	-1.009480e+002	-1.592530e+002	-3.668653e+001	1.373348e+001
9.990281e+006	-4.257075e+001	-8.539816e+001	-3.079253e+001	-2.121190e+001	-9.276446e+001	-1.477377e+002	-3.666103e+001	1.374964e+001
9.990286e+006	-4.254923e+001	-8.516601e+001	-3.078304e+001	-2.121047e+001	-8.812219e+001	1.081567e+002	-3.669128e+001	1.374948e+001
9.990291e+006	-4.257134e+001	-8.513677e+001	-3.079920e+001	-2.122064e+001	-9.722754e+001	2.675611e+001	-3.669639e+001	1.376385e+001
9.990295e+006	-4.258222e+001	-8.536033e+001	-3.077329e+001	-2.114330e+001	-9.532794e+001	6.012721e+000	-3.667236e+001	1.391587e+001
9.990300e+006	-4.259410e+001	-8.520679e+001	-3.078753e+001	-2.121392e+001	-9.546196e+001	5.059956e+001	-3.666322e+001	1.373950e+001
9.990305e+006	-4.259171e+001	-8.542650e+001	-3.079517e+001	-2.121300e+001	-1.000673e+002	-9.179495e+001	-3.666951e+001	1.378979e+001
9.990309e+006	-4.258810e+001	-8.505865e+001	-3.079295e+001	-2.116259e+001	-9.690475e+001	2.761396e+001	-3.668548e+001	1.378684e+001
9.990314e+006	-4.259490e+001	-8.525447e+001	-3.078614e+001	-2.116624e+001	-9.510820e+001	4.861817e+001	-3.667206e+001	1.380711e+001
9.990319e+006	-4.255868e+001	-8.519138e+001	-3.078769e+001	-2.123841e+001	-1.163802e+002	-8.200418e+001	-3.667108e+001	1.372611e+001
9.990323e+006	-4.258413e+001	-8.507712e+001	-3.079506e+001	-2.120378e+001	-8.988565e+001	1.233353e+002	-3.669288e+001	1.377229e+001
9.990328e+006	-4.258342e+001	-8.526330e+001	-3.079217e+001	-2.117483e+001	-9.077231e+001	9.069932e+001	-3.670561e+001	1.373211e+001
9.990333e+006	-4.254409e+001	-8.537814e+001	-3.079187e+001	-2.119948e+001	-9.418730e+001	5.140681e+001	-3.667661e+001	1.373289e+001
9.990338e+006	-4.259279e+001	-8.493514e+001	-3.078752e+001	-2.125114e+001	-9.504877e+001	8.258859e+001	-3.668851e+001	1.377363e+001
9.990342e+006	-4.256294e+001	-8.518360e+001	-3.078708e+001	-2.119789e+001	-9.384991e+001	-1.541918e+001	-3.667882e+001	1.383300e+001
9.990347e+006	-4.259930e+001	-8.530528e+001	-3.078400e+001	-2.115119e+001	-9.804086e+001	1.131146e+002	-3.667968e+001	1.383606e+001
9.990352e+006	-4.255810e+001	-8.501462e+001	-3.079094e+001	-2.113996e+001	-9.852478e+001	1.487433e+002	-3.667335e+001	1.365253e+001
9.990356e+006	-4.255026e+001	-8.515349e+001	-3.078140e+001	-2.125476e+001	-8.874476e+001	6.330861e+001	-3.667135e+001	1.369212e+001
9.990361e+006	-4.256520e+001	-8.499718e+001	-3.078411e+001	-2.129774e+001	-8.878810e+001	6.759140e+001	-3.668557e+001	1.374943e+001
9.990366e+006	-4.257302e+001	-8.520433e+001	-3.080196e+001	-2.115621e+001	-9.849353e+001	-6.014634e+001	-3.668692e+001	1.390359e+001
9.990370e+006	-4.259524e+001	-8.516585e+001	-3.079901e+001	-2.126961e+001	-9.322971e+001	1.989915e+001	-3.666480e+001	1.371820e+001
9.990375e+006	-4.259723e+001	-8.510519e+001	-3.079166e+001	-2.123235e+001	-9.285984e+001	-4.252608e+001	-3.669674e+001	1.373215e+001
9.990380e+006	-4.261590e+001	-8.507499e+001	-3.078550e+001	-2.123484e+001	-1.017692e+002	4.610388e+001	-3.669225e+001	1.363111e+001
9.990384e+006	-4.260213e+001	-8.529315e+001	-3.079735e+001	-2.124794e+001	-9.691317e+001	-1.236171e+002	-3.665789e+001	1.375964e+001
9.990389e+006	-4.262764e+001	-8.521956e+001	-3.080282e+001	-2.119180e+001	-8.883980e+001	-1.796028e+002	-3.667963e+001	1.388082e+001
9.990394e+006	-4.258341e+001	-8.521692e+001	-3.079313e+001	-2.119384e+001	-9.765583e+001	1.149871e+002	-3.669508e+001	1.373155e+001
9.990398e+006	-4.260063e+001	-8.527899e+001	-3.078677e+001	-2.121973e+001	-1.169516e+002	-1.590721e+002	-3.667796e+001	1.369267e+001
9.990403e+006	-4.256481e+001	-8.525252e+001	-3.079362e+001	-2.122423e+001	-9.149546e+001	1.773990e+002	-3.667367e+001	1.395063e+001
9.990408e+006	-4.259090e+001	-8.524654e+001	-3.079627e+001	-2.112538e+001	-9.077216e+001	1.548422e+002	-3.669835e+001	1.375610e+001
9.990413e+006	-4.258577e+001	-8.497651e+001	-3.078495e+001	-2.117273e+001	-9.177046e+001	1.761969e+002	-3.668058e+001	1.378070e+001
9.990417e+006	-4.256788e+001	-8.502793e+001	-3.077901e+001	-2.121935e+001	-9.031424e+001	1.977985e+001	-3.667879e+001	1.373034e+001
9.990422e+006	-4.255553e+001	-8.522926e+001	-3.078504e+001	-2.122093e+001	-9.146047e+001	1.123045e+002	-3.667990e+001	1.373147e+001
9.990427e+006	-4.260090e+001	-8.538468e+001	-3.079782e+001	-2.117728e+001	-1.156631e+002	5.541186e+001	-3.667208e+001	1.370148e+001
9.990431e+006	-4.256420e+001	-8.511934e+001	-3.078688e+001	-2.118916e+001	-9.024930e+001	4.006592e+001	-3.667973e+001	1.377313e+001
9.990436e+006	-4.257668e+001	-8.518753e+001	-3.079612e+001	-2.120073e+001	-1.025200e+002	4.809849e+000	-3.667567e+001	1.373210e+001
9.990441e+006	-4.257535e+001	-8.494652e+001	-3.079004e+001	-2.115947e+001	-9.189170e+001	-1.724526e+002	-3.668407e+001	1.361092e+001
9.990445e+006	-4.258738e+001	-8.502463e+001	-3.078431e+001	-2.114400e+001	-1.039821e+002	1.514048e+002	-3.667089e+001	1.377663e+001
9.990450e+006	-4.255358e+001	-8.522836e+001	-3.078698e+001	-2.116544e+001	-9.278237e+001	-1.113171e+002	-3.667103e+001	1.383557e+001
9.990455e+006	-4.258307e+001	-8.520439e+001	-3.079182e+001	-2.124513e+001	-9.856622e+001	1.691878e+002	-3.667040e+001	1.366139e+001
9.990459e+006	-4.256797e+001	-8.532766e+001	-3.078886e+001	-2.119314e+001	-9.450966e+001	8.673209e+001	-3.669454e+001	1.367876e+001
9.990464e+006	-4.260074e+001	-8.524056e+001	-3.078416e+001	-2.117352e+001	-8.909764e+001	1.425474e+002	-3.669654e+001	1.374685e+001
9.990469e+006	-4.259056e+001	-8.521745e+001	-3.078686e+001	-2.115456e+001	-8.969909e+001	-1.750267e+002	-3.669575e+001	1.373919e+001
9.990473e+006	-4.256349e+001	-8.488139e+001	-3.079003e+001	-2.118572e+001	-9.122821e+001	9.332501e+001	-3.668200e+001	1.376191e+001
9.990478e+006	-4.256633e+001	-8.499492e+001	-3.079023e+001	-2.123375e+001	-9.461609e+001	1.073009e+002	-3.668245e+001	1.383015e+001
9.990483e+006	-4.259913e+001	-8.495738e+001	-3.077615e+001	-2.119834e+001	-8.842300e+001	1.033681e+002	-3.668171e+001	1.377498e+001
9.990488e+006	-4.258541e+001	-8.523300e+001	-3.078661e+001	-2.117181e+001	-9.446264e+001	-1.113548e+002	-3.668293e+001	1.377798e+001
9.990492e+006	-4.259115e+001	-8.509935e+001	-3.078247e+001	-2.119645e+001	-9.231687e+001	1.319832e+002	-3.669859e+001	1.379446e+001
9.990497e+006	-4.253123e+001	-8.523249e+001	-3.078187e+001	-2.121481e+001	-1.061561e+002	-1.295385e+002	-3.668673e+001	1.376457e+001
9.990502e+006	-4.256232e+001	-8.502341e+001	-3.078518e+001	-2.119689e+001	-9.909310e+001	-9.944355e+001	-3.668262e+001	1.380442e+001
9.990506e+006	-4.259218e+001	-8.532672e+001	-3.077517e+001	-2.119817e+001	-9.967014e+001	-1.221363e+002	-3.669271e+001	1.389942e+001
9.990511e+006	-4.258228e+001	-8.501676e+001	-3.078283e+001	-2.112103e+001	-9.351944e+001	1.443652e+002	-3.667300e+001	1.388040e+001
9.990516e+006	-4.261021e+001	-8.525921e+001	-3.078381e+001	-2.118499e+001	-9.396020e+001	-3.877360e+001	-3.668596e+001	1.374732e+001
9.990520e+006	-4.256350e+001	-8.520230e+001	-3.078326e+001	-2.121431e+001	-9.188951e+001	1.460769e+002	-3.669283e+001	1.384021e+001
9.990525e+006	-4.254343e+001	-8.512956e+001	-3.078926e+001	-2.122423e+001	-8.809246e+001	1.309950e+002	-3.667829e+001	1.386813e+001
9.990530e+006	-4.263602e+001	-8.511295e+001	-3.078200e+001	-2.117376e+001	-9.859579e+001	8.307547e+001	-3.667157e+001	1.376354e+001
9.990534e+006	-4.257622e+001	-8.516581e+001	-3.077993e+001	-2.125102e+001	-8.819357e+001	9.085018e+001	-3.668719e+001	1.374218e+001
9.990539e+006	-4.258481e+001	-8.515387e+001	-3.078463e+001	-2.115134e+001	-9.958468e+001	2.142528e+001	-3.668344e+001	1.391855e+001
9.990544e+006	-4.259895e+001	-8.488867e+001	-3.079748e+001	-2.129519e+001	-9.073555e+001	9.865903e+001	-3.669475e+001	1.381873e+001
9.990548e+006	-4.258486e+001	-8.520125e+001	-3.078149e+001	-2.112691e+001	-9.914690e+001	9.142063e+001	-3.666788e+001	1.383468e+001
9.990553e+006	-4.255815e+001	-8.514653e+001	-3.078210e+001	-2.125781e+001	-9.339452e+001	3.848703e+000	-3.668433e+001	1.383215e+001
9.990558e+006	-4.257942e+001	-8.514420e+001	-3.078765e+001	-2.125781e+001	-1.008886e+002	-1.141738e+002	-3.669350e+001	1.365169e+001
9.990563e+006	-4.258898e+001	-8.516060e+001	-3.078467e+001	-2.111966e+001	-8.972938e+001	1.346127e+002	-3.667985e+001	1.385137e+001
9.990567e+006	-4.256053e+001	-8.504616e+001	-3.079744e+001	-2.123253e+001	-9.376304e+001	6.645729e+001	-3.668647e+001	1.374406e+001
9.990572e+006	-4.257914e+001	-8.504098e+001	-3.078469e+001	-2.122298e+001	-9.157605e+001	9.191842e+001	-3.668602e+001	1.375853e+001
9.990577e+006	-4.258645e+001	-8.507222e+001	-3.079428e+001	-2.121720e+001	-9.359077e+001	1.351117e+002	-3.667558e+001	1.368665e+001
9.990581e+006	-4.259797e+001	-8.520471e+001	-3.077807e+001	-2.128847e+001	-8.953011e+001	9.038250e+001	-3.669213e+001	1.377425e+001
9.990586e+006	-4.259995e+001	-8.521157e+001	-3.077813e+001	-2.121618e+001	-8.836471e+001	6.132745e+001	-3.668184e+001	1.378222e+001
9.990591e+006	-4.260857e+001	-8.501901e+001	-3.078529e+001	-2.126084e+001	-9.864633e+001	1.651841e+002	-3.666079e+001	1.373476e+001
9.990595e+006	-4.259647e+001	-8.544357e+001	-3.078220e+001	-2.122338e+001	-8.924540e+001	1.420744e+002	-3.669210e+001	1.380509e+001
9.990600e+006	-4.258434e+001	-8.493223e+001	-3.078708e+001	-2.120130e+001	-9.881246e+001	1.278094e+001	-3.666581e+001	1.372378e+001
9.990605e+006	-4.256904e+001	-8.542704e+001	-3.078598e+001	-2.127959e+001	-1.075608e+002	6.112622e+001	-3.668554e+001	1.385554e+001
9.990609e+006	-4.257882e+001	-8.521618e+001	-3.077955e+001	-2.123850e+001	-8.995108e+001	-1.303939e+002	-3.668219e+001	1.374390e+001
9.990614e+006	-4.256821e+001	-8.494180e+001	-3.078034e+001	-2.115863e+001	-9.000537e+001	-2.880093e+001	-3.669393e+001	1.369757e+001
9.990619e+006	-4.260493e+001	-8.512274e+001	-3.078821e+001	-2.117990e+001	-8.949401e+001	1.526458e+002	-3.667037e+001	1.371738e+001
9.990623e+006	-4.259750e+001	-8.506741e+001	-3.079019e+001	-2.127079e+001	-1.008598e+002	7.968843e+001	-3.667676e+001	1.364969e+001
9.990628e+006	-4.256353e+001	-8.504738e+001	-3.078390e+001	-2.108330e+001	-9.713887e+001	1.419046e+002	-3.666906e+001	1.376953e+001
9.990633e+006	-4.257209e+001	-8.492390e+001	-3.078745e+001	-2.124500e+001	-9.229977e+001	1.355330e+002	-3.668447e+001	1.366968e+001
9.990638e+006	-4.258765e+001	-8.525393e+001	-3.077792e+001	-2.120907e+001	-9.289007e+001	8.285391e+001	-3.667110e+001	1.377770e+001
9.990642e+006	-4.258723e+001	-8.510173e+001	-3.079358e+001	-2.122432e+001	-8.917975e+001	1.583070e+002	-3.667712e+001	1.385381e+001
9.990647e+006	-4.256843e+001	-8.529637e+001	-3.078156e+001	-2.127118e+001	-9.363045e+001	1.323216e+002	-3.668332e+001	1.383861e+001
9.990652e+006	-4.259199e+001	-8.522137e+001	-3.078157e+001	-2.116338e+001	-9.283103e+001	1.005217e+002	-3.667276e+001	1.373532e+001
9.990656e+006	-4.258082e+001	-8.499836e+001	-3.078531e+001	-2.128133e+001	-9.017806e+001	1.524662e+002	-3.667545e+001	1.366939e+001
9.990661e+006	-4.257790e+001	-8.523332e+001	-3.077695e+001	-2.112786e+001	-9.729420e+001	3.365946e+000	-3.668241e+001	1.371395e+001
9.990666e+006	-4.260573e+001	-8.502357e+001	-3.078014e+001	-2.111828e+001	-9.629460e+001	2.840323e+001	-3.667951e+001	1.386440e+001
9.990670e+006	-4.256269e+001	-8.521002e+001	-3.079089e+001	-2.123472e+001	-9.441288e+001	-1.652595e+002	-3.668438e+001	1.378031e+001
9.990675e+006	-4.258388e+001	-8.520556e+001	-3.078726e+001	-2.127962e+001	-9.777592e+001	1.201922e+002	-3.668466e+001	1.382193e+001
9.990680e+006	-4.256546e+001	-8.521764e+001	-3.077999e+001	-2.118051e+001	-9.837798e+001	1.252279e+002	-3.668349e+001	1.383656e+001
9.990684e+006	-4.257131e+001	-8.531221e+001	-3.079092e+001	-2.120250e+001	-8.970141e+001	5.631747e+001	-3.667864e+001	1.382628e+001
9.990689e+006	-4.258510e+001	-8.531838e+001	-3.077500e+001	-2.128663e+001	-1.003593e+002	9.688678e+000	-3.669294e+001	1.384462e+001
