!CETC41,AV3656A,ZGL00048,1.3.2
!Calibration ON (Full Solt 2-Port(Omit Isolation))
!Measurements: S11 S21 S12 S22
!2025-07-09 22:48
# Hz  S  dB  R 50.000
9.990000e+006	-4.228335e+001	-8.465761e+001	-3.067353e+001	-2.211756e+001	-1.012499e+002	1.758260e+002	-4.401646e+001	3.830474e+001
9.990005e+006	-4.230283e+001	-8.453597e+001	-3.067977e+001	-2.213294e+001	-1.010878e+002	4.793731e+001	-4.403323e+001	3.834899e+001
9.990009e+006	-4.230517e+001	-8.438177e+001	-3.065860e+001	-2.214091e+001	-9.651153e+001	1.350707e+002	-4.402010e+001	3.847681e+001
9.990014e+006	-4.229090e+001	-8.438792e+001	-3.067022e+001	-2.217781e+001	-9.003747e+001	1.268189e+002	-4.400993e+001	3.844099e+001
9.990019e+006	-4.228611e+001	-8.471236e+001	-3.066373e+001	-2.220518e+001	-1.034248e+002	1.297190e+002	-4.397565e+001	3.837726e+001
9.990023e+006	-4.228505e+001	-8.439821e+001	-3.067408e+001	-2.218213e+001	-9.020030e+001	1.235825e+001	-4.406036e+001	3.824493e+001
9.990028e+006	-4.231623e+001	-8.460202e+001	-3.068651e+001	-2.215266e+001	-1.021554e+002	1.115638e+002	-4.403542e+001	3.832018e+001
9.990033e+006	-4.229353e+001	-8.465096e+001	-3.068183e+001	-2.218985e+001	-8.984734e+001	8.458946e+001	-4.402938e+001	3.827661e+001
9.990038e+006	-4.232343e+001	-8.441344e+001	-3.068078e+001	-2.215858e+001	-9.725219e+001	5.649242e+001	-4.402293e+001	3.828541e+001
9.990042e+006	-4.232659e+001	-8.434903e+001	-3.066736e+001	-2.217888e+001	-9.256912e+001	-5.228561e+001	-4.403966e+001	3.866271e+001
9.990047e+006	-4.230997e+001	-8.444630e+001	-3.066574e+001	-2.215809e+001	-8.713162e+001	1.658579e+002	-4.402936e+001	3.847135e+001
9.990052e+006	-4.228234e+001	-8.443789e+001	-3.068356e+001	-2.214780e+001	-9.099511e+001	1.034669e+002	-4.401903e+001	3.837894e+001
9.990056e+006	-4.228586e+001	-8.446520e+001	-3.066985e+001	-2.216374e+001	-9.669751e+001	-1.072525e+002	-4.402540e+001	3.842115e+001
9.990061e+006	-4.229767e+001	-8.443892e+001	-3.066844e+001	-2.208420e+001	-9.678555e+001	-2.190169e+001	-4.403378e+001	3.851819e+001
9.990066e+006	-4.228569e+001	-8.458522e+001	-3.066848e+001	-2.214943e+001	-9.052391e+001	9.268482e+001	-4.403119e+001	3.821408e+001
9.990070e+006	-4.229909e+001	-8.448123e+001	-3.066217e+001	-2.212236e+001	-1.009675e+002	1.018076e+002	-4.403439e+001	3.828899e+001
9.990075e+006	-4.227666e+001	-8.431474e+001	-3.066805e+001	-2.219034e+001	-1.000270e+002	9.069060e+001	-4.396242e+001	3.841144e+001
9.990080e+006	-4.230732e+001	-8.436344e+001	-3.067084e+001	-2.220091e+001	-1.011015e+002	7.203629e+001	-4.399270e+001	3.850618e+001
9.990084e+006	-4.229509e+001	-8.453055e+001	-3.067245e+001	-2.215102e+001	-9.386432e+001	-1.788302e+002	-4.403404e+001	3.834994e+001
9.990089e+006	-4.231750e+001	-8.430136e+001	-3.066846e+001	-2.216344e+001	-9.982825e+001	-1.181779e+002	-4.400584e+001	3.838737e+001
9.990094e+006	-4.231799e+001	-8.434552e+001	-3.067251e+001	-2.205279e+001	-9.563425e+001	-8.003743e+001	-4.402740e+001	3.820983e+001
9.990098e+006	-4.232436e+001	-8.447281e+001	-3.066584e+001	-2.213701e+001	-8.825826e+001	6.060861e+001	-4.401851e+001	3.808407e+001
9.990103e+006	-4.230419e+001	-8.443017e+001	-3.066522e+001	-2.207075e+001	-9.308249e+001	6.907579e+001	-4.403723e+001	3.856572e+001
9.990108e+006	-4.228992e+001	-8.450088e+001	-3.066220e+001	-2.211686e+001	-9.181387e+001	-1.718735e+002	-4.401301e+001	3.814295e+001
9.990113e+006	-4.229124e+001	-8.437627e+001	-3.066325e+001	-2.216504e+001	-9.012482e+001	1.504972e+002	-4.399293e+001	3.825228e+001
9.990117e+006	-4.228207e+001	-8.461281e+001	-3.067314e+001	-2.213954e+001	-8.814644e+001	4.977796e+001	-4.399465e+001	3.840170e+001
9.990122e+006	-4.227730e+001	-8.455581e+001	-3.066187e+001	-2.209104e+001	-9.174074e+001	9.817848e+001	-4.399073e+001	3.821957e+001
9.990127e+006	-4.225591e+001	-8.439688e+001	-3.066228e+001	-2.210509e+001	-1.009680e+002	1.662539e+002	-4.400567e+001	3.823147e+001
9.990131e+006	-4.229672e+001	-8.451911e+001	-3.066429e+001	-2.215937e+001	-9.518707e+001	1.316421e+002	-4.405563e+001	3.837560e+001
9.990136e+006	-4.230406e+001	-8.448485e+001	-3.067678e+001	-2.209235e+001	-1.011172e+002	-8.538868e+001	-4.402119e+001	3.840286e+001
9.990141e+006	-4.229943e+001	-8.455323e+001	-3.067490e+001	-2.213766e+001	-8.981906e+001	1.126325e+002	-4.401083e+001	3.825705e+001
9.990145e+006	-4.229347e+001	-8.457805e+001	-3.067063e+001	-2.214575e+001	-8.919128e+001	1.224194e+002	-4.402988e+001	3.832750e+001
9.990150e+006	-4.228874e+001	-8.426187e+001	-3.067019e+001	-2.210051e+001	-8.441806e+001	1.325751e+002	-4.403791e+001	3.860037e+001
9.990155e+006	-4.231900e+001	-8.449109e+001	-3.068000e+001	-2.213459e+001	-1.015930e+002	1.228429e+002	-4.399439e+001	3.840359e+001
9.990159e+006	-4.231314e+001	-8.442867e+001	-3.067592e+001	-2.208334e+001	-1.138877e+002	7.397704e+001	-4.403116e+001	3.817642e+001
9.990164e+006	-4.229728e+001	-8.461219e+001	-3.067721e+001	-2.216060e+001	-9.195049e+001	-2.568072e+001	-4.399875e+001	3.831970e+001
9.990169e+006	-4.229749e+001	-8.456129e+001	-3.067494e+001	-2.214965e+001	-9.544119e+001	5.974001e+001	-4.400280e+001	3.825913e+001
9.990173e+006	-4.228322e+001	-8.464434e+001	-3.066841e+001	-2.219441e+001	-9.700038e+001	1.658303e+002	-4.403688e+001	3.814036e+001
9.990178e+006	-4.229459e+001	-8.449065e+001	-3.066898e+001	-2.207672e+001	-9.812923e+001	6.149674e+001	-4.398808e+001	3.845206e+001
9.990183e+006	-4.230428e+001	-8.425385e+001	-3.067044e+001	-2.217206e+001	-9.882954e+001	-1.543225e+002	-4.402367e+001	3.827151e+001
9.990188e+006	-4.228035e+001	-8.409194e+001	-3.068082e+001	-2.211562e+001	-9.198103e+001	-2.034001e+001	-4.407121e+001	3.845275e+001
9.990192e+006	-4.226340e+001	-8.453635e+001	-3.067481e+001	-2.209422e+001	-1.036769e+002	-1.783124e+002	-4.402590e+001	3.825307e+001
9.990197e+006	-4.229419e+001	-8.446153e+001	-3.066730e+001	-2.209943e+001	-9.333728e+001	5.341394e+001	-4.401251e+001	3.820430e+001
9.990202e+006	-4.226317e+001	-8.454570e+001	-3.067122e+001	-2.213035e+001	-8.903292e+001	9.264420e+001	-4.403579e+001	3.868281e+001
9.990206e+006	-4.227868e+001	-8.460143e+001	-3.067133e+001	-2.211364e+001	-9.167046e+001	4.960067e+001	-4.401691e+001	3.859447e+001
9.990211e+006	-4.225563e+001	-8.463590e+001	-3.067158e+001	-2.213891e+001	-9.832492e+001	1.259243e+002	-4.404742e+001	3.854214e+001
9.990216e+006	-4.226954e+001	-8.456325e+001	-3.068194e+001	-2.212931e+001	-8.803283e+001	1.082877e+002	-4.400428e+001	3.848723e+001
9.990220e+006	-4.229276e+001	-8.447736e+001	-3.067364e+001	-2.207454e+001	-1.013177e+002	6.699426e+001	-4.406768e+001	3.865845e+001
9.990225e+006	-4.227108e+001	-8.445372e+001	-3.066872e+001	-2.208660e+001	-9.388515e+001	-3.181503e+001	-4.401604e+001	3.845322e+001
9.990230e+006	-4.227563e+001	-8.459207e+001	-3.066482e+001	-2.216942e+001	-9.735106e+001	4.459298e+001	-4.404356e+001	3.840587e+001
9.990234e+006	-4.230503e+001	-8.470041e+001	-3.067017e+001	-2.210371e+001	-9.855836e+001	1.178577e+001	-4.401876e+001	3.841629e+001
9.990239e+006	-4.230961e+001	-8.448111e+001	-3.065405e+001	-2.212414e+001	-9.325269e+001	-1.606560e+002	-4.401431e+001	3.847873e+001
9.990244e+006	-4.227493e+001	-8.458237e+001	-3.067182e+001	-2.213943e+001	-9.688457e+001	1.357122e+002	-4.402332e+001	3.817201e+001
9.990248e+006	-4.230896e+001	-8.453256e+001	-3.066537e+001	-2.212791e+001	-9.222218e+001	-2.077589e+001	-4.403030e+001	3.813058e+001
9.990253e+006	-4.227617e+001	-8.440909e+001	-3.066810e+001	-2.210684e+001	-9.154554e+001	3.653980e+001	-4.401397e+001	3.834605e+001
9.990258e+006	-4.227802e+001	-8.449100e+001	-3.066929e+001	-2.211904e+001	-9.599309e+001	8.818884e+001	-4.401646e+001	3.817188e+001
9.990263e+006	-4.228511e+001	-8.441900e+001	-3.066360e+001	-2.211180e+001	-9.223168e+001	1.057339e+002	-4.401540e+001	3.833818e+001
9.990267e+006	-4.230990e+001	-8.468760e+001	-3.067247e+001	-2.216494e+001	-9.391377e+001	2.183484e+001	-4.401783e+001	3.852118e+001
9.990272e+006	-4.229228e+001	-8.454818e+001	-3.067233e+001	-2.215610e+001	-9.318453e+001	7.839983e+001	-4.401657e+001	3.813885e+001
9.990277e+006	-4.232404e+001	-8.441240e+001	-3.066558e+001	-2.210925e+001	-9.289227e+001	7.232754e+001	-4.398464e+001	3.808621e+001
9.990281e+006	-4.229781e+001	-8.460009e+001	-3.065988e+001	-2.218496e+001	-9.191859e+001	1.313075e+002	-4.403147e+001	3.785702e+001
9.990286e+006	-4.230519e+001	-8.440748e+001	-3.067281e+001	-2.214182e+001	-9.020333e+001	1.168449e+002	-4.401620e+001	3.839299e+001
9.990291e+006	-4.232523e+001	-8.432245e+001	-3.065774e+001	-2.217154e+001	-8.684418e+001	4.458229e+001	-4.403647e+001	3.815360e+001
9.990295e+006	-4.229002e+001	-8.464834e+001	-3.065928e+001	-2.213668e+001	-9.753265e+001	1.860794e+001	-4.402336e+001	3.822521e+001
9.990300e+006	-4.229690e+001	-8.417567e+001	-3.066344e+001	-2.215743e+001	-8.853641e+001	8.964683e+001	-4.404232e+001	3.804760e+001
9.990305e+006	-4.231114e+001	-8.440296e+001	-3.065743e+001	-2.213210e+001	-9.430232e+001	1.369016e+002	-4.400481e+001	3.839679e+001
9.990309e+006	-4.230171e+001	-8.449215e+001	-3.065659e+001	-2.210205e+001	-9.929321e+001	-6.085415e+001	-4.401578e+001	3.823312e+001
9.990314e+006	-4.230073e+001	-8.460980e+001	-3.065163e+001	-2.205298e+001	-9.244312e+001	6.242669e+001	-4.400705e+001	3.853207e+001
9.990319e+006	-4.230028e+001	-8.449774e+001	-3.066551e+001	-2.213267e+001	-9.179483e+001	4.051861e-001	-4.398533e+001	3.853772e+001
9.990323e+006	-4.230963e+001	-8.462356e+001	-3.066250e+001	-2.215747e+001	-1.077937e+002	1.300481e+002	-4.403897e+001	3.861306e+001
9.990328e+006	-4.231510e+001	-8.444471e+001	-3.067744e+001	-2.207444e+001	-9.856659e+001	1.585335e+002	-4.400597e+001	3.825192e+001
9.990333e+006	-4.233617e+001	-8.440657e+001	-3.065908e+001	-2.216477e+001	-9.782457e+001	4.049998e+001	-4.401492e+001	3.825366e+001
9.990338e+006	-4.231246e+001	-8.471437e+001	-3.065909e+001	-2.218584e+001	-9.534537e+001	-1.092780e+002	-4.405093e+001	3.818720e+001
9.990342e+006	-4.230530e+001	-8.450706e+001	-3.066564e+001	-2.215006e+001	-1.071903e+002	-4.678121e+001	-4.402732e+001	3.850924e+001
9.990347e+006	-4.230875e+001	-8.460951e+001	-3.065804e+001	-2.210732e+001	-8.811747e+001	8.861009e+001	-4.400006e+001	3.839782e+001
9.990352e+006	-4.232517e+001	-8.443894e+001	-3.065809e+001	-2.215949e+001	-8.933791e+001	-2.354452e+001	-4.402633e+001	3.845382e+001
9.990356e+006	-4.231721e+001	-8.444526e+001	-3.067086e+001	-2.213494e+001	-8.755586e+001	8.850445e+001	-4.407183e+001	3.846756e+001
9.990361e+006	-4.229348e+001	-8.417374e+001	-3.065848e+001	-2.212114e+001	-9.207275e+001	1.194371e+002	-4.404660e+001	3.843892e+001
9.990366e+006	-4.228684e+001	-8.458249e+001	-3.067033e+001	-2.210534e+001	-1.011898e+002	6.824227e+001	-4.402805e+001	3.864209e+001
9.990370e+006	-4.228423e+001	-8.464146e+001	-3.066624e+001	-2.213342e+001	-9.021457e+001	1.062769e+002	-4.404961e+001	3.836324e+001
9.990375e+006	-4.231765e+001	-8.431658e+001	-3.067199e+001	-2.214552e+001	-9.101133e+001	-2.218896e+001	-4.399639e+001	3.839618e+001
9.990380e+006	-4.232473e+001	-8.436005e+001	-3.066709e+001	-2.215703e+001	-8.937311e+001	9.019669e+001	-4.404684e+001	3.852556e+001
9.990384e+006	-4.227852e+001	-8.431499e+001	-3.066019e+001	-2.213054e+001	-8.946368e+001	1.170047e+002	-4.403531e+001	3.849131e+001
9.990389e+006	-4.228749e+001	-8.444777e+001	-3.066192e+001	-2.215385e+001	-9.803956e+001	-4.751006e+001	-4.402118e+001	3.857200e+001
9.990394e+006	-4.228209e+001	-8.439396e+001	-3.066201e+001	-2.211830e+001	-9.070049e+001	1.069654e+002	-4.402200e+001	3.846894e+001
9.990398e+006	-4.230888e+001	-8.440642e+001	-3.066865e+001	-2.215018e+001	-8.842798e+001	1.530992e+002	-4.403048e+001	3.838493e+001
9.990403e+006	-4.226938e+001	-8.472275e+001	-3.066845e+001	-2.206634e+001	-1.034818e+002	-1.243683e+002	-4.401718e+001	3.850328e+001
9.990408e+006	-4.229456e+001	-8.453126e+001	-3.066277e+001	-2.207305e+001	-9.650889e+001	3.545317e+001	-4.404526e+001	3.836389e+001
9.990413e+006	-4.227569e+001	-8.434744e+001	-3.066200e+001	-2.216437e+001	-9.628364e+001	-1.319035e+002	-4.404488e+001	3.857254e+001
9.990417e+006	-4.234290e+001	-8.453720e+001	-3.066000e+001	-2.209876e+001	-1.082141e+002	1.893414e+001	-4.402267e+001	3.814854e+001
9.990422e+006	-4.231726e+001	-8.439738e+001	-3.067497e+001	-2.207331e+001	-1.093449e+002	1.481275e+002	-4.403188e+001	3.834895e+001
9.990427e+006	-4.231309e+001	-8.451086e+001	-3.065623e+001	-2.217404e+001	-9.296367e+001	-1.993332e+001	-4.400129e+001	3.833600e+001
9.990431e+006	-4.228747e+001	-8.455859e+001	-3.066386e+001	-2.213520e+001	-1.012000e+002	1.043078e+002	-4.402734e+001	3.853089e+001
9.990436e+006	-4.230933e+001	-8.452841e+001	-3.067146e+001	-2.210517e+001	-9.277608e+001	1.193042e+002	-4.402449e+001	3.819440e+001
9.990441e+006	-4.230873e+001	-8.435189e+001	-3.067666e+001	-2.214488e+001	-9.353583e+001	1.456038e+002	-4.407317e+001	3.838910e+001
9.990445e+006	-4.230552e+001	-8.437602e+001	-3.065225e+001	-2.221371e+001	-9.976934e+001	1.344282e+002	-4.403326e+001	3.852902e+001
9.990450e+006	-4.230198e+001	-8.443965e+001	-3.066506e+001	-2.210331e+001	-9.705372e+001	3.269973e+001	-4.407564e+001	3.833320e+001
9.990455e+006	-4.228694e+001	-8.433734e+001	-3.066684e+001	-2.212852e+001	-9.261653e+001	4.320598e+001	-4.401744e+001	3.852227e+001
9.990459e+006	-4.228419e+001	-8.452401e+001	-3.065392e+001	-2.219013e+001	-9.759645e+001	5.924582e+001	-4.404387e+001	3.797573e+001
9.990464e+006	-4.231662e+001	-8.465568e+001	-3.066260e+001	-2.209461e+001	-1.017821e+002	-6.336454e+001	-4.400515e+001	3.842235e+001
9.990469e+006	-4.231799e+001	-8.439377e+001	-3.066136e+001	-2.218465e+001	-9.428992e+001	9.210344e+001	-4.403770e+001	3.822071e+001
9.990473e+006	-4.229946e+001	-8.440931e+001	-3.067902e+001	-2.209104e+001	-9.688059e+001	2.576016e+001	-4.400229e+001	3.825523e+001
9.990478e+006	-4.235302e+001	-8.459087e+001	-3.067119e+001	-2.212591e+001	-9.096207e+001	1.302233e+002	-4.403972e+001	3.835631e+001
9.990483e+006	-4.228591e+001	-8.464023e+001	-3.067317e+001	-2.213971e+001	-8.978270e+001	1.402159e+002	-4.402019e+001	3.842491e+001
9.990488e+006	-4.233623e+001	-8.428397e+001	-3.065749e+001	-2.210264e+001	-9.290445e+001	-1.690759e+002	-4.405251e+001	3.805036e+001
9.990492e+006	-4.232105e+001	-8.444389e+001	-3.066247e+001	-2.214865e+001	-1.045241e+002	1.227490e+002	-4.405256e+001	3.833592e+001
9.990497e+006	-4.228467e+001	-8.438835e+001	-3.066630e+001	-2.205592e+001	-9.104612e+001	-1.782121e+002	-4.401212e+001	3.845935e+001
9.990502e+006	-4.229727e+001	-8.445160e+001	-3.065864e+001	-2.217237e+001	-9.642405e+001	-1.304205e+002	-4.401265e+001	3.846806e+001
9.990506e+006	-4.230607e+001	-8.451655e+001	-3.066216e+001	-2.208141e+001	-8.758356e+001	1.346918e+002	-4.402539e+001	3.853823e+001
9.990511e+006	-4.232586e+001	-8.451156e+001	-3.066432e+001	-2.213971e+001	-1.016714e+002	-1.713604e+002	-4.406098e+001	3.843186e+001
9.990516e+006	-4.227517e+001	-8.442159e+001	-3.065187e+001	-2.219703e+001	-9.420331e+001	1.079098e+002	-4.403862e+001	3.837797e+001
9.990520e+006	-4.233378e+001	-8.462093e+001	-3.067151e+001	-2.210150e+001	-9.728245e+001	1.657433e+001	-4.405795e+001	3.819121e+001
9.990525e+006	-4.231072e+001	-8.445185e+001	-3.066566e+001	-2.214373e+001	-9.642248e+001	-6.592484e+001	-4.400895e+001	3.837003e+001
9.990530e+006	-4.233162e+001	-8.445449e+001	-3.066034e+001	-2.208371e+001	-1.095893e+002	4.608340e+001	-4.398528e+001	3.834788e+001
9.990534e+006	-4.231611e+001	-8.435902e+001	-3.066572e+001	-2.208025e+001	-9.351512e+001	7.541688e+001	-4.404854e+001	3.855990e+001
9.990539e+006	-4.230859e+001	-8.434316e+001	-3.066223e+001	-2.223000e+001	-1.029678e+002	1.375499e+002	-4.402832e+001	3.859457e+001
9.990544e+006	-4.230615e+001	-8.436955e+001	-3.064452e+001	-2.206087e+001	-9.151620e+001	3.420889e+001	-4.405632e+001	3.864786e+001
9.990548e+006	-4.229739e+001	-8.460496e+001	-3.067663e+001	-2.219359e+001	-8.683907e+001	1.179069e+002	-4.401735e+001	3.845432e+001
9.990553e+006	-4.227079e+001	-8.463626e+001	-3.068130e+001	-2.218184e+001	-9.122112e+001	-1.448520e+002	-4.403606e+001	3.851540e+001
9.990558e+006	-4.231293e+001	-8.451932e+001	-3.064639e+001	-2.208501e+001	-1.020537e+002	1.106206e+002	-4.402153e+001	3.871158e+001
9.990563e+006	-4.232196e+001	-8.455898e+001	-3.066954e+001	-2.204035e+001	-8.926452e+001	2.056615e+001	-4.401897e+001	3.848817e+001
9.990567e+006	-4.230984e+001	-8.429086e+001	-3.066228e+001	-2.227316e+001	-8.823089e+001	1.938393e+000	-4.402372e+001	3.864370e+001
9.990572e+006	-4.231787e+001	-8.438330e+001	-3.064871e+001	-2.221362e+001	-9.563538e+001	1.578953e+002	-4.400573e+001	3.826317e+001
9.990577e+006	-4.232257e+001	-8.435929e+001	-3.065762e+001	-2.203550e+001	-9.046974e+001	-1.652586e+002	-4.402329e+001	3.835071e+001
9.990581e+006	-4.229742e+001	-8.420993e+001	-3.067257e+001	-2.208567e+001	-9.476727e+001	4.600427e+001	-4.399681e+001	3.848343e+001
9.990586e+006	-4.231704e+001	-8.444985e+001	-3.068027e+001	-2.208390e+001	-1.002509e+002	1.556724e+002	-4.405682e+001	3.827591e+001
9.990591e+006	-4.226801e+001	-8.408513e+001	-3.068153e+001	-2.218902e+001	-1.030696e+002	-1.416662e+002	-4.400413e+001	3.854324e+001
9.990595e+006	-4.225912e+001	-8.435086e+001	-3.065401e+001	-2.224408e+001	-9.291949e+001	-1.630502e+002	-4.401492e+001	3.851248e+001
9.990600e+006	-4.228870e+001	-8.447668e+001	-3.065514e+001	-2.205834e+001	-8.789147e+001	1.062007e+002	-4.403462e+001	3.839623e+001
9.990605e+006	-4.229752e+001	-8.442787e+001	-3.065927e+001	-2.199174e+001	-9.375103e+001	4.755861e+001	-4.402026e+001	3.848289e+001
9.990609e+006	-4.230685e+001	-8.453557e+001	-3.066463e+001	-2.208821e+001	-8.566225e+001	9.778170e+001	-4.405487e+001	3.877397e+001
9.990614e+006	-4.230458e+001	-8.446253e+001	-3.065824e+001	-2.214417e+001	-9.090125e+001	1.607653e+002	-4.399009e+001	3.832816e+001
9.990619e+006	-4.227959e+001	-8.446324e+001	-3.067131e+001	-2.216642e+001	-8.695362e+001	-5.094755e+001	-4.404554e+001	3.820488e+001
9.990623e+006	-4.231845e+001	-8.451844e+001	-3.065562e+001	-2.210207e+001	-9.610321e+001	1.079238e+002	-4.406934e+001	3.857281e+001
9.990628e+006	-4.229660e+001	-8.436498e+001	-3.067198e+001	-2.203949e+001	-9.959220e+001	-1.434187e+002	-4.398561e+001	3.863408e+001
9.990633e+006	-4.229413e+001	-8.427201e+001	-3.066971e+001	-2.216214e+001	-9.245434e+001	1.887855e+001	-4.407790e+001	3.832819e+001
9.990638e+006	-4.228684e+001	-8.434245e+001	-3.067686e+001	-2.208726e+001	-1.113616e+002	7.447687e+001	-4.405757e+001	3.843644e+001
9.990642e+006	-4.229237e+001	-8.426466e+001	-3.065221e+001	-2.217195e+001	-9.010940e+001	1.159245e+002	-4.402088e+001	3.850872e+001
9.990647e+006	-4.227610e+001	-8.458413e+001	-3.065218e+001	-2.222266e+001	-9.588593e+001	5.738220e+000	-4.405114e+001	3.838727e+001
9.990652e+006	-4.228831e+001	-8.440567e+001	-3.065339e+001	-2.206010e+001	-9.252386e+001	1.299342e+002	-4.404540e+001	3.829910e+001
9.990656e+006	-4.230210e+001	-8.444088e+001	-3.066202e+001	-2.205726e+001	-9.904561e+001	8.395083e+001	-4.404106e+001	3.840767e+001
9.990661e+006	-4.233324e+001	-8.447932e+001	-3.065494e+001	-2.221393e+001	-9.261138e+001	1.109468e+002	-4.404390e+001	3.802395e+001
9.990666e+006	-4.228667e+001	-8.454420e+001	-3.065196e+001	-2.214145e+001	-9.116779e+001	1.067063e+002	-4.403813e+001	3.848900e+001
9.990670e+006	-4.229785e+001	-8.436687e+001	-3.064552e+001	-2.213103e+001	-1.010726e+002	3.602114e+001	-4.400744e+001	3.860441e+001
9.990675e+006	-4.230801e+001	-8.434327e+001	-3.065494e+001	-2.210392e+001	-9.586020e+001	3.302824e+000	-4.404318e+001	3.853648e+001
9.990680e+006	-4.229223e+001	-8.446534e+001	-3.066204e+001	-2.225574e+001	-9.861113e+001	6.473733e+001	-4.405692e+001	3.851304e+001
9.990684e+006	-4.231387e+001	-8.427263e+001	-3.064756e+001	-2.204151e+001	-9.041318e+001	-1.608205e+001	-4.404366e+001	3.849977e+001
9.990689e+006	-4.229944e+001	-8.470736e+001	-3.064544e+001	-2.220648e+001	-1.066156e+002	5.473971e+001	-4.401340e+001	3.818900e+001
