!CETC41,AV3656A,ZGL00048,1.3.2
!Calibration ON (Full Solt 2-Port(Omit Isolation))
!Measurements: S11 S21 S12 S22
!2025-07-09 21:57
# Hz  S  dB  R 50.000
9.990000e+006	-4.227528e+001	-8.535828e+001	-3.066709e+001	-2.090678e+001	-9.040825e+001	5.625127e+001	-4.958052e+001	8.596366e+001
9.990005e+006	-4.223623e+001	-8.539143e+001	-3.065024e+001	-2.093250e+001	-1.042380e+002	1.407851e+002	-4.953517e+001	8.631449e+001
9.990009e+006	-4.224704e+001	-8.559618e+001	-3.066295e+001	-2.100689e+001	-8.678355e+001	1.426219e+002	-4.952431e+001	8.558809e+001
9.990014e+006	-4.225106e+001	-8.519954e+001	-3.065362e+001	-2.106552e+001	-8.991947e+001	7.761324e+001	-4.951778e+001	8.570396e+001
9.990019e+006	-4.224136e+001	-8.550577e+001	-3.065830e+001	-2.088987e+001	-8.968530e+001	1.065601e+002	-4.961601e+001	8.580408e+001
9.990023e+006	-4.227514e+001	-8.540695e+001	-3.066590e+001	-2.097642e+001	-9.559791e+001	-6.716544e+001	-4.955413e+001	8.594816e+001
9.990028e+006	-4.226800e+001	-8.516534e+001	-3.064415e+001	-2.098050e+001	-8.935269e+001	5.158111e+001	-4.949102e+001	8.611989e+001
9.990033e+006	-4.226774e+001	-8.533437e+001	-3.065532e+001	-2.092176e+001	-8.977021e+001	-1.326885e+002	-4.952157e+001	8.626527e+001
9.990038e+006	-4.226369e+001	-8.528120e+001	-3.064498e+001	-2.092756e+001	-9.840068e+001	1.348983e+002	-4.947398e+001	8.622073e+001
9.990042e+006	-4.225921e+001	-8.541925e+001	-3.064630e+001	-2.095353e+001	-9.002998e+001	1.228635e+002	-4.949054e+001	8.659037e+001
9.990047e+006	-4.225672e+001	-8.544157e+001	-3.065371e+001	-2.091892e+001	-9.284168e+001	1.483193e+002	-4.947900e+001	8.573385e+001
9.990052e+006	-4.228326e+001	-8.525800e+001	-3.064844e+001	-2.094727e+001	-9.461221e+001	1.188643e+002	-4.945207e+001	8.630414e+001
9.990056e+006	-4.224522e+001	-8.544520e+001	-3.065619e+001	-2.094342e+001	-1.020372e+002	-8.055922e+001	-4.943080e+001	8.630444e+001
9.990061e+006	-4.222683e+001	-8.535464e+001	-3.065010e+001	-2.106632e+001	-1.049982e+002	-4.698924e-001	-4.955940e+001	8.604816e+001
9.990066e+006	-4.229388e+001	-8.545729e+001	-3.067378e+001	-2.102807e+001	-9.203231e+001	1.753372e+002	-4.948292e+001	8.645215e+001
9.990070e+006	-4.224890e+001	-8.564812e+001	-3.067722e+001	-2.108411e+001	-9.252420e+001	-7.070178e+001	-4.948439e+001	8.594989e+001
9.990075e+006	-4.223677e+001	-8.521507e+001	-3.067968e+001	-2.106568e+001	-1.001884e+002	1.795915e+002	-4.957970e+001	8.559479e+001
9.990080e+006	-4.225880e+001	-8.532591e+001	-3.067744e+001	-2.100862e+001	-8.970784e+001	1.256471e+002	-4.957243e+001	8.642666e+001
9.990084e+006	-4.227334e+001	-8.505663e+001	-3.069176e+001	-2.089946e+001	-9.039649e+001	1.640026e+002	-4.956908e+001	8.590779e+001
9.990089e+006	-4.225502e+001	-8.538946e+001	-3.068584e+001	-2.092237e+001	-8.960400e+001	9.467988e+001	-4.956960e+001	8.608112e+001
9.990094e+006	-4.225728e+001	-8.550663e+001	-3.068764e+001	-2.090912e+001	-9.035440e+001	8.759532e+001	-4.956297e+001	8.623266e+001
9.990098e+006	-4.225366e+001	-8.538863e+001	-3.067290e+001	-2.086382e+001	-8.920461e+001	5.284909e+001	-4.948798e+001	8.637971e+001
9.990103e+006	-4.221941e+001	-8.534693e+001	-3.067666e+001	-2.081137e+001	-9.542350e+001	-1.364748e+002	-4.952452e+001	8.652049e+001
9.990108e+006	-4.226531e+001	-8.514529e+001	-3.067299e+001	-2.078762e+001	-8.865039e+001	7.894999e+001	-4.949191e+001	8.591056e+001
9.990113e+006	-4.227014e+001	-8.537719e+001	-3.067460e+001	-2.093165e+001	-9.067956e+001	-5.513774e+001	-4.942724e+001	8.617023e+001
9.990117e+006	-4.225048e+001	-8.533472e+001	-3.066011e+001	-2.088004e+001	-1.010708e+002	1.793792e+002	-4.952713e+001	8.586043e+001
9.990122e+006	-4.227686e+001	-8.519098e+001	-3.065325e+001	-2.100336e+001	-9.502467e+001	1.064445e+002	-4.953762e+001	8.628414e+001
9.990127e+006	-4.228823e+001	-8.533601e+001	-3.065782e+001	-2.100099e+001	-9.969567e+001	4.066320e+001	-4.945712e+001	8.562178e+001
9.990131e+006	-4.226909e+001	-8.541934e+001	-3.066677e+001	-2.106408e+001	-9.766669e+001	1.194950e+002	-4.947716e+001	8.654196e+001
9.990136e+006	-4.223128e+001	-8.526647e+001	-3.067918e+001	-2.100375e+001	-9.085236e+001	1.348223e+002	-4.952327e+001	8.672770e+001
9.990141e+006	-4.225279e+001	-8.539779e+001	-3.067975e+001	-2.101423e+001	-9.839574e+001	-4.714477e+001	-4.950237e+001	8.558670e+001
9.990145e+006	-4.224506e+001	-8.547649e+001	-3.069049e+001	-2.087439e+001	-9.382232e+001	9.250274e+001	-4.955900e+001	8.641830e+001
9.990150e+006	-4.228833e+001	-8.542508e+001	-3.067941e+001	-2.085152e+001	-9.849035e+001	1.462617e+002	-4.941188e+001	8.604737e+001
9.990155e+006	-4.228069e+001	-8.527588e+001	-3.067010e+001	-2.088316e+001	-9.398819e+001	9.103458e+001	-4.953928e+001	8.676125e+001
9.990159e+006	-4.225982e+001	-8.527563e+001	-3.066614e+001	-2.087514e+001	-8.882054e+001	9.683814e+001	-4.951345e+001	8.595794e+001
9.990164e+006	-4.226115e+001	-8.551081e+001	-3.066053e+001	-2.093029e+001	-8.984895e+001	1.100624e+002	-4.950990e+001	8.662012e+001
9.990169e+006	-4.226449e+001	-8.532503e+001	-3.065840e+001	-2.104242e+001	-8.616449e+001	1.141952e+002	-4.949855e+001	8.660535e+001
9.990173e+006	-4.225320e+001	-8.550821e+001	-3.066823e+001	-2.095763e+001	-9.196315e+001	5.594897e+001	-4.960913e+001	8.608343e+001
9.990178e+006	-4.225788e+001	-8.550190e+001	-3.066679e+001	-2.087831e+001	-9.447123e+001	1.440923e+002	-4.959318e+001	8.646311e+001
9.990183e+006	-4.225274e+001	-8.531670e+001	-3.065854e+001	-2.088767e+001	-9.055587e+001	1.525440e+002	-4.942729e+001	8.622021e+001
9.990188e+006	-4.224167e+001	-8.548051e+001	-3.067123e+001	-2.089676e+001	-9.361505e+001	8.392225e+001	-4.948942e+001	8.570633e+001
9.990192e+006	-4.226794e+001	-8.523037e+001	-3.066261e+001	-2.087862e+001	-9.335492e+001	1.698626e+002	-4.942311e+001	8.624428e+001
9.990197e+006	-4.224920e+001	-8.529408e+001	-3.065812e+001	-2.094389e+001	-9.400287e+001	-3.586492e+001	-4.945631e+001	8.615287e+001
9.990202e+006	-4.228290e+001	-8.540573e+001	-3.067137e+001	-2.091297e+001	-9.104014e+001	1.366099e+002	-4.950245e+001	8.597434e+001
9.990206e+006	-4.226075e+001	-8.520625e+001	-3.066649e+001	-2.090747e+001	-9.699451e+001	1.058531e+002	-4.949210e+001	8.627588e+001
9.990211e+006	-4.225129e+001	-8.530123e+001	-3.065866e+001	-2.092501e+001	-8.941620e+001	1.794728e+002	-4.944059e+001	8.613784e+001
9.990216e+006	-4.222415e+001	-8.549142e+001	-3.067608e+001	-2.089376e+001	-9.514638e+001	1.174284e+002	-4.951559e+001	8.647180e+001
9.990220e+006	-4.226101e+001	-8.541398e+001	-3.066435e+001	-2.091751e+001	-9.884143e+001	1.777632e+002	-4.943040e+001	8.701594e+001
9.990225e+006	-4.223118e+001	-8.531736e+001	-3.067286e+001	-2.097181e+001	-9.023313e+001	-2.512873e+001	-4.948078e+001	8.671476e+001
9.990230e+006	-4.224772e+001	-8.528434e+001	-3.066038e+001	-2.085936e+001	-1.031410e+002	2.869418e+001	-4.947740e+001	8.666028e+001
9.990234e+006	-4.225437e+001	-8.573641e+001	-3.067417e+001	-2.089620e+001	-9.171489e+001	-1.421630e+002	-4.947670e+001	8.598256e+001
9.990239e+006	-4.227417e+001	-8.547562e+001	-3.066151e+001	-2.092075e+001	-9.389421e+001	1.084129e+002	-4.956836e+001	8.604688e+001
9.990244e+006	-4.224437e+001	-8.529314e+001	-3.066715e+001	-2.093968e+001	-9.486789e+001	1.670894e+002	-4.944521e+001	8.666673e+001
9.990248e+006	-4.227742e+001	-8.541273e+001	-3.066525e+001	-2.092011e+001	-1.038253e+002	3.237730e+001	-4.947351e+001	8.633362e+001
9.990253e+006	-4.228711e+001	-8.539776e+001	-3.065949e+001	-2.089868e+001	-8.725819e+001	7.480031e+001	-4.944727e+001	8.622502e+001
9.990258e+006	-4.223643e+001	-8.523069e+001	-3.065320e+001	-2.098833e+001	-9.736610e+001	1.667238e+002	-4.956371e+001	8.622357e+001
9.990263e+006	-4.226043e+001	-8.522735e+001	-3.066696e+001	-2.087929e+001	-9.444963e+001	8.991719e+001	-4.945709e+001	8.650786e+001
9.990267e+006	-4.226460e+001	-8.530904e+001	-3.066620e+001	-2.088700e+001	-1.121697e+002	5.380360e+001	-4.943781e+001	8.635680e+001
9.990272e+006	-4.227711e+001	-8.536081e+001	-3.065703e+001	-2.094428e+001	-9.094735e+001	5.638988e+001	-4.946589e+001	8.603520e+001
9.990277e+006	-4.222813e+001	-8.515020e+001	-3.066251e+001	-2.089642e+001	-1.002502e+002	1.544211e+002	-4.957060e+001	8.659059e+001
9.990281e+006	-4.226435e+001	-8.548031e+001	-3.066346e+001	-2.094999e+001	-9.404839e+001	1.456044e+002	-4.949979e+001	8.656800e+001
9.990286e+006	-4.223348e+001	-8.538282e+001	-3.066235e+001	-2.089806e+001	-9.740071e+001	5.950074e+001	-4.954567e+001	8.654127e+001
9.990291e+006	-4.224602e+001	-8.549729e+001	-3.066030e+001	-2.092621e+001	-9.441636e+001	1.348988e+002	-4.952980e+001	8.647042e+001
9.990295e+006	-4.227745e+001	-8.528521e+001	-3.066791e+001	-2.089595e+001	-9.327693e+001	1.199714e+002	-4.947803e+001	8.629004e+001
9.990300e+006	-4.226743e+001	-8.551527e+001	-3.066106e+001	-2.089751e+001	-8.700430e+001	-4.375895e+001	-4.935614e+001	8.637888e+001
9.990305e+006	-4.229497e+001	-8.541898e+001	-3.066859e+001	-2.098704e+001	-1.046603e+002	4.920107e+001	-4.943087e+001	8.605080e+001
9.990309e+006	-4.225979e+001	-8.517245e+001	-3.066607e+001	-2.096266e+001	-8.785344e+001	5.505157e+001	-4.943486e+001	8.609859e+001
9.990314e+006	-4.228273e+001	-8.527110e+001	-3.066902e+001	-2.100348e+001	-9.175042e+001	1.074412e+002	-4.945914e+001	8.606905e+001
9.990319e+006	-4.228498e+001	-8.536146e+001	-3.066812e+001	-2.093913e+001	-9.459087e+001	3.760528e+001	-4.953063e+001	8.677856e+001
9.990323e+006	-4.225997e+001	-8.546201e+001	-3.065808e+001	-2.092012e+001	-9.164449e+001	7.986348e+001	-4.955525e+001	8.610375e+001
9.990328e+006	-4.227896e+001	-8.515935e+001	-3.066924e+001	-2.096139e+001	-9.512745e+001	-1.672070e+002	-4.948261e+001	8.590751e+001
9.990333e+006	-4.226260e+001	-8.518885e+001	-3.068359e+001	-2.094826e+001	-9.292708e+001	6.614799e+001	-4.952370e+001	8.625247e+001
9.990338e+006	-4.225037e+001	-8.535232e+001	-3.066402e+001	-2.090716e+001	-9.672968e+001	8.797600e+001	-4.947868e+001	8.635869e+001
9.990342e+006	-4.229849e+001	-8.537993e+001	-3.066040e+001	-2.091677e+001	-1.212606e+002	4.755146e+001	-4.954917e+001	8.691466e+001
9.990347e+006	-4.226322e+001	-8.531546e+001	-3.066332e+001	-2.093657e+001	-1.116392e+002	1.079512e+002	-4.952502e+001	8.593926e+001
9.990352e+006	-4.226490e+001	-8.515948e+001	-3.065252e+001	-2.100126e+001	-9.386557e+001	7.500116e+001	-4.943243e+001	8.619098e+001
9.990356e+006	-4.227039e+001	-8.571713e+001	-3.066800e+001	-2.098038e+001	-9.057290e+001	7.629532e+001	-4.949027e+001	8.659791e+001
9.990361e+006	-4.228083e+001	-8.536664e+001	-3.066827e+001	-2.092082e+001	-9.121571e+001	5.639228e+001	-4.948773e+001	8.651695e+001
9.990366e+006	-4.228109e+001	-8.535750e+001	-3.066137e+001	-2.092803e+001	-9.193442e+001	1.113407e+002	-4.951078e+001	8.554107e+001
9.990370e+006	-4.228785e+001	-8.528771e+001	-3.066782e+001	-2.095592e+001	-8.994985e+001	9.764200e+001	-4.954188e+001	8.574229e+001
9.990375e+006	-4.222817e+001	-8.540793e+001	-3.065438e+001	-2.098352e+001	-9.546627e+001	-7.796339e+001	-4.943525e+001	8.632284e+001
9.990380e+006	-4.226630e+001	-8.551996e+001	-3.065116e+001	-2.093386e+001	-9.272745e+001	1.678891e+002	-4.952011e+001	8.617979e+001
9.990384e+006	-4.228088e+001	-8.536657e+001	-3.065952e+001	-2.094955e+001	-9.398427e+001	5.210575e+001	-4.945433e+001	8.602988e+001
9.990389e+006	-4.224782e+001	-8.538358e+001	-3.066259e+001	-2.091326e+001	-8.907920e+001	1.556599e+002	-4.948810e+001	8.662892e+001
9.990394e+006	-4.226684e+001	-8.542602e+001	-3.065574e+001	-2.090408e+001	-9.287614e+001	1.358210e+002	-4.951763e+001	8.645711e+001
9.990398e+006	-4.225683e+001	-8.546005e+001	-3.066348e+001	-2.092279e+001	-9.538423e+001	-1.699071e+002	-4.945413e+001	8.624452e+001
9.990403e+006	-4.225161e+001	-8.533920e+001	-3.066655e+001	-2.093677e+001	-9.937776e+001	7.593048e+001	-4.950657e+001	8.627095e+001
9.990408e+006	-4.227042e+001	-8.537052e+001	-3.067699e+001	-2.091389e+001	-9.814519e+001	1.151254e+002	-4.952769e+001	8.661526e+001
9.990413e+006	-4.226200e+001	-8.544060e+001	-3.065146e+001	-2.086915e+001	-9.316932e+001	-6.325062e+001	-4.952395e+001	8.590601e+001
9.990417e+006	-4.229108e+001	-8.550562e+001	-3.065860e+001	-2.095032e+001	-9.811486e+001	1.831620e+001	-4.960725e+001	8.583384e+001
9.990422e+006	-4.224505e+001	-8.546612e+001	-3.066019e+001	-2.095908e+001	-9.752205e+001	-1.722396e+002	-4.953026e+001	8.628031e+001
9.990427e+006	-4.222876e+001	-8.528520e+001	-3.066232e+001	-2.092959e+001	-1.070162e+002	8.513427e+001	-4.956950e+001	8.594378e+001
9.990431e+006	-4.227530e+001	-8.529325e+001	-3.068272e+001	-2.094684e+001	-9.075735e+001	1.424584e+002	-4.948230e+001	8.602371e+001
9.990436e+006	-4.225678e+001	-8.541932e+001	-3.065676e+001	-2.092673e+001	-9.180754e+001	1.776135e+002	-4.943503e+001	8.620992e+001
9.990441e+006	-4.225854e+001	-8.545129e+001	-3.065903e+001	-2.093685e+001	-9.241468e+001	1.222200e+002	-4.947191e+001	8.674392e+001
9.990445e+006	-4.224970e+001	-8.535600e+001	-3.066368e+001	-2.087926e+001	-9.106473e+001	-1.395898e+002	-4.944771e+001	8.674533e+001
9.990450e+006	-4.227236e+001	-8.537721e+001	-3.065553e+001	-2.100070e+001	-9.199290e+001	8.403914e+001	-4.949446e+001	8.637371e+001
9.990455e+006	-4.227412e+001	-8.533677e+001	-3.065748e+001	-2.086894e+001	-9.546721e+001	-5.455828e+001	-4.944243e+001	8.622704e+001
9.990459e+006	-4.228973e+001	-8.522198e+001	-3.066278e+001	-2.086136e+001	-9.541837e+001	1.919823e+001	-4.949429e+001	8.602551e+001
9.990464e+006	-4.225222e+001	-8.544507e+001	-3.064369e+001	-2.083130e+001	-9.565903e+001	-1.306741e+002	-4.949872e+001	8.660150e+001
9.990469e+006	-4.229303e+001	-8.522765e+001	-3.065673e+001	-2.097981e+001	-8.880658e+001	1.059175e+002	-4.943384e+001	8.663223e+001
9.990473e+006	-4.229552e+001	-8.544710e+001	-3.064636e+001	-2.084224e+001	-8.694384e+001	6.588930e+001	-4.952717e+001	8.685619e+001
9.990478e+006	-4.229599e+001	-8.531718e+001	-3.066984e+001	-2.100244e+001	-9.972765e+001	1.573085e+002	-4.948802e+001	8.659506e+001
9.990483e+006	-4.226980e+001	-8.547386e+001	-3.064800e+001	-2.085291e+001	-9.442267e+001	-1.565447e+002	-4.942535e+001	8.677853e+001
9.990488e+006	-4.228664e+001	-8.537481e+001	-3.065441e+001	-2.081876e+001	-9.494811e+001	-4.113955e+001	-4.944661e+001	8.577301e+001
9.990492e+006	-4.223926e+001	-8.536023e+001	-3.065498e+001	-2.095847e+001	-9.429442e+001	1.948780e+001	-4.941179e+001	8.652545e+001
9.990497e+006	-4.226186e+001	-8.529516e+001	-3.066859e+001	-2.091289e+001	-9.762628e+001	2.482393e+001	-4.948791e+001	8.596411e+001
9.990502e+006	-4.225452e+001	-8.502959e+001	-3.065701e+001	-2.090446e+001	-9.271034e+001	1.623993e+001	-4.949861e+001	8.645119e+001
9.990506e+006	-4.224728e+001	-8.517527e+001	-3.065913e+001	-2.089127e+001	-8.951120e+001	1.325718e+002	-4.950416e+001	8.655960e+001
9.990511e+006	-4.225995e+001	-8.528348e+001	-3.065761e+001	-2.096571e+001	-9.673378e+001	1.661132e+001	-4.942908e+001	8.604822e+001
9.990516e+006	-4.226510e+001	-8.542866e+001	-3.066400e+001	-2.094631e+001	-8.494399e+001	3.999702e+001	-4.952017e+001	8.638314e+001
9.990520e+006	-4.222830e+001	-8.531201e+001	-3.066483e+001	-2.098209e+001	-9.535593e+001	3.596431e+000	-4.945099e+001	8.607277e+001
9.990525e+006	-4.228707e+001	-8.530921e+001	-3.066146e+001	-2.088323e+001	-9.397151e+001	6.588037e+001	-4.951567e+001	8.642327e+001
9.990530e+006	-4.223014e+001	-8.535907e+001	-3.066229e+001	-2.097037e+001	-1.119895e+002	-3.215223e+001	-4.953535e+001	8.675168e+001
9.990534e+006	-4.223650e+001	-8.510848e+001	-3.065053e+001	-2.090874e+001	-9.870393e+001	-1.549065e+002	-4.938142e+001	8.590026e+001
9.990539e+006	-4.224923e+001	-8.538937e+001	-3.067129e+001	-2.096143e+001	-9.222180e+001	1.474791e+002	-4.955614e+001	8.613310e+001
9.990544e+006	-4.224734e+001	-8.535700e+001	-3.064852e+001	-2.094258e+001	-9.611271e+001	-3.966784e+001	-4.952397e+001	8.624858e+001
9.990548e+006	-4.225490e+001	-8.527906e+001	-3.066286e+001	-2.086526e+001	-9.246574e+001	8.642116e+001	-4.948951e+001	8.633979e+001
9.990553e+006	-4.228120e+001	-8.536192e+001	-3.067532e+001	-2.099910e+001	-9.058935e+001	8.421299e+001	-4.945636e+001	8.624097e+001
9.990558e+006	-4.224975e+001	-8.540196e+001	-3.064139e+001	-2.095666e+001	-8.974552e+001	3.485019e+001	-4.956384e+001	8.681601e+001
9.990563e+006	-4.227291e+001	-8.506164e+001	-3.066475e+001	-2.092498e+001	-9.386742e+001	7.710735e+001	-4.955584e+001	8.565157e+001
9.990567e+006	-4.226072e+001	-8.530683e+001	-3.065613e+001	-2.098897e+001	-9.846032e+001	9.317221e+001	-4.950321e+001	8.587792e+001
9.990572e+006	-4.226833e+001	-8.527190e+001	-3.067228e+001	-2.095100e+001	-1.034896e+002	7.669061e+001	-4.944303e+001	8.684205e+001
9.990577e+006	-4.228220e+001	-8.537373e+001	-3.066512e+001	-2.098743e+001	-9.189203e+001	1.657640e+002	-4.954530e+001	8.623945e+001
9.990581e+006	-4.224896e+001	-8.520375e+001	-3.064480e+001	-2.091669e+001	-9.700012e+001	-1.276235e+002	-4.952858e+001	8.608798e+001
9.990586e+006	-4.225556e+001	-8.533040e+001	-3.066315e+001	-2.089418e+001	-9.817073e+001	6.207854e+001	-4.948354e+001	8.657816e+001
9.990591e+006	-4.227736e+001	-8.537764e+001	-3.065764e+001	-2.098766e+001	-9.229196e+001	1.732769e+002	-4.946110e+001	8.560345e+001
9.990595e+006	-4.225515e+001	-8.543842e+001	-3.064501e+001	-2.091530e+001	-9.041851e+001	1.299788e+002	-4.947866e+001	8.664829e+001
9.990600e+006	-4.226942e+001	-8.540758e+001	-3.066625e+001	-2.087832e+001	-8.812140e+001	1.528603e+002	-4.943315e+001	8.651855e+001
9.990605e+006	-4.225693e+001	-8.531699e+001	-3.067033e+001	-2.094394e+001	-1.060014e+002	4.797379e+001	-4.945154e+001	8.641125e+001
9.990609e+006	-4.226298e+001	-8.520345e+001	-3.065382e+001	-2.098402e+001	-9.002358e+001	8.758910e+001	-4.951926e+001	8.630952e+001
9.990614e+006	-4.228756e+001	-8.540526e+001	-3.065285e+001	-2.097140e+001	-9.134581e+001	1.384380e+002	-4.939667e+001	8.634979e+001
9.990619e+006	-4.225504e+001	-8.539828e+001	-3.066548e+001	-2.082835e+001	-9.921797e+001	1.798487e+002	-4.948861e+001	8.617268e+001
9.990623e+006	-4.226862e+001	-8.540422e+001	-3.065492e+001	-2.094067e+001	-9.346269e+001	-8.751833e+001	-4.939659e+001	8.652617e+001
9.990628e+006	-4.227247e+001	-8.528337e+001	-3.064358e+001	-2.093907e+001	-8.752392e+001	1.387302e+002	-4.948759e+001	8.605338e+001
9.990633e+006	-4.227040e+001	-8.521620e+001	-3.066634e+001	-2.093634e+001	-9.540652e+001	7.615845e+000	-4.947705e+001	8.663359e+001
9.990638e+006	-4.224375e+001	-8.565191e+001	-3.065124e+001	-2.096459e+001	-1.001108e+002	-3.117467e+001	-4.940189e+001	8.675254e+001
9.990642e+006	-4.228163e+001	-8.530610e+001	-3.067459e+001	-2.094205e+001	-9.779108e+001	-2.640055e+001	-4.943865e+001	8.623307e+001
9.990647e+006	-4.228198e+001	-8.523739e+001	-3.065908e+001	-2.096582e+001	-9.837205e+001	3.684133e+001	-4.952554e+001	8.632169e+001
9.990652e+006	-4.228166e+001	-8.536839e+001	-3.065516e+001	-2.082288e+001	-9.298369e+001	-9.174051e+001	-4.946199e+001	8.653340e+001
9.990656e+006	-4.226682e+001	-8.536425e+001	-3.067152e+001	-2.099241e+001	-9.686613e+001	1.522161e+002	-4.948077e+001	8.712309e+001
9.990661e+006	-4.225970e+001	-8.527975e+001	-3.064589e+001	-2.083873e+001	-9.391950e+001	-1.189090e+002	-4.951427e+001	8.653183e+001
9.990666e+006	-4.228068e+001	-8.528851e+001	-3.066932e+001	-2.093565e+001	-1.010476e+002	1.476652e+002	-4.945975e+001	8.643676e+001
9.990670e+006	-4.228069e+001	-8.539043e+001	-3.067102e+001	-2.095164e+001	-9.225799e+001	-1.232741e+002	-4.948276e+001	8.651643e+001
9.990675e+006	-4.222433e+001	-8.535701e+001	-3.064733e+001	-2.098879e+001	-9.821910e+001	1.418101e+002	-4.945790e+001	8.639901e+001
9.990680e+006	-4.226738e+001	-8.544015e+001	-3.064750e+001	-2.085691e+001	-9.352142e+001	-5.694916e+001	-4.943722e+001	8.606187e+001
9.990684e+006	-4.226296e+001	-8.524202e+001	-3.067347e+001	-2.088448e+001	-1.143923e+002	1.164880e+002	-4.956298e+001	8.627690e+001
9.990689e+006	-4.232011e+001	-8.522701e+001	-3.066281e+001	-2.094992e+001	-9.065667e+001	-3.655637e+001	-4.941991e+001	8.663298e+001
