!CETC41,AV3656A,ZGL00048,1.3.2
!Calibration ON (Full Solt 2-Port(Omit Isolation))
!Measurements: S11 S21 S12 S22
!2025-04-18 22:46
# Hz  S  dB  R 50.000
6.150000e+006	-3.105945e+001	8.449720e+001	-3.067384e+001	-1.689284e+001	-9.366523e+001	-3.730583e+001	-2.953505e+001	9.070502e+001
6.150039e+006	-3.105657e+001	8.449277e+001	-3.067355e+001	-1.690849e+001	-9.287389e+001	1.635411e+002	-2.954279e+001	9.073993e+001
6.150078e+006	-3.106155e+001	8.453395e+001	-3.066860e+001	-1.692821e+001	-8.946623e+001	6.601024e+001	-2.954999e+001	9.068613e+001
6.150117e+006	-3.106807e+001	8.455917e+001	-3.067030e+001	-1.694265e+001	-9.094785e+001	8.144578e+001	-2.953432e+001	9.074118e+001
6.150156e+006	-3.105421e+001	8.456630e+001	-3.066746e+001	-1.686842e+001	-8.943675e+001	5.863803e+001	-2.954076e+001	9.066617e+001
6.150195e+006	-3.105951e+001	8.452405e+001	-3.066669e+001	-1.693035e+001	-8.934273e+001	3.933131e+001	-2.954900e+001	9.068717e+001
6.150234e+006	-3.105990e+001	8.447973e+001	-3.066555e+001	-1.693694e+001	-9.982999e+001	-2.956044e+001	-2.955873e+001	9.066064e+001
6.150273e+006	-3.107014e+001	8.453055e+001	-3.066577e+001	-1.682726e+001	-9.372054e+001	4.418195e+001	-2.954799e+001	9.074518e+001
6.150313e+006	-3.106659e+001	8.451279e+001	-3.068228e+001	-1.694242e+001	-9.926226e+001	8.199956e+001	-2.954511e+001	9.068313e+001
6.150352e+006	-3.105654e+001	8.454740e+001	-3.068201e+001	-1.690875e+001	-9.465157e+001	5.428564e+001	-2.954338e+001	9.071955e+001
6.150391e+006	-3.105038e+001	8.454005e+001	-3.068277e+001	-1.693830e+001	-8.591712e+001	4.829422e+001	-2.953964e+001	9.074059e+001
6.150430e+006	-3.106370e+001	8.458069e+001	-3.067776e+001	-1.686173e+001	-8.831502e+001	-1.149515e+002	-2.954337e+001	9.070467e+001
6.150469e+006	-3.105694e+001	8.452912e+001	-3.066328e+001	-1.697478e+001	-8.507165e+001	-1.103879e+002	-2.954495e+001	9.079595e+001
6.150508e+006	-3.105983e+001	8.452906e+001	-3.066551e+001	-1.692488e+001	-9.578407e+001	-1.353060e+002	-2.954227e+001	9.067399e+001
6.150547e+006	-3.105291e+001	8.453895e+001	-3.067364e+001	-1.689777e+001	-9.021657e+001	1.696737e+002	-2.954253e+001	9.069066e+001
6.150586e+006	-3.105038e+001	8.452269e+001	-3.067010e+001	-1.696787e+001	-1.031372e+002	5.375575e+001	-2.954420e+001	9.071618e+001
6.150625e+006	-3.105951e+001	8.450436e+001	-3.067037e+001	-1.692944e+001	-9.146816e+001	2.078712e+001	-2.954212e+001	9.072565e+001
6.150664e+006	-3.105559e+001	8.452283e+001	-3.066844e+001	-1.687026e+001	-9.119617e+001	8.510450e+001	-2.954646e+001	9.071240e+001
6.150703e+006	-3.105351e+001	8.452372e+001	-3.067142e+001	-1.693758e+001	-9.700425e+001	3.928924e+001	-2.954465e+001	9.074708e+001
6.150742e+006	-3.106773e+001	8.450438e+001	-3.067625e+001	-1.697067e+001	-9.036547e+001	6.771942e+001	-2.953773e+001	9.067691e+001
6.150781e+006	-3.106036e+001	8.453266e+001	-3.067063e+001	-1.693242e+001	-9.801245e+001	1.753565e+001	-2.954455e+001	9.065207e+001
6.150820e+006	-3.106208e+001	8.452356e+001	-3.066448e+001	-1.687579e+001	-9.476832e+001	-8.884242e+001	-2.954218e+001	9.076280e+001
6.150859e+006	-3.106390e+001	8.455024e+001	-3.067348e+001	-1.689620e+001	-1.042439e+002	6.244376e+001	-2.954697e+001	9.069063e+001
6.150898e+006	-3.105725e+001	8.451026e+001	-3.066375e+001	-1.691230e+001	-9.816162e+001	-8.696881e+001	-2.954030e+001	9.070448e+001
6.150938e+006	-3.105854e+001	8.453444e+001	-3.066413e+001	-1.701738e+001	-8.745022e+001	1.557723e+002	-2.954228e+001	9.078778e+001
6.150977e+006	-3.105852e+001	8.449266e+001	-3.066863e+001	-1.690550e+001	-9.474973e+001	1.058488e+001	-2.954077e+001	9.077856e+001
6.151016e+006	-3.104983e+001	8.457072e+001	-3.067104e+001	-1.692852e+001	-8.713679e+001	1.381184e+002	-2.953947e+001	9.073701e+001
6.151055e+006	-3.106289e+001	8.452958e+001	-3.068328e+001	-1.695959e+001	-9.056262e+001	-9.662260e+001	-2.955112e+001	9.079169e+001
6.151094e+006	-3.106517e+001	8.450488e+001	-3.067293e+001	-1.693575e+001	-8.746969e+001	2.001660e+001	-2.953984e+001	9.068597e+001
6.151133e+006	-3.105352e+001	8.451429e+001	-3.068145e+001	-1.690860e+001	-9.400333e+001	9.102109e+001	-2.954581e+001	9.074130e+001
6.151172e+006	-3.105288e+001	8.452008e+001	-3.067573e+001	-1.700734e+001	-9.413568e+001	-1.726004e+002	-2.954651e+001	9.071513e+001
6.151211e+006	-3.105827e+001	8.459494e+001	-3.067889e+001	-1.699501e+001	-9.263705e+001	1.012845e+002	-2.954737e+001	9.082391e+001
6.151250e+006	-3.106147e+001	8.450879e+001	-3.065887e+001	-1.686724e+001	-8.788752e+001	5.642079e+001	-2.954128e+001	9.074653e+001
6.151289e+006	-3.105960e+001	8.456163e+001	-3.067195e+001	-1.689192e+001	-8.973085e+001	1.030639e+002	-2.954587e+001	9.072869e+001
6.151328e+006	-3.106492e+001	8.451800e+001	-3.066483e+001	-1.694011e+001	-9.181717e+001	1.239664e+002	-2.954419e+001	9.081720e+001
6.151367e+006	-3.105656e+001	8.457412e+001	-3.067337e+001	-1.693915e+001	-9.268750e+001	-1.681799e+002	-2.953291e+001	9.075208e+001
6.151406e+006	-3.105702e+001	8.447680e+001	-3.067211e+001	-1.689376e+001	-9.552018e+001	7.365014e+001	-2.954031e+001	9.079446e+001
6.151445e+006	-3.106945e+001	8.458996e+001	-3.067682e+001	-1.693817e+001	-9.849160e+001	1.637869e+002	-2.954110e+001	9.077576e+001
6.151484e+006	-3.105994e+001	8.455266e+001	-3.067975e+001	-1.691531e+001	-9.739604e+001	4.874603e+001	-2.954058e+001	9.071144e+001
6.151523e+006	-3.105533e+001	8.455401e+001	-3.067044e+001	-1.693673e+001	-9.529548e+001	-4.127744e+001	-2.954955e+001	9.073928e+001
6.151563e+006	-3.106558e+001	8.456805e+001	-3.068030e+001	-1.691770e+001	-9.071802e+001	2.668404e+001	-2.954506e+001	9.073739e+001
6.151602e+006	-3.107065e+001	8.458599e+001	-3.067008e+001	-1.691860e+001	-9.152071e+001	1.226641e+002	-2.954065e+001	9.073122e+001
6.151641e+006	-3.106605e+001	8.453795e+001	-3.067393e+001	-1.686080e+001	-1.005608e+002	1.217826e+001	-2.954413e+001	9.075717e+001
6.151680e+006	-3.105495e+001	8.451316e+001	-3.066526e+001	-1.688569e+001	-8.776966e+001	4.462702e+001	-2.954446e+001	9.072015e+001
6.151719e+006	-3.106235e+001	8.451091e+001	-3.067124e+001	-1.687255e+001	-9.003767e+001	1.357875e+002	-2.953984e+001	9.078098e+001
6.151758e+006	-3.106027e+001	8.454905e+001	-3.066853e+001	-1.685824e+001	-8.639108e+001	4.393165e+001	-2.954608e+001	9.076565e+001
6.151797e+006	-3.105784e+001	8.454121e+001	-3.066117e+001	-1.689534e+001	-9.026732e+001	8.899306e+001	-2.954779e+001	9.073266e+001
6.151836e+006	-3.105816e+001	8.456960e+001	-3.067793e+001	-1.691154e+001	-9.566939e+001	1.496444e+001	-2.954078e+001	9.079029e+001
6.151875e+006	-3.106075e+001	8.456304e+001	-3.066257e+001	-1.692211e+001	-8.871289e+001	1.396429e+002	-2.954565e+001	9.073768e+001
6.151914e+006	-3.106609e+001	8.456779e+001	-3.066865e+001	-1.690546e+001	-9.500590e+001	6.264187e+001	-2.955119e+001	9.072100e+001
6.151953e+006	-3.105781e+001	8.458614e+001	-3.067485e+001	-1.690976e+001	-9.517803e+001	2.949366e+001	-2.954122e+001	9.081424e+001
6.151992e+006	-3.106005e+001	8.458381e+001	-3.067553e+001	-1.688358e+001	-9.896702e+001	-3.221497e+001	-2.954977e+001	9.074845e+001
6.152031e+006	-3.106014e+001	8.455666e+001	-3.067048e+001	-1.697517e+001	-8.959228e+001	1.384851e+002	-2.953820e+001	9.077215e+001
6.152070e+006	-3.106120e+001	8.451239e+001	-3.066488e+001	-1.697692e+001	-9.992002e+001	-5.500658e+001	-2.954034e+001	9.076091e+001
6.152109e+006	-3.106759e+001	8.459477e+001	-3.066803e+001	-1.693921e+001	-9.909360e+001	-1.757072e+002	-2.954682e+001	9.078313e+001
6.152148e+006	-3.105598e+001	8.460873e+001	-3.067335e+001	-1.690142e+001	-9.810274e+001	-6.938609e+001	-2.954070e+001	9.072689e+001
6.152188e+006	-3.106643e+001	8.455638e+001	-3.067268e+001	-1.696595e+001	-9.475544e+001	7.594578e+001	-2.954186e+001	9.078068e+001
6.152227e+006	-3.106242e+001	8.458569e+001	-3.067960e+001	-1.690666e+001	-8.871408e+001	8.520253e+001	-2.954935e+001	9.078943e+001
6.152266e+006	-3.106178e+001	8.454236e+001	-3.065880e+001	-1.694673e+001	-8.945301e+001	1.320015e+002	-2.953075e+001	9.075742e+001
6.152305e+006	-3.105770e+001	8.460416e+001	-3.067157e+001	-1.691026e+001	-9.132766e+001	-5.745143e+001	-2.954217e+001	9.077170e+001
6.152344e+006	-3.106482e+001	8.457374e+001	-3.067548e+001	-1.697190e+001	-9.220908e+001	5.943290e+001	-2.954142e+001	9.078625e+001
6.152383e+006	-3.106664e+001	8.458656e+001	-3.067891e+001	-1.698889e+001	-9.928402e+001	-6.285614e+001	-2.954514e+001	9.076476e+001
6.152422e+006	-3.105156e+001	8.462961e+001	-3.066698e+001	-1.693892e+001	-8.858837e+001	1.072622e+002	-2.954744e+001	9.074488e+001
6.152461e+006	-3.106351e+001	8.455366e+001	-3.066903e+001	-1.692679e+001	-8.711942e+001	9.037778e+001	-2.954452e+001	9.079285e+001
6.152500e+006	-3.106191e+001	8.464409e+001	-3.066346e+001	-1.695156e+001	-9.110416e+001	1.002887e+002	-2.954673e+001	9.073169e+001
6.152539e+006	-3.105464e+001	8.462067e+001	-3.066386e+001	-1.686799e+001	-9.344096e+001	1.200950e+002	-2.954939e+001	9.080051e+001
6.152578e+006	-3.105738e+001	8.461650e+001	-3.067192e+001	-1.695865e+001	-8.657929e+001	8.670024e+001	-2.954340e+001	9.078047e+001
6.152617e+006	-3.106038e+001	8.459785e+001	-3.067084e+001	-1.684167e+001	-9.280939e+001	3.663318e+001	-2.953624e+001	9.084355e+001
6.152656e+006	-3.105997e+001	8.456881e+001	-3.066367e+001	-1.692975e+001	-9.533360e+001	4.801849e+001	-2.954958e+001	9.077763e+001
6.152695e+006	-3.106342e+001	8.456927e+001	-3.067474e+001	-1.685293e+001	-9.540843e+001	1.670167e+002	-2.954601e+001	9.079029e+001
6.152734e+006	-3.106030e+001	8.455272e+001	-3.067534e+001	-1.694773e+001	-9.274342e+001	1.229246e+001	-2.954275e+001	9.078973e+001
6.152773e+006	-3.106515e+001	8.462838e+001	-3.066335e+001	-1.695316e+001	-9.610116e+001	-5.735649e+001	-2.954966e+001	9.079918e+001
6.152813e+006	-3.106042e+001	8.460168e+001	-3.066597e+001	-1.695465e+001	-9.126191e+001	4.310783e+001	-2.954146e+001	9.081114e+001
6.152852e+006	-3.106113e+001	8.456183e+001	-3.066989e+001	-1.688360e+001	-9.254636e+001	-3.962657e+001	-2.954390e+001	9.076556e+001
6.152891e+006	-3.106481e+001	8.456380e+001	-3.068126e+001	-1.692170e+001	-9.555804e+001	3.895304e+001	-2.954621e+001	9.078750e+001
6.152930e+006	-3.105739e+001	8.455746e+001	-3.067249e+001	-1.698077e+001	-9.342855e+001	1.228261e+002	-2.953360e+001	9.076667e+001
6.152969e+006	-3.106425e+001	8.456461e+001	-3.066973e+001	-1.690635e+001	-9.513822e+001	-1.149771e+002	-2.954978e+001	9.082933e+001
6.153008e+006	-3.105615e+001	8.459950e+001	-3.066855e+001	-1.693936e+001	-9.976022e+001	-8.690175e+000	-2.954419e+001	9.078663e+001
6.153047e+006	-3.105913e+001	8.452014e+001	-3.066328e+001	-1.687397e+001	-9.455026e+001	1.483994e+002	-2.954750e+001	9.082652e+001
6.153086e+006	-3.106697e+001	8.451238e+001	-3.066996e+001	-1.690049e+001	-9.373417e+001	-3.068481e+001	-2.953000e+001	9.082460e+001
6.153125e+006	-3.106412e+001	8.459488e+001	-3.067799e+001	-1.688503e+001	-1.009614e+002	-5.834430e+000	-2.954019e+001	9.079107e+001
6.153164e+006	-3.105268e+001	8.459777e+001	-3.065854e+001	-1.695868e+001	-1.066159e+002	5.856325e+001	-2.954186e+001	9.078007e+001
6.153203e+006	-3.106689e+001	8.461825e+001	-3.066052e+001	-1.694771e+001	-9.830260e+001	1.534952e+002	-2.953425e+001	9.079161e+001
6.153242e+006	-3.105429e+001	8.459963e+001	-3.066879e+001	-1.692081e+001	-9.067173e+001	-2.101215e+001	-2.955066e+001	9.081035e+001
6.153281e+006	-3.106775e+001	8.460457e+001	-3.066261e+001	-1.696207e+001	-9.488873e+001	1.652365e+002	-2.953960e+001	9.069121e+001
6.153320e+006	-3.106607e+001	8.455480e+001	-3.066953e+001	-1.698393e+001	-1.083173e+002	-6.465128e+001	-2.954594e+001	9.081078e+001
6.153359e+006	-3.105519e+001	8.460883e+001	-3.066612e+001	-1.687026e+001	-9.091288e+001	1.247098e+002	-2.954500e+001	9.078000e+001
6.153398e+006	-3.106164e+001	8.459735e+001	-3.066874e+001	-1.687775e+001	-9.998907e+001	3.433326e+001	-2.954124e+001	9.074901e+001
6.153438e+006	-3.105685e+001	8.460959e+001	-3.066870e+001	-1.690399e+001	-8.853006e+001	7.311964e+001	-2.954554e+001	9.082052e+001
6.153477e+006	-3.106460e+001	8.453178e+001	-3.066388e+001	-1.692768e+001	-9.132600e+001	-7.507918e+001	-2.953754e+001	9.077631e+001
6.153516e+006	-3.105531e+001	8.459227e+001	-3.066211e+001	-1.702275e+001	-9.211781e+001	-1.744002e+002	-2.954825e+001	9.077924e+001
6.153555e+006	-3.106488e+001	8.462795e+001	-3.066888e+001	-1.697461e+001	-9.102173e+001	-1.681299e+002	-2.954423e+001	9.081706e+001
6.153594e+006	-3.106272e+001	8.460655e+001	-3.066580e+001	-1.697187e+001	-1.085466e+002	1.440166e+002	-2.954435e+001	9.079952e+001
6.153633e+006	-3.106419e+001	8.454010e+001	-3.066403e+001	-1.692245e+001	-8.953219e+001	6.641281e+001	-2.954541e+001	9.076886e+001
6.153672e+006	-3.106158e+001	8.460047e+001	-3.067456e+001	-1.691868e+001	-1.029186e+002	-1.438762e+002	-2.954709e+001	9.079271e+001
6.153711e+006	-3.106502e+001	8.463141e+001	-3.065506e+001	-1.690567e+001	-9.281579e+001	-1.262818e+002	-2.953674e+001	9.081451e+001
6.153750e+006	-3.107473e+001	8.460611e+001	-3.066460e+001	-1.693873e+001	-9.980821e+001	1.224634e+002	-2.954812e+001	9.083320e+001
6.153789e+006	-3.106407e+001	8.454824e+001	-3.066670e+001	-1.690334e+001	-9.102651e+001	6.594259e+001	-2.955600e+001	9.081467e+001
6.153828e+006	-3.105620e+001	8.473418e+001	-3.066456e+001	-1.690445e+001	-9.943305e+001	5.436295e+001	-2.953836e+001	9.077008e+001
6.153867e+006	-3.106535e+001	8.459749e+001	-3.066563e+001	-1.692054e+001	-9.187114e+001	-1.198684e+002	-2.953498e+001	9.084619e+001
6.153906e+006	-3.106309e+001	8.463346e+001	-3.066240e+001	-1.687610e+001	-9.147230e+001	1.479364e+002	-2.954919e+001	9.079660e+001
6.153945e+006	-3.106806e+001	8.462467e+001	-3.067009e+001	-1.688685e+001	-8.990931e+001	-1.155625e+002	-2.954435e+001	9.083406e+001
6.153984e+006	-3.105713e+001	8.461086e+001	-3.066842e+001	-1.693682e+001	-1.009884e+002	-1.008103e+001	-2.955993e+001	9.084499e+001
6.154023e+006	-3.105914e+001	8.464674e+001	-3.066702e+001	-1.690499e+001	-8.873867e+001	-1.298175e+001	-2.954446e+001	9.080224e+001
6.154063e+006	-3.106016e+001	8.461857e+001	-3.066975e+001	-1.694552e+001	-9.671483e+001	-1.278215e+002	-2.954603e+001	9.083378e+001
6.154102e+006	-3.105779e+001	8.462607e+001	-3.066770e+001	-1.696331e+001	-9.427622e+001	-1.843992e+000	-2.954741e+001	9.077147e+001
6.154141e+006	-3.106001e+001	8.467243e+001	-3.066622e+001	-1.694451e+001	-8.888576e+001	1.525258e+002	-2.953693e+001	9.085450e+001
6.154180e+006	-3.106668e+001	8.463241e+001	-3.067279e+001	-1.694517e+001	-8.943589e+001	7.578582e+001	-2.954541e+001	9.083183e+001
6.154219e+006	-3.106590e+001	8.459165e+001	-3.066113e+001	-1.689677e+001	-8.696666e+001	-1.120041e+002	-2.954145e+001	9.078001e+001
6.154258e+006	-3.106048e+001	8.459501e+001	-3.066772e+001	-1.691287e+001	-9.101789e+001	1.395934e+002	-2.953916e+001	9.076777e+001
6.154297e+006	-3.107832e+001	8.456788e+001	-3.066390e+001	-1.690338e+001	-9.174304e+001	1.508304e+002	-2.954493e+001	9.083259e+001
6.154336e+006	-3.106004e+001	8.455037e+001	-3.067267e+001	-1.696681e+001	-1.305227e+002	1.213564e+002	-2.954641e+001	9.075227e+001
6.154375e+006	-3.106851e+001	8.457613e+001	-3.066935e+001	-1.692194e+001	-9.378347e+001	8.271621e+001	-2.954714e+001	9.086861e+001
6.154414e+006	-3.106546e+001	8.459129e+001	-3.067366e+001	-1.690726e+001	-9.180935e+001	1.066963e+002	-2.953840e+001	9.088755e+001
6.154453e+006	-3.106331e+001	8.464434e+001	-3.066524e+001	-1.692640e+001	-9.529589e+001	-4.311855e+001	-2.953436e+001	9.082996e+001
6.154492e+006	-3.106215e+001	8.456793e+001	-3.067091e+001	-1.693344e+001	-9.532631e+001	4.097819e+001	-2.954004e+001	9.084154e+001
6.154531e+006	-3.106476e+001	8.465107e+001	-3.066746e+001	-1.693791e+001	-9.349538e+001	2.082967e+000	-2.954609e+001	9.077014e+001
6.154570e+006	-3.106815e+001	8.463107e+001	-3.067488e+001	-1.696527e+001	-8.756435e+001	1.412250e+002	-2.953632e+001	9.073802e+001
6.154609e+006	-3.106647e+001	8.464782e+001	-3.065365e+001	-1.692887e+001	-9.109699e+001	-1.614428e+002	-2.953780e+001	9.078979e+001
6.154648e+006	-3.106250e+001	8.465031e+001	-3.067354e+001	-1.698109e+001	-9.697840e+001	9.623598e+001	-2.953959e+001	9.083093e+001
6.154688e+006	-3.105892e+001	8.466202e+001	-3.066955e+001	-1.702966e+001	-9.105847e+001	5.009040e+001	-2.954225e+001	9.079909e+001
6.154727e+006	-3.106287e+001	8.456489e+001	-3.066621e+001	-1.695217e+001	-9.573849e+001	1.230830e+002	-2.954829e+001	9.088521e+001
6.154766e+006	-3.105565e+001	8.461297e+001	-3.066582e+001	-1.693687e+001	-9.197342e+001	2.403899e+001	-2.954907e+001	9.083191e+001
6.154805e+006	-3.106431e+001	8.465894e+001	-3.066377e+001	-1.695089e+001	-1.140067e+002	-1.249658e+002	-2.954097e+001	9.084059e+001
6.154844e+006	-3.106150e+001	8.464625e+001	-3.066796e+001	-1.691763e+001	-9.657589e+001	-2.933882e+001	-2.954269e+001	9.077516e+001
6.154883e+006	-3.105900e+001	8.470316e+001	-3.067102e+001	-1.690678e+001	-8.560067e+001	1.239662e+002	-2.954769e+001	9.084008e+001
6.154922e+006	-3.104938e+001	8.461867e+001	-3.066078e+001	-1.690149e+001	-9.146129e+001	-1.142760e+001	-2.954275e+001	9.085564e+001
6.154961e+006	-3.106018e+001	8.462030e+001	-3.066299e+001	-1.693917e+001	-9.007994e+001	1.063619e+002	-2.954431e+001	9.078283e+001
6.155000e+006	-3.105942e+001	8.463444e+001	-3.067194e+001	-1.695437e+001	-9.316306e+001	8.097883e+001	-2.953614e+001	9.075281e+001
6.155039e+006	-3.106163e+001	8.460670e+001	-3.065372e+001	-1.689380e+001	-1.004228e+002	6.839911e+001	-2.953846e+001	9.079152e+001
6.155078e+006	-3.106840e+001	8.466707e+001	-3.065296e+001	-1.691889e+001	-9.035615e+001	5.785231e+001	-2.954707e+001	9.085288e+001
6.155117e+006	-3.105025e+001	8.464992e+001	-3.066707e+001	-1.688679e+001	-9.293618e+001	8.579673e+001	-2.954262e+001	9.081344e+001
6.155156e+006	-3.106133e+001	8.462586e+001	-3.066584e+001	-1.695840e+001	-9.640788e+001	1.283682e+002	-2.954867e+001	9.085253e+001
6.155195e+006	-3.105975e+001	8.462288e+001	-3.064798e+001	-1.694113e+001	-1.010046e+002	1.757799e+002	-2.953772e+001	9.084247e+001
6.155234e+006	-3.105313e+001	8.466460e+001	-3.067268e+001	-1.702127e+001	-1.046729e+002	4.276390e+001	-2.953812e+001	9.083807e+001
6.155273e+006	-3.105465e+001	8.464668e+001	-3.066094e+001	-1.697724e+001	-9.379884e+001	-2.784867e+001	-2.954235e+001	9.083810e+001
6.155313e+006	-3.106943e+001	8.465038e+001	-3.065670e+001	-1.702455e+001	-9.213474e+001	-7.990871e-001	-2.954221e+001	9.080292e+001
6.155352e+006	-3.106410e+001	8.464127e+001	-3.065494e+001	-1.695640e+001	-9.242107e+001	5.574502e+001	-2.954768e+001	9.078407e+001
6.155391e+006	-3.106447e+001	8.466575e+001	-3.065779e+001	-1.697823e+001	-9.445704e+001	6.399405e+001	-2.954603e+001	9.083008e+001
6.155430e+006	-3.106912e+001	8.472853e+001	-3.066081e+001	-1.698668e+001	-9.540841e+001	-1.154575e+001	-2.954458e+001	9.085865e+001
6.155469e+006	-3.106144e+001	8.462791e+001	-3.065823e+001	-1.707234e+001	-9.212688e+001	-1.646072e+002	-2.954685e+001	9.077956e+001
6.155508e+006	-3.106414e+001	8.463192e+001	-3.067328e+001	-1.705906e+001	-9.931856e+001	-1.310948e+002	-2.953736e+001	9.075465e+001
6.155547e+006	-3.107122e+001	8.471737e+001	-3.067616e+001	-1.701076e+001	-9.830967e+001	4.088391e+001	-2.954076e+001	9.086706e+001
6.155586e+006	-3.107062e+001	8.468534e+001	-3.068318e+001	-1.698412e+001	-8.642666e+001	-1.666063e+001	-2.954093e+001	9.087552e+001
6.155625e+006	-3.106252e+001	8.465035e+001	-3.066627e+001	-1.677102e+001	-9.023941e+001	4.710563e+001	-2.955882e+001	9.087108e+001
6.155664e+006	-3.106979e+001	8.468319e+001	-3.065415e+001	-1.692143e+001	-8.989824e+001	3.391431e+001	-2.953993e+001	9.085404e+001
6.155703e+006	-3.106077e+001	8.464875e+001	-3.067148e+001	-1.703273e+001	-8.976725e+001	-1.846983e+000	-2.954353e+001	9.083398e+001
6.155742e+006	-3.106548e+001	8.462847e+001	-3.068014e+001	-1.693680e+001	-1.027366e+002	1.016297e+002	-2.953663e+001	9.079192e+001
6.155781e+006	-3.106631e+001	8.459483e+001	-3.066276e+001	-1.691195e+001	-9.443575e+001	6.039130e+001	-2.954776e+001	9.087167e+001
