!CETC41,AV3656A,ZGL00048,1.3.2
!Calibration ON (Full Solt 2-Port(Omit Isolation))
!Measurements: S11 S21 S12 S22
!2025-04-18 23:00
# Hz  S  dB  R 50.000
6.150000e+006	-3.110764e+001	8.455184e+001	-3.067532e+001	-1.715894e+001	-9.711562e+001	-3.594433e+000	-2.954309e+001	9.114778e+001
6.150039e+006	-3.111105e+001	8.458764e+001	-3.067241e+001	-1.708504e+001	-9.431969e+001	1.357103e+002	-2.954637e+001	9.115574e+001
6.150078e+006	-3.111881e+001	8.456848e+001	-3.066512e+001	-1.715087e+001	-1.161429e+002	-2.292419e+001	-2.954500e+001	9.115271e+001
6.150117e+006	-3.111438e+001	8.455073e+001	-3.066723e+001	-1.711191e+001	-9.631282e+001	1.427103e+002	-2.954135e+001	9.111535e+001
6.150156e+006	-3.111048e+001	8.465150e+001	-3.067202e+001	-1.712573e+001	-9.461509e+001	1.014874e+002	-2.954846e+001	9.120871e+001
6.150195e+006	-3.110541e+001	8.458172e+001	-3.067285e+001	-1.708594e+001	-9.509515e+001	3.602098e+001	-2.953966e+001	9.124202e+001
6.150234e+006	-3.111977e+001	8.461746e+001	-3.067772e+001	-1.709604e+001	-9.404934e+001	7.112429e+000	-2.953836e+001	9.115601e+001
6.150273e+006	-3.111465e+001	8.461999e+001	-3.067435e+001	-1.710545e+001	-9.533649e+001	1.543137e+002	-2.953918e+001	9.111604e+001
6.150313e+006	-3.112172e+001	8.462121e+001	-3.066435e+001	-1.706794e+001	-9.550706e+001	5.977114e+001	-2.954275e+001	9.124048e+001
6.150352e+006	-3.112646e+001	8.455960e+001	-3.065820e+001	-1.709954e+001	-9.698220e+001	9.516000e+001	-2.954774e+001	9.121003e+001
6.150391e+006	-3.111441e+001	8.451685e+001	-3.066508e+001	-1.713009e+001	-9.543748e+001	-9.740372e+001	-2.954173e+001	9.115283e+001
6.150430e+006	-3.111917e+001	8.461067e+001	-3.067443e+001	-1.716204e+001	-9.012853e+001	-1.488662e+002	-2.954615e+001	9.113396e+001
6.150469e+006	-3.111663e+001	8.459958e+001	-3.068052e+001	-1.703551e+001	-9.664727e+001	1.903947e+001	-2.954745e+001	9.119522e+001
6.150508e+006	-3.111331e+001	8.466375e+001	-3.065846e+001	-1.714671e+001	-8.983137e+001	1.782044e+002	-2.953879e+001	9.118818e+001
6.150547e+006	-3.111960e+001	8.460244e+001	-3.066457e+001	-1.703006e+001	-9.227862e+001	1.270456e+002	-2.953992e+001	9.120540e+001
6.150586e+006	-3.111627e+001	8.460096e+001	-3.066242e+001	-1.710134e+001	-1.232852e+002	-1.894472e+001	-2.954148e+001	9.116395e+001
6.150625e+006	-3.112462e+001	8.460441e+001	-3.066747e+001	-1.709289e+001	-9.957246e+001	1.161708e+002	-2.953596e+001	9.111071e+001
6.150664e+006	-3.111560e+001	8.465449e+001	-3.066801e+001	-1.705855e+001	-8.949600e+001	-1.087371e+002	-2.954285e+001	9.117290e+001
6.150703e+006	-3.111994e+001	8.465950e+001	-3.066639e+001	-1.709626e+001	-9.483788e+001	-1.741465e+002	-2.953970e+001	9.113239e+001
6.150742e+006	-3.111059e+001	8.457409e+001	-3.065645e+001	-1.717040e+001	-8.809889e+001	5.576029e+001	-2.954645e+001	9.115619e+001
6.150781e+006	-3.111698e+001	8.464001e+001	-3.067019e+001	-1.711885e+001	-9.867465e+001	9.498386e+001	-2.953787e+001	9.116895e+001
6.150820e+006	-3.111819e+001	8.457449e+001	-3.066580e+001	-1.706292e+001	-9.324564e+001	2.166770e+001	-2.954149e+001	9.114294e+001
6.150859e+006	-3.111343e+001	8.461610e+001	-3.066175e+001	-1.710116e+001	-9.605345e+001	8.695416e+001	-2.954354e+001	9.112899e+001
6.150898e+006	-3.111041e+001	8.462180e+001	-3.067018e+001	-1.713201e+001	-9.139121e+001	9.576912e+001	-2.954064e+001	9.116008e+001
6.150938e+006	-3.111558e+001	8.460535e+001	-3.066216e+001	-1.712195e+001	-1.012233e+002	-1.124751e+001	-2.953698e+001	9.114389e+001
6.150977e+006	-3.111241e+001	8.462387e+001	-3.066735e+001	-1.707033e+001	-9.450448e+001	-9.983725e+001	-2.953912e+001	9.116232e+001
6.151016e+006	-3.110690e+001	8.461111e+001	-3.065734e+001	-1.711385e+001	-1.004425e+002	-9.581251e+001	-2.954278e+001	9.116329e+001
6.151055e+006	-3.111810e+001	8.462865e+001	-3.066479e+001	-1.709133e+001	-9.041956e+001	4.151864e+000	-2.954836e+001	9.114487e+001
6.151094e+006	-3.111238e+001	8.468080e+001	-3.066490e+001	-1.711779e+001	-9.567647e+001	1.144069e+002	-2.954451e+001	9.122236e+001
6.151133e+006	-3.110503e+001	8.463992e+001	-3.066562e+001	-1.709316e+001	-9.300950e+001	1.160730e+002	-2.953845e+001	9.116474e+001
6.151172e+006	-3.112408e+001	8.463207e+001	-3.066289e+001	-1.714934e+001	-9.532760e+001	1.276174e+002	-2.953641e+001	9.114921e+001
6.151211e+006	-3.111164e+001	8.461710e+001	-3.067460e+001	-1.701661e+001	-9.572543e+001	-8.872249e+001	-2.954443e+001	9.117345e+001
6.151250e+006	-3.111097e+001	8.454734e+001	-3.066712e+001	-1.709102e+001	-9.086223e+001	1.136875e+002	-2.954773e+001	9.116290e+001
6.151289e+006	-3.111057e+001	8.465575e+001	-3.066315e+001	-1.708966e+001	-9.408818e+001	-3.710463e+001	-2.954583e+001	9.117661e+001
6.151328e+006	-3.112051e+001	8.460864e+001	-3.067156e+001	-1.706659e+001	-9.098609e+001	1.635868e+002	-2.954395e+001	9.117681e+001
6.151367e+006	-3.111153e+001	8.463120e+001	-3.066285e+001	-1.707791e+001	-1.017834e+002	1.279832e+002	-2.953883e+001	9.117510e+001
6.151406e+006	-3.111730e+001	8.458072e+001	-3.067793e+001	-1.711592e+001	-9.481402e+001	5.689528e+001	-2.953468e+001	9.119374e+001
6.151445e+006	-3.111897e+001	8.460934e+001	-3.067435e+001	-1.714821e+001	-9.021910e+001	6.539177e+001	-2.954577e+001	9.116166e+001
6.151484e+006	-3.110153e+001	8.461931e+001	-3.066501e+001	-1.709873e+001	-1.002314e+002	1.467676e+002	-2.953619e+001	9.121212e+001
6.151523e+006	-3.112048e+001	8.458448e+001	-3.066266e+001	-1.706611e+001	-9.857821e+001	-1.473087e+002	-2.954371e+001	9.124258e+001
6.151563e+006	-3.110611e+001	8.460236e+001	-3.066042e+001	-1.716601e+001	-1.068686e+002	-1.277173e+002	-2.954126e+001	9.120734e+001
6.151602e+006	-3.111376e+001	8.466892e+001	-3.068460e+001	-1.713870e+001	-9.412307e+001	5.582683e+001	-2.954059e+001	9.117095e+001
6.151641e+006	-3.111122e+001	8.468322e+001	-3.066914e+001	-1.709038e+001	-8.821862e+001	8.550713e+001	-2.954385e+001	9.115050e+001
6.151680e+006	-3.111478e+001	8.462387e+001	-3.066299e+001	-1.711741e+001	-9.193790e+001	-4.311163e+000	-2.954067e+001	9.123234e+001
6.151719e+006	-3.111324e+001	8.457467e+001	-3.066280e+001	-1.708740e+001	-1.099668e+002	1.139609e+002	-2.954277e+001	9.115326e+001
6.151758e+006	-3.112928e+001	8.463528e+001	-3.066397e+001	-1.707940e+001	-1.084803e+002	-8.365524e+001	-2.953466e+001	9.118200e+001
6.151797e+006	-3.111797e+001	8.461463e+001	-3.067030e+001	-1.708706e+001	-9.364433e+001	1.546197e+002	-2.955073e+001	9.123337e+001
6.151836e+006	-3.112124e+001	8.465799e+001	-3.066545e+001	-1.708692e+001	-8.659978e+001	1.494985e+002	-2.953602e+001	9.114638e+001
6.151875e+006	-3.111881e+001	8.465475e+001	-3.066522e+001	-1.708225e+001	-9.804892e+001	1.244021e+001	-2.954082e+001	9.111732e+001
6.151914e+006	-3.111069e+001	8.462517e+001	-3.066722e+001	-1.711752e+001	-8.753553e+001	1.137143e+002	-2.954471e+001	9.118641e+001
6.151953e+006	-3.112391e+001	8.465508e+001	-3.066461e+001	-1.703858e+001	-1.123174e+002	-9.396602e+000	-2.954016e+001	9.120102e+001
6.151992e+006	-3.111507e+001	8.463197e+001	-3.067158e+001	-1.709115e+001	-9.834585e+001	8.309372e+001	-2.954270e+001	9.117905e+001
6.152031e+006	-3.112275e+001	8.460012e+001	-3.066749e+001	-1.711378e+001	-9.426021e+001	6.257294e+000	-2.954544e+001	9.122246e+001
6.152070e+006	-3.111684e+001	8.460217e+001	-3.065933e+001	-1.706016e+001	-8.864029e+001	8.794238e+001	-2.954324e+001	9.119882e+001
6.152109e+006	-3.111634e+001	8.465416e+001	-3.066161e+001	-1.709411e+001	-9.446176e+001	1.444248e+002	-2.953218e+001	9.121657e+001
6.152148e+006	-3.111706e+001	8.460487e+001	-3.067385e+001	-1.713949e+001	-9.509413e+001	-7.022105e+001	-2.954011e+001	9.113636e+001
6.152188e+006	-3.111838e+001	8.464652e+001	-3.066838e+001	-1.710028e+001	-9.170425e+001	9.405447e+001	-2.954403e+001	9.126254e+001
6.152227e+006	-3.111542e+001	8.458111e+001	-3.066444e+001	-1.712515e+001	-9.059656e+001	-1.391440e+002	-2.954854e+001	9.117674e+001
6.152266e+006	-3.112097e+001	8.465322e+001	-3.067426e+001	-1.714255e+001	-9.000062e+001	1.702307e+002	-2.953877e+001	9.122577e+001
6.152305e+006	-3.111183e+001	8.470703e+001	-3.066884e+001	-1.712429e+001	-8.922380e+001	-3.181541e+001	-2.954836e+001	9.125542e+001
6.152344e+006	-3.111450e+001	8.469330e+001	-3.067289e+001	-1.712118e+001	-8.917249e+001	1.480701e+002	-2.954629e+001	9.119157e+001
6.152383e+006	-3.111879e+001	8.462780e+001	-3.067431e+001	-1.710299e+001	-9.339928e+001	7.284731e+001	-2.954299e+001	9.118502e+001
6.152422e+006	-3.111551e+001	8.462612e+001	-3.066572e+001	-1.706341e+001	-9.143751e+001	7.403059e+001	-2.954276e+001	9.122883e+001
6.152461e+006	-3.111873e+001	8.464841e+001	-3.066430e+001	-1.710868e+001	-9.202107e+001	4.219874e+001	-2.953794e+001	9.118172e+001
6.152500e+006	-3.112060e+001	8.460177e+001	-3.067066e+001	-1.711106e+001	-9.996919e+001	1.264028e+002	-2.954078e+001	9.118912e+001
6.152539e+006	-3.111408e+001	8.467796e+001	-3.067210e+001	-1.709115e+001	-9.912778e+001	5.545018e+001	-2.954984e+001	9.117622e+001
6.152578e+006	-3.111842e+001	8.472010e+001	-3.066742e+001	-1.708015e+001	-9.729168e+001	8.626068e+001	-2.954251e+001	9.123232e+001
6.152617e+006	-3.111396e+001	8.464674e+001	-3.067983e+001	-1.714582e+001	-9.037663e+001	1.082952e+002	-2.954714e+001	9.122503e+001
6.152656e+006	-3.110664e+001	8.459534e+001	-3.067260e+001	-1.711635e+001	-8.929636e+001	-4.892980e+001	-2.955056e+001	9.117681e+001
6.152695e+006	-3.111130e+001	8.462886e+001	-3.066273e+001	-1.718914e+001	-9.257197e+001	7.299404e+001	-2.954824e+001	9.123018e+001
6.152734e+006	-3.112276e+001	8.468584e+001	-3.067023e+001	-1.716950e+001	-1.013384e+002	1.771515e+002	-2.953379e+001	9.118589e+001
6.152773e+006	-3.111978e+001	8.461370e+001	-3.066464e+001	-1.703089e+001	-9.055531e+001	-7.066181e+001	-2.954178e+001	9.119734e+001
6.152813e+006	-3.112228e+001	8.463521e+001	-3.066339e+001	-1.714902e+001	-9.798278e+001	1.790792e+002	-2.954823e+001	9.125091e+001
6.152852e+006	-3.112071e+001	8.467910e+001	-3.066445e+001	-1.706559e+001	-8.893143e+001	-6.300753e+001	-2.954069e+001	9.121509e+001
6.152891e+006	-3.111008e+001	8.466376e+001	-3.066478e+001	-1.706519e+001	-1.113628e+002	-1.502165e+002	-2.953498e+001	9.118349e+001
6.152930e+006	-3.111349e+001	8.465934e+001	-3.066832e+001	-1.703185e+001	-8.925047e+001	1.331617e+002	-2.954349e+001	9.119679e+001
6.152969e+006	-3.112019e+001	8.465879e+001	-3.066865e+001	-1.710102e+001	-1.001923e+002	7.675391e+001	-2.953452e+001	9.122260e+001
6.153008e+006	-3.110722e+001	8.462249e+001	-3.066683e+001	-1.710762e+001	-1.031269e+002	-2.278559e+001	-2.954514e+001	9.120932e+001
6.153047e+006	-3.111056e+001	8.466758e+001	-3.067285e+001	-1.710247e+001	-8.915198e+001	-4.435912e-001	-2.953976e+001	9.123287e+001
6.153086e+006	-3.112378e+001	8.456583e+001	-3.066610e+001	-1.706570e+001	-1.006139e+002	-8.048724e+001	-2.954331e+001	9.126134e+001
6.153125e+006	-3.112158e+001	8.465068e+001	-3.065918e+001	-1.708457e+001	-1.030563e+002	-9.251734e+001	-2.954019e+001	9.126488e+001
6.153164e+006	-3.111121e+001	8.466401e+001	-3.066083e+001	-1.716313e+001	-9.892001e+001	4.363871e+001	-2.954579e+001	9.121614e+001
6.153203e+006	-3.111909e+001	8.470623e+001	-3.066629e+001	-1.709727e+001	-9.194961e+001	6.720296e+001	-2.953674e+001	9.127676e+001
6.153242e+006	-3.111599e+001	8.468885e+001	-3.065767e+001	-1.712237e+001	-9.581993e+001	-4.247737e+001	-2.953846e+001	9.122034e+001
6.153281e+006	-3.112224e+001	8.475903e+001	-3.066638e+001	-1.707799e+001	-1.040952e+002	1.540136e+002	-2.954275e+001	9.120447e+001
6.153320e+006	-3.111429e+001	8.467261e+001	-3.066599e+001	-1.711463e+001	-1.008145e+002	-1.535732e+002	-2.953452e+001	9.119229e+001
6.153359e+006	-3.112103e+001	8.463937e+001	-3.065874e+001	-1.717929e+001	-9.333635e+001	-1.438204e+002	-2.953943e+001	9.116748e+001
6.153398e+006	-3.111552e+001	8.465220e+001	-3.067264e+001	-1.712805e+001	-9.458478e+001	3.478768e+000	-2.954154e+001	9.119868e+001
6.153438e+006	-3.111663e+001	8.469463e+001	-3.067560e+001	-1.717696e+001	-9.324435e+001	7.483524e+000	-2.954149e+001	9.121062e+001
6.153477e+006	-3.111847e+001	8.467730e+001	-3.066674e+001	-1.707402e+001	-9.017494e+001	9.235961e+001	-2.954410e+001	9.120074e+001
6.153516e+006	-3.111789e+001	8.465339e+001	-3.065912e+001	-1.708279e+001	-1.017252e+002	-7.951457e+001	-2.954611e+001	9.123609e+001
6.153555e+006	-3.112296e+001	8.469919e+001	-3.065327e+001	-1.710365e+001	-9.053667e+001	9.234648e+001	-2.952985e+001	9.122825e+001
6.153594e+006	-3.112086e+001	8.474659e+001	-3.066628e+001	-1.714463e+001	-9.039691e+001	4.335566e+001	-2.954043e+001	9.119474e+001
6.153633e+006	-3.111822e+001	8.465891e+001	-3.066394e+001	-1.708675e+001	-9.477605e+001	7.227140e+001	-2.954693e+001	9.124748e+001
6.153672e+006	-3.111913e+001	8.469729e+001	-3.066249e+001	-1.712621e+001	-9.883058e+001	5.686496e+001	-2.954171e+001	9.120611e+001
6.153711e+006	-3.110892e+001	8.471411e+001	-3.067263e+001	-1.714711e+001	-9.540240e+001	1.385383e+001	-2.953537e+001	9.128320e+001
6.153750e+006	-3.111093e+001	8.474095e+001	-3.066256e+001	-1.710574e+001	-8.800505e+001	-9.317721e+001	-2.953503e+001	9.123690e+001
6.153789e+006	-3.111195e+001	8.469711e+001	-3.066182e+001	-1.713018e+001	-8.983803e+001	1.505915e+002	-2.954677e+001	9.125670e+001
6.153828e+006	-3.110755e+001	8.471188e+001	-3.067600e+001	-1.710540e+001	-1.113212e+002	-1.287411e+002	-2.954545e+001	9.123777e+001
6.153867e+006	-3.112592e+001	8.461512e+001	-3.066621e+001	-1.705168e+001	-1.011515e+002	1.604156e+002	-2.954031e+001	9.121246e+001
6.153906e+006	-3.112455e+001	8.465951e+001	-3.065123e+001	-1.710565e+001	-9.125331e+001	1.526215e+002	-2.953780e+001	9.127850e+001
6.153945e+006	-3.111878e+001	8.466257e+001	-3.066015e+001	-1.714533e+001	-8.964738e+001	-5.167324e+001	-2.953587e+001	9.120962e+001
6.153984e+006	-3.112016e+001	8.465187e+001	-3.064772e+001	-1.713331e+001	-9.914282e+001	-1.495571e+002	-2.954297e+001	9.131954e+001
6.154023e+006	-3.111727e+001	8.475883e+001	-3.065486e+001	-1.708348e+001	-8.711084e+001	7.230792e+001	-2.954178e+001	9.123046e+001
6.154063e+006	-3.111280e+001	8.470698e+001	-3.065622e+001	-1.710616e+001	-9.916033e+001	1.369370e+002	-2.954691e+001	9.127947e+001
6.154102e+006	-3.111213e+001	8.469325e+001	-3.066653e+001	-1.710733e+001	-9.525496e+001	6.932763e+001	-2.954956e+001	9.123407e+001
6.154141e+006	-3.112315e+001	8.471757e+001	-3.066445e+001	-1.716762e+001	-9.001321e+001	-9.477029e+001	-2.955212e+001	9.122083e+001
6.154180e+006	-3.111744e+001	8.464740e+001	-3.066097e+001	-1.718764e+001	-9.216283e+001	3.961939e+001	-2.953678e+001	9.132295e+001
6.154219e+006	-3.111794e+001	8.469029e+001	-3.067857e+001	-1.718725e+001	-1.008885e+002	-6.336712e+001	-2.954704e+001	9.120530e+001
6.154258e+006	-3.112130e+001	8.472039e+001	-3.066169e+001	-1.713028e+001	-9.056030e+001	-6.447184e+001	-2.953407e+001	9.126339e+001
6.154297e+006	-3.111780e+001	8.470119e+001	-3.066721e+001	-1.707079e+001	-8.622894e+001	-1.350434e+002	-2.953609e+001	9.130257e+001
6.154336e+006	-3.112235e+001	8.465282e+001	-3.065184e+001	-1.711742e+001	-1.050352e+002	-7.267978e+001	-2.953252e+001	9.125859e+001
6.154375e+006	-3.111782e+001	8.465921e+001	-3.065794e+001	-1.716297e+001	-9.699782e+001	-3.656631e+001	-2.954112e+001	9.121871e+001
6.154414e+006	-3.112363e+001	8.473214e+001	-3.067219e+001	-1.716551e+001	-8.730135e+001	3.511395e+001	-2.955323e+001	9.124347e+001
6.154453e+006	-3.112321e+001	8.464697e+001	-3.066790e+001	-1.708498e+001	-9.129796e+001	3.312768e+001	-2.953460e+001	9.118433e+001
6.154492e+006	-3.111297e+001	8.471900e+001	-3.065273e+001	-1.710832e+001	-9.561709e+001	1.035440e+002	-2.954628e+001	9.123702e+001
6.154531e+006	-3.111932e+001	8.471981e+001	-3.067060e+001	-1.712355e+001	-9.617748e+001	-9.373962e+000	-2.954437e+001	9.116879e+001
6.154570e+006	-3.111606e+001	8.464496e+001	-3.066251e+001	-1.713005e+001	-9.181464e+001	-1.064589e+002	-2.953816e+001	9.126433e+001
6.154609e+006	-3.112318e+001	8.473691e+001	-3.066411e+001	-1.716427e+001	-1.020598e+002	-2.780943e+001	-2.954415e+001	9.124759e+001
6.154648e+006	-3.111811e+001	8.467373e+001	-3.066846e+001	-1.706856e+001	-9.977744e+001	-1.183677e+002	-2.954165e+001	9.125222e+001
6.154688e+006	-3.111832e+001	8.466782e+001	-3.066215e+001	-1.714590e+001	-8.870026e+001	1.168624e+002	-2.955164e+001	9.127674e+001
6.154727e+006	-3.112249e+001	8.466597e+001	-3.066814e+001	-1.715261e+001	-9.308822e+001	1.352885e+002	-2.954404e+001	9.123411e+001
6.154766e+006	-3.112383e+001	8.472302e+001	-3.066258e+001	-1.714458e+001	-8.650496e+001	9.500546e+001	-2.953834e+001	9.121677e+001
6.154805e+006	-3.112069e+001	8.471866e+001	-3.066107e+001	-1.716346e+001	-8.960148e+001	5.085912e+001	-2.953672e+001	9.127525e+001
6.154844e+006	-3.111641e+001	8.468889e+001	-3.066995e+001	-1.709519e+001	-9.331974e+001	1.174803e+002	-2.953931e+001	9.124977e+001
6.154883e+006	-3.111663e+001	8.476138e+001	-3.065939e+001	-1.712659e+001	-9.878404e+001	8.148902e+001	-2.954641e+001	9.126539e+001
6.154922e+006	-3.112073e+001	8.472789e+001	-3.065747e+001	-1.711024e+001	-9.822637e+001	-4.041796e+001	-2.954874e+001	9.125679e+001
6.154961e+006	-3.110322e+001	8.471898e+001	-3.065285e+001	-1.713631e+001	-9.680352e+001	3.540421e+001	-2.953658e+001	9.118716e+001
6.155000e+006	-3.112181e+001	8.469064e+001	-3.067185e+001	-1.712677e+001	-9.692314e+001	1.775296e+002	-2.953801e+001	9.127443e+001
6.155039e+006	-3.111401e+001	8.477307e+001	-3.066525e+001	-1.710822e+001	-9.238243e+001	-1.346663e+002	-2.953991e+001	9.126316e+001
6.155078e+006	-3.111764e+001	8.472681e+001	-3.067416e+001	-1.709317e+001	-8.995567e+001	-1.660728e+002	-2.955360e+001	9.121447e+001
6.155117e+006	-3.111931e+001	8.469291e+001	-3.066761e+001	-1.705967e+001	-9.202306e+001	-7.856150e+001	-2.954043e+001	9.124635e+001
6.155156e+006	-3.111813e+001	8.475025e+001	-3.067850e+001	-1.709974e+001	-9.119244e+001	6.072946e+001	-2.954128e+001	9.130966e+001
6.155195e+006	-3.111790e+001	8.474905e+001	-3.065473e+001	-1.708973e+001	-1.052238e+002	-8.963027e+001	-2.953216e+001	9.129978e+001
6.155234e+006	-3.112236e+001	8.474435e+001	-3.066245e+001	-1.707962e+001	-9.133554e+001	-7.376344e+000	-2.954393e+001	9.128038e+001
6.155273e+006	-3.112590e+001	8.473255e+001	-3.066882e+001	-1.710876e+001	-8.993625e+001	1.543407e+002	-2.954149e+001	9.124247e+001
6.155313e+006	-3.111263e+001	8.471775e+001	-3.065917e+001	-1.711275e+001	-1.074961e+002	3.225144e+001	-2.953665e+001	9.126535e+001
6.155352e+006	-3.112456e+001	8.478742e+001	-3.066633e+001	-1.714615e+001	-9.675627e+001	1.567260e+002	-2.954737e+001	9.129799e+001
6.155391e+006	-3.112522e+001	8.473171e+001	-3.066992e+001	-1.715337e+001	-8.695723e+001	-1.708917e+002	-2.954950e+001	9.126726e+001
6.155430e+006	-3.111761e+001	8.473469e+001	-3.065983e+001	-1.705997e+001	-9.208197e+001	8.881351e+000	-2.954260e+001	9.125231e+001
6.155469e+006	-3.111459e+001	8.474672e+001	-3.065766e+001	-1.714867e+001	-9.277811e+001	1.688983e+002	-2.953042e+001	9.121929e+001
6.155508e+006	-3.111272e+001	8.465223e+001	-3.066943e+001	-1.713633e+001	-9.826903e+001	-1.302158e+002	-2.953833e+001	9.126698e+001
6.155547e+006	-3.112022e+001	8.469555e+001	-3.066172e+001	-1.710473e+001	-9.818433e+001	-1.355720e+002	-2.955143e+001	9.127842e+001
6.155586e+006	-3.112107e+001	8.477061e+001	-3.066347e+001	-1.714013e+001	-1.010429e+002	-8.188177e+001	-2.953950e+001	9.124843e+001
6.155625e+006	-3.111754e+001	8.470519e+001	-3.065582e+001	-1.707853e+001	-9.130427e+001	1.243038e+002	-2.954250e+001	9.128965e+001
6.155664e+006	-3.112213e+001	8.468497e+001	-3.065894e+001	-1.713878e+001	-9.448654e+001	1.410917e+002	-2.954140e+001	9.127429e+001
6.155703e+006	-3.112032e+001	8.472047e+001	-3.066460e+001	-1.709991e+001	-9.507232e+001	1.493929e+002	-2.953998e+001	9.128459e+001
6.155742e+006	-3.112506e+001	8.467328e+001	-3.065571e+001	-1.710020e+001	-9.019152e+001	6.596337e+001	-2.954413e+001	9.128848e+001
6.155781e+006	-3.111945e+001	8.472679e+001	-3.066337e+001	-1.716186e+001	-9.919196e+001	-2.431586e+001	-2.954500e+001	9.124720e+001
