!CETC41,AV3656A,ZGL00048,1.3.2
!Calibration ON (Full Solt 2-Port(Omit Isolation))
!Measurements: S11 S21 S12 S22
!2025-04-18 22:33
# Hz  S  dB  R 50.000
6.150000e+006	-3.102141e+001	8.452384e+001	-3.068333e+001	-1.674713e+001	-8.743257e+001	-1.315114e+001	-2.952061e+001	9.035242e+001
6.150039e+006	-3.101201e+001	8.447647e+001	-3.067641e+001	-1.674328e+001	-1.041386e+002	-1.674937e+002	-2.951166e+001	9.036805e+001
6.150078e+006	-3.101394e+001	8.448066e+001	-3.067339e+001	-1.673263e+001	-9.031997e+001	-5.984417e+001	-2.951431e+001	9.040863e+001
6.150117e+006	-3.102119e+001	8.446218e+001	-3.066636e+001	-1.672984e+001	-9.147488e+001	1.447302e+002	-2.952285e+001	9.040336e+001
6.150156e+006	-3.101815e+001	8.450347e+001	-3.067389e+001	-1.683748e+001	-8.981140e+001	7.368231e+001	-2.951359e+001	9.036414e+001
6.150195e+006	-3.101662e+001	8.452570e+001	-3.066607e+001	-1.676929e+001	-9.104876e+001	3.226070e+001	-2.951489e+001	9.038945e+001
6.150234e+006	-3.102274e+001	8.449384e+001	-3.067374e+001	-1.677523e+001	-9.553036e+001	-3.194968e+000	-2.951216e+001	9.044232e+001
6.150273e+006	-3.102890e+001	8.450150e+001	-3.067582e+001	-1.675271e+001	-9.639369e+001	1.005231e+002	-2.952086e+001	9.037954e+001
6.150313e+006	-3.102156e+001	8.446463e+001	-3.067207e+001	-1.675080e+001	-9.052538e+001	-1.494454e+002	-2.951776e+001	9.034720e+001
6.150352e+006	-3.102588e+001	8.451158e+001	-3.068146e+001	-1.684577e+001	-9.416454e+001	-3.311324e+000	-2.950909e+001	9.035205e+001
6.150391e+006	-3.102178e+001	8.448076e+001	-3.067387e+001	-1.675327e+001	-9.472450e+001	2.499180e+001	-2.951256e+001	9.039075e+001
6.150430e+006	-3.101616e+001	8.449812e+001	-3.067951e+001	-1.675884e+001	-9.407294e+001	-4.308699e+001	-2.952158e+001	9.042195e+001
6.150469e+006	-3.102628e+001	8.450318e+001	-3.068041e+001	-1.672242e+001	-9.129964e+001	-6.164070e+001	-2.951813e+001	9.039121e+001
6.150508e+006	-3.102156e+001	8.453651e+001	-3.067929e+001	-1.676346e+001	-9.710381e+001	1.620180e+002	-2.952093e+001	9.038549e+001
6.150547e+006	-3.102523e+001	8.448990e+001	-3.067471e+001	-1.678824e+001	-9.981392e+001	8.554880e+001	-2.951978e+001	9.039002e+001
6.150586e+006	-3.102674e+001	8.449518e+001	-3.067921e+001	-1.671632e+001	-9.796990e+001	7.566486e+001	-2.951757e+001	9.033229e+001
6.150625e+006	-3.102511e+001	8.455145e+001	-3.067009e+001	-1.678775e+001	-8.656930e+001	6.811707e+001	-2.952998e+001	9.038258e+001
6.150664e+006	-3.102475e+001	8.456731e+001	-3.066821e+001	-1.678523e+001	-1.010856e+002	3.811117e+001	-2.951466e+001	9.040758e+001
6.150703e+006	-3.101996e+001	8.455358e+001	-3.068409e+001	-1.676430e+001	-9.799144e+001	-1.585598e+002	-2.951983e+001	9.039931e+001
6.150742e+006	-3.102691e+001	8.448426e+001	-3.066778e+001	-1.676137e+001	-9.862684e+001	1.295521e+002	-2.951605e+001	9.039962e+001
6.150781e+006	-3.102401e+001	8.451761e+001	-3.068178e+001	-1.679591e+001	-9.060262e+001	1.686430e+002	-2.951475e+001	9.039413e+001
6.150820e+006	-3.101012e+001	8.455465e+001	-3.067326e+001	-1.671746e+001	-9.288003e+001	-1.788691e+002	-2.951404e+001	9.043161e+001
6.150859e+006	-3.101031e+001	8.453690e+001	-3.067767e+001	-1.674154e+001	-9.556955e+001	-1.633382e+002	-2.952148e+001	9.042858e+001
6.150898e+006	-3.102172e+001	8.450936e+001	-3.067015e+001	-1.678435e+001	-9.522714e+001	1.283972e+002	-2.952031e+001	9.033548e+001
6.150938e+006	-3.102323e+001	8.458931e+001	-3.067165e+001	-1.675482e+001	-1.063144e+002	-5.340608e+001	-2.951875e+001	9.040768e+001
6.150977e+006	-3.101615e+001	8.448343e+001	-3.067001e+001	-1.680993e+001	-9.681400e+001	-1.638408e+002	-2.952388e+001	9.037307e+001
6.151016e+006	-3.101343e+001	8.451817e+001	-3.067100e+001	-1.678972e+001	-9.210169e+001	-1.076528e+002	-2.951797e+001	9.033596e+001
6.151055e+006	-3.102107e+001	8.450848e+001	-3.067350e+001	-1.677647e+001	-8.625947e+001	-1.886442e+001	-2.951636e+001	9.040292e+001
6.151094e+006	-3.101967e+001	8.452755e+001	-3.068065e+001	-1.672202e+001	-9.064534e+001	9.245682e+001	-2.951982e+001	9.044471e+001
6.151133e+006	-3.102220e+001	8.452713e+001	-3.067430e+001	-1.679482e+001	-9.059831e+001	1.321824e+002	-2.952118e+001	9.034481e+001
6.151172e+006	-3.101365e+001	8.449865e+001	-3.067301e+001	-1.672962e+001	-8.830849e+001	9.353821e+001	-2.951531e+001	9.037475e+001
6.151211e+006	-3.102782e+001	8.451876e+001	-3.066871e+001	-1.675146e+001	-1.039832e+002	-9.541614e+000	-2.951583e+001	9.042105e+001
6.151250e+006	-3.102556e+001	8.454126e+001	-3.067470e+001	-1.677533e+001	-9.216407e+001	2.658590e+001	-2.951802e+001	9.037800e+001
6.151289e+006	-3.102487e+001	8.449653e+001	-3.067639e+001	-1.675025e+001	-9.974208e+001	3.394683e+001	-2.951575e+001	9.040791e+001
6.151328e+006	-3.103195e+001	8.455298e+001	-3.067403e+001	-1.672240e+001	-9.692641e+001	-9.938527e+001	-2.952804e+001	9.032468e+001
6.151367e+006	-3.102201e+001	8.454844e+001	-3.067178e+001	-1.677558e+001	-9.664127e+001	5.429058e+001	-2.951334e+001	9.033088e+001
6.151406e+006	-3.102926e+001	8.456191e+001	-3.066926e+001	-1.685292e+001	-9.214499e+001	7.751490e+001	-2.952115e+001	9.040927e+001
6.151445e+006	-3.102002e+001	8.453368e+001	-3.066308e+001	-1.679721e+001	-9.373440e+001	2.010544e+001	-2.951917e+001	9.040666e+001
6.151484e+006	-3.101523e+001	8.455356e+001	-3.065712e+001	-1.670919e+001	-9.222924e+001	6.370219e+001	-2.951875e+001	9.036575e+001
6.151523e+006	-3.101239e+001	8.451189e+001	-3.067565e+001	-1.676832e+001	-9.506258e+001	-1.865576e+001	-2.951305e+001	9.042302e+001
6.151563e+006	-3.101973e+001	8.451735e+001	-3.067132e+001	-1.675855e+001	-9.106342e+001	9.722093e+001	-2.951321e+001	9.039475e+001
6.151602e+006	-3.102313e+001	8.450482e+001	-3.066730e+001	-1.677607e+001	-1.201883e+002	7.751734e+001	-2.951330e+001	9.040960e+001
6.151641e+006	-3.101797e+001	8.452503e+001	-3.067936e+001	-1.676234e+001	-9.511256e+001	1.283257e+002	-2.951145e+001	9.044218e+001
6.151680e+006	-3.103069e+001	8.455467e+001	-3.067165e+001	-1.674349e+001	-9.354973e+001	-4.591682e+001	-2.951818e+001	9.039564e+001
6.151719e+006	-3.102298e+001	8.452816e+001	-3.066499e+001	-1.674871e+001	-1.020965e+002	4.254732e+001	-2.951724e+001	9.044836e+001
6.151758e+006	-3.102790e+001	8.453345e+001	-3.066723e+001	-1.676302e+001	-8.598897e+001	1.522550e+002	-2.951291e+001	9.042008e+001
6.151797e+006	-3.102407e+001	8.450724e+001	-3.067032e+001	-1.678357e+001	-9.320307e+001	-1.127551e+002	-2.951231e+001	9.043259e+001
6.151836e+006	-3.101725e+001	8.459123e+001	-3.067582e+001	-1.681644e+001	-9.453560e+001	3.287196e+001	-2.951883e+001	9.041420e+001
6.151875e+006	-3.102746e+001	8.455755e+001	-3.066762e+001	-1.676253e+001	-9.373068e+001	-1.732168e+002	-2.951849e+001	9.040618e+001
6.151914e+006	-3.102824e+001	8.458977e+001	-3.067203e+001	-1.678178e+001	-9.166976e+001	7.664092e+001	-2.951987e+001	9.038986e+001
6.151953e+006	-3.101978e+001	8.454246e+001	-3.067314e+001	-1.673072e+001	-9.382600e+001	-9.680040e-001	-2.951514e+001	9.041633e+001
6.151992e+006	-3.101569e+001	8.452031e+001	-3.067606e+001	-1.676071e+001	-9.155175e+001	1.025430e+002	-2.952147e+001	9.042548e+001
6.152031e+006	-3.102886e+001	8.460585e+001	-3.066510e+001	-1.679174e+001	-9.448479e+001	8.893534e+001	-2.950852e+001	9.034786e+001
6.152070e+006	-3.101636e+001	8.454660e+001	-3.067657e+001	-1.675667e+001	-9.066847e+001	8.670566e+001	-2.951693e+001	9.041881e+001
6.152109e+006	-3.102686e+001	8.455925e+001	-3.067379e+001	-1.678301e+001	-1.057189e+002	5.695778e+001	-2.950842e+001	9.043264e+001
6.152148e+006	-3.101137e+001	8.454661e+001	-3.067073e+001	-1.676017e+001	-9.135596e+001	-9.517365e+001	-2.952867e+001	9.042400e+001
6.152188e+006	-3.101988e+001	8.454977e+001	-3.067849e+001	-1.673664e+001	-9.331131e+001	9.044706e+001	-2.951903e+001	9.041730e+001
6.152227e+006	-3.101669e+001	8.458612e+001	-3.067388e+001	-1.675150e+001	-9.603018e+001	-1.492487e+001	-2.951322e+001	9.042150e+001
6.152266e+006	-3.102990e+001	8.453135e+001	-3.067527e+001	-1.671946e+001	-9.314607e+001	3.225894e+001	-2.951942e+001	9.043511e+001
6.152305e+006	-3.102153e+001	8.453777e+001	-3.067935e+001	-1.679324e+001	-8.991708e+001	1.663067e+002	-2.951323e+001	9.043301e+001
6.152344e+006	-3.102649e+001	8.459106e+001	-3.067258e+001	-1.676383e+001	-9.588242e+001	3.403738e+001	-2.952319e+001	9.039877e+001
6.152383e+006	-3.102245e+001	8.455010e+001	-3.067994e+001	-1.681977e+001	-9.596137e+001	2.995753e+001	-2.951611e+001	9.040624e+001
6.152422e+006	-3.102756e+001	8.459677e+001	-3.066606e+001	-1.676010e+001	-8.711283e+001	-4.818197e+001	-2.952013e+001	9.043477e+001
6.152461e+006	-3.102678e+001	8.455067e+001	-3.067523e+001	-1.674549e+001	-9.665520e+001	6.485614e+001	-2.952076e+001	9.046975e+001
6.152500e+006	-3.102441e+001	8.454562e+001	-3.066791e+001	-1.676763e+001	-9.190248e+001	6.173735e+001	-2.952459e+001	9.050419e+001
6.152539e+006	-3.102383e+001	8.457891e+001	-3.066856e+001	-1.680812e+001	-9.810507e+001	1.618325e+002	-2.951905e+001	9.045261e+001
6.152578e+006	-3.102640e+001	8.458023e+001	-3.067252e+001	-1.673902e+001	-8.593457e+001	1.071994e+002	-2.951741e+001	9.050797e+001
6.152617e+006	-3.102175e+001	8.448332e+001	-3.067734e+001	-1.677744e+001	-9.556106e+001	2.887323e+001	-2.951577e+001	9.045493e+001
6.152656e+006	-3.102277e+001	8.449219e+001	-3.066592e+001	-1.673849e+001	-9.483887e+001	-3.736770e+001	-2.952226e+001	9.046970e+001
6.152695e+006	-3.102012e+001	8.457806e+001	-3.067844e+001	-1.677422e+001	-8.800149e+001	-2.471713e+001	-2.951249e+001	9.048181e+001
6.152734e+006	-3.101782e+001	8.458088e+001	-3.066364e+001	-1.676017e+001	-9.884364e+001	2.493672e+001	-2.950996e+001	9.045242e+001
6.152773e+006	-3.102277e+001	8.456906e+001	-3.067041e+001	-1.677737e+001	-9.298982e+001	1.093314e+002	-2.951965e+001	9.039239e+001
6.152813e+006	-3.101959e+001	8.455107e+001	-3.067094e+001	-1.673764e+001	-9.023453e+001	3.808313e+001	-2.951727e+001	9.047148e+001
6.152852e+006	-3.102636e+001	8.453058e+001	-3.067134e+001	-1.676261e+001	-9.915422e+001	-1.414180e+002	-2.950969e+001	9.042575e+001
6.152891e+006	-3.101847e+001	8.453183e+001	-3.067658e+001	-1.674881e+001	-9.301662e+001	7.576853e+001	-2.951586e+001	9.040750e+001
6.152930e+006	-3.102320e+001	8.454723e+001	-3.067102e+001	-1.675079e+001	-9.314967e+001	1.559505e+002	-2.951267e+001	9.044936e+001
6.152969e+006	-3.103549e+001	8.460698e+001	-3.067816e+001	-1.674247e+001	-9.525574e+001	-1.217288e+002	-2.951748e+001	9.038858e+001
6.153008e+006	-3.102144e+001	8.455047e+001	-3.067234e+001	-1.670413e+001	-9.763740e+001	-3.737216e+000	-2.953088e+001	9.046464e+001
6.153047e+006	-3.102236e+001	8.461270e+001	-3.066444e+001	-1.672890e+001	-9.108603e+001	5.184938e+001	-2.951935e+001	9.040397e+001
6.153086e+006	-3.102297e+001	8.459650e+001	-3.066337e+001	-1.681196e+001	-8.626923e+001	1.030638e+002	-2.952257e+001	9.040932e+001
6.153125e+006	-3.102290e+001	8.456571e+001	-3.066717e+001	-1.670792e+001	-8.913034e+001	2.462616e+001	-2.951106e+001	9.043354e+001
6.153164e+006	-3.101621e+001	8.456312e+001	-3.066623e+001	-1.671985e+001	-1.038432e+002	-7.349342e+001	-2.952461e+001	9.042791e+001
6.153203e+006	-3.102485e+001	8.456984e+001	-3.067695e+001	-1.679891e+001	-9.808195e+001	9.407154e+001	-2.952703e+001	9.046762e+001
6.153242e+006	-3.101626e+001	8.455088e+001	-3.066074e+001	-1.671898e+001	-1.120533e+002	1.364277e+002	-2.951445e+001	9.046605e+001
6.153281e+006	-3.102964e+001	8.463961e+001	-3.066049e+001	-1.668985e+001	-8.785514e+001	8.293601e+001	-2.951674e+001	9.045221e+001
6.153320e+006	-3.102348e+001	8.462186e+001	-3.067697e+001	-1.670951e+001	-9.159177e+001	4.213021e+001	-2.952092e+001	9.044570e+001
6.153359e+006	-3.102052e+001	8.456121e+001	-3.066486e+001	-1.672462e+001	-8.735720e+001	4.437458e+001	-2.951989e+001	9.043830e+001
6.153398e+006	-3.101612e+001	8.457943e+001	-3.067625e+001	-1.677895e+001	-9.054074e+001	-1.409368e+002	-2.951344e+001	9.045805e+001
6.153438e+006	-3.101950e+001	8.457938e+001	-3.067989e+001	-1.679056e+001	-1.019159e+002	-5.038856e+001	-2.952660e+001	9.043724e+001
6.153477e+006	-3.102806e+001	8.458349e+001	-3.067042e+001	-1.679373e+001	-9.030447e+001	-1.217771e+002	-2.952185e+001	9.055674e+001
6.153516e+006	-3.102669e+001	8.459210e+001	-3.067233e+001	-1.682100e+001	-8.757576e+001	8.821038e+001	-2.950366e+001	9.050460e+001
6.153555e+006	-3.102226e+001	8.461354e+001	-3.067118e+001	-1.675336e+001	-9.590836e+001	1.002242e+002	-2.951226e+001	9.046124e+001
6.153594e+006	-3.102638e+001	8.462541e+001	-3.066236e+001	-1.674905e+001	-9.349978e+001	1.166281e+002	-2.952007e+001	9.040202e+001
6.153633e+006	-3.102508e+001	8.462616e+001	-3.067287e+001	-1.665858e+001	-9.358681e+001	9.144325e+001	-2.951677e+001	9.044214e+001
6.153672e+006	-3.102881e+001	8.459098e+001	-3.066773e+001	-1.671245e+001	-8.746410e+001	1.622122e+002	-2.951687e+001	9.048668e+001
6.153711e+006	-3.103013e+001	8.457474e+001	-3.067295e+001	-1.679607e+001	-9.316817e+001	1.335024e+002	-2.951859e+001	9.048652e+001
6.153750e+006	-3.101998e+001	8.456848e+001	-3.068183e+001	-1.679818e+001	-8.671701e+001	8.872304e+001	-2.952749e+001	9.044175e+001
6.153789e+006	-3.102125e+001	8.456579e+001	-3.066784e+001	-1.677532e+001	-9.437873e+001	-1.015078e+002	-2.951291e+001	9.044166e+001
6.153828e+006	-3.102096e+001	8.457649e+001	-3.067320e+001	-1.675992e+001	-1.033614e+002	5.813380e+001	-2.952308e+001	9.051193e+001
6.153867e+006	-3.101788e+001	8.449518e+001	-3.066359e+001	-1.679162e+001	-1.009402e+002	-1.186217e+002	-2.951679e+001	9.040737e+001
6.153906e+006	-3.102601e+001	8.456458e+001	-3.066644e+001	-1.674089e+001	-8.698928e+001	4.395748e+001	-2.952320e+001	9.045505e+001
6.153945e+006	-3.102079e+001	8.460868e+001	-3.067573e+001	-1.677428e+001	-9.267167e+001	1.129892e+002	-2.951815e+001	9.045454e+001
6.153984e+006	-3.102653e+001	8.455899e+001	-3.066908e+001	-1.678445e+001	-9.279400e+001	-5.470747e+001	-2.953144e+001	9.046254e+001
6.154023e+006	-3.101643e+001	8.454069e+001	-3.067036e+001	-1.676637e+001	-8.743855e+001	9.963454e+001	-2.952619e+001	9.043862e+001
6.154063e+006	-3.102027e+001	8.460640e+001	-3.067495e+001	-1.674090e+001	-9.346387e+001	5.854766e+001	-2.951602e+001	9.047569e+001
6.154102e+006	-3.102050e+001	8.457226e+001	-3.067568e+001	-1.674578e+001	-9.353680e+001	9.830923e+001	-2.952551e+001	9.048558e+001
6.154141e+006	-3.102586e+001	8.456074e+001	-3.066610e+001	-1.670037e+001	-9.646658e+001	-7.012956e+001	-2.952211e+001	9.045429e+001
6.154180e+006	-3.102193e+001	8.467125e+001	-3.067162e+001	-1.675236e+001	-8.670082e+001	5.574482e+001	-2.950859e+001	9.048136e+001
6.154219e+006	-3.102360e+001	8.458128e+001	-3.068290e+001	-1.672734e+001	-1.008946e+002	7.906057e+001	-2.950724e+001	9.048353e+001
6.154258e+006	-3.102355e+001	8.462276e+001	-3.066078e+001	-1.672689e+001	-8.754423e+001	1.205428e+002	-2.952198e+001	9.052227e+001
6.154297e+006	-3.102314e+001	8.459165e+001	-3.068232e+001	-1.672248e+001	-9.723021e+001	-1.748574e+002	-2.952514e+001	9.044688e+001
6.154336e+006	-3.101058e+001	8.461377e+001	-3.066780e+001	-1.676212e+001	-9.451971e+001	1.275961e+002	-2.952065e+001	9.049289e+001
6.154375e+006	-3.103043e+001	8.460796e+001	-3.067775e+001	-1.679929e+001	-9.373228e+001	1.496783e+002	-2.951782e+001	9.047716e+001
6.154414e+006	-3.102310e+001	8.462509e+001	-3.066531e+001	-1.677599e+001	-9.221657e+001	9.163872e+001	-2.951139e+001	9.046027e+001
6.154453e+006	-3.102694e+001	8.462897e+001	-3.065749e+001	-1.676809e+001	-8.969707e+001	1.332405e+002	-2.951913e+001	9.046778e+001
6.154492e+006	-3.102581e+001	8.461072e+001	-3.066593e+001	-1.675567e+001	-9.058569e+001	5.188325e+001	-2.950507e+001	9.048095e+001
6.154531e+006	-3.102231e+001	8.460492e+001	-3.066707e+001	-1.680855e+001	-9.758077e+001	5.690395e+001	-2.951197e+001	9.042148e+001
6.154570e+006	-3.102063e+001	8.461842e+001	-3.067237e+001	-1.681307e+001	-9.172827e+001	1.642192e+002	-2.951872e+001	9.055670e+001
6.154609e+006	-3.102287e+001	8.458868e+001	-3.066737e+001	-1.679453e+001	-9.061792e+001	9.178091e+001	-2.951302e+001	9.044325e+001
6.154648e+006	-3.102048e+001	8.462979e+001	-3.067686e+001	-1.672853e+001	-9.759453e+001	1.128246e+002	-2.952344e+001	9.043125e+001
6.154688e+006	-3.102852e+001	8.464181e+001	-3.066829e+001	-1.677479e+001	-8.942595e+001	-2.042505e+001	-2.951271e+001	9.045864e+001
6.154727e+006	-3.101633e+001	8.463374e+001	-3.067131e+001	-1.677218e+001	-9.842800e+001	2.428203e+001	-2.952018e+001	9.049907e+001
6.154766e+006	-3.102197e+001	8.454732e+001	-3.065948e+001	-1.679200e+001	-9.314453e+001	9.477935e+001	-2.951946e+001	9.051852e+001
6.154805e+006	-3.101644e+001	8.459582e+001	-3.066874e+001	-1.679107e+001	-9.545897e+001	-8.610817e+001	-2.952002e+001	9.051202e+001
6.154844e+006	-3.102487e+001	8.462059e+001	-3.066577e+001	-1.672438e+001	-9.500788e+001	1.090939e+002	-2.951647e+001	9.045610e+001
6.154883e+006	-3.102044e+001	8.462935e+001	-3.066875e+001	-1.671451e+001	-8.840143e+001	8.068638e+001	-2.951948e+001	9.044272e+001
6.154922e+006	-3.102103e+001	8.457037e+001	-3.066961e+001	-1.672371e+001	-9.785372e+001	-6.227327e+001	-2.951512e+001	9.046510e+001
6.154961e+006	-3.102029e+001	8.464842e+001	-3.066366e+001	-1.675501e+001	-9.960877e+001	6.685215e+001	-2.951318e+001	9.051366e+001
6.155000e+006	-3.101479e+001	8.469506e+001	-3.067382e+001	-1.682578e+001	-8.611471e+001	3.220811e+001	-2.951469e+001	9.055771e+001
6.155039e+006	-3.102843e+001	8.457034e+001	-3.066839e+001	-1.668628e+001	-8.889651e+001	2.491831e+001	-2.951966e+001	9.051977e+001
6.155078e+006	-3.102505e+001	8.459410e+001	-3.067242e+001	-1.676571e+001	-9.418133e+001	3.563787e+000	-2.952394e+001	9.046945e+001
6.155117e+006	-3.102963e+001	8.470926e+001	-3.067146e+001	-1.673660e+001	-9.687143e+001	5.072442e+001	-2.951567e+001	9.046621e+001
6.155156e+006	-3.102586e+001	8.459967e+001	-3.067631e+001	-1.679003e+001	-8.838102e+001	1.637943e+002	-2.952032e+001	9.052367e+001
6.155195e+006	-3.102811e+001	8.463125e+001	-3.065348e+001	-1.678798e+001	-9.652836e+001	-3.774140e+001	-2.951249e+001	9.046964e+001
6.155234e+006	-3.101989e+001	8.462580e+001	-3.066647e+001	-1.676024e+001	-9.543507e+001	8.886525e+001	-2.951981e+001	9.049125e+001
6.155273e+006	-3.103176e+001	8.455668e+001	-3.067077e+001	-1.666422e+001	-9.069372e+001	8.709212e+001	-2.951681e+001	9.054008e+001
6.155313e+006	-3.102838e+001	8.464548e+001	-3.065820e+001	-1.675486e+001	-9.122546e+001	5.073145e+001	-2.951637e+001	9.049109e+001
6.155352e+006	-3.103368e+001	8.460099e+001	-3.066609e+001	-1.674566e+001	-9.097121e+001	7.010805e+001	-2.951082e+001	9.040213e+001
6.155391e+006	-3.102530e+001	8.466000e+001	-3.066593e+001	-1.675939e+001	-1.075539e+002	-1.006790e+002	-2.951771e+001	9.042302e+001
6.155430e+006	-3.102698e+001	8.462119e+001	-3.066296e+001	-1.671205e+001	-9.012074e+001	5.586002e+001	-2.951696e+001	9.051630e+001
6.155469e+006	-3.102742e+001	8.466321e+001	-3.067434e+001	-1.683844e+001	-9.390308e+001	4.636329e+001	-2.951520e+001	9.049186e+001
6.155508e+006	-3.101973e+001	8.470594e+001	-3.066178e+001	-1.680083e+001	-9.289397e+001	-3.875920e+001	-2.951552e+001	9.051567e+001
6.155547e+006	-3.102633e+001	8.465828e+001	-3.067553e+001	-1.673787e+001	-1.032895e+002	-1.371147e+002	-2.952367e+001	9.049372e+001
6.155586e+006	-3.102443e+001	8.469675e+001	-3.067389e+001	-1.671499e+001	-9.492245e+001	3.067043e+001	-2.951805e+001	9.050682e+001
6.155625e+006	-3.102801e+001	8.460890e+001	-3.066422e+001	-1.679112e+001	-1.001147e+002	-1.868962e+000	-2.952121e+001	9.047621e+001
6.155664e+006	-3.102943e+001	8.464214e+001	-3.066529e+001	-1.678762e+001	-9.209367e+001	5.271478e+001	-2.951983e+001	9.049386e+001
6.155703e+006	-3.102887e+001	8.463571e+001	-3.066041e+001	-1.677037e+001	-1.069898e+002	-2.774443e+001	-2.951773e+001	9.049695e+001
6.155742e+006	-3.102182e+001	8.462294e+001	-3.067379e+001	-1.675227e+001	-8.981577e+001	-5.973524e+001	-2.952319e+001	9.046107e+001
6.155781e+006	-3.102637e+001	8.461830e+001	-3.066234e+001	-1.671260e+001	-8.786904e+001	3.895159e+001	-2.952064e+001	9.052439e+001
