!CETC41,AV3656A,ZGL00048,1.3.2
!Calibration ON (Full Solt 2-Port(Omit Isolation))
!Measurements: S11 S21 S12 S22
!2025-04-29 17:59
# Hz  S  dB  R 50.000
6.150000e+006	-4.457366e+001	-8.280934e+001	-3.081813e+001	-1.201786e+001	-9.087907e+001	4.373874e+001	-5.144923e+001	1.074120e+002
6.150039e+006	-4.457088e+001	-8.309480e+001	-3.081782e+001	-1.201973e+001	-1.065222e+002	3.726852e+001	-5.144865e+001	1.076205e+002
6.150078e+006	-4.454474e+001	-8.306423e+001	-3.081209e+001	-1.203342e+001	-9.911138e+001	-7.275024e+000	-5.150772e+001	1.075264e+002
6.150117e+006	-4.459841e+001	-8.287994e+001	-3.082090e+001	-1.201903e+001	-9.336904e+001	1.527257e+002	-5.151975e+001	1.080690e+002
6.150156e+006	-4.462258e+001	-8.269078e+001	-3.081331e+001	-1.191929e+001	-9.562415e+001	7.947726e+001	-5.145263e+001	1.076988e+002
6.150195e+006	-4.462018e+001	-8.259215e+001	-3.081562e+001	-1.200319e+001	-1.102450e+002	1.350207e+002	-5.146198e+001	1.079690e+002
6.150234e+006	-4.457677e+001	-8.275157e+001	-3.081121e+001	-1.198973e+001	-8.842497e+001	6.850087e+001	-5.154958e+001	1.072237e+002
6.150273e+006	-4.457359e+001	-8.275852e+001	-3.081866e+001	-1.189932e+001	-9.386912e+001	1.151136e+002	-5.139279e+001	1.073020e+002
6.150313e+006	-4.460781e+001	-8.272504e+001	-3.082296e+001	-1.193472e+001	-8.819839e+001	8.183527e+001	-5.147586e+001	1.078123e+002
6.150352e+006	-4.460094e+001	-8.281374e+001	-3.082093e+001	-1.195305e+001	-1.000224e+002	-1.107076e+002	-5.149638e+001	1.080845e+002
6.150391e+006	-4.459513e+001	-8.309685e+001	-3.082134e+001	-1.198003e+001	-9.052866e+001	1.855476e+001	-5.155308e+001	1.075537e+002
6.150430e+006	-4.458868e+001	-8.307151e+001	-3.082224e+001	-1.196447e+001	-8.713046e+001	1.149316e+002	-5.138946e+001	1.077666e+002
6.150469e+006	-4.459827e+001	-8.270084e+001	-3.081693e+001	-1.197872e+001	-9.115601e+001	7.788100e+001	-5.147857e+001	1.074661e+002
6.150508e+006	-4.461745e+001	-8.281447e+001	-3.081291e+001	-1.199812e+001	-8.902908e+001	8.628658e+001	-5.140629e+001	1.077246e+002
6.150547e+006	-4.458854e+001	-8.281672e+001	-3.082720e+001	-1.198112e+001	-9.255757e+001	1.379505e+002	-5.139805e+001	1.076079e+002
6.150586e+006	-4.456119e+001	-8.254895e+001	-3.082257e+001	-1.198636e+001	-1.009947e+002	7.359899e+001	-5.143961e+001	1.068703e+002
6.150625e+006	-4.462225e+001	-8.282703e+001	-3.082188e+001	-1.200544e+001	-9.242611e+001	1.046941e+002	-5.143707e+001	1.080533e+002
6.150664e+006	-4.458888e+001	-8.298147e+001	-3.081585e+001	-1.198153e+001	-9.000689e+001	9.406306e+001	-5.145338e+001	1.076152e+002
6.150703e+006	-4.462797e+001	-8.294439e+001	-3.081627e+001	-1.196347e+001	-9.187937e+001	8.768774e+001	-5.140215e+001	1.075130e+002
6.150742e+006	-4.459024e+001	-8.284922e+001	-3.080714e+001	-1.197659e+001	-8.913880e+001	9.425091e+001	-5.147613e+001	1.072248e+002
6.150781e+006	-4.456930e+001	-8.273848e+001	-3.082064e+001	-1.195389e+001	-9.381023e+001	1.145507e+002	-5.148593e+001	1.079609e+002
6.150820e+006	-4.457439e+001	-8.278451e+001	-3.082873e+001	-1.192665e+001	-9.660155e+001	-6.446321e+000	-5.143820e+001	1.076434e+002
6.150859e+006	-4.454090e+001	-8.297812e+001	-3.081353e+001	-1.191806e+001	-9.796230e+001	-1.166112e+002	-5.151600e+001	1.084447e+002
6.150898e+006	-4.459844e+001	-8.276884e+001	-3.082197e+001	-1.199913e+001	-8.604504e+001	-4.808053e+001	-5.137663e+001	1.076074e+002
6.150938e+006	-4.460722e+001	-8.239823e+001	-3.081822e+001	-1.201743e+001	-9.819748e+001	-1.732076e+002	-5.148659e+001	1.080531e+002
6.150977e+006	-4.458312e+001	-8.275111e+001	-3.081416e+001	-1.199609e+001	-9.211916e+001	1.626895e+002	-5.144232e+001	1.077151e+002
6.151016e+006	-4.463727e+001	-8.294120e+001	-3.082719e+001	-1.199466e+001	-8.821456e+001	2.363994e+001	-5.143536e+001	1.080622e+002
6.151055e+006	-4.457946e+001	-8.287271e+001	-3.080992e+001	-1.196449e+001	-9.436371e+001	-1.361573e+002	-5.148571e+001	1.078692e+002
6.151094e+006	-4.461807e+001	-8.263047e+001	-3.080583e+001	-1.201844e+001	-9.298735e+001	-1.696101e+002	-5.143740e+001	1.080287e+002
6.151133e+006	-4.459643e+001	-8.257988e+001	-3.081394e+001	-1.197662e+001	-8.992960e+001	3.971685e+001	-5.147301e+001	1.066610e+002
6.151172e+006	-4.456047e+001	-8.266856e+001	-3.080962e+001	-1.196215e+001	-9.564484e+001	1.585914e+002	-5.140837e+001	1.081527e+002
6.151211e+006	-4.459109e+001	-8.293372e+001	-3.081467e+001	-1.195991e+001	-9.841805e+001	-1.479512e+002	-5.139131e+001	1.078807e+002
6.151250e+006	-4.460238e+001	-8.253342e+001	-3.081836e+001	-1.196624e+001	-9.449229e+001	1.432597e+002	-5.138965e+001	1.079792e+002
6.151289e+006	-4.462626e+001	-8.289397e+001	-3.081649e+001	-1.199994e+001	-8.962773e+001	1.026683e+002	-5.145994e+001	1.073357e+002
6.151328e+006	-4.463444e+001	-8.267759e+001	-3.081620e+001	-1.197020e+001	-1.010309e+002	1.711766e+002	-5.148599e+001	1.081375e+002
6.151367e+006	-4.458986e+001	-8.282656e+001	-3.081413e+001	-1.193113e+001	-1.007298e+002	6.571363e-001	-5.146782e+001	1.076683e+002
6.151406e+006	-4.462742e+001	-8.292429e+001	-3.081494e+001	-1.198504e+001	-8.745882e+001	1.416049e+002	-5.149577e+001	1.078004e+002
6.151445e+006	-4.460315e+001	-8.287311e+001	-3.081275e+001	-1.200480e+001	-9.082507e+001	9.937124e+001	-5.157916e+001	1.080088e+002
6.151484e+006	-4.458739e+001	-8.295412e+001	-3.081220e+001	-1.194288e+001	-1.004666e+002	1.410370e+002	-5.144734e+001	1.073887e+002
6.151523e+006	-4.461243e+001	-8.278171e+001	-3.080992e+001	-1.196710e+001	-8.881643e+001	5.657052e+000	-5.153316e+001	1.086784e+002
6.151563e+006	-4.458998e+001	-8.260237e+001	-3.082269e+001	-1.196519e+001	-1.015663e+002	-1.762132e+002	-5.139480e+001	1.080706e+002
6.151602e+006	-4.461291e+001	-8.279346e+001	-3.081703e+001	-1.200501e+001	-9.432711e+001	1.466626e+002	-5.150623e+001	1.079277e+002
6.151641e+006	-4.457781e+001	-8.283370e+001	-3.081644e+001	-1.196268e+001	-9.285801e+001	-1.439300e+002	-5.144940e+001	1.073422e+002
6.151680e+006	-4.456884e+001	-8.299189e+001	-3.080469e+001	-1.193276e+001	-9.536805e+001	9.385781e+001	-5.148323e+001	1.079672e+002
6.151719e+006	-4.467300e+001	-8.243666e+001	-3.081020e+001	-1.198591e+001	-9.973411e+001	-9.782951e+001	-5.141537e+001	1.073664e+002
6.151758e+006	-4.461469e+001	-8.294524e+001	-3.080994e+001	-1.199306e+001	-9.800754e+001	5.460599e+001	-5.142378e+001	1.078538e+002
6.151797e+006	-4.457788e+001	-8.274955e+001	-3.082495e+001	-1.200520e+001	-9.897134e+001	1.736603e+002	-5.137472e+001	1.072400e+002
6.151836e+006	-4.461419e+001	-8.261578e+001	-3.080899e+001	-1.192013e+001	-1.000277e+002	-6.962934e+001	-5.142555e+001	1.071998e+002
6.151875e+006	-4.458795e+001	-8.265027e+001	-3.082801e+001	-1.194128e+001	-9.181827e+001	-1.208265e+001	-5.147893e+001	1.076273e+002
6.151914e+006	-4.461407e+001	-8.306187e+001	-3.080263e+001	-1.198592e+001	-1.026700e+002	8.451516e+001	-5.141837e+001	1.078414e+002
6.151953e+006	-4.464224e+001	-8.253188e+001	-3.082345e+001	-1.197411e+001	-9.157729e+001	8.680401e+001	-5.148230e+001	1.068363e+002
6.151992e+006	-4.456940e+001	-8.235582e+001	-3.081559e+001	-1.198322e+001	-1.006845e+002	1.051069e+002	-5.154145e+001	1.072166e+002
6.152031e+006	-4.455580e+001	-8.271187e+001	-3.080177e+001	-1.197540e+001	-9.386662e+001	-4.612977e+001	-5.143740e+001	1.072472e+002
6.152070e+006	-4.455258e+001	-8.279533e+001	-3.081801e+001	-1.200566e+001	-8.989084e+001	1.120269e+002	-5.155037e+001	1.061170e+002
6.152109e+006	-4.459184e+001	-8.267439e+001	-3.080955e+001	-1.195513e+001	-9.086405e+001	1.220550e+002	-5.141542e+001	1.074331e+002
6.152148e+006	-4.459651e+001	-8.288706e+001	-3.082360e+001	-1.198715e+001	-9.805405e+001	-6.405309e+001	-5.154284e+001	1.079905e+002
6.152188e+006	-4.460040e+001	-8.266188e+001	-3.081932e+001	-1.199205e+001	-9.867078e+001	-7.615895e+000	-5.148906e+001	1.071211e+002
6.152227e+006	-4.457788e+001	-8.255037e+001	-3.081406e+001	-1.199124e+001	-8.905837e+001	8.867230e+001	-5.146787e+001	1.073752e+002
6.152266e+006	-4.458115e+001	-8.266199e+001	-3.081271e+001	-1.202527e+001	-8.917486e+001	8.473183e+001	-5.143633e+001	1.078024e+002
6.152305e+006	-4.454589e+001	-8.291767e+001	-3.081826e+001	-1.196469e+001	-9.610892e+001	1.582756e+002	-5.140118e+001	1.074995e+002
6.152344e+006	-4.458472e+001	-8.282646e+001	-3.081596e+001	-1.197946e+001	-9.306724e+001	-5.350315e+001	-5.151674e+001	1.073450e+002
6.152383e+006	-4.460396e+001	-8.277555e+001	-3.081200e+001	-1.197623e+001	-1.055850e+002	-9.327357e+001	-5.145462e+001	1.078357e+002
6.152422e+006	-4.457479e+001	-8.248471e+001	-3.081362e+001	-1.194808e+001	-9.343253e+001	7.884450e+001	-5.154498e+001	1.081557e+002
6.152461e+006	-4.457373e+001	-8.274023e+001	-3.080949e+001	-1.200551e+001	-1.012522e+002	1.509625e+002	-5.148023e+001	1.076727e+002
6.152500e+006	-4.465071e+001	-8.285458e+001	-3.081286e+001	-1.198592e+001	-1.044724e+002	-3.027378e+001	-5.143066e+001	1.080468e+002
6.152539e+006	-4.460564e+001	-8.266653e+001	-3.081751e+001	-1.198633e+001	-1.037376e+002	1.305034e+002	-5.144306e+001	1.075552e+002
6.152578e+006	-4.462796e+001	-8.293560e+001	-3.081951e+001	-1.202077e+001	-9.231495e+001	-6.131000e+000	-5.143475e+001	1.079979e+002
6.152617e+006	-4.454849e+001	-8.269933e+001	-3.081249e+001	-1.194631e+001	-9.149618e+001	8.407052e+001	-5.150904e+001	1.077228e+002
6.152656e+006	-4.459976e+001	-8.271584e+001	-3.080943e+001	-1.195362e+001	-8.796170e+001	1.564719e+002	-5.150309e+001	1.077206e+002
6.152695e+006	-4.463192e+001	-8.289575e+001	-3.080922e+001	-1.195031e+001	-9.021557e+001	-9.016854e+001	-5.144909e+001	1.080177e+002
6.152734e+006	-4.456452e+001	-8.277691e+001	-3.082045e+001	-1.200937e+001	-9.554988e+001	9.593707e+001	-5.148169e+001	1.069327e+002
6.152773e+006	-4.460938e+001	-8.318497e+001	-3.082304e+001	-1.198221e+001	-8.846778e+001	1.277823e+002	-5.142169e+001	1.080003e+002
6.152813e+006	-4.456394e+001	-8.274341e+001	-3.081675e+001	-1.194666e+001	-1.013476e+002	1.256887e+002	-5.137247e+001	1.072559e+002
6.152852e+006	-4.460260e+001	-8.260152e+001	-3.081313e+001	-1.194944e+001	-9.801759e+001	9.799125e+001	-5.147182e+001	1.082166e+002
6.152891e+006	-4.457257e+001	-8.267317e+001	-3.081742e+001	-1.194926e+001	-8.945234e+001	9.400729e+001	-5.137067e+001	1.077325e+002
6.152930e+006	-4.457762e+001	-8.279889e+001	-3.081018e+001	-1.193556e+001	-9.021399e+001	9.679187e+001	-5.145520e+001	1.080794e+002
6.152969e+006	-4.455064e+001	-8.262249e+001	-3.081606e+001	-1.201503e+001	-9.843807e+001	-1.360452e+002	-5.137472e+001	1.080956e+002
6.153008e+006	-4.460850e+001	-8.262906e+001	-3.082167e+001	-1.198276e+001	-9.477556e+001	8.303931e+001	-5.140974e+001	1.072189e+002
6.153047e+006	-4.456374e+001	-8.256517e+001	-3.081998e+001	-1.201146e+001	-9.155255e+001	-1.254599e+002	-5.149040e+001	1.080732e+002
6.153086e+006	-4.461155e+001	-8.274937e+001	-3.081206e+001	-1.193123e+001	-8.879390e+001	6.524165e+001	-5.141102e+001	1.076581e+002
6.153125e+006	-4.463827e+001	-8.296059e+001	-3.081540e+001	-1.193101e+001	-9.353756e+001	-1.600500e+002	-5.146707e+001	1.087927e+002
6.153164e+006	-4.462137e+001	-8.292721e+001	-3.081641e+001	-1.199632e+001	-9.326788e+001	1.389474e+002	-5.142626e+001	1.077653e+002
6.153203e+006	-4.457453e+001	-8.286316e+001	-3.081804e+001	-1.195657e+001	-9.098716e+001	4.521714e+001	-5.148856e+001	1.077657e+002
6.153242e+006	-4.458173e+001	-8.252921e+001	-3.081144e+001	-1.198479e+001	-1.108552e+002	-2.177145e+001	-5.143752e+001	1.078035e+002
6.153281e+006	-4.459516e+001	-8.302497e+001	-3.082612e+001	-1.198293e+001	-8.733164e+001	-2.402267e+001	-5.148088e+001	1.070812e+002
6.153320e+006	-4.459701e+001	-8.260092e+001	-3.081387e+001	-1.198619e+001	-9.461062e+001	-1.449922e+001	-5.156701e+001	1.073414e+002
6.153359e+006	-4.458297e+001	-8.256035e+001	-3.080345e+001	-1.200203e+001	-8.704466e+001	7.290772e+001	-5.159999e+001	1.073977e+002
6.153398e+006	-4.456519e+001	-8.252206e+001	-3.082062e+001	-1.193173e+001	-8.960162e+001	1.086935e+002	-5.135570e+001	1.078093e+002
6.153438e+006	-4.456377e+001	-8.264845e+001	-3.080779e+001	-1.202936e+001	-9.066914e+001	1.062067e+002	-5.148096e+001	1.077673e+002
6.153477e+006	-4.455542e+001	-8.268858e+001	-3.080688e+001	-1.197066e+001	-9.021042e+001	1.384620e+002	-5.134688e+001	1.079860e+002
6.153516e+006	-4.457698e+001	-8.272493e+001	-3.081426e+001	-1.192649e+001	-9.511589e+001	-1.614928e+002	-5.151475e+001	1.078610e+002
6.153555e+006	-4.459136e+001	-8.274303e+001	-3.081010e+001	-1.193031e+001	-8.646683e+001	2.196882e+001	-5.149054e+001	1.080950e+002
6.153594e+006	-4.459788e+001	-8.267395e+001	-3.081573e+001	-1.200723e+001	-9.102444e+001	9.173494e+001	-5.146766e+001	1.073023e+002
6.153633e+006	-4.461344e+001	-8.275678e+001	-3.080882e+001	-1.199877e+001	-9.397363e+001	5.080429e-001	-5.141593e+001	1.078299e+002
6.153672e+006	-4.459271e+001	-8.264257e+001	-3.081529e+001	-1.190479e+001	-9.721490e+001	-1.164955e+001	-5.160281e+001	1.073960e+002
6.153711e+006	-4.458446e+001	-8.267545e+001	-3.081093e+001	-1.199410e+001	-9.181535e+001	-6.199404e+001	-5.148389e+001	1.080817e+002
6.153750e+006	-4.457149e+001	-8.278059e+001	-3.081131e+001	-1.195449e+001	-9.340819e+001	-1.211790e+002	-5.140916e+001	1.074966e+002
6.153789e+006	-4.457580e+001	-8.301458e+001	-3.081711e+001	-1.197934e+001	-9.474920e+001	1.192868e+002	-5.132476e+001	1.080635e+002
6.153828e+006	-4.457607e+001	-8.260179e+001	-3.081170e+001	-1.201423e+001	-9.813528e+001	-6.448915e+001	-5.141224e+001	1.076078e+002
6.153867e+006	-4.458691e+001	-8.258343e+001	-3.080843e+001	-1.202182e+001	-1.049354e+002	3.963007e+001	-5.135746e+001	1.074398e+002
6.153906e+006	-4.458404e+001	-8.277176e+001	-3.082305e+001	-1.206268e+001	-9.260537e+001	3.189322e+001	-5.143376e+001	1.074738e+002
6.153945e+006	-4.460714e+001	-8.272816e+001	-3.081765e+001	-1.197176e+001	-8.947847e+001	1.045981e+002	-5.146508e+001	1.074904e+002
6.153984e+006	-4.460342e+001	-8.263570e+001	-3.081588e+001	-1.196780e+001	-9.446146e+001	5.104322e+001	-5.151907e+001	1.073836e+002
6.154023e+006	-4.462635e+001	-8.251513e+001	-3.081139e+001	-1.202783e+001	-1.032839e+002	6.938730e+001	-5.146592e+001	1.079649e+002
6.154063e+006	-4.462064e+001	-8.253341e+001	-3.081067e+001	-1.198134e+001	-9.065762e+001	-1.594208e+002	-5.153940e+001	1.075256e+002
6.154102e+006	-4.462151e+001	-8.279330e+001	-3.080783e+001	-1.196486e+001	-8.851380e+001	1.637335e+002	-5.142736e+001	1.077454e+002
6.154141e+006	-4.463759e+001	-8.276187e+001	-3.081408e+001	-1.204472e+001	-1.064762e+002	-5.818231e+000	-5.144041e+001	1.078945e+002
6.154180e+006	-4.459902e+001	-8.282891e+001	-3.081355e+001	-1.202570e+001	-9.166175e+001	-1.565469e+002	-5.139639e+001	1.074494e+002
6.154219e+006	-4.460291e+001	-8.276253e+001	-3.080866e+001	-1.197836e+001	-9.079619e+001	1.010809e+002	-5.144474e+001	1.075236e+002
6.154258e+006	-4.459451e+001	-8.291005e+001	-3.081530e+001	-1.195305e+001	-9.057545e+001	-1.450631e+002	-5.144855e+001	1.078521e+002
6.154297e+006	-4.460489e+001	-8.263205e+001	-3.080938e+001	-1.192807e+001	-9.352922e+001	1.179625e+002	-5.143403e+001	1.079836e+002
6.154336e+006	-4.459731e+001	-8.284259e+001	-3.080454e+001	-1.195278e+001	-9.502753e+001	1.248469e+002	-5.145466e+001	1.075877e+002
6.154375e+006	-4.462554e+001	-8.228976e+001	-3.081211e+001	-1.194769e+001	-8.886921e+001	1.240129e+002	-5.143766e+001	1.073227e+002
6.154414e+006	-4.458420e+001	-8.249583e+001	-3.080723e+001	-1.206047e+001	-9.336123e+001	9.801811e+001	-5.151369e+001	1.073940e+002
6.154453e+006	-4.460017e+001	-8.263126e+001	-3.081765e+001	-1.190730e+001	-9.485565e+001	8.033722e+001	-5.144683e+001	1.075088e+002
6.154492e+006	-4.458562e+001	-8.284067e+001	-3.081214e+001	-1.197761e+001	-8.887136e+001	-8.669547e+001	-5.149080e+001	1.079359e+002
6.154531e+006	-4.459932e+001	-8.248549e+001	-3.081071e+001	-1.195317e+001	-9.474729e+001	1.727289e+002	-5.149072e+001	1.076938e+002
6.154570e+006	-4.459959e+001	-8.270705e+001	-3.081070e+001	-1.196253e+001	-9.651368e+001	1.064465e+002	-5.147100e+001	1.083522e+002
6.154609e+006	-4.461132e+001	-8.238399e+001	-3.081841e+001	-1.204559e+001	-1.016346e+002	-1.153751e+002	-5.149237e+001	1.079749e+002
6.154648e+006	-4.453391e+001	-8.286153e+001	-3.080971e+001	-1.194340e+001	-9.102157e+001	1.095316e+002	-5.137535e+001	1.076396e+002
6.154688e+006	-4.461496e+001	-8.244317e+001	-3.080459e+001	-1.200795e+001	-9.739901e+001	-6.069153e+001	-5.156021e+001	1.078480e+002
6.154727e+006	-4.459693e+001	-8.263967e+001	-3.082405e+001	-1.196688e+001	-9.548698e+001	-1.655004e+002	-5.155051e+001	1.069330e+002
6.154766e+006	-4.460534e+001	-8.284122e+001	-3.081471e+001	-1.190333e+001	-8.514576e+001	1.709225e+002	-5.143721e+001	1.075067e+002
6.154805e+006	-4.460091e+001	-8.252340e+001	-3.081389e+001	-1.191468e+001	-9.346981e+001	4.284219e+001	-5.139610e+001	1.079877e+002
6.154844e+006	-4.458000e+001	-8.291724e+001	-3.081427e+001	-1.199229e+001	-8.996764e+001	1.274097e+002	-5.145106e+001	1.077100e+002
6.154883e+006	-4.459277e+001	-8.251667e+001	-3.081780e+001	-1.193485e+001	-9.078661e+001	9.401491e+001	-5.144628e+001	1.077783e+002
6.154922e+006	-4.458627e+001	-8.258603e+001	-3.081065e+001	-1.196133e+001	-9.668948e+001	9.869641e+001	-5.148058e+001	1.072858e+002
6.154961e+006	-4.457969e+001	-8.286378e+001	-3.081362e+001	-1.205073e+001	-8.857999e+001	7.786189e+001	-5.144165e+001	1.078072e+002
6.155000e+006	-4.459247e+001	-8.289593e+001	-3.080872e+001	-1.193674e+001	-1.146851e+002	-1.458748e+002	-5.156364e+001	1.071497e+002
6.155039e+006	-4.462602e+001	-8.279546e+001	-3.081080e+001	-1.196476e+001	-9.232209e+001	-3.338939e+001	-5.146162e+001	1.076608e+002
6.155078e+006	-4.459208e+001	-8.243292e+001	-3.080067e+001	-1.199087e+001	-8.526543e+001	7.643499e+001	-5.146656e+001	1.080449e+002
6.155117e+006	-4.460069e+001	-8.250614e+001	-3.081707e+001	-1.204356e+001	-9.478137e+001	1.509378e+002	-5.144042e+001	1.077769e+002
6.155156e+006	-4.458464e+001	-8.242965e+001	-3.080077e+001	-1.205385e+001	-1.014001e+002	-1.296554e+002	-5.142531e+001	1.082070e+002
6.155195e+006	-4.457717e+001	-8.268705e+001	-3.081297e+001	-1.196369e+001	-9.594411e+001	-1.414012e+002	-5.144701e+001	1.078383e+002
6.155234e+006	-4.455173e+001	-8.301046e+001	-3.080145e+001	-1.200627e+001	-1.032840e+002	6.232576e+001	-5.152177e+001	1.084089e+002
6.155273e+006	-4.455544e+001	-8.262714e+001	-3.080982e+001	-1.201067e+001	-9.033687e+001	5.900564e+001	-5.139568e+001	1.076569e+002
6.155313e+006	-4.457736e+001	-8.275677e+001	-3.079968e+001	-1.201558e+001	-9.153603e+001	1.040096e+002	-5.136997e+001	1.078494e+002
6.155352e+006	-4.459145e+001	-8.259639e+001	-3.081459e+001	-1.199245e+001	-1.040609e+002	1.083746e+002	-5.148722e+001	1.076600e+002
6.155391e+006	-4.451811e+001	-8.247597e+001	-3.080926e+001	-1.196776e+001	-8.758271e+001	7.230466e+001	-5.137432e+001	1.082013e+002
6.155430e+006	-4.455593e+001	-8.271783e+001	-3.081460e+001	-1.197433e+001	-9.398030e+001	3.363991e+001	-5.148529e+001	1.084242e+002
6.155469e+006	-4.456950e+001	-8.259792e+001	-3.081370e+001	-1.191176e+001	-9.550346e+001	4.051096e+001	-5.140442e+001	1.079663e+002
6.155508e+006	-4.458000e+001	-8.281499e+001	-3.080649e+001	-1.205610e+001	-9.115656e+001	-5.211603e+001	-5.139857e+001	1.075247e+002
6.155547e+006	-4.457154e+001	-8.275364e+001	-3.080729e+001	-1.197968e+001	-9.724072e+001	1.405241e+002	-5.149563e+001	1.071306e+002
6.155586e+006	-4.457334e+001	-8.245828e+001	-3.080603e+001	-1.196004e+001	-8.977388e+001	6.135595e+001	-5.153320e+001	1.075980e+002
6.155625e+006	-4.460065e+001	-8.267144e+001	-3.080604e+001	-1.188597e+001	-9.275555e+001	1.321402e+000	-5.146221e+001	1.079950e+002
6.155664e+006	-4.459479e+001	-8.252745e+001	-3.080414e+001	-1.206376e+001	-1.022054e+002	1.610188e+002	-5.142399e+001	1.076332e+002
6.155703e+006	-4.456615e+001	-8.257973e+001	-3.081767e+001	-1.196492e+001	-1.094430e+002	1.145607e+002	-5.151413e+001	1.084230e+002
6.155742e+006	-4.462659e+001	-8.266457e+001	-3.080614e+001	-1.196628e+001	-8.666045e+001	1.015897e+002	-5.132378e+001	1.072806e+002
