!CETC41,AV3656A,ZGL00048,1.3.2
!Calibration ON (Full Solt 2-Port(Omit Isolation))
!Measurements: S11 S21 S12 S22
!2025-04-18 23:27
# Hz  S  dB  R 50.000
6.150000e+006	-3.106861e+001	8.440440e+001	-3.066282e+001	-1.747161e+001	-9.161401e+001	-5.818423e+001	-2.949826e+001	9.152095e+001
6.150039e+006	-3.107150e+001	8.446627e+001	-3.066107e+001	-1.753228e+001	-9.069257e+001	-1.521474e+002	-2.949632e+001	9.158080e+001
6.150078e+006	-3.107374e+001	8.447696e+001	-3.067688e+001	-1.755507e+001	-1.004895e+002	8.945251e+001	-2.949972e+001	9.151063e+001
6.150117e+006	-3.107005e+001	8.442348e+001	-3.066583e+001	-1.755867e+001	-9.769463e+001	1.212754e+002	-2.949951e+001	9.148942e+001
6.150156e+006	-3.106932e+001	8.447025e+001	-3.067638e+001	-1.755702e+001	-9.445632e+001	1.789029e+002	-2.949977e+001	9.157406e+001
6.150195e+006	-3.107717e+001	8.441745e+001	-3.066389e+001	-1.756362e+001	-1.010140e+002	-1.616828e+002	-2.949366e+001	9.158150e+001
6.150234e+006	-3.106880e+001	8.440187e+001	-3.066657e+001	-1.750469e+001	-9.261485e+001	-1.144169e+002	-2.949658e+001	9.149643e+001
6.150273e+006	-3.107133e+001	8.445298e+001	-3.067301e+001	-1.749406e+001	-9.399426e+001	-1.124385e+002	-2.949755e+001	9.151147e+001
6.150313e+006	-3.107477e+001	8.446958e+001	-3.067023e+001	-1.753812e+001	-9.171811e+001	-9.452239e+000	-2.950411e+001	9.156516e+001
6.150352e+006	-3.107408e+001	8.444691e+001	-3.066435e+001	-1.752447e+001	-9.332252e+001	-2.364968e+001	-2.949978e+001	9.150319e+001
6.150391e+006	-3.106805e+001	8.441099e+001	-3.066803e+001	-1.754609e+001	-9.090390e+001	1.716196e+002	-2.950558e+001	9.152781e+001
6.150430e+006	-3.107685e+001	8.450575e+001	-3.066225e+001	-1.755812e+001	-9.162897e+001	-9.634830e+001	-2.949897e+001	9.146761e+001
6.150469e+006	-3.106551e+001	8.441352e+001	-3.066025e+001	-1.753739e+001	-9.560861e+001	1.115971e+002	-2.949855e+001	9.156879e+001
6.150508e+006	-3.107892e+001	8.448993e+001	-3.066758e+001	-1.761668e+001	-9.349244e+001	-1.196220e+000	-2.949625e+001	9.153221e+001
6.150547e+006	-3.107290e+001	8.443560e+001	-3.067832e+001	-1.752398e+001	-9.338970e+001	2.053930e+000	-2.948908e+001	9.152886e+001
6.150586e+006	-3.107733e+001	8.431821e+001	-3.066617e+001	-1.750570e+001	-9.691161e+001	5.435202e+001	-2.948752e+001	9.155930e+001
6.150625e+006	-3.107299e+001	8.444120e+001	-3.066277e+001	-1.754815e+001	-9.147543e+001	4.939214e+001	-2.949115e+001	9.153194e+001
6.150664e+006	-3.106546e+001	8.445628e+001	-3.067157e+001	-1.758963e+001	-9.536482e+001	-1.320111e+002	-2.949555e+001	9.148037e+001
6.150703e+006	-3.107451e+001	8.445746e+001	-3.066053e+001	-1.755171e+001	-8.920802e+001	1.756630e+002	-2.949282e+001	9.150598e+001
6.150742e+006	-3.107225e+001	8.449267e+001	-3.067722e+001	-1.757361e+001	-8.908459e+001	-7.005694e+001	-2.950036e+001	9.152128e+001
6.150781e+006	-3.106586e+001	8.445052e+001	-3.065902e+001	-1.753849e+001	-9.001014e+001	-1.630925e+002	-2.949653e+001	9.149634e+001
6.150820e+006	-3.107154e+001	8.441438e+001	-3.066155e+001	-1.753490e+001	-9.449369e+001	1.366437e+002	-2.949589e+001	9.152649e+001
6.150859e+006	-3.106655e+001	8.443167e+001	-3.066997e+001	-1.747564e+001	-8.811433e+001	1.576857e+002	-2.949874e+001	9.154799e+001
6.150898e+006	-3.107217e+001	8.440505e+001	-3.066386e+001	-1.755924e+001	-9.051319e+001	-1.759793e+002	-2.950169e+001	9.153360e+001
6.150938e+006	-3.106440e+001	8.443418e+001	-3.067177e+001	-1.752839e+001	-9.682458e+001	1.045773e+002	-2.949925e+001	9.151781e+001
6.150977e+006	-3.107994e+001	8.442470e+001	-3.066534e+001	-1.752899e+001	-9.817689e+001	7.130077e+001	-2.949486e+001	9.152128e+001
6.151016e+006	-3.107311e+001	8.449230e+001	-3.065947e+001	-1.748311e+001	-9.236560e+001	-2.739268e+001	-2.949411e+001	9.151878e+001
6.151055e+006	-3.107756e+001	8.451532e+001	-3.065987e+001	-1.753179e+001	-9.936106e+001	1.442320e+002	-2.949813e+001	9.153467e+001
6.151094e+006	-3.107087e+001	8.447771e+001	-3.065263e+001	-1.749392e+001	-9.605599e+001	8.696948e+000	-2.950111e+001	9.157330e+001
6.151133e+006	-3.107511e+001	8.441993e+001	-3.065778e+001	-1.750500e+001	-9.362411e+001	6.511486e+001	-2.949869e+001	9.150255e+001
6.151172e+006	-3.107097e+001	8.447621e+001	-3.066668e+001	-1.754706e+001	-8.621798e+001	1.441880e+002	-2.948871e+001	9.161222e+001
6.151211e+006	-3.107682e+001	8.442870e+001	-3.067015e+001	-1.754402e+001	-1.021554e+002	-7.658816e+001	-2.950043e+001	9.148903e+001
6.151250e+006	-3.106130e+001	8.447946e+001	-3.066834e+001	-1.756177e+001	-9.604893e+001	1.006622e+002	-2.949478e+001	9.157014e+001
6.151289e+006	-3.106562e+001	8.451005e+001	-3.065920e+001	-1.751004e+001	-9.050737e+001	1.269048e+002	-2.949427e+001	9.159218e+001
6.151328e+006	-3.107476e+001	8.449755e+001	-3.067404e+001	-1.750454e+001	-9.298348e+001	7.256512e+001	-2.949534e+001	9.152429e+001
6.151367e+006	-3.106821e+001	8.441753e+001	-3.066618e+001	-1.760037e+001	-9.877430e+001	1.654239e+002	-2.950057e+001	9.152049e+001
6.151406e+006	-3.107423e+001	8.453854e+001	-3.066690e+001	-1.756924e+001	-8.874608e+001	1.243988e+002	-2.950094e+001	9.161102e+001
6.151445e+006	-3.106895e+001	8.444353e+001	-3.066878e+001	-1.761409e+001	-9.443143e+001	8.150857e+001	-2.949217e+001	9.160029e+001
6.151484e+006	-3.107380e+001	8.449033e+001	-3.066766e+001	-1.756786e+001	-9.356683e+001	1.435812e+002	-2.949613e+001	9.157258e+001
6.151523e+006	-3.106985e+001	8.448312e+001	-3.066974e+001	-1.754595e+001	-9.231415e+001	1.310400e+001	-2.949551e+001	9.153847e+001
6.151563e+006	-3.107785e+001	8.443264e+001	-3.066645e+001	-1.749655e+001	-9.334077e+001	-1.498966e+002	-2.949082e+001	9.157713e+001
6.151602e+006	-3.107083e+001	8.445898e+001	-3.066620e+001	-1.757595e+001	-9.173356e+001	7.219030e+001	-2.949452e+001	9.154048e+001
6.151641e+006	-3.107056e+001	8.452718e+001	-3.067077e+001	-1.760335e+001	-9.728983e+001	-1.025703e+002	-2.949600e+001	9.157684e+001
6.151680e+006	-3.106797e+001	8.452045e+001	-3.066603e+001	-1.749888e+001	-9.720106e+001	1.551132e+002	-2.949185e+001	9.154995e+001
6.151719e+006	-3.106606e+001	8.446383e+001	-3.066736e+001	-1.757149e+001	-8.929449e+001	1.350863e+002	-2.948588e+001	9.148361e+001
6.151758e+006	-3.107203e+001	8.443151e+001	-3.066830e+001	-1.761922e+001	-9.705305e+001	6.648628e+001	-2.949997e+001	9.153617e+001
6.151797e+006	-3.107246e+001	8.447870e+001	-3.066916e+001	-1.755912e+001	-9.449029e+001	-8.411553e+001	-2.949981e+001	9.159012e+001
6.151836e+006	-3.107661e+001	8.450113e+001	-3.066148e+001	-1.757705e+001	-9.911547e+001	2.943907e+001	-2.949580e+001	9.156073e+001
6.151875e+006	-3.107158e+001	8.448527e+001	-3.066024e+001	-1.755115e+001	-1.113900e+002	1.948946e+001	-2.949626e+001	9.155692e+001
6.151914e+006	-3.107326e+001	8.443245e+001	-3.066486e+001	-1.749343e+001	-8.965006e+001	1.420827e+002	-2.948846e+001	9.157192e+001
6.151953e+006	-3.106711e+001	8.447287e+001	-3.066535e+001	-1.753269e+001	-9.419187e+001	-1.229079e+001	-2.950331e+001	9.151748e+001
6.151992e+006	-3.107499e+001	8.450331e+001	-3.066560e+001	-1.752685e+001	-9.885542e+001	-1.157614e+002	-2.949936e+001	9.154872e+001
6.152031e+006	-3.106932e+001	8.449372e+001	-3.066457e+001	-1.751265e+001	-9.103510e+001	-5.818550e+001	-2.950403e+001	9.153348e+001
6.152070e+006	-3.106844e+001	8.446950e+001	-3.065993e+001	-1.755214e+001	-9.663495e+001	9.842859e+001	-2.949121e+001	9.155051e+001
6.152109e+006	-3.106850e+001	8.447418e+001	-3.066576e+001	-1.754324e+001	-9.024369e+001	5.203000e+001	-2.949011e+001	9.156827e+001
6.152148e+006	-3.106971e+001	8.449858e+001	-3.066117e+001	-1.757743e+001	-1.003904e+002	-1.321264e+002	-2.950079e+001	9.157257e+001
6.152188e+006	-3.106295e+001	8.452304e+001	-3.066356e+001	-1.758500e+001	-9.443092e+001	-1.595867e+002	-2.949032e+001	9.164225e+001
6.152227e+006	-3.107849e+001	8.448207e+001	-3.066297e+001	-1.745949e+001	-9.107622e+001	6.446476e+001	-2.949564e+001	9.154520e+001
6.152266e+006	-3.107357e+001	8.449434e+001	-3.066128e+001	-1.753391e+001	-9.378005e+001	-3.545631e+001	-2.950166e+001	9.154459e+001
6.152305e+006	-3.105563e+001	8.446863e+001	-3.065815e+001	-1.758148e+001	-9.117992e+001	-8.346131e+001	-2.950168e+001	9.161510e+001
6.152344e+006	-3.106588e+001	8.447118e+001	-3.065884e+001	-1.754404e+001	-9.101509e+001	1.270377e+002	-2.949024e+001	9.154307e+001
6.152383e+006	-3.107802e+001	8.451484e+001	-3.066620e+001	-1.761107e+001	-8.907131e+001	9.930690e+000	-2.950956e+001	9.156856e+001
6.152422e+006	-3.107816e+001	8.449608e+001	-3.067077e+001	-1.757521e+001	-1.000846e+002	-1.316523e+002	-2.950638e+001	9.159832e+001
6.152461e+006	-3.106741e+001	8.447663e+001	-3.065719e+001	-1.754371e+001	-9.310271e+001	-1.621835e+002	-2.950091e+001	9.161844e+001
6.152500e+006	-3.106180e+001	8.450054e+001	-3.066726e+001	-1.755714e+001	-9.510938e+001	-9.734817e+001	-2.950269e+001	9.156323e+001
6.152539e+006	-3.107065e+001	8.449071e+001	-3.065538e+001	-1.754254e+001	-8.958997e+001	6.058164e+001	-2.949940e+001	9.152789e+001
6.152578e+006	-3.106028e+001	8.451825e+001	-3.066546e+001	-1.752859e+001	-9.803981e+001	9.277211e+001	-2.949364e+001	9.156243e+001
6.152617e+006	-3.107711e+001	8.451447e+001	-3.067405e+001	-1.752386e+001	-9.714882e+001	8.308304e+001	-2.950538e+001	9.156247e+001
6.152656e+006	-3.107356e+001	8.450019e+001	-3.066021e+001	-1.751874e+001	-9.835251e+001	1.423535e+002	-2.949760e+001	9.157895e+001
6.152695e+006	-3.106886e+001	8.447979e+001	-3.066092e+001	-1.760102e+001	-1.034051e+002	1.686604e+002	-2.950330e+001	9.154865e+001
6.152734e+006	-3.107598e+001	8.457775e+001	-3.066803e+001	-1.756681e+001	-9.176739e+001	1.067191e+002	-2.950046e+001	9.156234e+001
6.152773e+006	-3.106817e+001	8.451279e+001	-3.065884e+001	-1.756455e+001	-9.137586e+001	3.294290e+001	-2.950130e+001	9.160324e+001
6.152813e+006	-3.107728e+001	8.458094e+001	-3.065755e+001	-1.749927e+001	-9.723279e+001	7.680830e+000	-2.949304e+001	9.153375e+001
6.152852e+006	-3.107593e+001	8.449529e+001	-3.066041e+001	-1.759272e+001	-8.731572e+001	9.634799e+001	-2.949910e+001	9.157562e+001
6.152891e+006	-3.107596e+001	8.448391e+001	-3.066195e+001	-1.754125e+001	-9.401041e+001	7.362150e+001	-2.949254e+001	9.158144e+001
6.152930e+006	-3.106644e+001	8.451456e+001	-3.066039e+001	-1.758852e+001	-9.965924e+001	3.209135e+001	-2.949148e+001	9.160292e+001
6.152969e+006	-3.107569e+001	8.448259e+001	-3.067144e+001	-1.758499e+001	-9.475171e+001	-7.248181e+001	-2.949453e+001	9.163472e+001
6.153008e+006	-3.107710e+001	8.451881e+001	-3.065462e+001	-1.754370e+001	-9.492853e+001	1.698407e+002	-2.949623e+001	9.165424e+001
6.153047e+006	-3.107517e+001	8.444813e+001	-3.067112e+001	-1.754649e+001	-9.808601e+001	6.797825e+001	-2.948759e+001	9.160255e+001
6.153086e+006	-3.107689e+001	8.455113e+001	-3.066189e+001	-1.757073e+001	-9.798386e+001	-6.770609e+000	-2.948673e+001	9.158069e+001
6.153125e+006	-3.108134e+001	8.453719e+001	-3.067220e+001	-1.751198e+001	-9.031858e+001	1.520311e+002	-2.949729e+001	9.161401e+001
6.153164e+006	-3.106612e+001	8.450168e+001	-3.067987e+001	-1.746976e+001	-9.656309e+001	3.077781e+001	-2.949660e+001	9.159765e+001
6.153203e+006	-3.106742e+001	8.445044e+001	-3.066638e+001	-1.751857e+001	-9.568260e+001	-1.750143e+002	-2.948847e+001	9.157566e+001
6.153242e+006	-3.107512e+001	8.449112e+001	-3.066106e+001	-1.752224e+001	-9.171890e+001	1.200458e+002	-2.950398e+001	9.158687e+001
6.153281e+006	-3.107687e+001	8.453314e+001	-3.065569e+001	-1.751221e+001	-8.785137e+001	-1.647816e+001	-2.949748e+001	9.160002e+001
6.153320e+006	-3.107740e+001	8.453546e+001	-3.066415e+001	-1.747987e+001	-8.686091e+001	2.164845e+001	-2.949431e+001	9.157768e+001
6.153359e+006	-3.107330e+001	8.457133e+001	-3.065763e+001	-1.757518e+001	-9.002961e+001	1.296431e+002	-2.949931e+001	9.158929e+001
6.153398e+006	-3.107125e+001	8.455778e+001	-3.066058e+001	-1.753378e+001	-8.731782e+001	1.024400e+001	-2.950342e+001	9.152287e+001
6.153438e+006	-3.107441e+001	8.452509e+001	-3.066149e+001	-1.756813e+001	-1.027940e+002	-1.428195e+002	-2.948980e+001	9.162519e+001
6.153477e+006	-3.107451e+001	8.446080e+001	-3.066016e+001	-1.756084e+001	-9.730026e+001	-1.927450e+001	-2.949764e+001	9.160653e+001
6.153516e+006	-3.106637e+001	8.451626e+001	-3.065751e+001	-1.746090e+001	-9.023154e+001	1.782029e+002	-2.949655e+001	9.159510e+001
6.153555e+006	-3.107742e+001	8.453043e+001	-3.067182e+001	-1.752890e+001	-9.259425e+001	6.880908e+001	-2.949545e+001	9.162157e+001
6.153594e+006	-3.107385e+001	8.451482e+001	-3.065190e+001	-1.751635e+001	-9.218520e+001	1.241596e+002	-2.949351e+001	9.159478e+001
6.153633e+006	-3.106651e+001	8.450464e+001	-3.065881e+001	-1.754272e+001	-1.008216e+002	1.691112e+002	-2.949788e+001	9.157879e+001
6.153672e+006	-3.107253e+001	8.449702e+001	-3.066600e+001	-1.749562e+001	-1.049897e+002	1.794081e+002	-2.949750e+001	9.159871e+001
6.153711e+006	-3.107571e+001	8.452627e+001	-3.066668e+001	-1.758589e+001	-9.850250e+001	-1.337978e+002	-2.949573e+001	9.155807e+001
6.153750e+006	-3.107835e+001	8.452389e+001	-3.066687e+001	-1.747528e+001	-1.043301e+002	1.988834e+001	-2.949772e+001	9.158485e+001
6.153789e+006	-3.107321e+001	8.449809e+001	-3.066514e+001	-1.755382e+001	-9.318672e+001	9.100419e+001	-2.949581e+001	9.159771e+001
6.153828e+006	-3.107345e+001	8.450012e+001	-3.065421e+001	-1.757579e+001	-9.245219e+001	1.063463e+001	-2.950274e+001	9.157427e+001
6.153867e+006	-3.107238e+001	8.451924e+001	-3.067218e+001	-1.749884e+001	-9.627323e+001	-6.294811e+001	-2.950435e+001	9.158705e+001
6.153906e+006	-3.108003e+001	8.454512e+001	-3.066738e+001	-1.754463e+001	-8.703384e+001	1.658112e+001	-2.949831e+001	9.168308e+001
6.153945e+006	-3.106573e+001	8.450560e+001	-3.065821e+001	-1.754460e+001	-9.189011e+001	-1.671842e+000	-2.949095e+001	9.158839e+001
6.153984e+006	-3.107146e+001	8.450193e+001	-3.065431e+001	-1.756276e+001	-9.537026e+001	-2.734836e+000	-2.949849e+001	9.161093e+001
6.154023e+006	-3.107703e+001	8.451084e+001	-3.066320e+001	-1.752234e+001	-9.980087e+001	-1.317317e+001	-2.949447e+001	9.161192e+001
6.154063e+006	-3.107532e+001	8.457101e+001	-3.066078e+001	-1.750999e+001	-9.743857e+001	-1.777131e+002	-2.949294e+001	9.165614e+001
6.154102e+006	-3.107730e+001	8.451888e+001	-3.066542e+001	-1.756906e+001	-9.170963e+001	1.211786e+002	-2.950612e+001	9.163499e+001
6.154141e+006	-3.107407e+001	8.450543e+001	-3.065612e+001	-1.754295e+001	-9.586781e+001	8.077257e+001	-2.949119e+001	9.159020e+001
6.154180e+006	-3.106579e+001	8.450493e+001	-3.065915e+001	-1.757330e+001	-9.683587e+001	-8.960578e+000	-2.949593e+001	9.165662e+001
6.154219e+006	-3.107182e+001	8.457288e+001	-3.065940e+001	-1.753698e+001	-1.005474e+002	-1.491324e+002	-2.949288e+001	9.155392e+001
6.154258e+006	-3.107969e+001	8.459430e+001	-3.066005e+001	-1.756973e+001	-9.026433e+001	1.265240e+002	-2.949485e+001	9.169095e+001
6.154297e+006	-3.106824e+001	8.459992e+001	-3.066598e+001	-1.754693e+001	-9.424972e+001	-2.946672e+001	-2.948739e+001	9.159360e+001
6.154336e+006	-3.107534e+001	8.450958e+001	-3.065176e+001	-1.751914e+001	-9.236355e+001	1.076691e+002	-2.950013e+001	9.162943e+001
6.154375e+006	-3.107928e+001	8.457007e+001	-3.066905e+001	-1.756616e+001	-9.371963e+001	-1.393505e+002	-2.949668e+001	9.160403e+001
6.154414e+006	-3.106532e+001	8.458577e+001	-3.066539e+001	-1.757792e+001	-9.952179e+001	6.360846e+001	-2.949378e+001	9.164348e+001
6.154453e+006	-3.107397e+001	8.458353e+001	-3.065521e+001	-1.749907e+001	-1.012208e+002	4.873314e+001	-2.950039e+001	9.163793e+001
6.154492e+006	-3.107349e+001	8.454461e+001	-3.065742e+001	-1.747974e+001	-1.032770e+002	-1.055315e+002	-2.949235e+001	9.167221e+001
6.154531e+006	-3.107520e+001	8.454686e+001	-3.066626e+001	-1.755329e+001	-9.317004e+001	-4.668289e+000	-2.949848e+001	9.157715e+001
6.154570e+006	-3.107447e+001	8.456791e+001	-3.065171e+001	-1.754452e+001	-8.349079e+001	5.923974e+001	-2.949596e+001	9.156278e+001
6.154609e+006	-3.106941e+001	8.455316e+001	-3.065630e+001	-1.758358e+001	-9.188324e+001	2.005878e+001	-2.949620e+001	9.159455e+001
6.154648e+006	-3.107085e+001	8.455033e+001	-3.066708e+001	-1.753829e+001	-8.995054e+001	-1.734501e+002	-2.950373e+001	9.160234e+001
6.154688e+006	-3.107400e+001	8.455554e+001	-3.065178e+001	-1.757815e+001	-9.568005e+001	4.715310e+001	-2.949665e+001	9.168780e+001
6.154727e+006	-3.106302e+001	8.453696e+001	-3.065514e+001	-1.754300e+001	-9.875289e+001	6.073433e+001	-2.949250e+001	9.163212e+001
6.154766e+006	-3.108013e+001	8.454192e+001	-3.066916e+001	-1.750436e+001	-9.743127e+001	-8.954194e+001	-2.949178e+001	9.162490e+001
6.154805e+006	-3.107981e+001	8.455568e+001	-3.065978e+001	-1.760343e+001	-9.950104e+001	1.649254e+002	-2.950277e+001	9.162233e+001
6.154844e+006	-3.106875e+001	8.455682e+001	-3.066921e+001	-1.765725e+001	-1.067003e+002	1.201114e+002	-2.949922e+001	9.164518e+001
6.154883e+006	-3.107665e+001	8.461928e+001	-3.066107e+001	-1.756963e+001	-9.306616e+001	1.451974e+002	-2.949890e+001	9.164439e+001
6.154922e+006	-3.106856e+001	8.458261e+001	-3.066045e+001	-1.757623e+001	-8.881089e+001	5.574876e+001	-2.949755e+001	9.169623e+001
6.154961e+006	-3.107549e+001	8.448673e+001	-3.066157e+001	-1.749200e+001	-9.172490e+001	1.046011e+002	-2.949809e+001	9.167007e+001
6.155000e+006	-3.107170e+001	8.458461e+001	-3.065909e+001	-1.757320e+001	-1.085343e+002	7.088123e+001	-2.950685e+001	9.158765e+001
6.155039e+006	-3.107176e+001	8.456412e+001	-3.065386e+001	-1.748268e+001	-9.342003e+001	1.600765e+002	-2.949806e+001	9.164381e+001
6.155078e+006	-3.107365e+001	8.452977e+001	-3.066983e+001	-1.753094e+001	-9.610573e+001	-1.665938e+001	-2.949877e+001	9.160839e+001
6.155117e+006	-3.106792e+001	8.461092e+001	-3.066605e+001	-1.754687e+001	-9.743909e+001	1.667108e+001	-2.949328e+001	9.161087e+001
6.155156e+006	-3.108600e+001	8.458545e+001	-3.065346e+001	-1.755052e+001	-9.373522e+001	-1.617428e+002	-2.950645e+001	9.166876e+001
6.155195e+006	-3.106557e+001	8.453051e+001	-3.066384e+001	-1.751326e+001	-9.010965e+001	-9.841623e+001	-2.949636e+001	9.163120e+001
6.155234e+006	-3.106922e+001	8.461026e+001	-3.066278e+001	-1.760612e+001	-9.818689e+001	3.006814e+001	-2.949297e+001	9.167507e+001
6.155273e+006	-3.107079e+001	8.455652e+001	-3.065699e+001	-1.755202e+001	-1.001653e+002	-1.567682e+002	-2.949387e+001	9.159792e+001
6.155313e+006	-3.107357e+001	8.458892e+001	-3.065213e+001	-1.748183e+001	-9.967181e+001	1.569811e+002	-2.950422e+001	9.160670e+001
6.155352e+006	-3.107596e+001	8.461286e+001	-3.066383e+001	-1.751264e+001	-8.972730e+001	-7.135047e+001	-2.949453e+001	9.163114e+001
6.155391e+006	-3.108063e+001	8.455295e+001	-3.065678e+001	-1.755161e+001	-1.043986e+002	1.071520e+002	-2.950179e+001	9.168082e+001
6.155430e+006	-3.107085e+001	8.457227e+001	-3.066312e+001	-1.753035e+001	-8.978069e+001	1.593946e+002	-2.949261e+001	9.160399e+001
6.155469e+006	-3.106683e+001	8.452770e+001	-3.067205e+001	-1.756537e+001	-9.098876e+001	-1.515016e+002	-2.949963e+001	9.164760e+001
6.155508e+006	-3.107289e+001	8.463641e+001	-3.066162e+001	-1.757184e+001	-9.612143e+001	-2.088546e+001	-2.949728e+001	9.163264e+001
6.155547e+006	-3.107185e+001	8.456668e+001	-3.066697e+001	-1.753209e+001	-9.783929e+001	1.504036e+002	-2.950520e+001	9.163366e+001
6.155586e+006	-3.107679e+001	8.458255e+001	-3.065801e+001	-1.759073e+001	-9.071172e+001	9.333149e+001	-2.949798e+001	9.163974e+001
6.155625e+006	-3.108480e+001	8.459396e+001	-3.065631e+001	-1.757462e+001	-9.403966e+001	7.665417e+001	-2.949830e+001	9.172826e+001
6.155664e+006	-3.107938e+001	8.456178e+001	-3.064398e+001	-1.751049e+001	-9.072519e+001	9.721833e+001	-2.950367e+001	9.164766e+001
6.155703e+006	-3.109064e+001	8.456268e+001	-3.065675e+001	-1.761960e+001	-1.008687e+002	7.792617e+001	-2.949580e+001	9.167856e+001
6.155742e+006	-3.107932e+001	8.455656e+001	-3.065653e+001	-1.751511e+001	-8.821063e+001	-1.094069e+002	-2.950219e+001	9.164333e+001
6.155781e+006	-3.106860e+001	8.459218e+001	-3.066271e+001	-1.760466e+001	-8.850800e+001	4.646757e+001	-2.949442e+001	9.166344e+001
