!CETC41,AV3656A,ZGL00048,1.3.2
!Calibration ON (Full Solt 2-Port(Omit Isolation))
!Measurements: S11 S21 S12 S22
!2025-04-18 23:38
# Hz  S  dB  R 50.000
6.150000e+006	-3.108219e+001	8.432461e+001	-3.066093e+001	-1.775034e+001	-9.197939e+001	4.789713e+001	-2.949657e+001	9.172444e+001
6.150039e+006	-3.109103e+001	8.434976e+001	-3.065511e+001	-1.776757e+001	-9.217412e+001	5.367925e+001	-2.949514e+001	9.177101e+001
6.150078e+006	-3.108512e+001	8.437225e+001	-3.067416e+001	-1.774831e+001	-9.139416e+001	2.559065e+001	-2.949691e+001	9.171350e+001
6.150117e+006	-3.108761e+001	8.436223e+001	-3.066287e+001	-1.777887e+001	-9.263318e+001	1.712690e+002	-2.949213e+001	9.172610e+001
6.150156e+006	-3.108640e+001	8.438355e+001	-3.067069e+001	-1.771431e+001	-9.520342e+001	1.701962e+002	-2.949209e+001	9.170956e+001
6.150195e+006	-3.109054e+001	8.432106e+001	-3.066042e+001	-1.769284e+001	-8.796718e+001	1.158301e+002	-2.949314e+001	9.175823e+001
6.150234e+006	-3.108993e+001	8.434275e+001	-3.066887e+001	-1.769397e+001	-9.005832e+001	6.719851e+001	-2.949736e+001	9.170879e+001
6.150273e+006	-3.108671e+001	8.438305e+001	-3.067225e+001	-1.771336e+001	-1.018555e+002	-2.227823e+001	-2.948993e+001	9.171434e+001
6.150313e+006	-3.108312e+001	8.430719e+001	-3.066190e+001	-1.774243e+001	-8.475633e+001	2.087551e+001	-2.949721e+001	9.172231e+001
6.150352e+006	-3.109295e+001	8.442466e+001	-3.066378e+001	-1.772813e+001	-9.197930e+001	1.108200e+002	-2.950856e+001	9.174315e+001
6.150391e+006	-3.108454e+001	8.432109e+001	-3.067174e+001	-1.782926e+001	-8.980021e+001	-1.637837e+002	-2.949605e+001	9.175196e+001
6.150430e+006	-3.108531e+001	8.436869e+001	-3.065876e+001	-1.778203e+001	-1.097289e+002	1.550529e+002	-2.949118e+001	9.171766e+001
6.150469e+006	-3.108537e+001	8.436953e+001	-3.066318e+001	-1.773040e+001	-1.003495e+002	-1.024546e+002	-2.949250e+001	9.174768e+001
6.150508e+006	-3.108374e+001	8.426559e+001	-3.065818e+001	-1.773873e+001	-9.129596e+001	1.422300e+002	-2.950014e+001	9.170986e+001
6.150547e+006	-3.109309e+001	8.444369e+001	-3.066522e+001	-1.771295e+001	-1.025035e+002	2.802471e+001	-2.949801e+001	9.174488e+001
6.150586e+006	-3.108256e+001	8.441710e+001	-3.066355e+001	-1.769947e+001	-9.125163e+001	9.692161e+001	-2.949996e+001	9.173204e+001
6.150625e+006	-3.108392e+001	8.440731e+001	-3.066873e+001	-1.775545e+001	-8.925819e+001	8.278437e+001	-2.949910e+001	9.179444e+001
6.150664e+006	-3.109393e+001	8.432831e+001	-3.066615e+001	-1.774513e+001	-9.431946e+001	5.141392e+001	-2.949802e+001	9.177069e+001
6.150703e+006	-3.108611e+001	8.439998e+001	-3.067107e+001	-1.774379e+001	-9.171171e+001	4.065901e+001	-2.949482e+001	9.175665e+001
6.150742e+006	-3.109299e+001	8.432362e+001	-3.065563e+001	-1.777049e+001	-9.945161e+001	-5.980363e+001	-2.949795e+001	9.173403e+001
6.150781e+006	-3.108307e+001	8.436695e+001	-3.066352e+001	-1.776603e+001	-9.785640e+001	7.711117e+001	-2.949978e+001	9.172564e+001
6.150820e+006	-3.108523e+001	8.440040e+001	-3.066034e+001	-1.771416e+001	-9.354725e+001	-2.005733e+001	-2.949882e+001	9.173109e+001
6.150859e+006	-3.108261e+001	8.439111e+001	-3.066178e+001	-1.772090e+001	-1.040323e+002	-3.188420e+001	-2.949961e+001	9.177079e+001
6.150898e+006	-3.107871e+001	8.439116e+001	-3.067486e+001	-1.778367e+001	-9.864712e+001	1.797840e+002	-2.949946e+001	9.175532e+001
6.150938e+006	-3.108519e+001	8.443083e+001	-3.066678e+001	-1.772918e+001	-8.849030e+001	1.358178e+002	-2.949635e+001	9.172561e+001
6.150977e+006	-3.109580e+001	8.438218e+001	-3.065897e+001	-1.780347e+001	-9.499823e+001	-1.313227e+002	-2.949781e+001	9.174483e+001
6.151016e+006	-3.108507e+001	8.437262e+001	-3.066211e+001	-1.775118e+001	-9.371593e+001	9.390077e+001	-2.950046e+001	9.176379e+001
6.151055e+006	-3.108996e+001	8.439930e+001	-3.065985e+001	-1.769950e+001	-8.769360e+001	6.677108e+001	-2.949758e+001	9.173702e+001
6.151094e+006	-3.108373e+001	8.437406e+001	-3.065163e+001	-1.767123e+001	-9.258383e+001	-1.780977e+002	-2.949723e+001	9.178473e+001
6.151133e+006	-3.108492e+001	8.440737e+001	-3.066231e+001	-1.771496e+001	-9.911408e+001	-2.656479e+000	-2.949508e+001	9.175517e+001
6.151172e+006	-3.108643e+001	8.436456e+001	-3.065504e+001	-1.785067e+001	-9.730503e+001	1.728919e+001	-2.948922e+001	9.173055e+001
6.151211e+006	-3.109432e+001	8.443291e+001	-3.066823e+001	-1.772565e+001	-8.957406e+001	-1.241814e+002	-2.949843e+001	9.172589e+001
6.151250e+006	-3.108772e+001	8.440325e+001	-3.065651e+001	-1.776008e+001	-9.501461e+001	1.476819e+002	-2.949660e+001	9.170735e+001
6.151289e+006	-3.107842e+001	8.441918e+001	-3.065095e+001	-1.776626e+001	-8.910414e+001	1.603671e+002	-2.949375e+001	9.175118e+001
6.151328e+006	-3.108362e+001	8.443949e+001	-3.066998e+001	-1.769472e+001	-1.020208e+002	-5.519488e+001	-2.949880e+001	9.182723e+001
6.151367e+006	-3.107473e+001	8.438791e+001	-3.067005e+001	-1.771989e+001	-9.776252e+001	5.214055e+001	-2.949829e+001	9.176537e+001
6.151406e+006	-3.109759e+001	8.437663e+001	-3.066571e+001	-1.775410e+001	-1.084660e+002	-1.043466e+002	-2.950160e+001	9.175314e+001
6.151445e+006	-3.108483e+001	8.436941e+001	-3.065794e+001	-1.779054e+001	-1.025858e+002	-7.381238e+001	-2.949378e+001	9.173772e+001
6.151484e+006	-3.108907e+001	8.432577e+001	-3.065764e+001	-1.777138e+001	-9.057175e+001	6.149796e+001	-2.950249e+001	9.177499e+001
6.151523e+006	-3.110428e+001	8.441188e+001	-3.067873e+001	-1.779932e+001	-1.035960e+002	-9.945458e+001	-2.950124e+001	9.179981e+001
6.151563e+006	-3.109256e+001	8.438408e+001	-3.065507e+001	-1.775504e+001	-9.685277e+001	-3.123107e+001	-2.949332e+001	9.172329e+001
6.151602e+006	-3.108381e+001	8.435362e+001	-3.065885e+001	-1.779478e+001	-8.956199e+001	-9.302897e-001	-2.950497e+001	9.174044e+001
6.151641e+006	-3.109415e+001	8.436675e+001	-3.066715e+001	-1.774472e+001	-9.249259e+001	1.726180e+002	-2.949494e+001	9.176351e+001
6.151680e+006	-3.109511e+001	8.443996e+001	-3.065660e+001	-1.777956e+001	-8.783009e+001	4.877251e+001	-2.949926e+001	9.176017e+001
6.151719e+006	-3.108307e+001	8.445149e+001	-3.066215e+001	-1.774591e+001	-1.079940e+002	-2.151436e+001	-2.950354e+001	9.175434e+001
6.151758e+006	-3.109109e+001	8.440655e+001	-3.065912e+001	-1.768756e+001	-9.373017e+001	-1.534783e+002	-2.949402e+001	9.175111e+001
6.151797e+006	-3.109471e+001	8.440597e+001	-3.066588e+001	-1.771397e+001	-1.052874e+002	-6.522127e+001	-2.949314e+001	9.176993e+001
6.151836e+006	-3.108477e+001	8.438738e+001	-3.065255e+001	-1.775000e+001	-9.520340e+001	1.502040e+002	-2.949622e+001	9.179022e+001
6.151875e+006	-3.109557e+001	8.441230e+001	-3.066349e+001	-1.768418e+001	-9.647649e+001	8.233914e+000	-2.949647e+001	9.178698e+001
6.151914e+006	-3.109111e+001	8.437396e+001	-3.066541e+001	-1.779457e+001	-8.732454e+001	1.679173e+001	-2.950097e+001	9.181619e+001
6.151953e+006	-3.108278e+001	8.441306e+001	-3.066732e+001	-1.775316e+001	-8.851212e+001	2.220354e+001	-2.949926e+001	9.174900e+001
6.151992e+006	-3.109599e+001	8.439370e+001	-3.065660e+001	-1.773837e+001	-9.317734e+001	5.172751e+001	-2.949144e+001	9.174213e+001
6.152031e+006	-3.108345e+001	8.436936e+001	-3.066714e+001	-1.774580e+001	-9.734476e+001	-1.569798e+002	-2.950178e+001	9.180050e+001
6.152070e+006	-3.108583e+001	8.438538e+001	-3.066454e+001	-1.777579e+001	-9.321345e+001	8.980712e+001	-2.950481e+001	9.177353e+001
6.152109e+006	-3.109349e+001	8.442783e+001	-3.066404e+001	-1.778590e+001	-8.613146e+001	8.715489e+001	-2.950225e+001	9.179375e+001
6.152148e+006	-3.109389e+001	8.439871e+001	-3.064951e+001	-1.766996e+001	-1.043389e+002	8.990782e+001	-2.950157e+001	9.176915e+001
6.152188e+006	-3.108975e+001	8.435628e+001	-3.066270e+001	-1.774047e+001	-8.983033e+001	1.452274e+002	-2.949911e+001	9.180555e+001
6.152227e+006	-3.109089e+001	8.438843e+001	-3.066912e+001	-1.776593e+001	-8.848270e+001	7.470345e+001	-2.949772e+001	9.176409e+001
6.152266e+006	-3.108116e+001	8.435106e+001	-3.067118e+001	-1.776348e+001	-9.251339e+001	1.740475e+002	-2.950609e+001	9.173229e+001
6.152305e+006	-3.107631e+001	8.441662e+001	-3.066518e+001	-1.773381e+001	-9.172985e+001	-1.748646e+002	-2.950368e+001	9.179949e+001
6.152344e+006	-3.109588e+001	8.441813e+001	-3.066416e+001	-1.774278e+001	-1.011704e+002	-1.239118e+002	-2.949542e+001	9.177062e+001
6.152383e+006	-3.108807e+001	8.442491e+001	-3.066714e+001	-1.781513e+001	-9.311812e+001	1.070448e+002	-2.949180e+001	9.178864e+001
6.152422e+006	-3.109210e+001	8.444959e+001	-3.065618e+001	-1.775369e+001	-1.016343e+002	-1.636076e+002	-2.950769e+001	9.172092e+001
6.152461e+006	-3.107869e+001	8.437336e+001	-3.065415e+001	-1.771536e+001	-1.025964e+002	1.118874e+002	-2.950480e+001	9.177123e+001
6.152500e+006	-3.108232e+001	8.441568e+001	-3.065529e+001	-1.775854e+001	-9.753806e+001	1.035632e+002	-2.949860e+001	9.177202e+001
6.152539e+006	-3.108685e+001	8.440093e+001	-3.067480e+001	-1.771828e+001	-8.847552e+001	2.575285e+001	-2.948712e+001	9.177680e+001
6.152578e+006	-3.109941e+001	8.437061e+001	-3.066385e+001	-1.780072e+001	-1.018173e+002	6.495374e+001	-2.950369e+001	9.177811e+001
6.152617e+006	-3.109176e+001	8.438170e+001	-3.067030e+001	-1.776926e+001	-8.460922e+001	-9.500406e+001	-2.949754e+001	9.183622e+001
6.152656e+006	-3.108893e+001	8.443859e+001	-3.065917e+001	-1.772805e+001	-9.528876e+001	-1.574963e+002	-2.950298e+001	9.176170e+001
6.152695e+006	-3.108733e+001	8.443614e+001	-3.065579e+001	-1.767782e+001	-9.604146e+001	-3.850530e+000	-2.949400e+001	9.182212e+001
6.152734e+006	-3.109017e+001	8.447124e+001	-3.066715e+001	-1.778506e+001	-1.112832e+002	2.356521e+001	-2.949708e+001	9.180878e+001
6.152773e+006	-3.108933e+001	8.441107e+001	-3.065879e+001	-1.765998e+001	-9.057224e+001	4.013716e+001	-2.949840e+001	9.178643e+001
6.152813e+006	-3.109426e+001	8.443071e+001	-3.066119e+001	-1.769862e+001	-9.316833e+001	7.065401e+001	-2.949733e+001	9.177573e+001
6.152852e+006	-3.108521e+001	8.444723e+001	-3.065958e+001	-1.779460e+001	-8.838779e+001	1.428991e+002	-2.949506e+001	9.179201e+001
6.152891e+006	-3.109008e+001	8.444853e+001	-3.065150e+001	-1.774274e+001	-8.889946e+001	1.057269e+002	-2.950860e+001	9.179364e+001
6.152930e+006	-3.109547e+001	8.439614e+001	-3.066265e+001	-1.772909e+001	-9.657332e+001	-1.420200e+001	-2.949926e+001	9.177091e+001
6.152969e+006	-3.108366e+001	8.446134e+001	-3.066368e+001	-1.771670e+001	-9.835274e+001	1.245608e+001	-2.950018e+001	9.178334e+001
6.153008e+006	-3.108712e+001	8.438426e+001	-3.066157e+001	-1.769312e+001	-9.487108e+001	6.416764e+001	-2.949608e+001	9.177190e+001
6.153047e+006	-3.109817e+001	8.440399e+001	-3.065602e+001	-1.778872e+001	-8.984372e+001	7.115882e+001	-2.949897e+001	9.177768e+001
6.153086e+006	-3.108889e+001	8.444890e+001	-3.065492e+001	-1.771964e+001	-9.641400e+001	1.853403e+001	-2.950061e+001	9.179707e+001
6.153125e+006	-3.108572e+001	8.446460e+001	-3.065929e+001	-1.777247e+001	-9.003572e+001	-6.348390e+001	-2.949623e+001	9.176178e+001
6.153164e+006	-3.109236e+001	8.441820e+001	-3.065567e+001	-1.780674e+001	-9.005318e+001	6.978844e+001	-2.949457e+001	9.181101e+001
6.153203e+006	-3.108639e+001	8.441918e+001	-3.065765e+001	-1.767868e+001	-9.414215e+001	1.671583e+002	-2.949559e+001	9.172547e+001
6.153242e+006	-3.109614e+001	8.444350e+001	-3.064744e+001	-1.775356e+001	-9.424027e+001	-1.506728e+002	-2.949383e+001	9.181489e+001
6.153281e+006	-3.108541e+001	8.444965e+001	-3.066831e+001	-1.770906e+001	-9.450238e+001	-1.145882e+002	-2.950110e+001	9.181249e+001
6.153320e+006	-3.109060e+001	8.441793e+001	-3.064051e+001	-1.773005e+001	-9.357490e+001	6.687013e+001	-2.949231e+001	9.177613e+001
6.153359e+006	-3.109428e+001	8.437991e+001	-3.066052e+001	-1.775438e+001	-9.767054e+001	1.445498e+002	-2.949921e+001	9.175887e+001
6.153398e+006	-3.108644e+001	8.444260e+001	-3.065871e+001	-1.774194e+001	-1.002683e+002	9.549746e+001	-2.949951e+001	9.185566e+001
6.153438e+006	-3.109408e+001	8.444845e+001	-3.065975e+001	-1.768749e+001	-8.827579e+001	1.352858e+002	-2.949934e+001	9.180193e+001
6.153477e+006	-3.108802e+001	8.444902e+001	-3.066469e+001	-1.779135e+001	-9.704393e+001	3.406302e+001	-2.949211e+001	9.179400e+001
6.153516e+006	-3.108943e+001	8.446641e+001	-3.064577e+001	-1.776581e+001	-9.147286e+001	7.411221e+001	-2.950049e+001	9.178703e+001
6.153555e+006	-3.108496e+001	8.438167e+001	-3.066963e+001	-1.771996e+001	-9.327928e+001	-1.424559e+002	-2.950632e+001	9.181508e+001
6.153594e+006	-3.110410e+001	8.447387e+001	-3.066367e+001	-1.779233e+001	-8.978239e+001	6.991844e+001	-2.949828e+001	9.185601e+001
6.153633e+006	-3.109151e+001	8.437897e+001	-3.066106e+001	-1.773207e+001	-9.065920e+001	-8.168232e+001	-2.949980e+001	9.181174e+001
6.153672e+006	-3.108924e+001	8.448139e+001	-3.065439e+001	-1.771745e+001	-9.629033e+001	-1.271318e+002	-2.949341e+001	9.184351e+001
6.153711e+006	-3.109096e+001	8.443131e+001	-3.065866e+001	-1.777347e+001	-9.976690e+001	1.457163e+002	-2.949125e+001	9.181594e+001
6.153750e+006	-3.107960e+001	8.444199e+001	-3.065425e+001	-1.773579e+001	-8.804022e+001	9.686596e+001	-2.950010e+001	9.185862e+001
6.153789e+006	-3.108107e+001	8.445099e+001	-3.065630e+001	-1.774887e+001	-9.160924e+001	1.178474e+002	-2.949673e+001	9.180947e+001
6.153828e+006	-3.109635e+001	8.440442e+001	-3.066275e+001	-1.775319e+001	-9.514244e+001	1.340664e+002	-2.950784e+001	9.179709e+001
6.153867e+006	-3.109256e+001	8.454070e+001	-3.065151e+001	-1.779991e+001	-8.932348e+001	-5.497346e+001	-2.950261e+001	9.182361e+001
6.153906e+006	-3.108636e+001	8.445261e+001	-3.066119e+001	-1.774129e+001	-9.546683e+001	1.770663e+002	-2.949816e+001	9.178860e+001
6.153945e+006	-3.108833e+001	8.446228e+001	-3.065429e+001	-1.776592e+001	-9.690171e+001	-1.396427e+002	-2.949848e+001	9.180946e+001
6.153984e+006	-3.108894e+001	8.446519e+001	-3.065627e+001	-1.775312e+001	-9.225520e+001	4.253155e+001	-2.949898e+001	9.180849e+001
6.154023e+006	-3.108892e+001	8.445929e+001	-3.066272e+001	-1.773693e+001	-9.914642e+001	-1.780102e+002	-2.950435e+001	9.182180e+001
6.154063e+006	-3.109021e+001	8.445838e+001	-3.066040e+001	-1.777936e+001	-9.047613e+001	1.520921e+002	-2.950097e+001	9.183452e+001
6.154102e+006	-3.109066e+001	8.446459e+001	-3.066471e+001	-1.772557e+001	-9.258271e+001	1.316762e+002	-2.950327e+001	9.179117e+001
6.154141e+006	-3.109169e+001	8.444175e+001	-3.065808e+001	-1.777117e+001	-9.004711e+001	-2.373264e+001	-2.949623e+001	9.183319e+001
6.154180e+006	-3.108690e+001	8.447750e+001	-3.066586e+001	-1.773696e+001	-9.131585e+001	-1.731735e+002	-2.949318e+001	9.181236e+001
6.154219e+006	-3.109253e+001	8.447412e+001	-3.066738e+001	-1.773221e+001	-8.884351e+001	1.248568e+002	-2.950141e+001	9.178741e+001
6.154258e+006	-3.108966e+001	8.444712e+001	-3.066043e+001	-1.774975e+001	-9.043749e+001	9.443535e+001	-2.950451e+001	9.180373e+001
6.154297e+006	-3.108895e+001	8.446406e+001	-3.066390e+001	-1.777514e+001	-9.576387e+001	-1.916616e+001	-2.949937e+001	9.183594e+001
6.154336e+006	-3.108788e+001	8.446643e+001	-3.066123e+001	-1.778344e+001	-9.151955e+001	-2.408460e+001	-2.949623e+001	9.178889e+001
6.154375e+006	-3.109460e+001	8.438915e+001	-3.065947e+001	-1.777055e+001	-1.003463e+002	7.996681e+001	-2.949531e+001	9.186821e+001
6.154414e+006	-3.109219e+001	8.444301e+001	-3.066475e+001	-1.777681e+001	-9.656882e+001	6.518537e+001	-2.950234e+001	9.191561e+001
6.154453e+006	-3.109675e+001	8.445045e+001	-3.066006e+001	-1.775807e+001	-9.074445e+001	1.091118e+002	-2.949789e+001	9.182073e+001
6.154492e+006	-3.108241e+001	8.446906e+001	-3.065693e+001	-1.779956e+001	-9.607046e+001	1.744167e+002	-2.950555e+001	9.183299e+001
6.154531e+006	-3.109248e+001	8.442493e+001	-3.065881e+001	-1.777324e+001	-9.421300e+001	1.283710e+002	-2.950019e+001	9.184007e+001
6.154570e+006	-3.108745e+001	8.450281e+001	-3.066051e+001	-1.773164e+001	-9.882926e+001	9.961610e+001	-2.949923e+001	9.180378e+001
6.154609e+006	-3.109424e+001	8.446140e+001	-3.065548e+001	-1.781924e+001	-9.274631e+001	1.560653e+002	-2.950415e+001	9.188253e+001
6.154648e+006	-3.108666e+001	8.448011e+001	-3.066094e+001	-1.776688e+001	-9.929022e+001	-1.792360e+002	-2.949282e+001	9.179950e+001
6.154688e+006	-3.109718e+001	8.446154e+001	-3.065663e+001	-1.773061e+001	-9.183733e+001	1.797914e+002	-2.950096e+001	9.175696e+001
6.154727e+006	-3.108796e+001	8.445015e+001	-3.066746e+001	-1.774823e+001	-1.105047e+002	-9.200734e+001	-2.949440e+001	9.181957e+001
6.154766e+006	-3.109419e+001	8.454617e+001	-3.066487e+001	-1.775456e+001	-8.981666e+001	1.546689e+002	-2.950173e+001	9.181602e+001
6.154805e+006	-3.108997e+001	8.444106e+001	-3.066235e+001	-1.777821e+001	-8.864764e+001	1.752496e+002	-2.950224e+001	9.186789e+001
6.154844e+006	-3.108903e+001	8.449598e+001	-3.066186e+001	-1.779503e+001	-1.007303e+002	1.234736e+002	-2.950032e+001	9.187163e+001
6.154883e+006	-3.109321e+001	8.447191e+001	-3.066253e+001	-1.774265e+001	-9.038638e+001	1.635145e+002	-2.950429e+001	9.181517e+001
6.154922e+006	-3.109592e+001	8.446499e+001	-3.066073e+001	-1.776921e+001	-1.073388e+002	1.063195e+002	-2.949996e+001	9.183500e+001
6.154961e+006	-3.109507e+001	8.454055e+001	-3.066417e+001	-1.768852e+001	-9.333176e+001	6.155242e+001	-2.950659e+001	9.184972e+001
6.155000e+006	-3.109199e+001	8.449447e+001	-3.066457e+001	-1.777869e+001	-9.490704e+001	8.566280e+001	-2.949707e+001	9.179203e+001
6.155039e+006	-3.109045e+001	8.455049e+001	-3.065201e+001	-1.770507e+001	-8.965078e+001	4.114580e+001	-2.949890e+001	9.183579e+001
6.155078e+006	-3.109108e+001	8.444555e+001	-3.066120e+001	-1.772716e+001	-8.806435e+001	1.103778e+002	-2.949924e+001	9.184867e+001
6.155117e+006	-3.109066e+001	8.447651e+001	-3.065721e+001	-1.778017e+001	-9.848011e+001	-4.529932e+001	-2.950345e+001	9.186247e+001
6.155156e+006	-3.107875e+001	8.448930e+001	-3.067284e+001	-1.773650e+001	-9.554148e+001	4.362442e+001	-2.949323e+001	9.187750e+001
6.155195e+006	-3.108564e+001	8.445870e+001	-3.065990e+001	-1.779484e+001	-9.518134e+001	1.747674e+002	-2.949749e+001	9.181529e+001
6.155234e+006	-3.108819e+001	8.446265e+001	-3.064721e+001	-1.777851e+001	-9.716800e+001	-1.600013e+002	-2.950029e+001	9.184514e+001
6.155273e+006	-3.108881e+001	8.448852e+001	-3.065466e+001	-1.774493e+001	-9.200285e+001	1.171312e+002	-2.950222e+001	9.178323e+001
6.155313e+006	-3.108327e+001	8.452266e+001	-3.066191e+001	-1.779821e+001	-9.749928e+001	5.903316e+001	-2.949408e+001	9.178364e+001
6.155352e+006	-3.109334e+001	8.449001e+001	-3.065657e+001	-1.771548e+001	-9.561579e+001	9.745601e+001	-2.949858e+001	9.184343e+001
6.155391e+006	-3.109656e+001	8.450724e+001	-3.065351e+001	-1.775980e+001	-8.667858e+001	9.469524e+001	-2.949544e+001	9.180267e+001
6.155430e+006	-3.109079e+001	8.457279e+001	-3.064856e+001	-1.776293e+001	-1.053431e+002	-1.577723e+002	-2.949533e+001	9.184105e+001
6.155469e+006	-3.108531e+001	8.452542e+001	-3.066153e+001	-1.778214e+001	-9.448409e+001	1.311929e+002	-2.949481e+001	9.182080e+001
6.155508e+006	-3.109209e+001	8.450420e+001	-3.065422e+001	-1.781272e+001	-9.228454e+001	-1.067359e+002	-2.950296e+001	9.180320e+001
6.155547e+006	-3.108470e+001	8.447921e+001	-3.066184e+001	-1.779958e+001	-9.141758e+001	1.132942e+001	-2.949729e+001	9.188562e+001
6.155586e+006	-3.109413e+001	8.453765e+001	-3.066528e+001	-1.779054e+001	-9.244495e+001	1.301102e+002	-2.950519e+001	9.185319e+001
6.155625e+006	-3.109049e+001	8.448143e+001	-3.066357e+001	-1.779059e+001	-9.032243e+001	8.314386e+001	-2.950256e+001	9.184065e+001
6.155664e+006	-3.109932e+001	8.450477e+001	-3.065825e+001	-1.774426e+001	-9.642119e+001	1.214769e+002	-2.949969e+001	9.183635e+001
6.155703e+006	-3.109079e+001	8.452103e+001	-3.064374e+001	-1.775337e+001	-1.040713e+002	1.256935e+002	-2.949737e+001	9.182156e+001
6.155742e+006	-3.108811e+001	8.450120e+001	-3.067316e+001	-1.775778e+001	-1.031518e+002	-4.255869e+001	-2.949134e+001	9.189436e+001
6.155781e+006	-3.108344e+001	8.454500e+001	-3.066150e+001	-1.780504e+001	-9.289181e+001	2.325694e+001	-2.949468e+001	9.184959e+001
