!CETC41,AV3656A,ZGL00048,1.3.2
!Calibration ON (Full Solt 2-Port(Omit Isolation))
!Measurements: S11 S21 S12 S22
!2025-04-18 21:55
# Hz  S  dB  R 50.000
6.150000e+006	-3.099186e+001	8.457706e+001	-3.067555e+001	-1.616790e+001	-9.038201e+001	1.321890e+002	-2.956087e+001	8.936324e+001
6.150039e+006	-3.098724e+001	8.453109e+001	-3.067688e+001	-1.623440e+001	-8.909654e+001	1.034419e+002	-2.956908e+001	8.927338e+001
6.150078e+006	-3.098164e+001	8.453239e+001	-3.068648e+001	-1.618465e+001	-9.712610e+001	9.670698e+001	-2.957168e+001	8.935462e+001
6.150117e+006	-3.099043e+001	8.452056e+001	-3.068247e+001	-1.617516e+001	-9.479697e+001	-3.441432e+001	-2.957067e+001	8.940237e+001
6.150156e+006	-3.098452e+001	8.448928e+001	-3.068489e+001	-1.615336e+001	-9.418432e+001	6.668707e+001	-2.956974e+001	8.931186e+001
6.150195e+006	-3.098722e+001	8.451363e+001	-3.067939e+001	-1.622381e+001	-9.470172e+001	-3.660767e+001	-2.957793e+001	8.935976e+001
6.150234e+006	-3.098667e+001	8.455188e+001	-3.068624e+001	-1.615562e+001	-8.888146e+001	-4.358336e+001	-2.957480e+001	8.937277e+001
6.150273e+006	-3.098712e+001	8.448837e+001	-3.068625e+001	-1.620025e+001	-9.705634e+001	1.334002e+002	-2.956759e+001	8.932388e+001
6.150313e+006	-3.098076e+001	8.452492e+001	-3.068415e+001	-1.624529e+001	-9.595914e+001	1.377595e+002	-2.957580e+001	8.933536e+001
6.150352e+006	-3.098335e+001	8.457589e+001	-3.068564e+001	-1.620817e+001	-9.775898e+001	5.065025e+001	-2.957156e+001	8.934368e+001
6.150391e+006	-3.097888e+001	8.451395e+001	-3.067806e+001	-1.619589e+001	-9.974558e+001	-2.364742e+001	-2.957248e+001	8.937806e+001
6.150430e+006	-3.098453e+001	8.453836e+001	-3.067715e+001	-1.624774e+001	-9.952487e+001	-1.004526e+002	-2.957126e+001	8.934149e+001
6.150469e+006	-3.098077e+001	8.454285e+001	-3.068276e+001	-1.623889e+001	-8.817295e+001	-7.822504e-001	-2.956417e+001	8.936019e+001
6.150508e+006	-3.098979e+001	8.452256e+001	-3.069108e+001	-1.625758e+001	-9.263301e+001	3.453194e+001	-2.957399e+001	8.938716e+001
6.150547e+006	-3.098060e+001	8.457066e+001	-3.068369e+001	-1.625172e+001	-9.274688e+001	2.924663e+001	-2.956638e+001	8.930890e+001
6.150586e+006	-3.098615e+001	8.454076e+001	-3.068368e+001	-1.624362e+001	-9.458255e+001	2.624550e+001	-2.957338e+001	8.927631e+001
6.150625e+006	-3.098982e+001	8.454615e+001	-3.068343e+001	-1.621425e+001	-9.716412e+001	1.400839e+002	-2.957636e+001	8.937568e+001
6.150664e+006	-3.098725e+001	8.456606e+001	-3.067988e+001	-1.619842e+001	-9.122978e+001	-3.784452e+001	-2.958013e+001	8.935846e+001
6.150703e+006	-3.099039e+001	8.448444e+001	-3.068771e+001	-1.620377e+001	-9.601427e+001	3.228495e+001	-2.957486e+001	8.937986e+001
6.150742e+006	-3.098595e+001	8.450243e+001	-3.068727e+001	-1.618143e+001	-9.477328e+001	1.184546e+002	-2.957344e+001	8.939014e+001
6.150781e+006	-3.099686e+001	8.452910e+001	-3.068312e+001	-1.620044e+001	-9.201494e+001	1.091463e+002	-2.956732e+001	8.936780e+001
6.150820e+006	-3.098801e+001	8.450800e+001	-3.068285e+001	-1.627495e+001	-9.450035e+001	1.169520e+002	-2.957059e+001	8.935869e+001
6.150859e+006	-3.098785e+001	8.457466e+001	-3.069195e+001	-1.624265e+001	-9.489982e+001	1.145204e+002	-2.957482e+001	8.937555e+001
6.150898e+006	-3.098271e+001	8.454448e+001	-3.067433e+001	-1.622282e+001	-9.173399e+001	1.048303e+002	-2.957574e+001	8.939010e+001
6.150938e+006	-3.098694e+001	8.452572e+001	-3.069083e+001	-1.619906e+001	-9.129963e+001	8.498814e+001	-2.956432e+001	8.936908e+001
6.150977e+006	-3.098799e+001	8.461011e+001	-3.068537e+001	-1.618653e+001	-9.701424e+001	3.336048e+001	-2.957278e+001	8.940580e+001
6.151016e+006	-3.099034e+001	8.459676e+001	-3.069004e+001	-1.623811e+001	-9.314814e+001	3.262770e+001	-2.957052e+001	8.933094e+001
6.151055e+006	-3.099642e+001	8.454332e+001	-3.068224e+001	-1.613757e+001	-9.458374e+001	9.103909e+001	-2.956638e+001	8.938165e+001
6.151094e+006	-3.098973e+001	8.452993e+001	-3.068410e+001	-1.625942e+001	-9.735048e+001	4.613544e+001	-2.957124e+001	8.940026e+001
6.151133e+006	-3.099014e+001	8.455074e+001	-3.067094e+001	-1.616414e+001	-9.069960e+001	7.592347e+001	-2.957218e+001	8.935426e+001
6.151172e+006	-3.097269e+001	8.457353e+001	-3.069203e+001	-1.613004e+001	-9.775469e+001	-4.879069e+001	-2.957059e+001	8.934132e+001
6.151211e+006	-3.097791e+001	8.450965e+001	-3.068914e+001	-1.620690e+001	-9.628868e+001	-1.590230e+002	-2.956759e+001	8.940206e+001
6.151250e+006	-3.098776e+001	8.455593e+001	-3.068694e+001	-1.619558e+001	-9.010268e+001	-1.529978e+001	-2.956689e+001	8.944200e+001
6.151289e+006	-3.098364e+001	8.454541e+001	-3.068132e+001	-1.621524e+001	-9.242089e+001	6.372031e+001	-2.957640e+001	8.943778e+001
6.151328e+006	-3.097706e+001	8.456549e+001	-3.067701e+001	-1.618458e+001	-8.628639e+001	2.474021e+001	-2.957026e+001	8.938012e+001
6.151367e+006	-3.098865e+001	8.453225e+001	-3.068140e+001	-1.613802e+001	-9.489371e+001	3.780203e+001	-2.956779e+001	8.938879e+001
6.151406e+006	-3.097960e+001	8.455247e+001	-3.068299e+001	-1.621063e+001	-8.911960e+001	5.874529e+001	-2.956948e+001	8.939004e+001
6.151445e+006	-3.098384e+001	8.455686e+001	-3.067963e+001	-1.621740e+001	-8.783877e+001	2.413397e+001	-2.957412e+001	8.941797e+001
6.151484e+006	-3.097608e+001	8.449986e+001	-3.068114e+001	-1.620861e+001	-9.077363e+001	1.269596e+002	-2.957521e+001	8.937097e+001
6.151523e+006	-3.098584e+001	8.454793e+001	-3.069096e+001	-1.620274e+001	-9.209923e+001	6.523091e+001	-2.956659e+001	8.937501e+001
6.151563e+006	-3.099750e+001	8.453710e+001	-3.068842e+001	-1.623055e+001	-9.415438e+001	-1.110249e+002	-2.956799e+001	8.937311e+001
6.151602e+006	-3.097631e+001	8.458414e+001	-3.068164e+001	-1.620455e+001	-9.089006e+001	-1.644988e+002	-2.957174e+001	8.940846e+001
6.151641e+006	-3.098222e+001	8.454090e+001	-3.067483e+001	-1.619725e+001	-8.972881e+001	6.283547e+000	-2.956722e+001	8.938634e+001
6.151680e+006	-3.098706e+001	8.449373e+001	-3.068535e+001	-1.621176e+001	-9.907974e+001	2.440432e+001	-2.957308e+001	8.932936e+001
6.151719e+006	-3.099227e+001	8.454916e+001	-3.068288e+001	-1.626665e+001	-1.204572e+002	1.628307e+002	-2.956939e+001	8.937603e+001
6.151758e+006	-3.099773e+001	8.455040e+001	-3.068720e+001	-1.623267e+001	-8.969017e+001	3.996385e+001	-2.956837e+001	8.945721e+001
6.151797e+006	-3.098474e+001	8.454664e+001	-3.068165e+001	-1.618212e+001	-8.929223e+001	1.056883e+002	-2.956740e+001	8.938357e+001
6.151836e+006	-3.098681e+001	8.462719e+001	-3.067752e+001	-1.622581e+001	-9.490125e+001	7.978423e+001	-2.956832e+001	8.938398e+001
6.151875e+006	-3.098774e+001	8.460642e+001	-3.067884e+001	-1.619028e+001	-9.278340e+001	1.680029e+002	-2.956795e+001	8.935435e+001
6.151914e+006	-3.098279e+001	8.461250e+001	-3.068406e+001	-1.613948e+001	-9.156878e+001	3.231466e+001	-2.956977e+001	8.941499e+001
6.151953e+006	-3.098624e+001	8.456068e+001	-3.068397e+001	-1.621523e+001	-9.159842e+001	7.183571e+001	-2.957516e+001	8.940914e+001
6.151992e+006	-3.098896e+001	8.458954e+001	-3.068294e+001	-1.614282e+001	-9.835829e+001	1.009707e+002	-2.957328e+001	8.942675e+001
6.152031e+006	-3.099407e+001	8.461077e+001	-3.068026e+001	-1.617166e+001	-9.251438e+001	-7.403132e+001	-2.957051e+001	8.935007e+001
6.152070e+006	-3.098455e+001	8.460234e+001	-3.068420e+001	-1.615081e+001	-8.890808e+001	6.642913e+001	-2.957326e+001	8.942275e+001
6.152109e+006	-3.096978e+001	8.461097e+001	-3.067629e+001	-1.622321e+001	-9.140605e+001	1.790293e+002	-2.957367e+001	8.936400e+001
6.152148e+006	-3.098574e+001	8.455451e+001	-3.067772e+001	-1.618691e+001	-8.834776e+001	-1.449717e+002	-2.957528e+001	8.935486e+001
6.152188e+006	-3.098703e+001	8.458136e+001	-3.068458e+001	-1.621393e+001	-1.006474e+002	-3.147571e+001	-2.957402e+001	8.943687e+001
6.152227e+006	-3.098340e+001	8.453003e+001	-3.068740e+001	-1.611684e+001	-8.738505e+001	6.537604e+001	-2.956775e+001	8.940426e+001
6.152266e+006	-3.100687e+001	8.460300e+001	-3.067188e+001	-1.619097e+001	-9.092906e+001	1.213912e+002	-2.957261e+001	8.937247e+001
6.152305e+006	-3.098287e+001	8.459300e+001	-3.067514e+001	-1.620443e+001	-9.705191e+001	1.252835e+002	-2.957021e+001	8.938253e+001
6.152344e+006	-3.098387e+001	8.461156e+001	-3.068077e+001	-1.623334e+001	-1.049270e+002	-1.401769e+002	-2.956685e+001	8.937960e+001
6.152383e+006	-3.098767e+001	8.461296e+001	-3.068368e+001	-1.628428e+001	-9.037196e+001	5.206460e+001	-2.956181e+001	8.946107e+001
6.152422e+006	-3.097934e+001	8.456487e+001	-3.068020e+001	-1.621734e+001	-1.080134e+002	1.560792e+002	-2.957138e+001	8.941237e+001
6.152461e+006	-3.099088e+001	8.459559e+001	-3.068431e+001	-1.615163e+001	-8.838225e+001	1.790829e+002	-2.956483e+001	8.935198e+001
6.152500e+006	-3.098292e+001	8.457905e+001	-3.068076e+001	-1.619030e+001	-9.236242e+001	9.515828e+001	-2.956852e+001	8.941995e+001
6.152539e+006	-3.098854e+001	8.456385e+001	-3.068291e+001	-1.617398e+001	-9.359423e+001	8.860239e+001	-2.956797e+001	8.944712e+001
6.152578e+006	-3.098581e+001	8.462226e+001	-3.068146e+001	-1.622719e+001	-8.713959e+001	-1.365387e+002	-2.956799e+001	8.940605e+001
6.152617e+006	-3.098608e+001	8.461351e+001	-3.068405e+001	-1.617396e+001	-9.827136e+001	8.919340e+001	-2.957076e+001	8.940445e+001
6.152656e+006	-3.098423e+001	8.463496e+001	-3.068433e+001	-1.613671e+001	-8.386876e+001	6.214138e+001	-2.957486e+001	8.937963e+001
6.152695e+006	-3.098911e+001	8.454288e+001	-3.068104e+001	-1.620966e+001	-9.368946e+001	-1.131640e+002	-2.956834e+001	8.941632e+001
6.152734e+006	-3.098994e+001	8.471292e+001	-3.068633e+001	-1.616477e+001	-9.943821e+001	-1.590056e+002	-2.956683e+001	8.938353e+001
6.152773e+006	-3.099174e+001	8.454985e+001	-3.068241e+001	-1.621318e+001	-1.044228e+002	1.731581e+002	-2.957497e+001	8.940724e+001
6.152813e+006	-3.098600e+001	8.455108e+001	-3.068440e+001	-1.621625e+001	-9.592918e+001	5.954500e+001	-2.957593e+001	8.940837e+001
6.152852e+006	-3.099355e+001	8.461369e+001	-3.067979e+001	-1.618729e+001	-9.318811e+001	1.243793e+002	-2.957028e+001	8.943111e+001
6.152891e+006	-3.098251e+001	8.462780e+001	-3.068154e+001	-1.625271e+001	-9.471465e+001	9.053436e+001	-2.957377e+001	8.939954e+001
6.152930e+006	-3.098941e+001	8.465388e+001	-3.068389e+001	-1.614895e+001	-9.394216e+001	-1.708949e+001	-2.957263e+001	8.939233e+001
6.152969e+006	-3.097495e+001	8.458487e+001	-3.067248e+001	-1.620428e+001	-9.392861e+001	1.573735e+002	-2.956616e+001	8.941948e+001
6.153008e+006	-3.098861e+001	8.463611e+001	-3.068335e+001	-1.616783e+001	-1.136453e+002	-1.044388e+002	-2.957001e+001	8.942452e+001
6.153047e+006	-3.097495e+001	8.466116e+001	-3.068407e+001	-1.618776e+001	-9.735470e+001	1.639315e+002	-2.957341e+001	8.942990e+001
6.153086e+006	-3.098482e+001	8.453502e+001	-3.068209e+001	-1.616994e+001	-9.582913e+001	9.821048e+001	-2.956898e+001	8.944219e+001
6.153125e+006	-3.098692e+001	8.460904e+001	-3.068329e+001	-1.621050e+001	-9.267352e+001	8.547630e+001	-2.957766e+001	8.942556e+001
6.153164e+006	-3.098775e+001	8.460074e+001	-3.067751e+001	-1.622106e+001	-9.718964e+001	-1.249691e+002	-2.957690e+001	8.943093e+001
6.153203e+006	-3.098433e+001	8.459302e+001	-3.068468e+001	-1.617104e+001	-9.595952e+001	1.164411e+002	-2.956918e+001	8.939005e+001
6.153242e+006	-3.098889e+001	8.457501e+001	-3.067775e+001	-1.623390e+001	-1.029579e+002	1.757030e+002	-2.957669e+001	8.941287e+001
6.153281e+006	-3.098839e+001	8.455660e+001	-3.067452e+001	-1.618165e+001	-8.972208e+001	1.383730e+002	-2.956541e+001	8.945249e+001
6.153320e+006	-3.099334e+001	8.459116e+001	-3.068017e+001	-1.622098e+001	-9.106964e+001	1.467762e+002	-2.957399e+001	8.944723e+001
6.153359e+006	-3.098349e+001	8.459965e+001	-3.067542e+001	-1.620371e+001	-1.019706e+002	8.560635e+001	-2.956416e+001	8.942012e+001
6.153398e+006	-3.098491e+001	8.461630e+001	-3.067442e+001	-1.614927e+001	-9.779189e+001	1.626904e+002	-2.956666e+001	8.940643e+001
6.153438e+006	-3.098861e+001	8.456614e+001	-3.066861e+001	-1.618398e+001	-8.805585e+001	1.340376e+002	-2.956806e+001	8.944790e+001
6.153477e+006	-3.099512e+001	8.457659e+001	-3.068487e+001	-1.624658e+001	-9.111971e+001	1.002522e+001	-2.957302e+001	8.938779e+001
6.153516e+006	-3.098931e+001	8.463392e+001	-3.068194e+001	-1.619870e+001	-9.573641e+001	-1.258387e+001	-2.956614e+001	8.937917e+001
6.153555e+006	-3.100016e+001	8.463190e+001	-3.068132e+001	-1.618265e+001	-9.345324e+001	-1.099997e+002	-2.956637e+001	8.939014e+001
6.153594e+006	-3.098577e+001	8.464869e+001	-3.067761e+001	-1.614166e+001	-1.063750e+002	-4.745153e+001	-2.957650e+001	8.942981e+001
6.153633e+006	-3.098796e+001	8.461651e+001	-3.067784e+001	-1.616910e+001	-9.822705e+001	1.424358e+002	-2.956827e+001	8.944079e+001
6.153672e+006	-3.098531e+001	8.458673e+001	-3.067460e+001	-1.620618e+001	-9.336794e+001	-6.853293e+001	-2.957539e+001	8.943332e+001
6.153711e+006	-3.098728e+001	8.459020e+001	-3.067776e+001	-1.613386e+001	-1.073869e+002	-1.590542e+002	-2.957874e+001	8.941579e+001
6.153750e+006	-3.099346e+001	8.460633e+001	-3.067936e+001	-1.617202e+001	-9.157520e+001	2.595763e+001	-2.957531e+001	8.941222e+001
6.153789e+006	-3.098791e+001	8.466697e+001	-3.067954e+001	-1.623250e+001	-9.869009e+001	-1.531701e+002	-2.957724e+001	8.940174e+001
6.153828e+006	-3.098186e+001	8.464430e+001	-3.068286e+001	-1.620930e+001	-9.955541e+001	-1.048214e+002	-2.956772e+001	8.944606e+001
6.153867e+006	-3.099704e+001	8.460991e+001	-3.067616e+001	-1.618758e+001	-8.810600e+001	2.359440e+001	-2.957085e+001	8.944349e+001
6.153906e+006	-3.099491e+001	8.467465e+001	-3.068331e+001	-1.624107e+001	-9.921729e+001	9.776437e+000	-2.958022e+001	8.943326e+001
6.153945e+006	-3.099028e+001	8.465901e+001	-3.066820e+001	-1.621622e+001	-9.565514e+001	6.564546e+001	-2.956654e+001	8.943243e+001
6.153984e+006	-3.098067e+001	8.459188e+001	-3.067496e+001	-1.622555e+001	-9.793702e+001	7.971976e+001	-2.956772e+001	8.946960e+001
6.154023e+006	-3.098618e+001	8.462565e+001	-3.068260e+001	-1.620871e+001	-9.825981e+001	2.061787e+001	-2.957114e+001	8.944611e+001
6.154063e+006	-3.098754e+001	8.458897e+001	-3.067854e+001	-1.623218e+001	-9.171757e+001	1.139229e+002	-2.957205e+001	8.944067e+001
6.154102e+006	-3.100167e+001	8.464489e+001	-3.068038e+001	-1.616825e+001	-9.656498e+001	3.989731e+001	-2.957848e+001	8.946762e+001
6.154141e+006	-3.098100e+001	8.462967e+001	-3.067041e+001	-1.615800e+001	-9.153548e+001	-1.482315e+002	-2.957831e+001	8.941959e+001
6.154180e+006	-3.098474e+001	8.461450e+001	-3.067908e+001	-1.618086e+001	-1.005489e+002	1.278955e+001	-2.956763e+001	8.943353e+001
6.154219e+006	-3.098285e+001	8.459627e+001	-3.067534e+001	-1.614997e+001	-8.634723e+001	8.957084e+001	-2.957230e+001	8.941359e+001
6.154258e+006	-3.098926e+001	8.463179e+001	-3.067322e+001	-1.621662e+001	-8.689796e+001	1.096242e+002	-2.957206e+001	8.944730e+001
6.154297e+006	-3.099762e+001	8.464564e+001	-3.068286e+001	-1.624819e+001	-9.382946e+001	8.985621e+001	-2.957147e+001	8.947993e+001
6.154336e+006	-3.098432e+001	8.459408e+001	-3.067777e+001	-1.623581e+001	-9.257893e+001	-1.019396e+002	-2.957266e+001	8.948470e+001
6.154375e+006	-3.099034e+001	8.459507e+001	-3.067276e+001	-1.620639e+001	-8.985926e+001	-7.512487e+001	-2.956956e+001	8.945535e+001
6.154414e+006	-3.099491e+001	8.467588e+001	-3.068206e+001	-1.619480e+001	-9.706311e+001	-6.389076e+001	-2.957781e+001	8.942465e+001
6.154453e+006	-3.098716e+001	8.462751e+001	-3.067617e+001	-1.617799e+001	-9.461658e+001	1.053101e+002	-2.957247e+001	8.945217e+001
6.154492e+006	-3.098680e+001	8.467928e+001	-3.068115e+001	-1.610502e+001	-9.874828e+001	-1.424468e+002	-2.958053e+001	8.940483e+001
6.154531e+006	-3.098645e+001	8.460447e+001	-3.068196e+001	-1.624410e+001	-9.481474e+001	-1.697068e+002	-2.957362e+001	8.948875e+001
6.154570e+006	-3.098448e+001	8.465120e+001	-3.067202e+001	-1.621456e+001	-9.722717e+001	5.237035e+001	-2.957848e+001	8.946629e+001
6.154609e+006	-3.098557e+001	8.467808e+001	-3.067023e+001	-1.616642e+001	-9.725656e+001	-1.681892e+001	-2.957380e+001	8.948687e+001
6.154648e+006	-3.099149e+001	8.459827e+001	-3.068685e+001	-1.615965e+001	-1.183245e+002	2.371264e+001	-2.957272e+001	8.947917e+001
6.154688e+006	-3.099217e+001	8.470024e+001	-3.068306e+001	-1.620875e+001	-9.028183e+001	1.261202e+002	-2.958167e+001	8.941884e+001
6.154727e+006	-3.098739e+001	8.466640e+001	-3.067586e+001	-1.619580e+001	-9.218684e+001	8.251579e+001	-2.956594e+001	8.944904e+001
6.154766e+006	-3.099333e+001	8.465873e+001	-3.068627e+001	-1.624473e+001	-9.818879e+001	1.356324e+002	-2.956691e+001	8.948622e+001
6.154805e+006	-3.099138e+001	8.465730e+001	-3.067792e+001	-1.621811e+001	-9.586321e+001	-8.752926e+001	-2.957451e+001	8.947148e+001
6.154844e+006	-3.098590e+001	8.471049e+001	-3.066930e+001	-1.619182e+001	-1.003813e+002	1.174191e+002	-2.957108e+001	8.944263e+001
6.154883e+006	-3.098590e+001	8.464772e+001	-3.069256e+001	-1.620502e+001	-9.230273e+001	4.001001e+001	-2.956841e+001	8.941329e+001
6.154922e+006	-3.099402e+001	8.467584e+001	-3.067715e+001	-1.623100e+001	-1.008907e+002	1.127398e+002	-2.956984e+001	8.947395e+001
6.154961e+006	-3.099305e+001	8.465577e+001	-3.067649e+001	-1.614429e+001	-9.826604e+001	-4.683364e+001	-2.956954e+001	8.951109e+001
6.155000e+006	-3.098575e+001	8.466883e+001	-3.068552e+001	-1.614698e+001	-9.858771e+001	4.098558e+001	-2.956985e+001	8.946219e+001
6.155039e+006	-3.098503e+001	8.463011e+001	-3.067664e+001	-1.621793e+001	-9.152808e+001	1.464875e+002	-2.956921e+001	8.945377e+001
6.155078e+006	-3.098277e+001	8.462925e+001	-3.068462e+001	-1.621160e+001	-8.961003e+001	9.998096e+001	-2.957463e+001	8.944437e+001
6.155117e+006	-3.098709e+001	8.469907e+001	-3.067836e+001	-1.619830e+001	-9.736717e+001	6.915541e+001	-2.957362e+001	8.942881e+001
6.155156e+006	-3.098747e+001	8.461970e+001	-3.067534e+001	-1.621655e+001	-9.158014e+001	1.344275e+002	-2.956830e+001	8.947632e+001
6.155195e+006	-3.098834e+001	8.462744e+001	-3.068438e+001	-1.613484e+001	-9.409826e+001	3.957481e+001	-2.957828e+001	8.949862e+001
6.155234e+006	-3.098857e+001	8.464137e+001	-3.067103e+001	-1.625628e+001	-9.126820e+001	-7.092848e+001	-2.956843e+001	8.945262e+001
6.155273e+006	-3.098831e+001	8.468948e+001	-3.067420e+001	-1.624240e+001	-9.853667e+001	6.414093e+001	-2.956854e+001	8.948595e+001
6.155313e+006	-3.098103e+001	8.461514e+001	-3.067478e+001	-1.615683e+001	-8.980373e+001	-6.969223e+001	-2.957129e+001	8.946532e+001
6.155352e+006	-3.098229e+001	8.465124e+001	-3.067492e+001	-1.622044e+001	-9.007868e+001	-1.146349e+002	-2.957560e+001	8.944179e+001
6.155391e+006	-3.099234e+001	8.466464e+001	-3.067329e+001	-1.627560e+001	-9.129087e+001	1.528945e+002	-2.957941e+001	8.947844e+001
6.155430e+006	-3.098315e+001	8.470565e+001	-3.067863e+001	-1.617436e+001	-9.453133e+001	1.360395e+002	-2.957086e+001	8.945609e+001
6.155469e+006	-3.099597e+001	8.473028e+001	-3.067775e+001	-1.619985e+001	-9.970588e+001	-8.205786e+000	-2.957458e+001	8.945773e+001
6.155508e+006	-3.098584e+001	8.469974e+001	-3.067009e+001	-1.618412e+001	-9.044379e+001	8.333949e+001	-2.956771e+001	8.948793e+001
6.155547e+006	-3.098516e+001	8.468732e+001	-3.067608e+001	-1.616953e+001	-8.886663e+001	-1.895579e+001	-2.957560e+001	8.952216e+001
6.155586e+006	-3.099252e+001	8.467178e+001	-3.068190e+001	-1.619431e+001	-9.171645e+001	-5.630528e+001	-2.957081e+001	8.950620e+001
6.155625e+006	-3.098966e+001	8.472928e+001	-3.067247e+001	-1.621506e+001	-8.658513e+001	5.042970e+001	-2.957633e+001	8.953401e+001
6.155664e+006	-3.099164e+001	8.466782e+001	-3.067242e+001	-1.621597e+001	-9.984642e+001	2.892405e+001	-2.957688e+001	8.952545e+001
6.155703e+006	-3.098869e+001	8.465477e+001	-3.067695e+001	-1.617682e+001	-1.064958e+002	9.538664e+001	-2.956838e+001	8.949825e+001
6.155742e+006	-3.098695e+001	8.466893e+001	-3.067495e+001	-1.618683e+001	-9.736292e+001	1.296996e+002	-2.957664e+001	8.942563e+001
6.155781e+006	-3.099363e+001	8.466951e+001	-3.067749e+001	-1.622216e+001	-9.244327e+001	1.150901e+002	-2.957203e+001	8.943497e+001
