!CETC41,AV3656A,ZGL00048,1.3.2
!Calibration ON (Full Solt 2-Port(Omit Isolation))
!Measurements: S11 S21 S12 S22
!2025-04-18 22:08
# Hz  S  dB  R 50.000
6.150000e+006	-3.100181e+001	8.443637e+001	-3.068715e+001	-1.630440e+001	-9.025018e+001	2.701033e+001	-2.956611e+001	8.994242e+001
6.150039e+006	-3.100606e+001	8.446439e+001	-3.067633e+001	-1.635153e+001	-9.116076e+001	1.665002e+002	-2.956613e+001	8.990605e+001
6.150078e+006	-3.100701e+001	8.446702e+001	-3.067963e+001	-1.638415e+001	-9.415440e+001	3.044454e+001	-2.957025e+001	8.991420e+001
6.150117e+006	-3.100918e+001	8.452928e+001	-3.067722e+001	-1.635624e+001	-8.410661e+001	9.360691e+001	-2.957100e+001	8.992869e+001
6.150156e+006	-3.101755e+001	8.458754e+001	-3.068530e+001	-1.637181e+001	-9.122994e+001	1.373773e+002	-2.957780e+001	8.990054e+001
6.150195e+006	-3.100726e+001	8.451945e+001	-3.067874e+001	-1.643599e+001	-9.136509e+001	1.019273e+002	-2.956108e+001	8.992401e+001
6.150234e+006	-3.099964e+001	8.451327e+001	-3.068367e+001	-1.629626e+001	-9.133287e+001	2.695211e+001	-2.956925e+001	8.992283e+001
6.150273e+006	-3.099761e+001	8.446237e+001	-3.067830e+001	-1.630713e+001	-1.048483e+002	6.437710e+001	-2.956824e+001	8.993309e+001
6.150313e+006	-3.100639e+001	8.449455e+001	-3.068433e+001	-1.640183e+001	-9.983128e+001	5.500952e+001	-2.957100e+001	8.994280e+001
6.150352e+006	-3.101334e+001	8.450333e+001	-3.067142e+001	-1.640322e+001	-9.988394e+001	1.481823e+002	-2.957748e+001	8.993807e+001
6.150391e+006	-3.100173e+001	8.448101e+001	-3.067640e+001	-1.638137e+001	-9.582330e+001	1.136947e+002	-2.956824e+001	8.995152e+001
6.150430e+006	-3.100213e+001	8.456864e+001	-3.067507e+001	-1.637824e+001	-1.003278e+002	-1.255571e+002	-2.956522e+001	8.991097e+001
6.150469e+006	-3.101012e+001	8.447983e+001	-3.067587e+001	-1.644703e+001	-1.043841e+002	6.285774e+001	-2.956404e+001	8.991901e+001
6.150508e+006	-3.100539e+001	8.448331e+001	-3.068017e+001	-1.635067e+001	-8.439788e+001	1.055689e+002	-2.956774e+001	8.996754e+001
6.150547e+006	-3.099498e+001	8.450119e+001	-3.068142e+001	-1.640397e+001	-8.844134e+001	1.029182e+002	-2.956972e+001	8.991692e+001
6.150586e+006	-3.100964e+001	8.457283e+001	-3.067769e+001	-1.635631e+001	-1.071212e+002	1.580369e+002	-2.956767e+001	8.996157e+001
6.150625e+006	-3.099678e+001	8.452033e+001	-3.068516e+001	-1.639964e+001	-9.933372e+001	8.404023e+001	-2.956371e+001	8.994145e+001
6.150664e+006	-3.100074e+001	8.454187e+001	-3.067547e+001	-1.629181e+001	-1.004564e+002	1.667448e+002	-2.957548e+001	8.998600e+001
6.150703e+006	-3.100050e+001	8.455880e+001	-3.067588e+001	-1.640327e+001	-8.701526e+001	7.311051e+001	-2.957350e+001	8.995038e+001
6.150742e+006	-3.100260e+001	8.452580e+001	-3.067561e+001	-1.636813e+001	-1.087745e+002	-8.212129e+001	-2.957163e+001	9.004485e+001
6.150781e+006	-3.100186e+001	8.453507e+001	-3.068226e+001	-1.633715e+001	-8.885323e+001	7.838312e+001	-2.957021e+001	8.991640e+001
6.150820e+006	-3.099765e+001	8.454578e+001	-3.068725e+001	-1.635795e+001	-9.352175e+001	5.818345e+001	-2.957373e+001	8.997043e+001
6.150859e+006	-3.100776e+001	8.449031e+001	-3.068059e+001	-1.634749e+001	-9.554507e+001	-1.453826e+002	-2.957066e+001	8.999092e+001
6.150898e+006	-3.100036e+001	8.451386e+001	-3.068150e+001	-1.638257e+001	-9.671499e+001	5.099828e+001	-2.956636e+001	8.992167e+001
6.150938e+006	-3.100369e+001	8.455309e+001	-3.066774e+001	-1.634814e+001	-8.834112e+001	1.241845e+002	-2.957533e+001	8.995663e+001
6.150977e+006	-3.100290e+001	8.456896e+001	-3.067801e+001	-1.632706e+001	-8.721732e+001	-5.580237e+001	-2.956606e+001	8.990600e+001
6.151016e+006	-3.100725e+001	8.452908e+001	-3.067639e+001	-1.637126e+001	-9.235907e+001	-1.681005e+002	-2.956685e+001	8.998607e+001
6.151055e+006	-3.100673e+001	8.443796e+001	-3.068170e+001	-1.638758e+001	-9.456119e+001	8.437793e+001	-2.956771e+001	8.995141e+001
6.151094e+006	-3.099324e+001	8.449882e+001	-3.067498e+001	-1.630012e+001	-8.815860e+001	5.321027e+001	-2.956998e+001	8.993992e+001
6.151133e+006	-3.100959e+001	8.453057e+001	-3.067633e+001	-1.637191e+001	-9.252558e+001	-1.496471e+002	-2.957314e+001	8.998083e+001
6.151172e+006	-3.100240e+001	8.456335e+001	-3.068000e+001	-1.639168e+001	-9.411888e+001	1.063553e+002	-2.956525e+001	8.992932e+001
6.151211e+006	-3.100273e+001	8.452376e+001	-3.066565e+001	-1.639604e+001	-9.129649e+001	1.035030e+002	-2.957507e+001	8.990653e+001
6.151250e+006	-3.100646e+001	8.446682e+001	-3.067535e+001	-1.636961e+001	-9.217792e+001	7.975139e+001	-2.957102e+001	8.989352e+001
6.151289e+006	-3.100280e+001	8.455837e+001	-3.067970e+001	-1.641589e+001	-9.452561e+001	6.047073e+001	-2.957271e+001	8.999331e+001
6.151328e+006	-3.100825e+001	8.456479e+001	-3.067377e+001	-1.627272e+001	-8.970384e+001	-1.252164e+001	-2.957201e+001	8.993442e+001
6.151367e+006	-3.101294e+001	8.452697e+001	-3.068558e+001	-1.635668e+001	-9.596828e+001	-5.677930e-001	-2.956582e+001	8.998458e+001
6.151406e+006	-3.101280e+001	8.452961e+001	-3.068599e+001	-1.637157e+001	-9.097191e+001	1.189640e+002	-2.956936e+001	8.992448e+001
6.151445e+006	-3.100503e+001	8.463387e+001	-3.066691e+001	-1.635918e+001	-9.792212e+001	-1.727932e+002	-2.957193e+001	8.995147e+001
6.151484e+006	-3.100623e+001	8.456209e+001	-3.066921e+001	-1.638596e+001	-1.025655e+002	-1.114756e+002	-2.957762e+001	8.996000e+001
6.151523e+006	-3.100631e+001	8.455327e+001	-3.068084e+001	-1.642112e+001	-9.214678e+001	-9.546673e+001	-2.957826e+001	8.997887e+001
6.151563e+006	-3.100668e+001	8.456320e+001	-3.067127e+001	-1.637905e+001	-9.041519e+001	8.318913e+001	-2.956409e+001	8.997581e+001
6.151602e+006	-3.100164e+001	8.449413e+001	-3.066992e+001	-1.642770e+001	-9.332554e+001	1.410773e+002	-2.958026e+001	8.997210e+001
6.151641e+006	-3.100561e+001	8.450994e+001	-3.067285e+001	-1.632482e+001	-9.744167e+001	-1.104177e+002	-2.956849e+001	8.996656e+001
6.151680e+006	-3.101511e+001	8.456664e+001	-3.066799e+001	-1.634803e+001	-9.460455e+001	1.391851e+002	-2.957026e+001	8.996439e+001
6.151719e+006	-3.099786e+001	8.455595e+001	-3.068054e+001	-1.635900e+001	-9.149930e+001	7.619051e+001	-2.956554e+001	8.995131e+001
6.151758e+006	-3.100373e+001	8.453238e+001	-3.067512e+001	-1.636672e+001	-9.201093e+001	-9.181187e+000	-2.956353e+001	8.994047e+001
6.151797e+006	-3.100264e+001	8.454555e+001	-3.067433e+001	-1.634131e+001	-9.640336e+001	1.442217e+001	-2.957053e+001	8.995658e+001
6.151836e+006	-3.099487e+001	8.456763e+001	-3.067340e+001	-1.639260e+001	-8.980441e+001	6.037694e+001	-2.956495e+001	8.997177e+001
6.151875e+006	-3.100958e+001	8.463423e+001	-3.068111e+001	-1.634422e+001	-9.554578e+001	7.641887e+001	-2.956712e+001	8.993607e+001
6.151914e+006	-3.099892e+001	8.452657e+001	-3.067945e+001	-1.631012e+001	-9.627320e+001	1.496078e+002	-2.958074e+001	9.002221e+001
6.151953e+006	-3.101492e+001	8.453394e+001	-3.066748e+001	-1.634925e+001	-9.246375e+001	7.242359e+001	-2.956896e+001	8.998642e+001
6.151992e+006	-3.100897e+001	8.454658e+001	-3.068019e+001	-1.639147e+001	-8.732061e+001	1.231003e+002	-2.957131e+001	9.000057e+001
6.152031e+006	-3.101145e+001	8.455893e+001	-3.067088e+001	-1.635470e+001	-9.726286e+001	4.875176e+001	-2.958043e+001	9.001487e+001
6.152070e+006	-3.101062e+001	8.453108e+001	-3.067373e+001	-1.635000e+001	-9.617382e+001	9.907855e+001	-2.957435e+001	9.000337e+001
6.152109e+006	-3.100080e+001	8.455835e+001	-3.067658e+001	-1.639248e+001	-9.135785e+001	1.372061e+001	-2.957050e+001	8.996092e+001
6.152148e+006	-3.100479e+001	8.454851e+001	-3.067293e+001	-1.633606e+001	-9.704910e+001	-1.111243e+001	-2.957102e+001	8.991533e+001
6.152188e+006	-3.100949e+001	8.456087e+001	-3.067867e+001	-1.639291e+001	-9.264934e+001	2.128512e+001	-2.957556e+001	9.000827e+001
6.152227e+006	-3.100776e+001	8.454797e+001	-3.068655e+001	-1.638561e+001	-9.569849e+001	4.839904e+001	-2.956905e+001	8.997866e+001
6.152266e+006	-3.100282e+001	8.457693e+001	-3.066912e+001	-1.632498e+001	-9.773263e+001	-1.408989e+002	-2.957692e+001	8.993979e+001
6.152305e+006	-3.100936e+001	8.455801e+001	-3.067531e+001	-1.634881e+001	-9.692916e+001	1.434075e+002	-2.957700e+001	8.993538e+001
6.152344e+006	-3.101008e+001	8.459680e+001	-3.067608e+001	-1.636598e+001	-9.582620e+001	-9.428898e+001	-2.957481e+001	8.999382e+001
6.152383e+006	-3.099989e+001	8.461865e+001	-3.067352e+001	-1.635042e+001	-9.837000e+001	4.415938e+001	-2.957135e+001	8.990186e+001
6.152422e+006	-3.100717e+001	8.450393e+001	-3.067777e+001	-1.640845e+001	-9.699351e+001	1.743601e+002	-2.956450e+001	8.994088e+001
6.152461e+006	-3.100284e+001	8.461871e+001	-3.067704e+001	-1.633170e+001	-1.000265e+002	2.315255e+001	-2.956746e+001	8.998916e+001
6.152500e+006	-3.100519e+001	8.457276e+001	-3.067702e+001	-1.638087e+001	-9.658461e+001	1.098542e+002	-2.956564e+001	8.996440e+001
6.152539e+006	-3.100600e+001	8.453223e+001	-3.067034e+001	-1.640374e+001	-1.152804e+002	-6.298093e+000	-2.957067e+001	8.998998e+001
6.152578e+006	-3.099507e+001	8.457130e+001	-3.067167e+001	-1.637763e+001	-8.800167e+001	1.386519e+002	-2.956498e+001	8.998814e+001
6.152617e+006	-3.100766e+001	8.455025e+001	-3.068580e+001	-1.643674e+001	-9.315352e+001	-1.384879e+002	-2.956867e+001	9.001853e+001
6.152656e+006	-3.100520e+001	8.451849e+001	-3.067201e+001	-1.634781e+001	-1.023822e+002	-8.917507e+001	-2.957556e+001	9.001246e+001
6.152695e+006	-3.100303e+001	8.451548e+001	-3.068015e+001	-1.635978e+001	-9.294416e+001	-5.067079e+001	-2.956313e+001	8.998720e+001
6.152734e+006	-3.100902e+001	8.459804e+001	-3.067350e+001	-1.632600e+001	-1.004408e+002	6.293474e+001	-2.957126e+001	8.997852e+001
6.152773e+006	-3.100522e+001	8.459446e+001	-3.066953e+001	-1.638847e+001	-9.225300e+001	5.115551e+001	-2.957430e+001	9.002709e+001
6.152813e+006	-3.100703e+001	8.456668e+001	-3.067628e+001	-1.636772e+001	-9.944859e+001	9.198892e+001	-2.956374e+001	9.002045e+001
6.152852e+006	-3.100664e+001	8.460861e+001	-3.067174e+001	-1.636863e+001	-9.728221e+001	1.590024e+002	-2.957571e+001	8.995089e+001
6.152891e+006	-3.100582e+001	8.453040e+001	-3.067705e+001	-1.637048e+001	-9.014425e+001	8.195386e+001	-2.956858e+001	8.998167e+001
6.152930e+006	-3.101229e+001	8.463971e+001	-3.067853e+001	-1.632785e+001	-8.910050e+001	-1.520552e+002	-2.957670e+001	9.005087e+001
6.152969e+006	-3.100583e+001	8.460725e+001	-3.066865e+001	-1.638561e+001	-9.751396e+001	-1.292341e+002	-2.957473e+001	9.000927e+001
6.153008e+006	-3.100809e+001	8.461847e+001	-3.067021e+001	-1.635363e+001	-9.253554e+001	7.037593e+001	-2.956490e+001	8.998677e+001
6.153047e+006	-3.100175e+001	8.460240e+001	-3.067681e+001	-1.626975e+001	-8.780397e+001	-1.516632e+002	-2.956314e+001	9.002645e+001
6.153086e+006	-3.100238e+001	8.454348e+001	-3.067184e+001	-1.644194e+001	-9.268319e+001	2.454316e+000	-2.957860e+001	9.000172e+001
6.153125e+006	-3.101847e+001	8.456039e+001	-3.066766e+001	-1.636360e+001	-9.953139e+001	1.421175e+002	-2.957195e+001	9.001623e+001
6.153164e+006	-3.099283e+001	8.461691e+001	-3.067702e+001	-1.640260e+001	-9.801721e+001	1.146841e+002	-2.957420e+001	8.998707e+001
6.153203e+006	-3.101509e+001	8.460786e+001	-3.067072e+001	-1.636818e+001	-9.440235e+001	2.255557e+001	-2.957657e+001	8.998620e+001
6.153242e+006	-3.101559e+001	8.463825e+001	-3.067179e+001	-1.639522e+001	-9.352106e+001	-1.239522e+002	-2.956875e+001	9.000457e+001
6.153281e+006	-3.100982e+001	8.460142e+001	-3.067765e+001	-1.635427e+001	-9.291101e+001	1.236443e+002	-2.957899e+001	8.995523e+001
6.153320e+006	-3.100238e+001	8.457507e+001	-3.066529e+001	-1.632547e+001	-9.872996e+001	-1.698991e+002	-2.956165e+001	9.003418e+001
6.153359e+006	-3.099606e+001	8.456672e+001	-3.067051e+001	-1.635293e+001	-9.548939e+001	-6.666902e+001	-2.957887e+001	9.001801e+001
6.153398e+006	-3.101395e+001	8.461506e+001	-3.067184e+001	-1.637417e+001	-9.061218e+001	1.009272e+002	-2.956569e+001	8.997827e+001
6.153438e+006	-3.100794e+001	8.460687e+001	-3.067308e+001	-1.634366e+001	-9.958915e+001	1.701722e+002	-2.956563e+001	9.000060e+001
6.153477e+006	-3.100342e+001	8.462836e+001	-3.067607e+001	-1.638244e+001	-9.473468e+001	-7.089798e+001	-2.956591e+001	9.001799e+001
6.153516e+006	-3.100619e+001	8.457012e+001	-3.066874e+001	-1.635378e+001	-9.068867e+001	8.802999e+001	-2.955955e+001	9.001471e+001
6.153555e+006	-3.101529e+001	8.459646e+001	-3.068271e+001	-1.637974e+001	-9.252749e+001	1.079446e+002	-2.956874e+001	8.997894e+001
6.153594e+006	-3.100173e+001	8.458462e+001	-3.066972e+001	-1.632476e+001	-1.001083e+002	3.218365e+001	-2.957711e+001	8.999620e+001
6.153633e+006	-3.101653e+001	8.458953e+001	-3.067195e+001	-1.638837e+001	-9.885012e+001	6.003045e+001	-2.956793e+001	8.998143e+001
6.153672e+006	-3.101746e+001	8.450917e+001	-3.067402e+001	-1.637269e+001	-9.461274e+001	-3.395756e+001	-2.956631e+001	8.999725e+001
6.153711e+006	-3.100338e+001	8.456551e+001	-3.067587e+001	-1.642521e+001	-1.011858e+002	9.665972e+001	-2.958115e+001	9.000618e+001
6.153750e+006	-3.100575e+001	8.455771e+001	-3.067226e+001	-1.633256e+001	-1.015334e+002	1.230539e+002	-2.957873e+001	8.994517e+001
6.153789e+006	-3.101281e+001	8.462860e+001	-3.068012e+001	-1.638027e+001	-9.695406e+001	-1.413577e+002	-2.957592e+001	8.998882e+001
6.153828e+006	-3.100564e+001	8.460318e+001	-3.067232e+001	-1.630074e+001	-8.911674e+001	1.327586e+002	-2.957574e+001	9.002289e+001
6.153867e+006	-3.100823e+001	8.456434e+001	-3.066792e+001	-1.632766e+001	-9.472500e+001	7.331273e+001	-2.957328e+001	9.001328e+001
6.153906e+006	-3.101461e+001	8.457863e+001	-3.067428e+001	-1.637763e+001	-9.120858e+001	-1.333427e+002	-2.956328e+001	9.001463e+001
6.153945e+006	-3.101211e+001	8.462423e+001	-3.067188e+001	-1.640127e+001	-9.239617e+001	5.267110e+001	-2.958630e+001	9.001073e+001
6.153984e+006	-3.101734e+001	8.462052e+001	-3.067192e+001	-1.637014e+001	-9.297156e+001	5.249923e+001	-2.957054e+001	9.001875e+001
6.154023e+006	-3.100622e+001	8.457707e+001	-3.068550e+001	-1.640469e+001	-8.964074e+001	4.505881e+001	-2.957305e+001	9.001388e+001
6.154063e+006	-3.101371e+001	8.458618e+001	-3.067184e+001	-1.639447e+001	-9.995625e+001	9.625698e+001	-2.956535e+001	8.997671e+001
6.154102e+006	-3.100723e+001	8.461442e+001	-3.067972e+001	-1.635723e+001	-9.030928e+001	-2.118745e+001	-2.957333e+001	9.005747e+001
6.154141e+006	-3.100521e+001	8.460021e+001	-3.067614e+001	-1.638975e+001	-9.028432e+001	9.388094e+001	-2.956518e+001	9.007471e+001
6.154180e+006	-3.100133e+001	8.461612e+001	-3.067975e+001	-1.635845e+001	-8.757045e+001	-1.630231e+001	-2.957152e+001	9.008948e+001
6.154219e+006	-3.101114e+001	8.464656e+001	-3.067039e+001	-1.632145e+001	-1.003084e+002	8.616036e+000	-2.956425e+001	9.003038e+001
6.154258e+006	-3.101241e+001	8.468807e+001	-3.067012e+001	-1.632462e+001	-9.302711e+001	6.423726e+001	-2.956001e+001	8.999418e+001
6.154297e+006	-3.100833e+001	8.456698e+001	-3.066226e+001	-1.644025e+001	-9.016099e+001	1.254147e+002	-2.957922e+001	9.004416e+001
6.154336e+006	-3.101295e+001	8.458273e+001	-3.068058e+001	-1.634567e+001	-9.714082e+001	-1.745448e+002	-2.956653e+001	9.001046e+001
6.154375e+006	-3.100634e+001	8.455917e+001	-3.067450e+001	-1.635323e+001	-9.784383e+001	1.674601e+002	-2.956963e+001	9.001866e+001
6.154414e+006	-3.100407e+001	8.462897e+001	-3.067565e+001	-1.634911e+001	-9.167201e+001	1.295715e+002	-2.957234e+001	9.006748e+001
6.154453e+006	-3.100825e+001	8.461090e+001	-3.066643e+001	-1.634251e+001	-8.743092e+001	2.658811e+001	-2.956994e+001	8.997463e+001
6.154492e+006	-3.101148e+001	8.465799e+001	-3.067460e+001	-1.639617e+001	-9.047888e+001	7.063399e+001	-2.956614e+001	8.996390e+001
6.154531e+006	-3.100423e+001	8.457591e+001	-3.067036e+001	-1.640845e+001	-9.414847e+001	1.682947e+002	-2.956841e+001	9.006235e+001
6.154570e+006	-3.101075e+001	8.461281e+001	-3.068685e+001	-1.636304e+001	-1.001675e+002	2.982301e+001	-2.956654e+001	8.997675e+001
6.154609e+006	-3.100837e+001	8.461260e+001	-3.067976e+001	-1.631498e+001	-8.983044e+001	1.553998e+002	-2.956519e+001	9.002620e+001
6.154648e+006	-3.100746e+001	8.460138e+001	-3.067591e+001	-1.630948e+001	-9.531190e+001	-3.466475e+001	-2.957291e+001	9.003723e+001
6.154688e+006	-3.100616e+001	8.455070e+001	-3.066913e+001	-1.631079e+001	-8.818707e+001	1.209249e+002	-2.956622e+001	9.004086e+001
6.154727e+006	-3.100651e+001	8.461973e+001	-3.066533e+001	-1.635084e+001	-9.082377e+001	-3.069713e+000	-2.957396e+001	9.002901e+001
6.154766e+006	-3.101516e+001	8.457638e+001	-3.067759e+001	-1.634887e+001	-9.626763e+001	3.627351e+001	-2.958101e+001	9.001252e+001
6.154805e+006	-3.100695e+001	8.465053e+001	-3.067064e+001	-1.642473e+001	-1.012623e+002	3.498543e+001	-2.956969e+001	9.001397e+001
6.154844e+006	-3.101251e+001	8.462687e+001	-3.067689e+001	-1.638005e+001	-9.374168e+001	-1.833573e+001	-2.956657e+001	9.003087e+001
6.154883e+006	-3.100464e+001	8.459350e+001	-3.067473e+001	-1.630462e+001	-9.413852e+001	1.311450e+002	-2.957198e+001	9.005168e+001
6.154922e+006	-3.101624e+001	8.458252e+001	-3.067241e+001	-1.635999e+001	-9.581314e+001	8.631360e+000	-2.956777e+001	9.001229e+001
6.154961e+006	-3.101139e+001	8.462109e+001	-3.067518e+001	-1.638437e+001	-9.666970e+001	1.048538e+002	-2.956429e+001	9.005449e+001
6.155000e+006	-3.100569e+001	8.466089e+001	-3.066297e+001	-1.638717e+001	-1.039737e+002	-1.578405e+002	-2.957057e+001	9.003120e+001
6.155039e+006	-3.101033e+001	8.466098e+001	-3.067070e+001	-1.639661e+001	-9.914252e+001	-3.124206e+001	-2.957450e+001	9.002822e+001
6.155078e+006	-3.100443e+001	8.463827e+001	-3.067359e+001	-1.637043e+001	-9.615567e+001	1.135291e+002	-2.956286e+001	9.001990e+001
6.155117e+006	-3.100780e+001	8.468165e+001	-3.067421e+001	-1.635441e+001	-9.906320e+001	1.285700e+002	-2.957833e+001	9.010623e+001
6.155156e+006	-3.100254e+001	8.463263e+001	-3.067548e+001	-1.640888e+001	-1.175528e+002	-2.790884e+001	-2.957646e+001	9.003421e+001
6.155195e+006	-3.100985e+001	8.462907e+001	-3.066821e+001	-1.644866e+001	-9.259182e+001	1.066132e+002	-2.956388e+001	9.002274e+001
6.155234e+006	-3.100964e+001	8.470383e+001	-3.067527e+001	-1.642289e+001	-9.284341e+001	-9.243546e+001	-2.956671e+001	9.005179e+001
6.155273e+006	-3.101048e+001	8.462779e+001	-3.067292e+001	-1.640813e+001	-8.576622e+001	-1.553008e+002	-2.958225e+001	9.001519e+001
6.155313e+006	-3.100868e+001	8.464045e+001	-3.067278e+001	-1.633734e+001	-9.721587e+001	-1.501451e+002	-2.957948e+001	9.002224e+001
6.155352e+006	-3.100994e+001	8.467746e+001	-3.067033e+001	-1.641644e+001	-9.205755e+001	1.287021e+002	-2.956783e+001	9.006614e+001
6.155391e+006	-3.100816e+001	8.464337e+001	-3.066790e+001	-1.638435e+001	-9.418939e+001	1.158129e+002	-2.957433e+001	9.005961e+001
6.155430e+006	-3.100723e+001	8.464343e+001	-3.066943e+001	-1.641328e+001	-9.068770e+001	6.201173e+001	-2.957350e+001	8.998144e+001
6.155469e+006	-3.100074e+001	8.460576e+001	-3.066322e+001	-1.639959e+001	-1.013066e+002	1.674283e+002	-2.956657e+001	9.000219e+001
6.155508e+006	-3.100740e+001	8.463296e+001	-3.066986e+001	-1.636927e+001	-9.317170e+001	-1.253025e+001	-2.958069e+001	9.005956e+001
6.155547e+006	-3.101506e+001	8.459084e+001	-3.066756e+001	-1.633998e+001	-1.004848e+002	1.150709e+002	-2.957259e+001	9.003438e+001
6.155586e+006	-3.101023e+001	8.464139e+001	-3.067401e+001	-1.637111e+001	-1.001459e+002	-1.458222e+001	-2.956932e+001	9.002567e+001
6.155625e+006	-3.101177e+001	8.464400e+001	-3.067587e+001	-1.636034e+001	-8.675102e+001	6.879073e+001	-2.956204e+001	9.002087e+001
6.155664e+006	-3.101453e+001	8.464415e+001	-3.066443e+001	-1.639138e+001	-9.968400e+001	-3.698008e+001	-2.957107e+001	9.007073e+001
6.155703e+006	-3.101418e+001	8.464532e+001	-3.067339e+001	-1.638448e+001	-9.391717e+001	8.924829e+001	-2.957057e+001	9.003633e+001
6.155742e+006	-3.101306e+001	8.464229e+001	-3.066892e+001	-1.639112e+001	-9.596603e+001	1.195049e+002	-2.957352e+001	9.000177e+001
6.155781e+006	-3.100625e+001	8.465690e+001	-3.067844e+001	-1.637699e+001	-9.325480e+001	-1.784010e+001	-2.957134e+001	9.001062e+001
