!CETC41,AV3656A,ZGL00048,1.3.2
!Calibration ON (Full Solt 2-Port(Omit Isolation))
!Measurements: S11 S21 S12 S22
!2025-04-18 22:20
# Hz  S  dB  R 50.000
6.150000e+006	-3.104658e+001	8.459853e+001	-3.066786e+001	-1.655462e+001	-9.247199e+001	5.662142e+001	-2.959093e+001	9.029867e+001
6.150039e+006	-3.103981e+001	8.464574e+001	-3.067935e+001	-1.653517e+001	-9.101634e+001	-3.849682e+001	-2.959599e+001	9.026491e+001
6.150078e+006	-3.103139e+001	8.456896e+001	-3.067231e+001	-1.653202e+001	-1.099252e+002	-8.907002e+001	-2.959126e+001	9.029658e+001
6.150117e+006	-3.104209e+001	8.464127e+001	-3.067715e+001	-1.652272e+001	-9.040452e+001	3.374082e+001	-2.959416e+001	9.026073e+001
6.150156e+006	-3.103981e+001	8.464528e+001	-3.066830e+001	-1.653702e+001	-9.318876e+001	-1.790023e+001	-2.958951e+001	9.033073e+001
6.150195e+006	-3.104502e+001	8.458667e+001	-3.067004e+001	-1.654140e+001	-9.418210e+001	1.573146e+002	-2.959469e+001	9.029625e+001
6.150234e+006	-3.104761e+001	8.459234e+001	-3.067689e+001	-1.656235e+001	-8.782245e+001	-3.188917e+001	-2.959183e+001	9.029325e+001
6.150273e+006	-3.104284e+001	8.460883e+001	-3.067633e+001	-1.655741e+001	-1.027800e+002	1.110684e+002	-2.959281e+001	9.031421e+001
6.150313e+006	-3.103663e+001	8.459878e+001	-3.067155e+001	-1.648964e+001	-1.010171e+002	-3.090528e+001	-2.959750e+001	9.035188e+001
6.150352e+006	-3.104861e+001	8.462421e+001	-3.066667e+001	-1.654774e+001	-9.042183e+001	4.786788e+001	-2.959752e+001	9.030335e+001
6.150391e+006	-3.105112e+001	8.462250e+001	-3.067602e+001	-1.656188e+001	-9.581504e+001	-1.745978e+002	-2.959218e+001	9.030448e+001
6.150430e+006	-3.104402e+001	8.455079e+001	-3.066982e+001	-1.656627e+001	-9.753767e+001	9.502134e+001	-2.960053e+001	9.034440e+001
6.150469e+006	-3.104510e+001	8.460404e+001	-3.067005e+001	-1.653160e+001	-8.972577e+001	1.888095e+000	-2.959804e+001	9.036855e+001
6.150508e+006	-3.103183e+001	8.458306e+001	-3.067884e+001	-1.656102e+001	-8.493035e+001	8.521905e+001	-2.959580e+001	9.039356e+001
6.150547e+006	-3.104128e+001	8.458164e+001	-3.068053e+001	-1.652022e+001	-9.107152e+001	3.368710e+001	-2.959471e+001	9.031547e+001
6.150586e+006	-3.104391e+001	8.459672e+001	-3.067650e+001	-1.660841e+001	-9.246413e+001	1.018197e+002	-2.959759e+001	9.038056e+001
6.150625e+006	-3.103298e+001	8.463423e+001	-3.067827e+001	-1.657010e+001	-9.588214e+001	2.804005e+001	-2.959324e+001	9.036125e+001
6.150664e+006	-3.104212e+001	8.457960e+001	-3.067672e+001	-1.658566e+001	-9.855823e+001	-5.532846e+001	-2.959174e+001	9.041103e+001
6.150703e+006	-3.103462e+001	8.458647e+001	-3.067322e+001	-1.650687e+001	-8.697353e+001	7.956468e+001	-2.958731e+001	9.036205e+001
6.150742e+006	-3.104695e+001	8.460477e+001	-3.066964e+001	-1.652280e+001	-9.599731e+001	-1.275633e+002	-2.959257e+001	9.036128e+001
6.150781e+006	-3.103924e+001	8.459237e+001	-3.068085e+001	-1.654703e+001	-1.004695e+002	7.843682e+001	-2.959417e+001	9.036470e+001
6.150820e+006	-3.104515e+001	8.464712e+001	-3.067304e+001	-1.651270e+001	-9.159940e+001	7.030853e+001	-2.958815e+001	9.028648e+001
6.150859e+006	-3.104138e+001	8.462106e+001	-3.067911e+001	-1.650173e+001	-9.410221e+001	1.213631e+002	-2.959629e+001	9.037089e+001
6.150898e+006	-3.103217e+001	8.463209e+001	-3.066817e+001	-1.653218e+001	-9.307944e+001	1.380326e+002	-2.959123e+001	9.031767e+001
6.150938e+006	-3.104721e+001	8.454767e+001	-3.067190e+001	-1.655541e+001	-9.333122e+001	1.381735e+001	-2.959277e+001	9.034035e+001
6.150977e+006	-3.103822e+001	8.469203e+001	-3.067411e+001	-1.650830e+001	-1.000998e+002	1.122447e+002	-2.960147e+001	9.029003e+001
6.151016e+006	-3.104497e+001	8.461369e+001	-3.067440e+001	-1.651738e+001	-9.417290e+001	1.754074e+001	-2.959700e+001	9.034832e+001
6.151055e+006	-3.103739e+001	8.464246e+001	-3.067924e+001	-1.653176e+001	-1.070625e+002	7.548338e+001	-2.959119e+001	9.037690e+001
6.151094e+006	-3.103947e+001	8.460910e+001	-3.067266e+001	-1.656449e+001	-9.489342e+001	3.431396e+001	-2.959035e+001	9.036262e+001
6.151133e+006	-3.104382e+001	8.460331e+001	-3.067968e+001	-1.649383e+001	-9.756076e+001	1.349232e+002	-2.959988e+001	9.031486e+001
6.151172e+006	-3.104328e+001	8.465240e+001	-3.067499e+001	-1.647735e+001	-9.127507e+001	1.464347e+002	-2.958681e+001	9.042137e+001
6.151211e+006	-3.103825e+001	8.462834e+001	-3.067342e+001	-1.663132e+001	-9.444558e+001	1.544744e+002	-2.959073e+001	9.033678e+001
6.151250e+006	-3.103906e+001	8.461293e+001	-3.067647e+001	-1.657464e+001	-9.298743e+001	8.301969e+000	-2.959007e+001	9.036444e+001
6.151289e+006	-3.104647e+001	8.461983e+001	-3.068037e+001	-1.648273e+001	-9.020972e+001	1.799177e+001	-2.959121e+001	9.037006e+001
6.151328e+006	-3.103679e+001	8.454406e+001	-3.067492e+001	-1.652873e+001	-9.222321e+001	3.299241e+001	-2.959167e+001	9.040135e+001
6.151367e+006	-3.104128e+001	8.458158e+001	-3.066871e+001	-1.653884e+001	-9.074649e+001	1.130043e+002	-2.958449e+001	9.035665e+001
6.151406e+006	-3.104019e+001	8.462422e+001	-3.066752e+001	-1.650542e+001	-9.684943e+001	1.693961e+002	-2.960267e+001	9.037149e+001
6.151445e+006	-3.103422e+001	8.459602e+001	-3.066721e+001	-1.651913e+001	-9.253762e+001	5.827637e+001	-2.959565e+001	9.037550e+001
6.151484e+006	-3.103763e+001	8.463556e+001	-3.066504e+001	-1.654766e+001	-9.626590e+001	7.071249e+001	-2.959774e+001	9.041243e+001
6.151523e+006	-3.104718e+001	8.464288e+001	-3.068421e+001	-1.654676e+001	-8.862457e+001	1.279880e+002	-2.960368e+001	9.031754e+001
6.151563e+006	-3.104065e+001	8.464645e+001	-3.066971e+001	-1.654394e+001	-9.375523e+001	1.503468e+002	-2.959207e+001	9.032549e+001
6.151602e+006	-3.104370e+001	8.465064e+001	-3.067390e+001	-1.650864e+001	-9.088748e+001	6.658702e+001	-2.958980e+001	9.032628e+001
6.151641e+006	-3.103687e+001	8.460278e+001	-3.067479e+001	-1.652553e+001	-8.932942e+001	4.912419e+001	-2.958472e+001	9.035023e+001
6.151680e+006	-3.104127e+001	8.461232e+001	-3.066996e+001	-1.653924e+001	-9.315802e+001	4.113262e+000	-2.959198e+001	9.035560e+001
6.151719e+006	-3.102716e+001	8.464281e+001	-3.067248e+001	-1.649527e+001	-9.310859e+001	4.880517e+001	-2.959181e+001	9.036849e+001
6.151758e+006	-3.104255e+001	8.466344e+001	-3.067456e+001	-1.651415e+001	-9.428292e+001	1.740941e+002	-2.959136e+001	9.040493e+001
6.151797e+006	-3.104534e+001	8.466419e+001	-3.068688e+001	-1.648823e+001	-8.827745e+001	4.117710e+001	-2.959655e+001	9.031245e+001
6.151836e+006	-3.105145e+001	8.459636e+001	-3.066804e+001	-1.652604e+001	-9.149277e+001	5.597813e+001	-2.959155e+001	9.033242e+001
6.151875e+006	-3.103838e+001	8.468119e+001	-3.067113e+001	-1.656563e+001	-9.645711e+001	5.539530e+001	-2.959085e+001	9.038772e+001
6.151914e+006	-3.104317e+001	8.462762e+001	-3.066949e+001	-1.652780e+001	-9.281864e+001	8.015594e+001	-2.959022e+001	9.035880e+001
6.151953e+006	-3.104287e+001	8.468132e+001	-3.068197e+001	-1.651427e+001	-9.478305e+001	5.938840e+001	-2.959736e+001	9.036796e+001
6.151992e+006	-3.103987e+001	8.464778e+001	-3.066703e+001	-1.649771e+001	-1.018353e+002	-1.308340e+002	-2.959079e+001	9.036978e+001
6.152031e+006	-3.103711e+001	8.464291e+001	-3.066873e+001	-1.654653e+001	-8.995832e+001	8.064850e+001	-2.959575e+001	9.038896e+001
6.152070e+006	-3.104119e+001	8.460999e+001	-3.067929e+001	-1.655362e+001	-8.891483e+001	7.844220e+001	-2.958863e+001	9.036630e+001
6.152109e+006	-3.104248e+001	8.466041e+001	-3.066549e+001	-1.657987e+001	-1.027563e+002	8.423159e+001	-2.959305e+001	9.034442e+001
6.152148e+006	-3.105264e+001	8.464622e+001	-3.067215e+001	-1.645660e+001	-9.169152e+001	9.066728e+001	-2.958900e+001	9.039103e+001
6.152188e+006	-3.104262e+001	8.468302e+001	-3.067283e+001	-1.655271e+001	-9.682032e+001	2.235299e+001	-2.959862e+001	9.040168e+001
6.152227e+006	-3.104806e+001	8.467332e+001	-3.066757e+001	-1.650342e+001	-1.087622e+002	6.951328e+001	-2.959675e+001	9.040838e+001
6.152266e+006	-3.103617e+001	8.466935e+001	-3.067542e+001	-1.656736e+001	-9.111498e+001	-1.388759e+002	-2.959013e+001	9.036022e+001
6.152305e+006	-3.104360e+001	8.462139e+001	-3.067028e+001	-1.647295e+001	-9.371071e+001	8.736270e+000	-2.959584e+001	9.033553e+001
6.152344e+006	-3.104500e+001	8.464866e+001	-3.067135e+001	-1.650090e+001	-9.532878e+001	1.276602e+002	-2.959545e+001	9.034403e+001
6.152383e+006	-3.104854e+001	8.470482e+001	-3.067522e+001	-1.656432e+001	-8.937243e+001	1.630916e+002	-2.959050e+001	9.042861e+001
6.152422e+006	-3.103967e+001	8.466123e+001	-3.066867e+001	-1.654560e+001	-9.856954e+001	-1.149489e+002	-2.959211e+001	9.033644e+001
6.152461e+006	-3.104687e+001	8.464927e+001	-3.067313e+001	-1.655021e+001	-9.400934e+001	9.958650e+001	-2.958637e+001	9.039810e+001
6.152500e+006	-3.103548e+001	8.462905e+001	-3.067453e+001	-1.657726e+001	-9.666981e+001	-4.861699e+001	-2.959221e+001	9.039759e+001
6.152539e+006	-3.104846e+001	8.465022e+001	-3.067523e+001	-1.653703e+001	-9.347093e+001	-1.594614e+002	-2.959026e+001	9.043661e+001
6.152578e+006	-3.103553e+001	8.464432e+001	-3.067903e+001	-1.652533e+001	-8.894311e+001	9.060433e+001	-2.959781e+001	9.033387e+001
6.152617e+006	-3.103596e+001	8.462350e+001	-3.066648e+001	-1.649081e+001	-1.066497e+002	1.496494e+002	-2.959331e+001	9.037563e+001
6.152656e+006	-3.104398e+001	8.465241e+001	-3.067461e+001	-1.652695e+001	-8.694923e+001	1.143785e+002	-2.959615e+001	9.037431e+001
6.152695e+006	-3.104600e+001	8.472261e+001	-3.067548e+001	-1.655158e+001	-9.761550e+001	7.057352e+001	-2.959279e+001	9.046231e+001
6.152734e+006	-3.104334e+001	8.467835e+001	-3.066622e+001	-1.653484e+001	-9.244682e+001	-5.780201e+000	-2.958938e+001	9.042280e+001
6.152773e+006	-3.104661e+001	8.466729e+001	-3.066036e+001	-1.655233e+001	-1.063967e+002	8.033553e+001	-2.959178e+001	9.040521e+001
6.152813e+006	-3.104270e+001	8.461972e+001	-3.066979e+001	-1.654630e+001	-8.972499e+001	-3.343319e+001	-2.960051e+001	9.040290e+001
6.152852e+006	-3.104688e+001	8.462874e+001	-3.066612e+001	-1.651579e+001	-9.009703e+001	1.339253e+001	-2.959453e+001	9.036097e+001
6.152891e+006	-3.104214e+001	8.466387e+001	-3.067631e+001	-1.645660e+001	-8.878776e+001	1.208809e+002	-2.959566e+001	9.040051e+001
6.152930e+006	-3.104741e+001	8.464735e+001	-3.067490e+001	-1.650638e+001	-1.016204e+002	1.076554e+002	-2.959533e+001	9.042291e+001
6.152969e+006	-3.105000e+001	8.462075e+001	-3.067946e+001	-1.653283e+001	-9.585449e+001	2.797135e+001	-2.959126e+001	9.045447e+001
6.153008e+006	-3.103958e+001	8.465463e+001	-3.066131e+001	-1.645172e+001	-9.195200e+001	1.189552e+002	-2.960200e+001	9.038748e+001
6.153047e+006	-3.105252e+001	8.468448e+001	-3.066743e+001	-1.656388e+001	-9.191288e+001	-8.702712e+001	-2.959247e+001	9.042426e+001
6.153086e+006	-3.104457e+001	8.461504e+001	-3.067377e+001	-1.653917e+001	-9.207453e+001	1.335378e+002	-2.959021e+001	9.044650e+001
6.153125e+006	-3.104078e+001	8.465968e+001	-3.065594e+001	-1.650590e+001	-9.270735e+001	7.277125e+001	-2.959452e+001	9.034055e+001
6.153164e+006	-3.104438e+001	8.466965e+001	-3.066973e+001	-1.659553e+001	-9.143449e+001	-7.914499e+000	-2.959530e+001	9.036291e+001
6.153203e+006	-3.104501e+001	8.465846e+001	-3.067087e+001	-1.657692e+001	-9.502787e+001	1.468426e+002	-2.959609e+001	9.042500e+001
6.153242e+006	-3.104426e+001	8.469106e+001	-3.067244e+001	-1.651775e+001	-8.949605e+001	1.119456e+002	-2.959566e+001	9.036293e+001
6.153281e+006	-3.103444e+001	8.461782e+001	-3.067511e+001	-1.646353e+001	-9.442902e+001	1.372387e+002	-2.959076e+001	9.038914e+001
6.153320e+006	-3.103648e+001	8.477489e+001	-3.066872e+001	-1.650852e+001	-9.252629e+001	-6.361203e+001	-2.959853e+001	9.039616e+001
6.153359e+006	-3.104101e+001	8.464798e+001	-3.066551e+001	-1.654452e+001	-8.849842e+001	1.479199e+002	-2.959532e+001	9.033708e+001
6.153398e+006	-3.103669e+001	8.466645e+001	-3.067240e+001	-1.654778e+001	-1.012506e+002	8.377643e+001	-2.959058e+001	9.041416e+001
6.153438e+006	-3.104147e+001	8.464582e+001	-3.067020e+001	-1.651127e+001	-9.482064e+001	5.777366e+001	-2.959492e+001	9.039478e+001
6.153477e+006	-3.104447e+001	8.467295e+001	-3.067100e+001	-1.655688e+001	-9.951004e+001	1.031171e+002	-2.959356e+001	9.037631e+001
6.153516e+006	-3.105287e+001	8.462288e+001	-3.066854e+001	-1.659052e+001	-1.016607e+002	1.445921e+001	-2.959758e+001	9.039165e+001
6.153555e+006	-3.104568e+001	8.472583e+001	-3.066553e+001	-1.651729e+001	-9.947617e+001	-1.067461e+002	-2.959676e+001	9.035560e+001
6.153594e+006	-3.103957e+001	8.470860e+001	-3.067532e+001	-1.650402e+001	-8.557695e+001	1.275031e+002	-2.958826e+001	9.043084e+001
6.153633e+006	-3.104209e+001	8.470160e+001	-3.066482e+001	-1.661205e+001	-9.362251e+001	9.752662e+001	-2.959777e+001	9.042095e+001
6.153672e+006	-3.103950e+001	8.472392e+001	-3.067668e+001	-1.654498e+001	-9.286441e+001	1.112290e+002	-2.959096e+001	9.038249e+001
6.153711e+006	-3.104655e+001	8.472254e+001	-3.066806e+001	-1.651035e+001	-9.153473e+001	1.668332e+002	-2.958870e+001	9.042130e+001
6.153750e+006	-3.103985e+001	8.467470e+001	-3.066639e+001	-1.654782e+001	-9.159492e+001	7.884856e+001	-2.958846e+001	9.038403e+001
6.153789e+006	-3.104089e+001	8.466245e+001	-3.067811e+001	-1.651264e+001	-8.838011e+001	1.124855e+002	-2.959479e+001	9.040663e+001
6.153828e+006	-3.103947e+001	8.470359e+001	-3.066310e+001	-1.652413e+001	-9.691548e+001	-1.560499e+002	-2.958937e+001	9.037398e+001
6.153867e+006	-3.103985e+001	8.474178e+001	-3.066651e+001	-1.646779e+001	-9.241062e+001	4.620948e+001	-2.959226e+001	9.040607e+001
6.153906e+006	-3.105142e+001	8.468263e+001	-3.066253e+001	-1.650891e+001	-9.846602e+001	2.427283e+000	-2.959740e+001	9.040109e+001
6.153945e+006	-3.104944e+001	8.463003e+001	-3.067382e+001	-1.653216e+001	-9.548941e+001	3.142267e+001	-2.959899e+001	9.045760e+001
6.153984e+006	-3.104980e+001	8.470766e+001	-3.067629e+001	-1.653639e+001	-9.111983e+001	4.674015e+001	-2.959760e+001	9.041825e+001
6.154023e+006	-3.104821e+001	8.468672e+001	-3.067168e+001	-1.652104e+001	-9.832591e+001	1.505172e+002	-2.959451e+001	9.039202e+001
6.154063e+006	-3.104699e+001	8.464000e+001	-3.067099e+001	-1.653848e+001	-8.886094e+001	-1.621159e+002	-2.958333e+001	9.047347e+001
6.154102e+006	-3.104156e+001	8.471538e+001	-3.066129e+001	-1.654392e+001	-1.034898e+002	-4.082034e+001	-2.959410e+001	9.042185e+001
6.154141e+006	-3.104960e+001	8.474258e+001	-3.066525e+001	-1.655835e+001	-8.775953e+001	2.016480e+001	-2.958839e+001	9.043860e+001
6.154180e+006	-3.104488e+001	8.471183e+001	-3.067157e+001	-1.655562e+001	-9.028580e+001	3.731029e+001	-2.958779e+001	9.042583e+001
6.154219e+006	-3.104149e+001	8.468909e+001	-3.066947e+001	-1.657368e+001	-9.380606e+001	-8.865653e+000	-2.958801e+001	9.042622e+001
6.154258e+006	-3.104643e+001	8.467853e+001	-3.066244e+001	-1.654889e+001	-9.000930e+001	8.239883e+001	-2.959556e+001	9.045326e+001
6.154297e+006	-3.104287e+001	8.466815e+001	-3.066499e+001	-1.656377e+001	-9.691910e+001	-2.667365e+000	-2.959278e+001	9.043348e+001
6.154336e+006	-3.104513e+001	8.467734e+001	-3.067319e+001	-1.650295e+001	-9.988095e+001	2.863640e+001	-2.959535e+001	9.037278e+001
6.154375e+006	-3.103912e+001	8.464419e+001	-3.066194e+001	-1.652955e+001	-8.897039e+001	1.370510e+001	-2.960060e+001	9.039341e+001
6.154414e+006	-3.103813e+001	8.473239e+001	-3.066096e+001	-1.655847e+001	-8.867397e+001	3.694238e+001	-2.959701e+001	9.046748e+001
6.154453e+006	-3.104304e+001	8.466028e+001	-3.067122e+001	-1.656158e+001	-9.049035e+001	1.076123e+002	-2.959669e+001	9.044500e+001
6.154492e+006	-3.104343e+001	8.464668e+001	-3.067136e+001	-1.655457e+001	-8.907946e+001	9.056390e+001	-2.959752e+001	9.052835e+001
6.154531e+006	-3.104933e+001	8.469050e+001	-3.067180e+001	-1.655851e+001	-9.983392e+001	-8.011397e-001	-2.959392e+001	9.040460e+001
6.154570e+006	-3.104167e+001	8.471579e+001	-3.067490e+001	-1.643017e+001	-9.824837e+001	9.862982e+001	-2.959849e+001	9.035033e+001
6.154609e+006	-3.104493e+001	8.472386e+001	-3.066656e+001	-1.650412e+001	-9.781048e+001	-1.667397e+001	-2.959365e+001	9.046898e+001
6.154648e+006	-3.105770e+001	8.473244e+001	-3.066415e+001	-1.657271e+001	-9.413721e+001	1.603934e+002	-2.959857e+001	9.035075e+001
6.154688e+006	-3.104687e+001	8.482168e+001	-3.066922e+001	-1.650260e+001	-9.322877e+001	2.481973e+000	-2.959172e+001	9.052211e+001
6.154727e+006	-3.104457e+001	8.473447e+001	-3.066649e+001	-1.650601e+001	-9.685441e+001	-7.892108e+001	-2.959323e+001	9.046225e+001
6.154766e+006	-3.105833e+001	8.469574e+001	-3.067682e+001	-1.658624e+001	-9.090119e+001	1.631073e+002	-2.960070e+001	9.042845e+001
6.154805e+006	-3.104044e+001	8.472841e+001	-3.067120e+001	-1.652504e+001	-9.606391e+001	1.677248e+002	-2.958822e+001	9.035763e+001
6.154844e+006	-3.104793e+001	8.474431e+001	-3.065130e+001	-1.658552e+001	-9.244231e+001	-4.462106e+000	-2.960295e+001	9.043577e+001
6.154883e+006	-3.104797e+001	8.468170e+001	-3.066299e+001	-1.648947e+001	-1.006183e+002	-1.356102e+002	-2.959752e+001	9.042612e+001
6.154922e+006	-3.104041e+001	8.470708e+001	-3.066440e+001	-1.657422e+001	-9.713152e+001	4.055913e+001	-2.960036e+001	9.044299e+001
6.154961e+006	-3.104810e+001	8.472975e+001	-3.066863e+001	-1.647224e+001	-9.733375e+001	-1.400959e+002	-2.959121e+001	9.047543e+001
6.155000e+006	-3.105576e+001	8.469228e+001	-3.066809e+001	-1.656947e+001	-8.702442e+001	5.428195e+001	-2.959335e+001	9.050045e+001
6.155039e+006	-3.105512e+001	8.471344e+001	-3.065423e+001	-1.650390e+001	-9.469342e+001	9.702091e+001	-2.959728e+001	9.042764e+001
6.155078e+006	-3.103882e+001	8.472615e+001	-3.066685e+001	-1.656173e+001	-9.224509e+001	3.415092e+001	-2.959217e+001	9.046633e+001
6.155117e+006	-3.103384e+001	8.476603e+001	-3.066455e+001	-1.656952e+001	-1.007854e+002	-1.176656e+002	-2.959458e+001	9.048554e+001
6.155156e+006	-3.105011e+001	8.475871e+001	-3.067118e+001	-1.655162e+001	-9.749934e+001	1.396048e+002	-2.959599e+001	9.042286e+001
6.155195e+006	-3.104414e+001	8.471916e+001	-3.067562e+001	-1.652369e+001	-8.832030e+001	1.136759e+001	-2.960183e+001	9.042852e+001
6.155234e+006	-3.104400e+001	8.478514e+001	-3.067036e+001	-1.652369e+001	-9.505328e+001	6.840225e+001	-2.959091e+001	9.037378e+001
6.155273e+006	-3.104891e+001	8.472091e+001	-3.065866e+001	-1.655569e+001	-9.980315e+001	-4.568720e+001	-2.960160e+001	9.040778e+001
6.155313e+006	-3.104982e+001	8.473184e+001	-3.066657e+001	-1.654978e+001	-8.860472e+001	8.106839e+001	-2.958825e+001	9.042670e+001
6.155352e+006	-3.103824e+001	8.465886e+001	-3.066861e+001	-1.656298e+001	-8.673832e+001	1.214991e+002	-2.960003e+001	9.045645e+001
6.155391e+006	-3.104091e+001	8.470765e+001	-3.066069e+001	-1.657605e+001	-9.982740e+001	-3.579349e+001	-2.959905e+001	9.043062e+001
6.155430e+006	-3.104565e+001	8.467645e+001	-3.066994e+001	-1.652170e+001	-9.859429e+001	-3.903552e+001	-2.959901e+001	9.046855e+001
6.155469e+006	-3.104478e+001	8.480108e+001	-3.067173e+001	-1.650393e+001	-8.905167e+001	-9.724945e+001	-2.959672e+001	9.042929e+001
6.155508e+006	-3.104860e+001	8.477671e+001	-3.066382e+001	-1.655484e+001	-9.064337e+001	1.011418e+002	-2.959316e+001	9.046920e+001
6.155547e+006	-3.104910e+001	8.468287e+001	-3.066936e+001	-1.654016e+001	-1.002410e+002	6.899724e+001	-2.959608e+001	9.048694e+001
6.155586e+006	-3.104942e+001	8.473677e+001	-3.066082e+001	-1.653020e+001	-9.364172e+001	1.085291e+002	-2.959477e+001	9.042021e+001
6.155625e+006	-3.103322e+001	8.476102e+001	-3.065875e+001	-1.655797e+001	-9.642673e+001	1.029836e+002	-2.959253e+001	9.040516e+001
6.155664e+006	-3.103759e+001	8.471993e+001	-3.066039e+001	-1.659780e+001	-1.020414e+002	7.233218e+001	-2.959467e+001	9.046269e+001
6.155703e+006	-3.104488e+001	8.471687e+001	-3.066102e+001	-1.661608e+001	-9.174180e+001	1.667171e+002	-2.959193e+001	9.045338e+001
6.155742e+006	-3.104049e+001	8.480734e+001	-3.067048e+001	-1.653534e+001	-8.861407e+001	7.766619e+001	-2.960254e+001	9.049956e+001
6.155781e+006	-3.104801e+001	8.475427e+001	-3.066297e+001	-1.653420e+001	-9.897201e+001	2.416141e+000	-2.959782e+001	9.043357e+001
6.155820e+006	-3.104735e+001	8.473559e+001	-3.066794e+001	-1.658216e+001	-9.603273e+001	1.386870e+002	-2.960092e+001	9.043115e+001
