# Hz S dB R 50.000
3.628281e+06	-2.675008e+01	1.735682e+02	-3.128005e+01	-4.267152e+00	-8.892773e+01	1.145942e+02	-2.592557e+01	1.719444e+02
3.628312e+06	-2.674925e+01	1.735755e+02	-3.128072e+01	-4.281816e+00	-9.172551e+01	9.810368e+01	-2.592454e+01	1.719439e+02
3.628344e+06	-2.674841e+01	1.735828e+02	-3.128139e+01	-4.296482e+00	-9.386210e+01	6.803900e+01	-2.592351e+01	1.719434e+02
3.628375e+06	-2.674758e+01	1.735901e+02	-3.128206e+01	-4.311151e+00	-9.304052e+01	3.238665e+01	-2.592248e+01	1.719430e+02
3.628406e+06	-2.674674e+01	1.735973e+02	-3.128273e+01	-4.325822e+00	-9.032045e+01	9.575743e+00	-2.592145e+01	1.719425e+02
3.628437e+06	-2.674591e+01	1.736046e+02	-3.128340e+01	-4.340495e+00	-8.767522e+01	-2.490115e+00	-2.592042e+01	1.719420e+02
3.628468e+06	-2.674425e+01	1.736057e+02	-3.128358e+01	-4.333818e+00	-8.744667e+01	-2.891918e-01	-2.592057e+01	1.719405e+02
3.628500e+06	-2.674258e+01	1.736067e+02	-3.128374e+01	-4.326616e+00	-8.726030e+01	2.082102e+00	-2.592074e+01	1.719390e+02
3.628531e+06	-2.674090e+01	1.736077e+02	-3.128390e+01	-4.319414e+00	-8.706391e+01	4.351116e+00	-2.592092e+01	1.719375e+02
3.628562e+06	-2.673922e+01	1.736086e+02	-3.128407e+01	-4.312212e+00	-8.685914e+01	6.517668e+00	-2.592109e+01	1.719360e+02
3.628594e+06	-2.673755e+01	1.736096e+02	-3.128423e+01	-4.305009e+00	-8.664752e+01	8.582764e+00	-2.592127e+01	1.719345e+02
3.628625e+06	-2.673874e+01	1.736006e+02	-3.128899e+01	-4.312710e+00	-8.823201e+01	1.280732e+01	-2.592191e+01	1.719392e+02
3.628656e+06	-2.673999e+01	1.735915e+02	-3.129382e+01	-4.320662e+00	-9.012288e+01	1.917391e+01	-2.592256e+01	1.719440e+02
3.628687e+06	-2.674123e+01	1.735824e+02	-3.129866e+01	-4.328623e+00	-9.231681e+01	2.939645e+01	-2.592321e+01	1.719488e+02
3.628718e+06	-2.674248e+01	1.735732e+02	-3.130350e+01	-4.336593e+00	-9.461113e+01	4.670623e+01	-2.592386e+01	1.719536e+02
3.628750e+06	-2.674372e+01	1.735641e+02	-3.130834e+01	-4.344572e+00	-9.602160e+01	7.382317e+01	-2.592450e+01	1.719584e+02
3.628781e+06	-2.674443e+01	1.735711e+02	-3.130509e+01	-4.351482e+00	-1.003147e+02	4.765934e+01	-2.592504e+01	1.719602e+02
3.628812e+06	-2.674514e+01	1.735782e+02	-3.130177e+01	-4.358378e+00	-1.011807e+02	-6.610229e+00	-2.592558e+01	1.719621e+02
3.628844e+06	-2.674585e+01	1.735853e+02	-3.129846e+01	-4.365268e+00	-9.696483e+01	-4.011471e+01	-2.592611e+01	1.719640e+02
3.628875e+06	-2.674655e+01	1.735925e+02	-3.129514e+01	-4.372154e+00	-9.329877e+01	-5.298613e+01	-2.592665e+01	1.719658e+02
3.628906e+06	-2.674726e+01	1.735996e+02	-3.129183e+01	-4.379034e+00	-9.057321e+01	-5.911266e+01	-2.592718e+01	1.719677e+02
3.628937e+06	-2.674634e+01	1.735999e+02	-3.129235e+01	-4.360495e+00	-9.110967e+01	-5.100492e+01	-2.592596e+01	1.719699e+02
3.628968e+06	-2.674541e+01	1.736002e+02	-3.129288e+01	-4.341954e+00	-9.147572e+01	-4.200242e+01	-2.592474e+01	1.719721e+02
3.629000e+06	-2.674449e+01	1.736006e+02	-3.129340e+01	-4.323410e+00	-9.162073e+01	-3.244937e+01	-2.592351e+01	1.719743e+02
3.629031e+06	-2.674357e+01	1.736009e+02	-3.129392e+01	-4.304864e+00	-9.152190e+01	-2.284492e+01	-2.592229e+01	1.719765e+02
3.629062e+06	-2.674264e+01	1.736012e+02	-3.129444e+01	-4.286316e+00	-9.119495e+01	-1.370395e+01	-2.592107e+01	1.719787e+02
3.629094e+06	-2.674305e+01	1.735999e+02	-3.129599e+01	-4.289709e+00	-9.232229e+01	-3.515259e-01	-2.592084e+01	1.719674e+02
3.629125e+06	-2.674349e+01	1.735986e+02	-3.129756e+01	-4.293643e+00	-9.298911e+01	1.631209e+01	-2.592064e+01	1.719556e+02
3.629156e+06	-2.674393e+01	1.735973e+02	-3.129914e+01	-4.297578e+00	-9.286849e+01	3.409212e+01	-2.592044e+01	1.719439e+02
3.629187e+06	-2.674437e+01	1.735959e+02	-3.130071e+01	-4.301515e+00	-9.201847e+01	4.993956e+01	-2.592024e+01	1.719322e+02
3.629218e+06	-2.674481e+01	1.735946e+02	-3.130228e+01	-4.305453e+00	-9.077016e+01	6.232404e+01	-2.592003e+01	1.719205e+02
3.629250e+06	-2.674452e+01	1.736002e+02	-3.130116e+01	-4.303242e+00	-9.277032e+01	5.808527e+01	-2.592116e+01	1.719250e+02
3.629281e+06	-2.674422e+01	1.736058e+02	-3.129998e+01	-4.300932e+00	-9.533842e+01	5.047071e+01	-2.592231e+01	1.719298e+02
3.629312e+06	-2.674392e+01	1.736115e+02	-3.129881e+01	-4.298622e+00	-9.854668e+01	3.553897e+01	-2.592346e+01	1.719345e+02
3.629344e+06	-2.674362e+01	1.736171e+02	-3.129764e+01	-4.296313e+00	-1.015446e+02	3.772011e+00	-2.592461e+01	1.719393e+02
3.629375e+06	-2.674332e+01	1.736228e+02	-3.129647e+01	-4.294004e+00	-1.007829e+02	-3.915367e+01	-2.592576e+01	1.719441e+02
3.629406e+06	-2.674508e+01	1.736162e+02	-3.129633e+01	-4.297945e+00	-1.032542e+02	2.159909e+01	-2.592519e+01	1.719438e+02
3.629437e+06	-2.674686e+01	1.736095e+02	-3.129621e+01	-4.301936e+00	-9.816959e+01	6.248563e+01	-2.592460e+01	1.719434e+02
3.629468e+06	-2.674864e+01	1.736028e+02	-3.129608e+01	-4.305927e+00	-9.397652e+01	7.548500e+01	-2.592402e+01	1.719431e+02
3.629500e+06	-2.675041e+01	1.735961e+02	-3.129596e+01	-4.309917e+00	-9.101930e+01	8.115240e+01	-2.592343e+01	1.719427e+02
3.629531e+06	-2.675219e+01	1.735894e+02	-3.129583e+01	-4.313908e+00	-8.878098e+01	8.426492e+01	-2.592285e+01	1.719424e+02
3.629562e+06	-2.675043e+01	1.735987e+02	-3.129497e+01	-4.309125e+00	-8.990224e+01	8.783470e+01	-2.592320e+01	1.719521e+02
3.629594e+06	-2.674866e+01	1.736080e+02	-3.129411e+01	-4.304343e+00	-9.113871e+01	9.251993e+01	-2.592356e+01	1.719617e+02
3.629625e+06	-2.674690e+01	1.736173e+02	-3.129326e+01	-4.299561e+00	-9.248859e+01	9.883597e+01	-2.592391e+01	1.719714e+02
3.629656e+06	-2.674514e+01	1.736266e+02	-3.129240e+01	-4.294781e+00	-9.391311e+01	1.075448e+02	-2.592427e+01	1.719810e+02
3.629687e+06	-2.674337e+01	1.736359e+02	-3.129154e+01	-4.290002e+00	-9.528190e+01	1.195995e+02	-2.592462e+01	1.719907e+02
3.629718e+06	-2.674365e+01	1.736310e+02	-3.129174e+01	-4.293043e+00	-9.774449e+01	1.375181e+02	-2.592439e+01	1.719830e+02
3.629750e+06	-2.674397e+01	1.736257e+02	-3.129197e+01	-4.296277e+00	-9.927008e+01	1.667363e+02	-2.592414e+01	1.719749e+02
3.629781e+06	-2.674430e+01	1.736204e+02	-3.129220e+01	-4.299511e+00	-9.826808e+01	-1.620341e+02	-2.592390e+01	1.719668e+02
3.629812e+06	-2.674462e+01	1.736152e+02	-3.129243e+01	-4.302745e+00	-9.584705e+01	-1.415713e+02	-2.592365e+01	1.719587e+02
3.629844e+06	-2.674494e+01	1.736099e+02	-3.129266e+01	-4.305979e+00	-9.344982e+01	-1.299905e+02	-2.592340e+01	1.719506e+02
3.629875e+06	-2.674446e+01	1.736087e+02	-3.129486e+01	-4.306450e+00	-9.498852e+01	-1.214778e+02	-2.592419e+01	1.719594e+02
3.629906e+06	-2.674396e+01	1.736075e+02	-3.129709e+01	-4.306876e+00	-9.660470e+01	-1.091394e+02	-2.592500e+01	1.719685e+02
3.629937e+06	-2.674346e+01	1.736063e+02	-3.129933e+01	-4.307302e+00	-9.788842e+01	-9.177908e+01	-2.592581e+01	1.719776e+02
3.629968e+06	-2.674296e+01	1.736052e+02	-3.130157e+01	-4.307729e+00	-9.825974e+01	-7.061676e+01	-2.592662e+01	1.719867e+02
3.630000e+06	-2.674246e+01	1.736040e+02	-3.130380e+01	-4.308156e+00	-9.748210e+01	-5.046472e+01	-2.592742e+01	1.719958e+02
3.630031e+06	-2.674272e+01	1.736026e+02	-3.130256e+01	-4.293051e+00	-9.786003e+01	-4.534561e+01	-2.592755e+01	1.719875e+02
3.630062e+06	-2.674298e+01	1.736012e+02	-3.130130e+01	-4.277826e+00	-9.819385e+01	-3.989480e+01	-2.592767e+01	1.719791e+02
3.630094e+06	-2.674324e+01	1.735999e+02	-3.130003e+01	-4.262605e+00	-9.845348e+01	-3.405726e+01	-2.592780e+01	1.719706e+02
3.630125e+06	-2.674350e+01	1.735985e+02	-3.129877e+01	-4.247389e+00	-9.862350e+01	-2.792260e+01	-2.592792e+01	1.719622e+02
3.630156e+06	-2.674376e+01	1.735971e+02	-3.129750e+01	-4.232177e+00	-9.869259e+01	-2.161603e+01	-2.592804e+01	1.719537e+02
3.630187e+06	-2.674365e+01	1.736055e+02	-3.129523e+01	-4.227669e+00	-9.657744e+01	-8.672836e+00	-2.592749e+01	1.719497e+02
3.630218e+06	-2.674354e+01	1.736139e+02	-3.129296e+01	-4.223164e+00	-9.464998e+01	-5.883403e-01	-2.592694e+01	1.719458e+02
3.630250e+06	-2.674343e+01	1.736223e+02	-3.129069e+01	-4.218661e+00	-9.297838e+01	4.743592e+00	-2.592639e+01	1.719418e+02
3.630281e+06	-2.674331e+01	1.736307e+02	-3.128841e+01	-4.214160e+00	-9.153247e+01	8.464829e+00	-2.592583e+01	1.719379e+02
3.630312e+06	-2.674320e+01	1.736391e+02	-3.128614e+01	-4.209662e+00	-9.027000e+01	1.118832e+01	-2.592528e+01	1.719339e+02
3.630344e+06	-2.674359e+01	1.736302e+02	-3.128680e+01	-4.216722e+00	-9.162190e+01	6.389583e+00	-2.592534e+01	1.719366e+02
3.630375e+06	-2.674398e+01	1.736209e+02	-3.128752e+01	-4.224067e+00	-9.319793e+01	-6.107741e-01	-2.592542e+01	1.719394e+02
3.630406e+06	-2.674438e+01	1.736115e+02	-3.128824e+01	-4.231413e+00	-9.488929e+01	-1.083704e+01	-2.592550e+01	1.719422e+02
3.630437e+06	-2.674477e+01	1.736022e+02	-3.128897e+01	-4.238761e+00	-9.647905e+01	-2.584929e+01	-2.592557e+01	1.719450e+02
3.630468e+06	-2.674516e+01	1.735928e+02	-3.128969e+01	-4.246109e+00	-9.743416e+01	-4.616574e+01	-2.592565e+01	1.719479e+02
3.630500e+06	-2.674548e+01	1.735960e+02	-3.129102e+01	-4.265185e+00	-9.941785e+01	3.256773e+01	-2.592518e+01	1.719542e+02
3.630531e+06	-2.674580e+01	1.735993e+02	-3.129236e+01	-4.284456e+00	-9.267877e+01	6.779074e+01	-2.592471e+01	1.719607e+02
3.630562e+06	-2.674611e+01	1.736026e+02	-3.129370e+01	-4.303734e+00	-8.835266e+01	7.707528e+01	-2.592424e+01	1.719671e+02
3.630594e+06	-2.674643e+01	1.736059e+02	-3.129504e+01	-4.323018e+00	-8.540728e+01	8.108061e+01	-2.592377e+01	1.719735e+02
3.630625e+06	-2.674675e+01	1.736092e+02	-3.129638e+01	-4.342308e+00	-8.319355e+01	8.329083e+01	-2.592329e+01	1.719799e+02
3.630656e+06	-2.674725e+01	1.736061e+02	-3.129504e+01	-4.334668e+00	-8.476546e+01	8.426801e+01	-2.592348e+01	1.719806e+02
3.630687e+06	-2.674776e+01	1.736029e+02	-3.129368e+01	-4.326813e+00	-8.672249e+01	8.572883e+01	-2.592368e+01	1.719812e+02
3.630718e+06	-2.674827e+01	1.735998e+02	-3.129233e+01	-4.318961e+00	-8.924008e+01	8.817459e+01	-2.592387e+01	1.719819e+02
3.630750e+06	-2.674877e+01	1.735966e+02	-3.129097e+01	-4.311111e+00	-9.275194e+01	9.307557e+01	-2.592407e+01	1.719825e+02
3.630781e+06	-2.674928e+01	1.735935e+02	-3.128961e+01	-4.303264e+00	-9.838022e+01	1.072398e+02	-2.592426e+01	1.719831e+02
3.630812e+06	-2.674866e+01	1.736020e+02	-3.128844e+01	-4.303805e+00	-1.042108e+02	8.143925e+01	-2.592510e+01	1.719774e+02
3.630844e+06	-2.674803e+01	1.736106e+02	-3.128726e+01	-4.304345e+00	-1.052782e+02	7.073121e+00	-2.592595e+01	1.719718e+02
3.630875e+06	-2.674741e+01	1.736191e+02	-3.128609e+01	-4.304886e+00	-9.919327e+01	-2.564061e+01	-2.592679e+01	1.719661e+02
3.630906e+06	-2.674679e+01	1.736277e+02	-3.128492e+01	-4.305426e+00	-9.508384e+01	-3.526107e+01	-2.592764e+01	1.719604e+02
3.630937e+06	-2.674616e+01	1.736362e+02	-3.128375e+01	-4.305966e+00	-9.222598e+01	-3.955838e+01	-2.592848e+01	1.719547e+02
3.630968e+06	-2.674703e+01	1.736324e+02	-3.128476e+01	-4.306716e+00	-9.752607e+01	-1.602630e+01	-2.592858e+01	1.719559e+02
3.631000e+06	-2.674792e+01	1.736282e+02	-3.128582e+01	-4.307471e+00	-9.933599e+01	5.345076e+01	-2.592866e+01	1.719572e+02
3.631031e+06	-2.674882e+01	1.736241e+02	-3.128689e+01	-4.308226e+00	-9.354981e+01	8.978746e+01	-2.592874e+01	1.719585e+02
3.631062e+06	-2.674972e+01	1.736199e+02	-3.128795e+01	-4.308981e+00	-8.938558e+01	1.006496e+02	-2.592883e+01	1.719598e+02
3.631094e+06	-2.675062e+01	1.736158e+02	-3.128901e+01	-4.309737e+00	-8.648268e+01	1.054410e+02	-2.592891e+01	1.719611e+02
3.631125e+06	-2.674916e+01	1.736193e+02	-3.128825e+01	-4.298578e+00	-8.850658e+01	9.754249e+01	-2.592792e+01	1.719713e+02
3.631156e+06	-2.674767e+01	1.736229e+02	-3.128745e+01	-4.287228e+00	-9.087845e+01	8.399128e+01	-2.592691e+01	1.719816e+02
3.631187e+06	-2.674618e+01	1.736266e+02	-3.128665e+01	-4.275880e+00	-9.297612e+01	6.091285e+01	-2.592590e+01	1.719920e+02
3.631218e+06	-2.674469e+01	1.736302e+02	-3.128585e+01	-4.264534e+00	-9.326400e+01	2.985620e+01	-2.592490e+01	1.720023e+02
3.631250e+06	-2.674320e+01	1.736339e+02	-3.128506e+01	-4.253190e+00	-9.142723e+01	4.285350e+00	-2.592389e+01	1.720126e+02
3.631281e+06	-2.674384e+01	1.736289e+02	-3.128519e+01	-4.257398e+00	-9.303731e+01	1.220025e+01	-2.592364e+01	1.720031e+02
3.631312e+06	-2.674449e+01	1.736239e+02	-3.128534e+01	-4.261732e+00	-9.473916e+01	2.419211e+01	-2.592340e+01	1.719934e+02
3.631344e+06	-2.674514e+01	1.736189e+02	-3.128548e+01	-4.266066e+00	-9.616498e+01	4.151955e+01	-2.592316e+01	1.719837e+02
3.631375e+06	-2.674580e+01	1.736138e+02	-3.128563e+01	-4.270400e+00	-9.667622e+01	6.337344e+01	-2.592292e+01	1.719740e+02
3.631406e+06	-2.674645e+01	1.736088e+02	-3.128577e+01	-4.274734e+00	-9.593059e+01	8.461684e+01	-2.592268e+01	1.719643e+02
3.631437e+06	-2.674627e+01	1.736082e+02	-3.128570e+01	-4.277258e+00	-9.632499e+01	8.940642e+01	-2.592299e+01	1.719723e+02
3.631468e+06	-2.674610e+01	1.736075e+02	-3.128562e+01	-4.279782e+00	-9.666890e+01	9.462205e+01	-2.592330e+01	1.719803e+02
3.631500e+06	-2.674592e+01	1.736069e+02	-3.128555e+01	-4.282306e+00	-9.694648e+01	1.002257e+02	-2.592361e+01	1.719882e+02
3.631531e+06	-2.674575e+01	1.736063e+02	-3.128548e+01	-4.284830e+00	-9.714261e+01	1.061446e+02	-2.592391e+01	1.719962e+02
3.631562e+06	-2.674557e+01	1.736056e+02	-3.128540e+01	-4.287354e+00	-9.724519e+01	1.122714e+02	-2.592422e+01	1.720042e+02
3.631594e+06	-2.674555e+01	1.736080e+02	-3.128392e+01	-4.297676e+00	-9.838369e+01	7.281577e+01	-2.592454e+01	1.719939e+02
3.631625e+06	-2.674554e+01	1.736105e+02	-3.128240e+01	-4.308186e+00	-9.578448e+01	3.931319e+01	-2.592486e+01	1.719831e+02
3.631656e+06	-2.674552e+01	1.736129e+02	-3.128088e+01	-4.318692e+00	-9.261050e+01	2.281642e+01	-2.592518e+01	1.719724e+02
3.631687e+06	-2.674551e+01	1.736154e+02	-3.127935e+01	-4.329194e+00	-9.000946e+01	1.441821e+01	-2.592550e+01	1.719616e+02
3.631718e+06	-2.674549e+01	1.736179e+02	-3.127783e+01	-4.339693e+00	-8.792419e+01	9.533466e+00	-2.592582e+01	1.719509e+02
3.631750e+06	-2.674367e+01	1.736200e+02	-3.127914e+01	-4.331662e+00	-8.992573e+01	1.445308e+01	-2.592529e+01	1.719546e+02
3.631781e+06	-2.674182e+01	1.736222e+02	-3.128049e+01	-4.323327e+00	-9.247745e+01	2.305415e+01	-2.592473e+01	1.719586e+02
3.631812e+06	-2.673998e+01	1.736244e+02	-3.128184e+01	-4.314990e+00	-9.554029e+01	3.963973e+01	-2.592418e+01	1.719626e+02
3.631844e+06	-2.673813e+01	1.736265e+02	-3.128320e+01	-4.306649e+00	-9.798190e+01	7.218447e+01	-2.592363e+01	1.719666e+02
3.631875e+06	-2.673628e+01	1.736287e+02	-3.128455e+01	-4.298307e+00	-9.688216e+01	1.110747e+02	-2.592307e+01	1.719706e+02
3.631906e+06	-2.673823e+01	1.736273e+02	-3.128470e+01	-4.300279e+00	-9.764973e+01	1.132862e+02	-2.592305e+01	1.719623e+02
3.631937e+06	-2.674020e+01	1.736259e+02	-3.128485e+01	-4.302334e+00	-9.851180e+01	1.156743e+02	-2.592302e+01	1.719538e+02
3.631968e+06	-2.674217e+01	1.736244e+02	-3.128499e+01	-4.304389e+00	-9.944825e+01	1.186122e+02	-2.592300e+01	1.719454e+02
3.632000e+06	-2.674415e+01	1.736230e+02	-3.128514e+01	-4.306445e+00	-1.004657e+02	1.222921e+02	-2.592297e+01	1.719370e+02
3.632031e+06	-2.674612e+01	1.736216e+02	-3.128528e+01	-4.308500e+00	-1.015662e+02	1.269903e+02	-2.592295e+01	1.719286e+02
3.632062e+06	-2.674660e+01	1.736240e+02	-3.128341e+01	-4.302266e+00	-1.025720e+02	1.348263e+02	-2.592430e+01	1.719378e+02
3.632094e+06	-2.674707e+01	1.736264e+02	-3.128153e+01	-4.296035e+00	-1.034793e+02	1.446102e+02	-2.592565e+01	1.719470e+02
3.632125e+06	-2.674755e+01	1.736288e+02	-3.127966e+01	-4.289806e+00	-1.041521e+02	1.563715e+02	-2.592700e+01	1.719562e+02
3.632156e+06	-2.674802e+01	1.736312e+02	-3.127779e+01	-4.283580e+00	-1.044386e+02	1.695294e+02	-2.592836e+01	1.719654e+02
3.632187e+06	-2.674850e+01	1.736336e+02	-3.127591e+01	-4.277357e+00	-1.042574e+02	-1.771491e+02	-2.592971e+01	1.719746e+02
3.632218e+06	-2.674702e+01	1.736351e+02	-3.127729e+01	-4.286181e+00	-1.166443e+02	1.619729e+02	-2.592805e+01	1.719743e+02
3.632250e+06	-2.674550e+01	1.736365e+02	-3.127874e+01	-4.295378e+00	-1.087142e+02	2.023832e+01	-2.592632e+01	1.719738e+02
3.632281e+06	-2.674397e+01	1.736379e+02	-3.128019e+01	-4.304578e+00	-1.013730e+02	1.411070e+01	-2.592459e+01	1.719732e+02
3.632312e+06	-2.674245e+01	1.736394e+02	-3.128164e+01	-4.313781e+00	-9.743488e+01	1.244130e+01	-2.592287e+01	1.719727e+02
3.632344e+06	-2.674092e+01	1.736408e+02	-3.128309e+01	-4.322987e+00	-9.473270e+01	1.166416e+01	-2.592114e+01	1.719722e+02
3.632375e+06	-2.674230e+01	1.736398e+02	-3.128156e+01	-4.300076e+00	-9.747810e+01	3.192003e+01	-2.592187e+01	1.719787e+02
3.632406e+06	-2.674372e+01	1.736387e+02	-3.127998e+01	-4.276652e+00	-9.884949e+01	6.652002e+01	-2.592263e+01	1.719853e+02
3.632437e+06	-2.674514e+01	1.736377e+02	-3.127840e+01	-4.253237e+00	-9.704354e+01	9.921270e+01	-2.592340e+01	1.719919e+02
3.632468e+06	-2.674656e+01	1.736367e+02	-3.127682e+01	-4.229830e+00	-9.419829e+01	1.176450e+02	-2.592417e+01	1.719985e+02
3.632500e+06	-2.674798e+01	1.736356e+02	-3.127523e+01	-4.206431e+00	-9.168296e+01	1.274662e+02	-2.592493e+01	1.720051e+02
3.632531e+06	-2.674718e+01	1.736403e+02	-3.127846e+01	-4.242311e+00	-9.301602e+01	1.235697e+02	-2.592578e+01	1.720051e+02
3.632562e+06	-2.674637e+01	1.736451e+02	-3.128172e+01	-4.278695e+00	-9.456077e+01	1.180008e+02	-2.592662e+01	1.720051e+02
3.632594e+06	-2.674555e+01	1.736498e+02	-3.128498e+01	-4.315107e+00	-9.629253e+01	1.098656e+02	-2.592747e+01	1.720050e+02
3.632625e+06	-2.674474e+01	1.736546e+02	-3.128824e+01	-4.351546e+00	-9.811995e+01	9.755691e+01	-2.592831e+01	1.720050e+02
3.632656e+06	-2.674392e+01	1.736593e+02	-3.129149e+01	-4.388013e+00	-9.966904e+01	7.922849e+01	-2.592916e+01	1.720049e+02
3.632687e+06	-2.674407e+01	1.736525e+02	-3.128733e+01	-4.372331e+00	-9.981575e+01	8.216631e+01	-2.592835e+01	1.719993e+02
3.632718e+06	-2.674422e+01	1.736456e+02	-3.128318e+01	-4.356663e+00	-9.994102e+01	8.519767e+01	-2.592753e+01	1.719938e+02
3.632750e+06	-2.674437e+01	1.736388e+02	-3.127902e+01	-4.341011e+00	-1.000428e+02	8.830939e+01	-2.592672e+01	1.719882e+02
3.632781e+06	-2.674453e+01	1.736319e+02	-3.127487e+01	-4.325373e+00	-1.001193e+02	9.148572e+01	-2.592590e+01	1.719827e+02
3.632812e+06	-2.674468e+01	1.736251e+02	-3.127072e+01	-4.309751e+00	-1.001692e+02	9.470867e+01	-2.592509e+01	1.719771e+02
3.632844e+06	-2.674519e+01	1.736282e+02	-3.127218e+01	-4.300721e+00	-9.968195e+01	8.212342e+01	-2.592595e+01	1.719843e+02
3.632875e+06	-2.674571e+01	1.736317e+02	-3.127377e+01	-4.291850e+00	-9.885223e+01	7.099623e+01	-2.592685e+01	1.719918e+02
3.632906e+06	-2.674622e+01	1.736351e+02	-3.127537e+01	-4.282976e+00	-9.785248e+01	6.200202e+01	-2.592775e+01	1.719993e+02
3.632937e+06	-2.674674e+01	1.736385e+02	-3.127696e+01	-4.274098e+00	-9.680383e+01	5.490839e+01	-2.592865e+01	1.720068e+02
3.632968e+06	-2.674726e+01	1.736419e+02	-3.127855e+01	-4.265217e+00	-9.577428e+01	4.932966e+01	-2.592956e+01	1.720143e+02
3.633000e+06	-2.674599e+01	1.736429e+02	-3.127789e+01	-4.261631e+00	-9.761852e+01	5.136014e+01	-2.592891e+01	1.720134e+02
3.633031e+06	-2.674470e+01	1.736437e+02	-3.127719e+01	-4.258131e+00	-1.000075e+02	5.485814e+01	-2.592823e+01	1.720123e+02
3.633062e+06	-2.674340e+01	1.736446e+02	-3.127649e+01	-4.254632e+00	-1.032236e+02	6.153833e+01	-2.592756e+01	1.720112e+02
3.633094e+06	-2.674211e+01	1.736455e+02	-3.127579e+01	-4.251133e+00	-1.078592e+02	7.823201e+01	-2.592688e+01	1.720102e+02
3.633125e+06	-2.674081e+01	1.736464e+02	-3.127510e+01	-4.247635e+00	-1.121263e+02	1.314174e+02	-2.592621e+01	1.720091e+02
3.633156e+06	-2.674201e+01	1.736469e+02	-3.127394e+01	-4.260207e+00	-1.025167e+02	2.592160e+01	-2.592592e+01	1.720083e+02
3.633187e+06	-2.674323e+01	1.736474e+02	-3.127277e+01	-4.272905e+00	-9.597024e+01	1.724805e+01	-2.592563e+01	1.720075e+02
3.633218e+06	-2.674446e+01	1.736480e+02	-3.127161e+01	-4.285600e+00	-9.224018e+01	1.460038e+01	-2.592535e+01	1.720066e+02
3.633250e+06	-2.674568e+01	1.736485e+02	-3.127044e+01	-4.298292e+00	-8.963250e+01	1.332435e+01	-2.592506e+01	1.720058e+02
3.633281e+06	-2.674690e+01	1.736490e+02	-3.126928e+01	-4.310980e+00	-8.762760e+01	1.257410e+01	-2.592478e+01	1.720050e+02
3.633312e+06	-2.674614e+01	1.736458e+02	-3.127066e+01	-4.315112e+00	-8.822715e+01	1.434746e+01	-2.592425e+01	1.720002e+02
3.633344e+06	-2.674538e+01	1.736425e+02	-3.127205e+01	-4.319245e+00	-8.886085e+01	1.639147e+01	-2.592373e+01	1.719953e+02
