# Hz S dB R 50.000
3.623281e+06	-2.673590e+01	1.736455e+02	-3.137873e+01	-5.182463e+00	-9.314583e+01	-4.573535e+01	-2.570999e+01	1.718964e+02
3.623312e+06	-2.673664e+01	1.736438e+02	-3.138142e+01	-5.168602e+00	-9.322410e+01	-2.466811e+01	-2.571004e+01	1.718894e+02
3.623344e+06	-2.673738e+01	1.736420e+02	-3.138411e+01	-5.154733e+00	-9.224888e+01	-5.751259e+00	-2.571009e+01	1.718824e+02
3.623375e+06	-2.673812e+01	1.736403e+02	-3.138680e+01	-5.140855e+00	-9.073586e+01	8.338508e+00	-2.571015e+01	1.718754e+02
3.623406e+06	-2.673886e+01	1.736386e+02	-3.138949e+01	-5.126968e+00	-8.913301e+01	1.812980e+01	-2.571020e+01	1.718685e+02
3.623437e+06	-2.673960e+01	1.736368e+02	-3.139218e+01	-5.113073e+00	-8.762895e+01	2.495960e+01	-2.571025e+01	1.718615e+02
3.623468e+06	-2.673855e+01	1.736362e+02	-3.139071e+01	-5.093980e+00	-8.933516e+01	3.545328e+01	-2.571045e+01	1.718718e+02
3.623500e+06	-2.673745e+01	1.736355e+02	-3.138914e+01	-5.074766e+00	-9.101261e+01	5.129686e+01	-2.571065e+01	1.718826e+02
3.623531e+06	-2.673636e+01	1.736349e+02	-3.138757e+01	-5.055560e+00	-9.196195e+01	7.297676e+01	-2.571085e+01	1.718933e+02
3.623562e+06	-2.673526e+01	1.736343e+02	-3.138601e+01	-5.036360e+00	-9.155600e+01	9.613490e+01	-2.571105e+01	1.719041e+02
3.623594e+06	-2.673417e+01	1.736336e+02	-3.138444e+01	-5.017167e+00	-9.009163e+01	1.146216e+02	-2.571125e+01	1.719148e+02
3.623625e+06	-2.673486e+01	1.736379e+02	-3.138456e+01	-5.009711e+00	-9.030271e+01	1.078027e+02	-2.571147e+01	1.719158e+02
3.623656e+06	-2.673557e+01	1.736423e+02	-3.138472e+01	-5.002446e+00	-9.040762e+01	1.003322e+02	-2.571169e+01	1.719166e+02
3.623687e+06	-2.673629e+01	1.736466e+02	-3.138488e+01	-4.995181e+00	-9.036351e+01	9.280886e+01	-2.571191e+01	1.719174e+02
3.623718e+06	-2.673701e+01	1.736510e+02	-3.138503e+01	-4.987915e+00	-9.017477e+01	8.548567e+01	-2.571213e+01	1.719182e+02
3.623750e+06	-2.673772e+01	1.736554e+02	-3.138519e+01	-4.980649e+00	-8.985916e+01	7.857766e+01	-2.571235e+01	1.719190e+02
3.623781e+06	-2.673705e+01	1.736542e+02	-3.138435e+01	-4.970483e+00	-9.127138e+01	7.117752e+01	-2.571173e+01	1.719133e+02
3.623812e+06	-2.673636e+01	1.736530e+02	-3.138349e+01	-4.960296e+00	-9.273332e+01	6.083502e+01	-2.571110e+01	1.719076e+02
3.623844e+06	-2.673567e+01	1.736517e+02	-3.138264e+01	-4.950111e+00	-9.401820e+01	4.657575e+01	-2.571047e+01	1.719019e+02
3.623875e+06	-2.673498e+01	1.736505e+02	-3.138179e+01	-4.939927e+00	-9.472686e+01	2.852522e+01	-2.570985e+01	1.718962e+02
3.623906e+06	-2.673429e+01	1.736493e+02	-3.138094e+01	-4.929746e+00	-9.451161e+01	9.379801e+00	-2.570922e+01	1.718905e+02
3.623937e+06	-2.673461e+01	1.736461e+02	-3.137877e+01	-4.905185e+00	-9.543706e+01	4.443588e+00	-2.571031e+01	1.718918e+02
3.623968e+06	-2.673493e+01	1.736429e+02	-3.137660e+01	-4.880636e+00	-9.638297e+01	-1.683476e+00	-2.571140e+01	1.718932e+02
3.624000e+06	-2.673525e+01	1.736396e+02	-3.137442e+01	-4.856100e+00	-9.730557e+01	-9.288946e+00	-2.571249e+01	1.718945e+02
3.624031e+06	-2.673556e+01	1.736364e+02	-3.137225e+01	-4.831576e+00	-9.812758e+01	-1.859989e+01	-2.571358e+01	1.718958e+02
3.624062e+06	-2.673588e+01	1.736332e+02	-3.137007e+01	-4.807064e+00	-9.873606e+01	-2.959689e+01	-2.571467e+01	1.718972e+02
3.624094e+06	-2.673534e+01	1.736330e+02	-3.136879e+01	-4.805335e+00	-1.001058e+02	-2.827788e+01	-2.571462e+01	1.718969e+02
3.624125e+06	-2.673477e+01	1.736329e+02	-3.136753e+01	-4.804166e+00	-1.017490e+02	-2.596034e+01	-2.571453e+01	1.718966e+02
3.624156e+06	-2.673421e+01	1.736327e+02	-3.136627e+01	-4.802998e+00	-1.037500e+02	-2.243343e+01	-2.571445e+01	1.718963e+02
3.624187e+06	-2.673364e+01	1.736326e+02	-3.136501e+01	-4.801830e+00	-1.062797e+02	-1.648454e+01	-2.571437e+01	1.718960e+02
3.624218e+06	-2.673308e+01	1.736325e+02	-3.136375e+01	-4.800663e+00	-1.095870e+02	-4.775204e+00	-2.571428e+01	1.718957e+02
3.624250e+06	-2.673465e+01	1.736418e+02	-3.136253e+01	-4.784387e+00	-1.079242e+02	5.849707e+01	-2.571303e+01	1.718994e+02
3.624281e+06	-2.673625e+01	1.736512e+02	-3.136131e+01	-4.767871e+00	-1.028267e+02	8.288452e+01	-2.571176e+01	1.719033e+02
3.624312e+06	-2.673785e+01	1.736606e+02	-3.136009e+01	-4.751359e+00	-9.924091e+01	9.162418e+01	-2.571050e+01	1.719071e+02
3.624344e+06	-2.673945e+01	1.736700e+02	-3.135887e+01	-4.734852e+00	-9.663640e+01	9.589681e+01	-2.570923e+01	1.719109e+02
3.624375e+06	-2.674106e+01	1.736794e+02	-3.135765e+01	-4.718349e+00	-9.461287e+01	9.840309e+01	-2.570796e+01	1.719147e+02
3.624406e+06	-2.673901e+01	1.736746e+02	-3.135444e+01	-4.692591e+00	-9.316894e+01	7.732322e+01	-2.570845e+01	1.719093e+02
3.624437e+06	-2.673693e+01	1.736696e+02	-3.135122e+01	-4.666778e+00	-9.123912e+01	6.305533e+01	-2.570896e+01	1.719038e+02
3.624468e+06	-2.673485e+01	1.736646e+02	-3.134799e+01	-4.640983e+00	-8.937252e+01	5.389539e+01	-2.570947e+01	1.718984e+02
3.624500e+06	-2.673277e+01	1.736597e+02	-3.134477e+01	-4.615208e+00	-8.771327e+01	4.780610e+01	-2.570997e+01	1.718929e+02
3.624531e+06	-2.673069e+01	1.736547e+02	-3.134154e+01	-4.589452e+00	-8.626235e+01	4.355366e+01	-2.571048e+01	1.718875e+02
3.624562e+06	-2.673072e+01	1.736523e+02	-3.133815e+01	-4.595772e+00	-8.758967e+01	4.059393e+01	-2.571166e+01	1.718847e+02
3.624594e+06	-2.673075e+01	1.736498e+02	-3.133476e+01	-4.602086e+00	-8.911850e+01	3.648017e+01	-2.571285e+01	1.718818e+02
3.624625e+06	-2.673079e+01	1.736474e+02	-3.133138e+01	-4.608396e+00	-9.089408e+01	3.045614e+01	-2.571403e+01	1.718790e+02
3.624656e+06	-2.673082e+01	1.736450e+02	-3.132799e+01	-4.614701e+00	-9.293587e+01	2.108281e+01	-2.571522e+01	1.718762e+02
3.624687e+06	-2.673085e+01	1.736426e+02	-3.132461e+01	-4.621001e+00	-9.509833e+01	5.759336e+00	-2.571640e+01	1.718734e+02
3.624718e+06	-2.673139e+01	1.736430e+02	-3.132106e+01	-4.623416e+00	-9.534100e+01	9.416475e+00	-2.571650e+01	1.718802e+02
3.624750e+06	-2.673195e+01	1.736435e+02	-3.131751e+01	-4.625733e+00	-9.549396e+01	1.381635e+01	-2.571656e+01	1.718872e+02
3.624781e+06	-2.673250e+01	1.736440e+02	-3.131396e+01	-4.628049e+00	-9.559600e+01	1.834758e+01	-2.571663e+01	1.718942e+02
3.624812e+06	-2.673306e+01	1.736446e+02	-3.131041e+01	-4.630363e+00	-9.564335e+01	2.295758e+01	-2.571670e+01	1.719013e+02
3.624844e+06	-2.673361e+01	1.736451e+02	-3.130687e+01	-4.632675e+00	-9.563420e+01	2.758795e+01	-2.571677e+01	1.719083e+02
3.624875e+06	-2.673344e+01	1.736549e+02	-3.130530e+01	-4.634320e+00	-9.638261e+01	1.342611e+01	-2.571523e+01	1.719025e+02
3.624906e+06	-2.673326e+01	1.736648e+02	-3.130377e+01	-4.635953e+00	-9.654860e+01	-2.695329e+00	-2.571367e+01	1.718964e+02
3.624937e+06	-2.673307e+01	1.736747e+02	-3.130224e+01	-4.637586e+00	-9.604821e+01	-1.819227e+01	-2.571211e+01	1.718904e+02
3.624968e+06	-2.673289e+01	1.736846e+02	-3.130070e+01	-4.639218e+00	-9.507086e+01	-3.121789e+01	-2.571054e+01	1.718844e+02
3.625000e+06	-2.673270e+01	1.736945e+02	-3.129917e+01	-4.640850e+00	-9.387784e+01	-4.132877e+01	-2.570898e+01	1.718783e+02
3.625031e+06	-2.673279e+01	1.736928e+02	-3.129392e+01	-4.650993e+00	-9.539998e+01	-3.525348e+01	-2.571018e+01	1.718852e+02
3.625062e+06	-2.673288e+01	1.736909e+02	-3.128864e+01	-4.661192e+00	-9.709620e+01	-2.625019e+01	-2.571141e+01	1.718922e+02
3.625094e+06	-2.673298e+01	1.736891e+02	-3.128336e+01	-4.671379e+00	-9.880249e+01	-1.286277e+01	-2.571263e+01	1.718992e+02
3.625125e+06	-2.673307e+01	1.736872e+02	-3.127808e+01	-4.681553e+00	-1.000793e+02	6.188667e+00	-2.571386e+01	1.719062e+02
3.625156e+06	-2.673316e+01	1.736854e+02	-3.127281e+01	-4.691715e+00	-1.002469e+02	2.886173e+01	-2.571508e+01	1.719132e+02
3.625187e+06	-2.673271e+01	1.736878e+02	-3.127446e+01	-4.709607e+00	-9.916503e+01	4.179139e+01	-2.571437e+01	1.719161e+02
3.625218e+06	-2.673226e+01	1.736903e+02	-3.127610e+01	-4.727506e+00	-9.790216e+01	5.162682e+01	-2.571365e+01	1.719189e+02
3.625250e+06	-2.673181e+01	1.736927e+02	-3.127774e+01	-4.745411e+00	-9.663183e+01	5.895817e+01	-2.571294e+01	1.719218e+02
3.625281e+06	-2.673136e+01	1.736952e+02	-3.127939e+01	-4.763324e+00	-9.542976e+01	6.446684e+01	-2.571223e+01	1.719247e+02
3.625312e+06	-2.673091e+01	1.736976e+02	-3.128103e+01	-4.781243e+00	-9.431956e+01	6.868534e+01	-2.571152e+01	1.719275e+02
3.625344e+06	-2.673152e+01	1.736940e+02	-3.127838e+01	-4.819995e+00	-9.535585e+01	7.314292e+01	-2.571105e+01	1.719201e+02
3.625375e+06	-2.673216e+01	1.736902e+02	-3.127562e+01	-4.859235e+00	-9.651967e+01	7.893071e+01	-2.571058e+01	1.719124e+02
3.625406e+06	-2.673280e+01	1.736864e+02	-3.127286e+01	-4.898450e+00	-9.772807e+01	8.654562e+01	-2.571012e+01	1.719047e+02
3.625437e+06	-2.673343e+01	1.736826e+02	-3.127009e+01	-4.937640e+00	-9.889549e+01	9.657785e+01	-2.570965e+01	1.718970e+02
3.625468e+06	-2.673407e+01	1.736788e+02	-3.126732e+01	-4.976805e+00	-9.984863e+01	1.094263e+02	-2.570919e+01	1.718893e+02
3.625500e+06	-2.673512e+01	1.736799e+02	-3.126490e+01	-4.973542e+00	-9.959245e+01	1.239731e+02	-2.571008e+01	1.718843e+02
3.625531e+06	-2.673619e+01	1.736811e+02	-3.126249e+01	-4.969592e+00	-9.885076e+01	1.369025e+02	-2.571100e+01	1.718793e+02
3.625562e+06	-2.673725e+01	1.736823e+02	-3.126008e+01	-4.965644e+00	-9.783499e+01	1.474333e+02	-2.571191e+01	1.718743e+02
3.625594e+06	-2.673831e+01	1.736835e+02	-3.125766e+01	-4.961698e+00	-9.671951e+01	1.556546e+02	-2.571283e+01	1.718693e+02
3.625625e+06	-2.673937e+01	1.736847e+02	-3.125525e+01	-4.957755e+00	-9.560783e+01	1.620076e+02	-2.571374e+01	1.718642e+02
3.625656e+06	-2.673904e+01	1.736833e+02	-3.125571e+01	-4.992042e+00	-9.997241e+01	1.424162e+02	-2.571413e+01	1.718712e+02
3.625687e+06	-2.673870e+01	1.736819e+02	-3.125619e+01	-5.026641e+00	-1.029371e+02	9.037391e+01	-2.571452e+01	1.718782e+02
3.625718e+06	-2.673836e+01	1.736804e+02	-3.125667e+01	-5.061244e+00	-9.892667e+01	4.602480e+01	-2.571490e+01	1.718852e+02
3.625750e+06	-2.673801e+01	1.736790e+02	-3.125714e+01	-5.095850e+00	-9.478606e+01	3.015262e+01	-2.571529e+01	1.718923e+02
3.625781e+06	-2.673767e+01	1.736776e+02	-3.125761e+01	-5.130461e+00	-9.178272e+01	2.325148e+01	-2.571567e+01	1.718993e+02
3.625812e+06	-2.673722e+01	1.736750e+02	-3.125627e+01	-5.134778e+00	-9.196226e+01	2.865597e+01	-2.571515e+01	1.718971e+02
3.625844e+06	-2.673677e+01	1.736724e+02	-3.125493e+01	-5.139093e+00	-9.206411e+01	3.423897e+01	-2.571463e+01	1.718950e+02
3.625875e+06	-2.673631e+01	1.736698e+02	-3.125360e+01	-5.143407e+00	-9.208263e+01	3.990013e+01	-2.571411e+01	1.718929e+02
3.625906e+06	-2.673586e+01	1.736672e+02	-3.125226e+01	-5.147720e+00	-9.201673e+01	4.553040e+01	-2.571358e+01	1.718907e+02
3.625937e+06	-2.673541e+01	1.736646e+02	-3.125092e+01	-5.152032e+00	-9.187017e+01	5.102420e+01	-2.571306e+01	1.718886e+02
3.625968e+06	-2.673571e+01	1.736700e+02	-3.125432e+01	-5.155646e+00	-9.185516e+01	4.459588e+01	-2.571143e+01	1.718921e+02
3.626000e+06	-2.673604e+01	1.736757e+02	-3.125783e+01	-5.159245e+00	-9.172847e+01	3.798200e+01	-2.570977e+01	1.718959e+02
3.626031e+06	-2.673636e+01	1.736814e+02	-3.126134e+01	-5.162848e+00	-9.149429e+01	3.163841e+01	-2.570811e+01	1.718996e+02
3.626062e+06	-2.673668e+01	1.736870e+02	-3.126486e+01	-5.166454e+00	-9.116910e+01	2.569195e+01	-2.570645e+01	1.719033e+02
3.626094e+06	-2.673700e+01	1.736927e+02	-3.126837e+01	-5.170062e+00	-9.077268e+01	2.022106e+01	-2.570480e+01	1.719070e+02
3.626125e+06	-2.673611e+01	1.736850e+02	-3.126871e+01	-5.181229e+00	-9.066626e+01	2.115440e+01	-2.570594e+01	1.718999e+02
3.626156e+06	-2.673520e+01	1.736771e+02	-3.126900e+01	-5.192518e+00	-9.056347e+01	2.216391e+01	-2.570714e+01	1.718925e+02
3.626187e+06	-2.673429e+01	1.736692e+02	-3.126929e+01	-5.203809e+00	-9.045929e+01	2.314965e+01	-2.570833e+01	1.718852e+02
3.626218e+06	-2.673338e+01	1.736613e+02	-3.126957e+01	-5.215101e+00	-9.035386e+01	2.411189e+01	-2.570953e+01	1.718778e+02
3.626250e+06	-2.673247e+01	1.736534e+02	-3.126986e+01	-5.226393e+00	-9.024734e+01	2.505092e+01	-2.571072e+01	1.718705e+02
3.626281e+06	-2.673348e+01	1.736593e+02	-3.126895e+01	-5.211467e+00	-9.299858e+01	3.331224e+01	-2.571139e+01	1.718792e+02
3.626312e+06	-2.673450e+01	1.736654e+02	-3.126803e+01	-5.196332e+00	-9.649361e+01	5.059475e+01	-2.571206e+01	1.718880e+02
3.626344e+06	-2.673553e+01	1.736715e+02	-3.126712e+01	-5.181201e+00	-9.929452e+01	8.842345e+01	-2.571272e+01	1.718968e+02
3.626375e+06	-2.673655e+01	1.736775e+02	-3.126620e+01	-5.166074e+00	-9.740740e+01	1.313720e+02	-2.571339e+01	1.719057e+02
3.626406e+06	-2.673758e+01	1.736836e+02	-3.126528e+01	-5.150949e+00	-9.380627e+01	1.526075e+02	-2.571405e+01	1.719145e+02
3.626437e+06	-2.673749e+01	1.736852e+02	-3.126396e+01	-5.167640e+00	-9.952339e+01	1.441116e+02	-2.571367e+01	1.719136e+02
3.626468e+06	-2.673740e+01	1.736867e+02	-3.126265e+01	-5.184326e+00	-1.100056e+02	7.159355e+01	-2.571330e+01	1.719126e+02
3.626500e+06	-2.673731e+01	1.736883e+02	-3.126133e+01	-5.201007e+00	-9.952992e+01	-1.061846e+00	-2.571292e+01	1.719117e+02
3.626531e+06	-2.673721e+01	1.736898e+02	-3.126001e+01	-5.217683e+00	-9.380977e+01	-9.567665e+00	-2.571255e+01	1.719108e+02
3.626562e+06	-2.673712e+01	1.736914e+02	-3.125869e+01	-5.234354e+00	-9.034568e+01	-1.251276e+01	-2.571217e+01	1.719098e+02
3.626594e+06	-2.673684e+01	1.736831e+02	-3.126174e+01	-5.236173e+00	-9.077478e+01	-1.789753e+01	-2.571306e+01	1.719021e+02
3.626625e+06	-2.673655e+01	1.736746e+02	-3.126490e+01	-5.237629e+00	-9.122328e+01	-2.399857e+01	-2.571398e+01	1.718942e+02
3.626656e+06	-2.673626e+01	1.736661e+02	-3.126806e+01	-5.239085e+00	-9.158219e+01	-3.069654e+01	-2.571491e+01	1.718864e+02
3.626687e+06	-2.673597e+01	1.736575e+02	-3.127123e+01	-5.240543e+00	-9.182393e+01	-3.787651e+01	-2.571583e+01	1.718785e+02
3.626718e+06	-2.673568e+01	1.736490e+02	-3.127439e+01	-5.242002e+00	-9.192674e+01	-4.534864e+01	-2.571676e+01	1.718706e+02
3.626750e+06	-2.673480e+01	1.736497e+02	-3.127485e+01	-5.243195e+00	-9.174279e+01	-3.530441e+01	-2.571523e+01	1.718784e+02
3.626781e+06	-2.673392e+01	1.736506e+02	-3.127526e+01	-5.244383e+00	-9.130476e+01	-2.569397e+01	-2.571366e+01	1.718864e+02
3.626812e+06	-2.673303e+01	1.736514e+02	-3.127567e+01	-5.245572e+00	-9.068212e+01	-1.719699e+01	-2.571209e+01	1.718945e+02
3.626844e+06	-2.673214e+01	1.736523e+02	-3.127608e+01	-5.246761e+00	-8.994859e+01	-9.935486e+00	-2.571052e+01	1.719025e+02
3.626875e+06	-2.673125e+01	1.736531e+02	-3.127650e+01	-5.247950e+00	-8.916399e+01	-3.843269e+00	-2.570895e+01	1.719105e+02
3.626906e+06	-2.673189e+01	1.736648e+02	-3.127698e+01	-5.235270e+00	-9.015189e+01	7.368250e+00	-2.570946e+01	1.719105e+02
3.626937e+06	-2.673255e+01	1.736767e+02	-3.127746e+01	-5.222476e+00	-9.082521e+01	2.105155e+01	-2.570999e+01	1.719104e+02
3.626968e+06	-2.673321e+01	1.736885e+02	-3.127795e+01	-5.209681e+00	-9.096658e+01	3.611072e+01	-2.571052e+01	1.719104e+02
3.627000e+06	-2.673387e+01	1.737004e+02	-3.127843e+01	-5.196884e+00	-9.052482e+01	5.064652e+01	-2.571104e+01	1.719103e+02
3.627031e+06	-2.673453e+01	1.737122e+02	-3.127891e+01	-5.184086e+00	-8.964942e+01	6.310135e+01	-2.571157e+01	1.719102e+02
3.627062e+06	-2.673428e+01	1.737106e+02	-3.127910e+01	-5.202239e+00	-8.992342e+01	4.905631e+01	-2.571230e+01	1.719086e+02
3.627094e+06	-2.673403e+01	1.737090e+02	-3.127930e+01	-5.220394e+00	-8.966895e+01	3.497900e+01	-2.571303e+01	1.719071e+02
3.627125e+06	-2.673378e+01	1.737074e+02	-3.127949e+01	-5.238549e+00	-8.896771e+01	2.239398e+01	-2.571377e+01	1.719055e+02
3.627156e+06	-2.673353e+01	1.737058e+02	-3.127968e+01	-5.256705e+00	-8.799934e+01	1.203676e+01	-2.571450e+01	1.719039e+02
3.627187e+06	-2.673329e+01	1.737041e+02	-3.127988e+01	-5.274861e+00	-8.692581e+01	3.866164e+00	-2.571523e+01	1.719023e+02
3.627218e+06	-2.673445e+01	1.737072e+02	-3.127808e+01	-5.277403e+00	-8.909022e+01	6.143969e+00	-2.571507e+01	1.719026e+02
3.627250e+06	-2.673565e+01	1.737105e+02	-3.127624e+01	-5.279560e+00	-9.207056e+01	1.069997e+01	-2.571489e+01	1.719028e+02
3.627281e+06	-2.673686e+01	1.737137e+02	-3.127440e+01	-5.281716e+00	-9.642760e+01	2.135367e+01	-2.571470e+01	1.719031e+02
3.627312e+06	-2.673806e+01	1.737169e+02	-3.127256e+01	-5.283871e+00	-1.027098e+02	6.034958e+01	-2.571452e+01	1.719033e+02
3.627344e+06	-2.673926e+01	1.737201e+02	-3.127072e+01	-5.286026e+00	-1.000599e+02	1.332866e+02	-2.571433e+01	1.719036e+02
3.627375e+06	-2.673882e+01	1.737127e+02	-3.127277e+01	-5.269770e+00	-9.942083e+01	1.445975e+02	-2.571427e+01	1.719097e+02
3.627406e+06	-2.673835e+01	1.737050e+02	-3.127488e+01	-5.253207e+00	-9.866279e+01	1.539362e+02	-2.571421e+01	1.719160e+02
3.627437e+06	-2.673789e+01	1.736974e+02	-3.127699e+01	-5.236635e+00	-9.778955e+01	1.616650e+02	-2.571415e+01	1.719222e+02
3.627468e+06	-2.673742e+01	1.736897e+02	-3.127910e+01	-5.220056e+00	-9.687884e+01	1.679524e+02	-2.571408e+01	1.719284e+02
3.627500e+06	-2.673695e+01	1.736821e+02	-3.128121e+01	-5.203469e+00	-9.597749e+01	1.730524e+02	-2.571402e+01	1.719347e+02
3.627531e+06	-2.673547e+01	1.736800e+02	-3.128323e+01	-5.209693e+00	-9.817304e+01	1.765793e+02	-2.571394e+01	1.719343e+02
3.627562e+06	-2.673397e+01	1.736779e+02	-3.128524e+01	-5.216104e+00	-1.010769e+02	-1.770778e+02	-2.571387e+01	1.719339e+02
3.627594e+06	-2.673248e+01	1.736759e+02	-3.128725e+01	-5.222517e+00	-1.050801e+02	-1.629139e+02	-2.571379e+01	1.719335e+02
3.627625e+06	-2.673098e+01	1.736738e+02	-3.128927e+01	-5.228934e+00	-1.094615e+02	-1.229373e+02	-2.571372e+01	1.719331e+02
3.627656e+06	-2.672949e+01	1.736718e+02	-3.129128e+01	-5.235354e+00	-1.072439e+02	-6.742695e+01	-2.571364e+01	1.719327e+02
3.627687e+06	-2.673015e+01	1.736717e+02	-3.128938e+01	-5.238944e+00	-1.042008e+02	-2.307711e+01	-2.571371e+01	1.719294e+02
3.627718e+06	-2.673081e+01	1.736716e+02	-3.128749e+01	-5.242533e+00	-1.002540e+02	-4.860365e+00	-2.571378e+01	1.719260e+02
3.627750e+06	-2.673147e+01	1.736716e+02	-3.128559e+01	-5.246120e+00	-9.726342e+01	3.225052e+00	-2.571385e+01	1.719227e+02
3.627781e+06	-2.673213e+01	1.736715e+02	-3.128370e+01	-5.249706e+00	-9.497018e+01	7.615343e+00	-2.571392e+01	1.719193e+02
3.627812e+06	-2.673278e+01	1.736714e+02	-3.128181e+01	-5.253290e+00	-9.313196e+01	1.034218e+01	-2.571399e+01	1.719160e+02
3.627844e+06	-2.673311e+01	1.736701e+02	-3.128028e+01	-5.261068e+00	-9.421625e+01	9.156708e+00	-2.571419e+01	1.719149e+02
3.627875e+06	-2.673344e+01	1.736687e+02	-3.127877e+01	-5.268946e+00	-9.553564e+01	7.475828e+00	-2.571439e+01	1.719138e+02
3.627906e+06	-2.673376e+01	1.736673e+02	-3.127725e+01	-5.276821e+00	-9.707955e+01	5.138282e+00	-2.571460e+01	1.719127e+02
3.627937e+06	-2.673408e+01	1.736660e+02	-3.127574e+01	-5.284694e+00	-9.893198e+01	1.681119e+00	-2.571480e+01	1.719117e+02
3.627968e+06	-2.673440e+01	1.736646e+02	-3.127422e+01	-5.292564e+00	-1.012228e+02	-3.894670e+00	-2.571501e+01	1.719106e+02
3.628000e+06	-2.673393e+01	1.736695e+02	-3.127436e+01	-5.287846e+00	-9.984368e+01	-5.926142e+00	-2.571401e+01	1.719204e+02
3.628031e+06	-2.673344e+01	1.736745e+02	-3.127452e+01	-5.282924e+00	-9.859847e+01	-7.357850e+00	-2.571299e+01	1.719303e+02
3.628062e+06	-2.673295e+01	1.736795e+02	-3.127468e+01	-5.278001e+00	-9.750594e+01	-8.451676e+00	-2.571197e+01	1.719402e+02
3.628094e+06	-2.673245e+01	1.736846e+02	-3.127484e+01	-5.273078e+00	-9.653337e+01	-9.314026e+00	-2.571096e+01	1.719501e+02
3.628125e+06	-2.673196e+01	1.736896e+02	-3.127500e+01	-5.268155e+00	-9.565738e+01	-1.001105e+01	-2.570994e+01	1.719600e+02
3.628156e+06	-2.673206e+01	1.736831e+02	-3.127539e+01	-5.267660e+00	-9.423080e+01	-1.267470e+01	-2.571106e+01	1.719529e+02
3.628187e+06	-2.673216e+01	1.736766e+02	-3.127579e+01	-5.267201e+00	-9.298945e+01	-1.464716e+01	-2.571219e+01	1.719457e+02
3.628218e+06	-2.673226e+01	1.736700e+02	-3.127619e+01	-5.266742e+00	-9.189658e+01	-1.615468e+01	-2.571333e+01	1.719385e+02
3.628250e+06	-2.673236e+01	1.736635e+02	-3.127658e+01	-5.266282e+00	-9.092174e+01	-1.734280e+01	-2.571446e+01	1.719313e+02
3.628281e+06	-2.673246e+01	1.736569e+02	-3.127698e+01	-5.265823e+00	-9.004263e+01	-1.830253e+01	-2.571560e+01	1.719241e+02
3.628312e+06	-2.673274e+01	1.736586e+02	-3.127586e+01	-5.268195e+00	-8.989904e+01	-2.969461e+01	-2.571546e+01	1.719197e+02
3.628344e+06	-2.673302e+01	1.736603e+02	-3.127475e+01	-5.270566e+00	-8.944357e+01	-4.031831e+01	-2.571532e+01	1.719153e+02
