# Hz S dB R 50.000
3.622656e+06	-2.674595e+01	1.736679e+02	-3.139013e+01	-5.360323e+00	-8.909867e+01	-4.563516e+00	-2.569898e+01	1.718859e+02
3.622687e+06	-2.674573e+01	1.736607e+02	-3.138500e+01	-5.345737e+00	-8.980126e+01	-7.940940e+00	-2.569993e+01	1.718848e+02
3.622718e+06	-2.674551e+01	1.736534e+02	-3.137987e+01	-5.331169e+00	-9.052689e+01	-1.192288e+01	-2.570088e+01	1.718838e+02
3.622750e+06	-2.674529e+01	1.736462e+02	-3.137475e+01	-5.316617e+00	-9.126434e+01	-1.663687e+01	-2.570183e+01	1.718827e+02
3.622781e+06	-2.674507e+01	1.736390e+02	-3.136962e+01	-5.302083e+00	-9.199392e+01	-2.222078e+01	-2.570279e+01	1.718817e+02
3.622812e+06	-2.674485e+01	1.736318e+02	-3.136450e+01	-5.287566e+00	-9.268406e+01	-2.880026e+01	-2.570374e+01	1.718806e+02
3.622844e+06	-2.674395e+01	1.736294e+02	-3.136507e+01	-5.300935e+00	-9.576884e+01	-1.970800e+01	-2.570258e+01	1.718835e+02
3.622875e+06	-2.674305e+01	1.736271e+02	-3.136577e+01	-5.314992e+00	-9.977958e+01	2.170179e+00	-2.570138e+01	1.718865e+02
3.622906e+06	-2.674214e+01	1.736249e+02	-3.136648e+01	-5.329052e+00	-1.018011e+02	5.043833e+01	-2.570018e+01	1.718894e+02
3.622937e+06	-2.674123e+01	1.736226e+02	-3.136718e+01	-5.343113e+00	-9.831324e+01	8.951390e+01	-2.569897e+01	1.718924e+02
3.622968e+06	-2.674032e+01	1.736203e+02	-3.136789e+01	-5.357177e+00	-9.456641e+01	1.054199e+02	-2.569777e+01	1.718954e+02
3.623000e+06	-2.674048e+01	1.736294e+02	-3.137094e+01	-5.343409e+00	-9.538252e+01	9.390230e+01	-2.569783e+01	1.718950e+02
3.623031e+06	-2.674065e+01	1.736386e+02	-3.137403e+01	-5.329179e+00	-9.588112e+01	7.996901e+01	-2.569792e+01	1.718947e+02
3.623062e+06	-2.674082e+01	1.736478e+02	-3.137712e+01	-5.314938e+00	-9.583802e+01	6.526908e+01	-2.569801e+01	1.718943e+02
3.623094e+06	-2.674100e+01	1.736570e+02	-3.138021e+01	-5.300687e+00	-9.526820e+01	5.159093e+01	-2.569809e+01	1.718940e+02
3.623125e+06	-2.674117e+01	1.736662e+02	-3.138331e+01	-5.286426e+00	-9.434357e+01	4.010718e+01	-2.569818e+01	1.718936e+02
3.623156e+06	-2.674141e+01	1.736606e+02	-3.138296e+01	-5.281219e+00	-9.570772e+01	2.632694e+01	-2.569794e+01	1.718996e+02
3.623187e+06	-2.674166e+01	1.736549e+02	-3.138259e+01	-5.276086e+00	-9.657204e+01	8.338019e+00	-2.569769e+01	1.719056e+02
3.623218e+06	-2.674190e+01	1.736492e+02	-3.138222e+01	-5.270953e+00	-9.649591e+01	-1.142733e+01	-2.569744e+01	1.719116e+02
3.623250e+06	-2.674215e+01	1.736434e+02	-3.138184e+01	-5.265820e+00	-9.552289e+01	-2.886646e+01	-2.569720e+01	1.719177e+02
3.623281e+06	-2.674239e+01	1.736377e+02	-3.138147e+01	-5.260688e+00	-9.410038e+01	-4.201386e+01	-2.569695e+01	1.719237e+02
3.623312e+06	-2.674222e+01	1.736331e+02	-3.138179e+01	-5.260741e+00	-9.521725e+01	-3.144252e+01	-2.569692e+01	1.719185e+02
3.623344e+06	-2.674206e+01	1.736284e+02	-3.138211e+01	-5.260795e+00	-9.607065e+01	-1.813527e+01	-2.569690e+01	1.719133e+02
3.623375e+06	-2.674189e+01	1.736238e+02	-3.138243e+01	-5.260848e+00	-9.642019e+01	-2.806152e+00	-2.569687e+01	1.719081e+02
3.623406e+06	-2.674173e+01	1.736191e+02	-3.138275e+01	-5.260901e+00	-9.613565e+01	1.264098e+01	-2.569685e+01	1.719029e+02
3.623437e+06	-2.674156e+01	1.736145e+02	-3.138307e+01	-5.260955e+00	-9.532459e+01	2.621997e+01	-2.569682e+01	1.718977e+02
3.623468e+06	-2.674234e+01	1.736251e+02	-3.138160e+01	-5.249130e+00	-9.664361e+01	1.623685e+01	-2.569680e+01	1.718956e+02
3.623500e+06	-2.674314e+01	1.736362e+02	-3.138008e+01	-5.237018e+00	-9.781049e+01	2.112765e+00	-2.569679e+01	1.718935e+02
3.623531e+06	-2.674393e+01	1.736472e+02	-3.137857e+01	-5.224910e+00	-9.840824e+01	-1.528440e+01	-2.569677e+01	1.718914e+02
3.623562e+06	-2.674473e+01	1.736582e+02	-3.137705e+01	-5.212806e+00	-9.816090e+01	-3.342212e+01	-2.569676e+01	1.718893e+02
3.623594e+06	-2.674553e+01	1.736692e+02	-3.137553e+01	-5.200707e+00	-9.719140e+01	-4.912254e+01	-2.569674e+01	1.718872e+02
3.623625e+06	-2.674584e+01	1.736663e+02	-3.137706e+01	-5.199486e+00	-1.001142e+02	-4.697080e+01	-2.569606e+01	1.718850e+02
3.623656e+06	-2.674614e+01	1.736632e+02	-3.137863e+01	-5.198442e+00	-1.046318e+02	-4.127036e+01	-2.569536e+01	1.718827e+02
3.623687e+06	-2.674644e+01	1.736601e+02	-3.138020e+01	-5.197397e+00	-1.133525e+02	-1.413974e+01	-2.569467e+01	1.718805e+02
3.623718e+06	-2.674675e+01	1.736570e+02	-3.138177e+01	-5.196352e+00	-1.109648e+02	9.487454e+01	-2.569397e+01	1.718783e+02
3.623750e+06	-2.674705e+01	1.736539e+02	-3.138335e+01	-5.195306e+00	-1.035085e+02	1.125962e+02	-2.569328e+01	1.718760e+02
3.623781e+06	-2.674561e+01	1.736624e+02	-3.138085e+01	-5.177425e+00	-1.030318e+02	6.718549e+01	-2.569348e+01	1.718802e+02
3.623812e+06	-2.674415e+01	1.736710e+02	-3.137832e+01	-5.159419e+00	-9.950757e+01	4.008609e+01	-2.569369e+01	1.718844e+02
3.623844e+06	-2.674269e+01	1.736796e+02	-3.137578e+01	-5.141423e+00	-9.634591e+01	2.790662e+01	-2.569391e+01	1.718886e+02
3.623875e+06	-2.674124e+01	1.736882e+02	-3.137325e+01	-5.123437e+00	-9.387631e+01	2.157267e+01	-2.569412e+01	1.718929e+02
3.623906e+06	-2.673978e+01	1.736968e+02	-3.137072e+01	-5.105462e+00	-9.190469e+01	1.777911e+01	-2.569433e+01	1.718971e+02
3.623937e+06	-2.674084e+01	1.736957e+02	-3.137145e+01	-5.095090e+00	-9.205670e+01	1.133415e+01	-2.569553e+01	1.718985e+02
3.623968e+06	-2.674189e+01	1.736947e+02	-3.137217e+01	-5.084716e+00	-9.209716e+01	4.744154e+00	-2.569673e+01	1.718999e+02
3.624000e+06	-2.674295e+01	1.736936e+02	-3.137290e+01	-5.074340e+00	-9.202295e+01	-1.820170e+00	-2.569794e+01	1.719013e+02
3.624031e+06	-2.674401e+01	1.736926e+02	-3.137363e+01	-5.063962e+00	-9.183973e+01	-8.191990e+00	-2.569914e+01	1.719027e+02
3.624062e+06	-2.674506e+01	1.736915e+02	-3.137435e+01	-5.053583e+00	-9.156064e+01	-1.423227e+01	-2.570034e+01	1.719041e+02
3.624094e+06	-2.674497e+01	1.736832e+02	-3.137363e+01	-5.028505e+00	-9.300795e+01	-1.539604e+01	-2.569941e+01	1.719040e+02
3.624125e+06	-2.674485e+01	1.736748e+02	-3.137287e+01	-5.003069e+00	-9.479943e+01	-1.692047e+01	-2.569843e+01	1.719039e+02
3.624156e+06	-2.674473e+01	1.736663e+02	-3.137211e+01	-4.977638e+00	-9.704634e+01	-1.934766e+01	-2.569744e+01	1.719039e+02
3.624187e+06	-2.674461e+01	1.736578e+02	-3.137135e+01	-4.952212e+00	-1.000449e+02	-2.379073e+01	-2.569646e+01	1.719038e+02
3.624218e+06	-2.674449e+01	1.736493e+02	-3.137058e+01	-4.926790e+00	-1.044534e+02	-3.426255e+01	-2.569548e+01	1.719037e+02
3.624250e+06	-2.674341e+01	1.736487e+02	-3.137026e+01	-4.919466e+00	-1.022431e+02	-2.331597e+01	-2.569660e+01	1.718931e+02
3.624281e+06	-2.674232e+01	1.736483e+02	-3.136995e+01	-4.912437e+00	-1.002329e+02	-1.639661e+01	-2.569775e+01	1.718824e+02
3.624312e+06	-2.674122e+01	1.736478e+02	-3.136964e+01	-4.905409e+00	-9.853318e+01	-1.188884e+01	-2.569891e+01	1.718716e+02
3.624344e+06	-2.674012e+01	1.736474e+02	-3.136933e+01	-4.898381e+00	-9.708052e+01	-8.754752e+00	-2.570007e+01	1.718608e+02
3.624375e+06	-2.673903e+01	1.736469e+02	-3.136902e+01	-4.891353e+00	-9.581988e+01	-6.462059e+00	-2.570122e+01	1.718501e+02
3.624406e+06	-2.673738e+01	1.736499e+02	-3.136673e+01	-4.861989e+00	-9.577998e+01	1.776434e+01	-2.570110e+01	1.718556e+02
3.624437e+06	-2.673573e+01	1.736530e+02	-3.136442e+01	-4.832461e+00	-9.443847e+01	3.843502e+01	-2.570097e+01	1.718612e+02
3.624468e+06	-2.673407e+01	1.736561e+02	-3.136211e+01	-4.802948e+00	-9.259909e+01	5.260217e+01	-2.570085e+01	1.718668e+02
3.624500e+06	-2.673242e+01	1.736591e+02	-3.135980e+01	-4.773450e+00	-9.079050e+01	6.185638e+01	-2.570072e+01	1.718724e+02
3.624531e+06	-2.673077e+01	1.736622e+02	-3.135749e+01	-4.743969e+00	-8.916619e+01	6.807448e+01	-2.570059e+01	1.718780e+02
3.624562e+06	-2.673258e+01	1.736668e+02	-3.135577e+01	-4.744243e+00	-9.090631e+01	8.039618e+01	-2.570020e+01	1.718840e+02
3.624594e+06	-2.673440e+01	1.736714e+02	-3.135405e+01	-4.744516e+00	-9.234416e+01	9.831540e+01	-2.569982e+01	1.718899e+02
3.624625e+06	-2.673621e+01	1.736760e+02	-3.135234e+01	-4.744790e+00	-9.279537e+01	1.207994e+02	-2.569943e+01	1.718959e+02
3.624656e+06	-2.673803e+01	1.736806e+02	-3.135062e+01	-4.745063e+00	-9.194436e+01	1.422206e+02	-2.569905e+01	1.719018e+02
3.624687e+06	-2.673985e+01	1.736852e+02	-3.134890e+01	-4.745336e+00	-9.034298e+01	1.582055e+02	-2.569866e+01	1.719078e+02
3.624718e+06	-2.673887e+01	1.736885e+02	-3.134350e+01	-4.734876e+00	-9.797094e+01	1.526709e+02	-2.569800e+01	1.719028e+02
3.624750e+06	-2.673783e+01	1.736918e+02	-3.133802e+01	-4.724165e+00	-1.038636e+02	2.506423e+00	-2.569734e+01	1.718976e+02
3.624781e+06	-2.673679e+01	1.736951e+02	-3.133254e+01	-4.713468e+00	-9.218392e+01	-1.229893e+01	-2.569668e+01	1.718923e+02
3.624812e+06	-2.673575e+01	1.736984e+02	-3.132706e+01	-4.702784e+00	-8.732665e+01	-1.448081e+01	-2.569602e+01	1.718871e+02
3.624844e+06	-2.673471e+01	1.737017e+02	-3.132159e+01	-4.692114e+00	-8.422648e+01	-1.535353e+01	-2.569536e+01	1.718819e+02
3.624875e+06	-2.673683e+01	1.737019e+02	-3.131622e+01	-4.670757e+00	-8.577420e+01	-1.840710e+01	-2.569632e+01	1.718867e+02
3.624906e+06	-2.673900e+01	1.737020e+02	-3.131085e+01	-4.649252e+00	-8.770923e+01	-2.305137e+01	-2.569731e+01	1.718916e+02
3.624937e+06	-2.674117e+01	1.737022e+02	-3.130549e+01	-4.627775e+00	-9.007796e+01	-3.068826e+01	-2.569829e+01	1.718966e+02
3.624968e+06	-2.674335e+01	1.737023e+02	-3.130013e+01	-4.606323e+00	-9.293587e+01	-4.472662e+01	-2.569928e+01	1.719015e+02
3.625000e+06	-2.674552e+01	1.737024e+02	-3.129477e+01	-4.584898e+00	-9.562338e+01	-7.206952e+01	-2.570026e+01	1.719065e+02
3.625031e+06	-2.674370e+01	1.736997e+02	-3.128846e+01	-4.613715e+00	-9.824649e+01	-8.185298e+01	-2.569969e+01	1.719091e+02
3.625062e+06	-2.674184e+01	1.736969e+02	-3.128214e+01	-4.642894e+00	-1.013148e+02	-1.004989e+02	-2.569911e+01	1.719118e+02
3.625094e+06	-2.673998e+01	1.736942e+02	-3.127582e+01	-4.672031e+00	-1.033143e+02	-1.354590e+02	-2.569853e+01	1.719144e+02
3.625125e+06	-2.673813e+01	1.736914e+02	-3.126950e+01	-4.701126e+00	-1.016769e+02	-1.721429e+02	-2.569794e+01	1.719171e+02
3.625156e+06	-2.673627e+01	1.736887e+02	-3.126319e+01	-4.730178e+00	-9.860359e+01	1.675337e+02	-2.569736e+01	1.719197e+02
3.625187e+06	-2.673868e+01	1.736891e+02	-3.125897e+01	-4.754771e+00	-9.999713e+01	1.437000e+02	-2.569753e+01	1.719201e+02
3.625218e+06	-2.674108e+01	1.736895e+02	-3.125475e+01	-4.779339e+00	-9.965201e+01	1.165757e+02	-2.569770e+01	1.719205e+02
3.625250e+06	-2.674349e+01	1.736898e+02	-3.125052e+01	-4.803884e+00	-9.788470e+01	9.562922e+01	-2.569787e+01	1.719208e+02
3.625281e+06	-2.674589e+01	1.736902e+02	-3.124630e+01	-4.828405e+00	-9.579551e+01	8.237208e+01	-2.569804e+01	1.719212e+02
3.625312e+06	-2.674830e+01	1.736906e+02	-3.124208e+01	-4.852902e+00	-9.387238e+01	7.406450e+01	-2.569821e+01	1.719216e+02
3.625344e+06	-2.674735e+01	1.736934e+02	-3.124028e+01	-4.886037e+00	-9.494241e+01	6.410277e+01	-2.569922e+01	1.719168e+02
3.625375e+06	-2.674632e+01	1.736963e+02	-3.123853e+01	-4.919371e+00	-9.586663e+01	5.136032e+01	-2.570025e+01	1.719119e+02
3.625406e+06	-2.674529e+01	1.736992e+02	-3.123678e+01	-4.952691e+00	-9.633562e+01	3.635295e+01	-2.570128e+01	1.719071e+02
3.625437e+06	-2.674426e+01	1.737022e+02	-3.123503e+01	-4.985998e+00	-9.618152e+01	2.077774e+01	-2.570231e+01	1.719022e+02
3.625468e+06	-2.674323e+01	1.737051e+02	-3.123328e+01	-5.019291e+00	-9.546351e+01	6.722738e+00	-2.570334e+01	1.718973e+02
3.625500e+06	-2.674225e+01	1.737055e+02	-3.123716e+01	-5.045550e+00	-9.437812e+01	6.709008e+00	-2.570212e+01	1.718981e+02
3.625531e+06	-2.674127e+01	1.737059e+02	-3.124113e+01	-5.071717e+00	-9.341047e+01	6.862424e+00	-2.570087e+01	1.718990e+02
3.625562e+06	-2.674030e+01	1.737064e+02	-3.124510e+01	-5.097909e+00	-9.253985e+01	6.986578e+00	-2.569961e+01	1.719000e+02
3.625594e+06	-2.673932e+01	1.737068e+02	-3.124907e+01	-5.124124e+00	-9.174857e+01	7.089111e+00	-2.569836e+01	1.719009e+02
3.625625e+06	-2.673835e+01	1.737072e+02	-3.125304e+01	-5.150364e+00	-9.102337e+01	7.175219e+00	-2.569710e+01	1.719018e+02
3.625656e+06	-2.673862e+01	1.737036e+02	-3.125274e+01	-5.160780e+00	-9.265201e+01	5.694593e+00	-2.569808e+01	1.719075e+02
3.625687e+06	-2.673889e+01	1.736999e+02	-3.125241e+01	-5.171067e+00	-9.467361e+01	3.419624e+00	-2.569907e+01	1.719132e+02
3.625718e+06	-2.673917e+01	1.736962e+02	-3.125208e+01	-5.181353e+00	-9.728159e+01	-4.589498e-01	-2.570006e+01	1.719190e+02
3.625750e+06	-2.673945e+01	1.736926e+02	-3.125175e+01	-5.191639e+00	-1.009006e+02	-8.422189e+00	-2.570106e+01	1.719247e+02
3.625781e+06	-2.673973e+01	1.736889e+02	-3.125142e+01	-5.201924e+00	-1.062481e+02	-3.131136e+01	-2.570205e+01	1.719305e+02
3.625812e+06	-2.674010e+01	1.736907e+02	-3.125166e+01	-5.217477e+00	-1.066560e+02	-8.551653e+00	-2.570064e+01	1.719271e+02
3.625844e+06	-2.674047e+01	1.736925e+02	-3.125191e+01	-5.233030e+00	-1.057478e+02	1.286902e+01	-2.569922e+01	1.719236e+02
3.625875e+06	-2.674083e+01	1.736943e+02	-3.125215e+01	-5.248584e+00	-1.041123e+02	2.868202e+01	-2.569781e+01	1.719202e+02
3.625906e+06	-2.674120e+01	1.736961e+02	-3.125239e+01	-5.264140e+00	-1.023569e+02	3.930969e+01	-2.569640e+01	1.719167e+02
3.625937e+06	-2.674157e+01	1.736980e+02	-3.125263e+01	-5.279696e+00	-1.007268e+02	4.648436e+01	-2.569498e+01	1.719133e+02
3.625968e+06	-2.674120e+01	1.736916e+02	-3.125416e+01	-5.290825e+00	-9.759098e+01	2.695662e+01	-2.569594e+01	1.719132e+02
3.626000e+06	-2.674082e+01	1.736851e+02	-3.125572e+01	-5.301850e+00	-9.485207e+01	1.681370e+01	-2.569696e+01	1.719132e+02
3.626031e+06	-2.674044e+01	1.736785e+02	-3.125727e+01	-5.312879e+00	-9.265190e+01	1.109020e+01	-2.569798e+01	1.719133e+02
3.626062e+06	-2.674005e+01	1.736720e+02	-3.125883e+01	-5.323912e+00	-9.085326e+01	7.482047e+00	-2.569900e+01	1.719133e+02
3.626094e+06	-2.673967e+01	1.736654e+02	-3.126039e+01	-5.334948e+00	-8.934412e+01	5.017468e+00	-2.570001e+01	1.719133e+02
3.626125e+06	-2.673987e+01	1.736688e+02	-3.126162e+01	-5.336014e+00	-9.262890e+01	5.686435e+00	-2.570033e+01	1.719108e+02
3.626156e+06	-2.674009e+01	1.736725e+02	-3.126285e+01	-5.336917e+00	-9.815110e+01	7.658349e+00	-2.570063e+01	1.719083e+02
3.626187e+06	-2.674031e+01	1.736761e+02	-3.126408e+01	-5.337821e+00	-1.158690e+02	3.763663e+01	-2.570093e+01	1.719058e+02
3.626218e+06	-2.674053e+01	1.736797e+02	-3.126531e+01	-5.338725e+00	-1.002479e+02	1.781351e+02	-2.570124e+01	1.719033e+02
3.626250e+06	-2.674075e+01	1.736833e+02	-3.126654e+01	-5.339630e+00	-9.367887e+01	-1.790314e+02	-2.570154e+01	1.719008e+02
3.626281e+06	-2.674149e+01	1.736846e+02	-3.126801e+01	-5.355982e+00	-9.941823e+01	-1.744411e+02	-2.570072e+01	1.719033e+02
3.626312e+06	-2.674224e+01	1.736860e+02	-3.126948e+01	-5.372465e+00	-1.150366e+02	-1.035206e+02	-2.569988e+01	1.719057e+02
3.626344e+06	-2.674299e+01	1.736873e+02	-3.127094e+01	-5.388954e+00	-9.990890e+01	-1.378363e+01	-2.569905e+01	1.719082e+02
3.626375e+06	-2.674374e+01	1.736887e+02	-3.127241e+01	-5.405447e+00	-9.385855e+01	-8.774397e+00	-2.569822e+01	1.719107e+02
3.626406e+06	-2.674449e+01	1.736900e+02	-3.127388e+01	-5.421947e+00	-9.031220e+01	-7.116936e+00	-2.569739e+01	1.719132e+02
3.626437e+06	-2.674435e+01	1.736939e+02	-3.127362e+01	-5.406228e+00	-9.445009e+01	7.367791e+00	-2.569783e+01	1.719106e+02
3.626468e+06	-2.674422e+01	1.736979e+02	-3.127336e+01	-5.390509e+00	-9.892787e+01	4.977749e+01	-2.569827e+01	1.719080e+02
3.626500e+06	-2.674408e+01	1.737018e+02	-3.127309e+01	-5.374791e+00	-9.623613e+01	1.057117e+02	-2.569870e+01	1.719054e+02
3.626531e+06	-2.674394e+01	1.737058e+02	-3.127283e+01	-5.359075e+00	-9.162034e+01	1.266375e+02	-2.569914e+01	1.719029e+02
3.626562e+06	-2.674380e+01	1.737097e+02	-3.127257e+01	-5.343359e+00	-8.829706e+01	1.348698e+02	-2.569958e+01	1.719003e+02
3.626594e+06	-2.674374e+01	1.737076e+02	-3.127280e+01	-5.342196e+00	-9.070617e+01	1.200353e+02	-2.569933e+01	1.719116e+02
3.626625e+06	-2.674367e+01	1.737054e+02	-3.127304e+01	-5.341391e+00	-9.274470e+01	9.360988e+01	-2.569906e+01	1.719232e+02
3.626656e+06	-2.674360e+01	1.737032e+02	-3.127328e+01	-5.340586e+00	-9.245320e+01	6.064118e+01	-2.569880e+01	1.719348e+02
3.626687e+06	-2.674354e+01	1.737010e+02	-3.127352e+01	-5.339780e+00	-9.017442e+01	3.676325e+01	-2.569853e+01	1.719465e+02
3.626718e+06	-2.674347e+01	1.736988e+02	-3.127377e+01	-5.338975e+00	-8.767479e+01	2.325935e+01	-2.569826e+01	1.719581e+02
3.626750e+06	-2.674312e+01	1.736953e+02	-3.127326e+01	-5.348270e+00	-8.856199e+01	2.161771e+01	-2.569876e+01	1.719524e+02
3.626781e+06	-2.674276e+01	1.736918e+02	-3.127274e+01	-5.357729e+00	-8.960657e+01	1.972843e+01	-2.569927e+01	1.719464e+02
3.626812e+06	-2.674240e+01	1.736883e+02	-3.127222e+01	-5.367187e+00	-9.078019e+01	1.728918e+01	-2.569978e+01	1.719404e+02
3.626844e+06	-2.674204e+01	1.736848e+02	-3.127170e+01	-5.376643e+00	-9.211297e+01	1.403321e+01	-2.570030e+01	1.719344e+02
3.626875e+06	-2.674168e+01	1.736813e+02	-3.127118e+01	-5.386098e+00	-9.364126e+01	9.504738e+00	-2.570081e+01	1.719283e+02
3.626906e+06	-2.674312e+01	1.736805e+02	-3.126745e+01	-5.388390e+00	-9.699213e+01	-2.071158e+01	-2.569983e+01	1.719219e+02
3.626937e+06	-2.674458e+01	1.736797e+02	-3.126370e+01	-5.390621e+00	-9.664191e+01	-6.632693e+01	-2.569883e+01	1.719154e+02
3.626968e+06	-2.674604e+01	1.736789e+02	-3.125995e+01	-5.392851e+00	-9.314873e+01	-9.365749e+01	-2.569784e+01	1.719089e+02
3.627000e+06	-2.674749e+01	1.736781e+02	-3.125620e+01	-5.395079e+00	-8.998784e+01	-1.059801e+02	-2.569685e+01	1.719024e+02
3.627031e+06	-2.674895e+01	1.736773e+02	-3.125245e+01	-5.397305e+00	-8.751501e+01	-1.123858e+02	-2.569586e+01	1.718959e+02
3.627062e+06	-2.674753e+01	1.736854e+02	-3.125733e+01	-5.391821e+00	-9.006795e+01	-1.169936e+02	-2.569610e+01	1.719016e+02
3.627094e+06	-2.674610e+01	1.736936e+02	-3.126222e+01	-5.386331e+00	-9.352871e+01	-1.262320e+02	-2.569635e+01	1.719072e+02
3.627125e+06	-2.674468e+01	1.737017e+02	-3.126711e+01	-5.380835e+00	-9.824082e+01	-1.505229e+02	-2.569659e+01	1.719129e+02
3.627156e+06	-2.674326e+01	1.737099e+02	-3.127200e+01	-5.375333e+00	-9.986851e+01	1.508785e+02	-2.569684e+01	1.719186e+02
3.627187e+06	-2.674183e+01	1.737180e+02	-3.127689e+01	-5.369824e+00	-9.518353e+01	1.139881e+02	-2.569708e+01	1.719243e+02
3.627218e+06	-2.674211e+01	1.737222e+02	-3.127500e+01	-5.379857e+00	-9.673041e+01	1.368311e+02	-2.569837e+01	1.719285e+02
3.627250e+06	-2.674243e+01	1.737263e+02	-3.127294e+01	-5.390266e+00	-9.662045e+01	1.658224e+02	-2.569968e+01	1.719327e+02
3.627281e+06	-2.674275e+01	1.737304e+02	-3.127088e+01	-5.400671e+00	-9.480132e+01	-1.713381e+02	-2.570099e+01	1.719369e+02
3.627312e+06	-2.674307e+01	1.737345e+02	-3.126882e+01	-5.411071e+00	-9.257943e+01	-1.572300e+02	-2.570231e+01	1.719411e+02
3.627344e+06	-2.674338e+01	1.737386e+02	-3.126676e+01	-5.421466e+00	-9.054971e+01	-1.486375e+02	-2.570362e+01	1.719453e+02
3.627375e+06	-2.674311e+01	1.737289e+02	-3.126828e+01	-5.424225e+00	-9.320921e+01	-1.480418e+02	-2.570355e+01	1.719435e+02
3.627406e+06	-2.674283e+01	1.737190e+02	-3.126986e+01	-5.426861e+00	-9.720450e+01	-1.469717e+02	-2.570347e+01	1.719415e+02
3.627437e+06	-2.674254e+01	1.737090e+02	-3.127145e+01	-5.429498e+00	-1.047957e+02	-1.429065e+02	-2.570338e+01	1.719395e+02
3.627468e+06	-2.674226e+01	1.736991e+02	-3.127303e+01	-5.432136e+00	-1.122128e+02	1.357553e+01	-2.570329e+01	1.719376e+02
3.627500e+06	-2.674197e+01	1.736892e+02	-3.127461e+01	-5.434775e+00	-9.962834e+01	2.629116e+01	-2.570320e+01	1.719356e+02
3.627531e+06	-2.674231e+01	1.736904e+02	-3.127482e+01	-5.434552e+00	-1.002676e+02	4.441837e+01	-2.570346e+01	1.719389e+02
3.627562e+06	-2.674265e+01	1.736918e+02	-3.127503e+01	-5.434306e+00	-1.000281e+02	6.368831e+01	-2.570372e+01	1.719423e+02
3.627594e+06	-2.674299e+01	1.736931e+02	-3.127523e+01	-5.434060e+00	-9.897931e+01	8.021895e+01	-2.570399e+01	1.719456e+02
3.627625e+06	-2.674333e+01	1.736945e+02	-3.127544e+01	-5.433814e+00	-9.755873e+01	9.258287e+01	-2.570425e+01	1.719490e+02
3.627656e+06	-2.674367e+01	1.736958e+02	-3.127564e+01	-5.433568e+00	-9.608726e+01	1.014116e+02	-2.570451e+01	1.719523e+02
3.627687e+06	-2.674394e+01	1.737014e+02	-3.127476e+01	-5.422408e+00	-9.428738e+01	9.276536e+01	-2.570279e+01	1.719509e+02
3.627718e+06	-2.674420e+01	1.737070e+02	-3.127388e+01	-5.411250e+00	-9.268481e+01	8.693353e+01	-2.570108e+01	1.719495e+02
