!CETC41,AV3656A,ZGL00048,1.3.2
!Calibration ON (Full Solt 2-Port(Omit Isolation))
!Measurements: S11 S21 S12 S22
!2025-04-23 00:35
# Hz  S  dB  R 50.000
6.150000e+006	-4.493914e+001	-8.964151e+001	-3.080177e+001	-1.375193e+001	-9.288619e+001	-9.267922e+001	-4.803676e+001	1.148411e+002
6.150039e+006	-4.493605e+001	-8.940268e+001	-3.080701e+001	-1.374739e+001	-9.387420e+001	-7.428434e+001	-4.801581e+001	1.141094e+002
6.150078e+006	-4.499610e+001	-8.964180e+001	-3.079329e+001	-1.375745e+001	-9.054633e+001	1.071960e+002	-4.799615e+001	1.140009e+002
6.150117e+006	-4.498009e+001	-8.941439e+001	-3.079356e+001	-1.372919e+001	-1.021897e+002	-8.495769e+001	-4.811195e+001	1.146128e+002
6.150156e+006	-4.493907e+001	-8.948746e+001	-3.079437e+001	-1.371398e+001	-9.187569e+001	8.283902e+001	-4.806841e+001	1.148676e+002
6.150195e+006	-4.497197e+001	-8.949584e+001	-3.079348e+001	-1.381473e+001	-8.745408e+001	1.116642e+002	-4.803569e+001	1.145660e+002
6.150234e+006	-4.494816e+001	-8.946241e+001	-3.081344e+001	-1.380593e+001	-8.988989e+001	1.416391e+001	-4.804556e+001	1.145290e+002
6.150273e+006	-4.497700e+001	-8.959063e+001	-3.079110e+001	-1.374250e+001	-8.601602e+001	5.268105e+001	-4.802885e+001	1.141172e+002
6.150313e+006	-4.496316e+001	-8.967006e+001	-3.079556e+001	-1.376249e+001	-9.156636e+001	1.066553e+002	-4.805617e+001	1.145049e+002
6.150352e+006	-4.493357e+001	-8.952133e+001	-3.079941e+001	-1.375091e+001	-9.675202e+001	-1.188564e+002	-4.799710e+001	1.144036e+002
6.150391e+006	-4.495088e+001	-8.939434e+001	-3.080212e+001	-1.368179e+001	-8.980819e+001	1.003937e+002	-4.802884e+001	1.143581e+002
6.150430e+006	-4.501327e+001	-8.960707e+001	-3.079423e+001	-1.373646e+001	-9.203036e+001	1.461114e+002	-4.807717e+001	1.146599e+002
6.150469e+006	-4.495493e+001	-8.975744e+001	-3.079458e+001	-1.376300e+001	-9.458361e+001	-7.824403e+001	-4.800921e+001	1.145508e+002
6.150508e+006	-4.501588e+001	-8.963217e+001	-3.079797e+001	-1.379507e+001	-1.069156e+002	2.271630e+001	-4.798976e+001	1.144102e+002
6.150547e+006	-4.498252e+001	-8.936257e+001	-3.079169e+001	-1.380694e+001	-9.168955e+001	7.600901e+001	-4.808314e+001	1.146342e+002
6.150586e+006	-4.496374e+001	-8.966036e+001	-3.081130e+001	-1.373997e+001	-9.428146e+001	3.194808e+001	-4.809070e+001	1.145819e+002
6.150625e+006	-4.496253e+001	-8.925659e+001	-3.081348e+001	-1.375461e+001	-9.781102e+001	-4.602659e+001	-4.809455e+001	1.145811e+002
6.150664e+006	-4.491783e+001	-8.962889e+001	-3.080951e+001	-1.375780e+001	-1.042610e+002	-1.398183e+001	-4.807190e+001	1.143225e+002
6.150703e+006	-4.496880e+001	-8.950635e+001	-3.080264e+001	-1.367555e+001	-8.942219e+001	1.244159e+002	-4.797156e+001	1.146024e+002
6.150742e+006	-4.494977e+001	-8.955255e+001	-3.079789e+001	-1.375254e+001	-9.107963e+001	1.033319e+002	-4.808191e+001	1.144912e+002
6.150781e+006	-4.497133e+001	-8.975306e+001	-3.080192e+001	-1.371448e+001	-8.913085e+001	4.526148e+001	-4.808126e+001	1.142460e+002
6.150820e+006	-4.496972e+001	-8.971426e+001	-3.080385e+001	-1.376449e+001	-8.998529e+001	1.666228e+002	-4.802943e+001	1.144620e+002
6.150859e+006	-4.496536e+001	-8.986607e+001	-3.079795e+001	-1.377956e+001	-1.018042e+002	1.234485e+002	-4.799901e+001	1.142735e+002
6.150898e+006	-4.497105e+001	-8.952643e+001	-3.080200e+001	-1.379491e+001	-8.825260e+001	1.007988e+002	-4.801068e+001	1.143212e+002
6.150938e+006	-4.499506e+001	-8.921771e+001	-3.080280e+001	-1.374005e+001	-9.720242e+001	-1.661956e+002	-4.802470e+001	1.145007e+002
6.150977e+006	-4.497260e+001	-8.958296e+001	-3.079586e+001	-1.374722e+001	-9.020243e+001	7.519158e+001	-4.801263e+001	1.143732e+002
6.151016e+006	-4.495002e+001	-8.940295e+001	-3.080142e+001	-1.371034e+001	-9.376578e+001	1.729027e+002	-4.800581e+001	1.150658e+002
6.151055e+006	-4.497795e+001	-8.965632e+001	-3.080876e+001	-1.369579e+001	-9.791774e+001	-1.631412e+002	-4.802508e+001	1.147211e+002
6.151094e+006	-4.495535e+001	-8.951005e+001	-3.079651e+001	-1.369334e+001	-8.691872e+001	7.968308e+001	-4.804040e+001	1.149117e+002
6.151133e+006	-4.497682e+001	-8.959025e+001	-3.079506e+001	-1.368716e+001	-8.957431e+001	-1.760590e+002	-4.807327e+001	1.143542e+002
6.151172e+006	-4.491046e+001	-8.975917e+001	-3.080037e+001	-1.376510e+001	-9.044888e+001	1.605540e+001	-4.807031e+001	1.145698e+002
6.151211e+006	-4.498516e+001	-8.954828e+001	-3.079950e+001	-1.376463e+001	-9.619941e+001	1.323341e+002	-4.805284e+001	1.149493e+002
6.151250e+006	-4.499785e+001	-8.958590e+001	-3.080349e+001	-1.372585e+001	-9.726579e+001	-1.394376e+002	-4.806545e+001	1.147009e+002
6.151289e+006	-4.499736e+001	-8.964566e+001	-3.078899e+001	-1.376703e+001	-8.950037e+001	-1.640037e+002	-4.793504e+001	1.145773e+002
6.151328e+006	-4.501324e+001	-8.959416e+001	-3.079684e+001	-1.370878e+001	-9.261888e+001	-1.733740e+002	-4.801332e+001	1.141286e+002
6.151367e+006	-4.489934e+001	-8.962030e+001	-3.078912e+001	-1.370609e+001	-9.314453e+001	2.209614e+001	-4.798240e+001	1.149946e+002
6.151406e+006	-4.499098e+001	-8.966488e+001	-3.079882e+001	-1.374048e+001	-9.440799e+001	1.129813e+002	-4.799270e+001	1.146329e+002
6.151445e+006	-4.491629e+001	-8.958204e+001	-3.080096e+001	-1.375988e+001	-9.258591e+001	3.713866e+001	-4.803872e+001	1.143000e+002
6.151484e+006	-4.496433e+001	-8.960588e+001	-3.080807e+001	-1.369842e+001	-8.920401e+001	1.576735e+002	-4.802180e+001	1.143210e+002
6.151523e+006	-4.497740e+001	-8.963370e+001	-3.079689e+001	-1.371240e+001	-9.250797e+001	1.054370e+002	-4.799706e+001	1.141603e+002
6.151563e+006	-4.500685e+001	-8.959087e+001	-3.080274e+001	-1.380417e+001	-9.050277e+001	-1.528904e+002	-4.802162e+001	1.142977e+002
6.151602e+006	-4.495242e+001	-8.984042e+001	-3.080612e+001	-1.372396e+001	-9.101542e+001	-4.731250e+001	-4.792840e+001	1.142661e+002
6.151641e+006	-4.498384e+001	-8.960073e+001	-3.079142e+001	-1.379673e+001	-1.009862e+002	2.258391e+001	-4.810145e+001	1.142633e+002
6.151680e+006	-4.494617e+001	-8.964925e+001	-3.080599e+001	-1.377986e+001	-9.937556e+001	5.582863e+001	-4.808049e+001	1.144455e+002
6.151719e+006	-4.495845e+001	-8.973935e+001	-3.080134e+001	-1.376401e+001	-9.172291e+001	9.903864e+001	-4.806619e+001	1.146885e+002
6.151758e+006	-4.493567e+001	-8.970251e+001	-3.080628e+001	-1.370634e+001	-9.369472e+001	2.357480e+001	-4.807006e+001	1.144997e+002
6.151797e+006	-4.494759e+001	-8.983980e+001	-3.079209e+001	-1.376279e+001	-9.176961e+001	-1.207350e+002	-4.799325e+001	1.144120e+002
6.151836e+006	-4.497898e+001	-8.941806e+001	-3.080455e+001	-1.369698e+001	-9.077498e+001	-1.157523e+002	-4.802809e+001	1.144772e+002
6.151875e+006	-4.497925e+001	-8.932122e+001	-3.079032e+001	-1.374316e+001	-9.244741e+001	4.688134e+001	-4.802618e+001	1.148295e+002
6.151914e+006	-4.501782e+001	-8.957340e+001	-3.079234e+001	-1.375866e+001	-9.513495e+001	1.493496e+002	-4.800236e+001	1.138512e+002
6.151953e+006	-4.497306e+001	-8.967234e+001	-3.079555e+001	-1.374449e+001	-9.201703e+001	1.745435e+002	-4.802797e+001	1.143568e+002
6.151992e+006	-4.502614e+001	-8.950726e+001	-3.080525e+001	-1.374280e+001	-8.983860e+001	1.102625e+002	-4.805968e+001	1.143080e+002
6.152031e+006	-4.501091e+001	-8.969850e+001	-3.079949e+001	-1.378092e+001	-9.643688e+001	7.709795e+001	-4.800397e+001	1.147460e+002
6.152070e+006	-4.500584e+001	-8.979572e+001	-3.079404e+001	-1.373918e+001	-9.773002e+001	8.662703e+001	-4.803097e+001	1.144345e+002
6.152109e+006	-4.495590e+001	-8.955678e+001	-3.080066e+001	-1.374178e+001	-8.800530e+001	2.913631e+001	-4.798889e+001	1.145659e+002
6.152148e+006	-4.500264e+001	-8.945859e+001	-3.080475e+001	-1.378096e+001	-1.123350e+002	7.374415e+001	-4.805656e+001	1.146186e+002
6.152188e+006	-4.494281e+001	-8.971999e+001	-3.079825e+001	-1.371663e+001	-9.861036e+001	9.589327e+001	-4.803798e+001	1.144357e+002
6.152227e+006	-4.491987e+001	-8.947799e+001	-3.080306e+001	-1.371764e+001	-9.636651e+001	1.542665e+002	-4.801698e+001	1.144964e+002
6.152266e+006	-4.494841e+001	-8.962889e+001	-3.079403e+001	-1.375468e+001	-9.273389e+001	-9.161748e+001	-4.802804e+001	1.147547e+002
6.152305e+006	-4.496529e+001	-8.980063e+001	-3.079425e+001	-1.372952e+001	-1.006965e+002	5.208672e+001	-4.800460e+001	1.144454e+002
6.152344e+006	-4.500707e+001	-8.942138e+001	-3.080264e+001	-1.368594e+001	-1.026954e+002	-8.420778e+001	-4.804612e+001	1.149301e+002
6.152383e+006	-4.500175e+001	-8.977592e+001	-3.080699e+001	-1.371067e+001	-9.087953e+001	1.290252e+002	-4.799985e+001	1.144278e+002
6.152422e+006	-4.492719e+001	-8.960080e+001	-3.079170e+001	-1.370493e+001	-1.011992e+002	-1.517310e+002	-4.805227e+001	1.146228e+002
6.152461e+006	-4.496805e+001	-8.972238e+001	-3.079934e+001	-1.376027e+001	-8.625114e+001	2.303877e+001	-4.802949e+001	1.143113e+002
6.152500e+006	-4.494976e+001	-8.966624e+001	-3.079798e+001	-1.372279e+001	-8.688133e+001	-1.238658e+002	-4.801411e+001	1.145288e+002
6.152539e+006	-4.496086e+001	-8.955315e+001	-3.079458e+001	-1.372521e+001	-9.155226e+001	1.661143e+002	-4.799401e+001	1.143572e+002
6.152578e+006	-4.499547e+001	-8.940895e+001	-3.079188e+001	-1.365779e+001	-8.885070e+001	5.598054e+001	-4.802441e+001	1.147170e+002
6.152617e+006	-4.496488e+001	-8.958802e+001	-3.079425e+001	-1.374236e+001	-9.642329e+001	9.663824e+001	-4.806680e+001	1.138623e+002
6.152656e+006	-4.500210e+001	-8.956038e+001	-3.079485e+001	-1.376944e+001	-9.361270e+001	1.035921e+002	-4.798737e+001	1.145394e+002
6.152695e+006	-4.501828e+001	-8.975876e+001	-3.080068e+001	-1.373424e+001	-9.064249e+001	-1.333376e+002	-4.804791e+001	1.144503e+002
6.152734e+006	-4.494824e+001	-8.941941e+001	-3.079447e+001	-1.379310e+001	-9.282726e+001	1.096359e+002	-4.795297e+001	1.140918e+002
6.152773e+006	-4.497231e+001	-8.964386e+001	-3.079289e+001	-1.379224e+001	-8.973838e+001	6.476623e+001	-4.806867e+001	1.149798e+002
6.152813e+006	-4.497810e+001	-8.947221e+001	-3.079782e+001	-1.375711e+001	-9.021370e+001	3.880221e+001	-4.803802e+001	1.147070e+002
6.152852e+006	-4.498787e+001	-8.983766e+001	-3.079662e+001	-1.377120e+001	-9.149828e+001	5.459795e+001	-4.810298e+001	1.146399e+002
6.152891e+006	-4.502042e+001	-8.959911e+001	-3.079673e+001	-1.378298e+001	-9.364693e+001	1.777511e+002	-4.799363e+001	1.148066e+002
6.152930e+006	-4.491464e+001	-8.927273e+001	-3.079986e+001	-1.380645e+001	-9.133626e+001	5.773629e+001	-4.801866e+001	1.144043e+002
6.152969e+006	-4.499047e+001	-8.999247e+001	-3.079416e+001	-1.380948e+001	-8.851828e+001	5.664995e+001	-4.790983e+001	1.146185e+002
6.153008e+006	-4.499105e+001	-8.956084e+001	-3.080669e+001	-1.372293e+001	-1.036434e+002	-3.052859e+001	-4.797217e+001	1.144654e+002
6.153047e+006	-4.495064e+001	-8.971361e+001	-3.080153e+001	-1.378818e+001	-9.569435e+001	1.463279e+002	-4.799139e+001	1.147044e+002
6.153086e+006	-4.498709e+001	-8.943504e+001	-3.079930e+001	-1.374768e+001	-9.300953e+001	1.584934e+002	-4.797104e+001	1.147321e+002
6.153125e+006	-4.496967e+001	-8.976772e+001	-3.079608e+001	-1.380288e+001	-8.906992e+001	5.326819e+001	-4.807159e+001	1.142917e+002
6.153164e+006	-4.494156e+001	-8.977363e+001	-3.079899e+001	-1.371622e+001	-8.938832e+001	8.159240e+001	-4.797675e+001	1.146938e+002
6.153203e+006	-4.496351e+001	-8.961417e+001	-3.078650e+001	-1.376804e+001	-9.127117e+001	8.532323e+001	-4.802677e+001	1.148245e+002
6.153242e+006	-4.494658e+001	-8.970220e+001	-3.080209e+001	-1.378053e+001	-9.292786e+001	1.689456e+002	-4.799895e+001	1.147373e+002
6.153281e+006	-4.499564e+001	-8.945153e+001	-3.079200e+001	-1.379164e+001	-9.203108e+001	-2.810469e+001	-4.804981e+001	1.144346e+002
6.153320e+006	-4.498944e+001	-8.960285e+001	-3.079740e+001	-1.373446e+001	-8.922200e+001	7.655176e+001	-4.794212e+001	1.144687e+002
6.153359e+006	-4.494249e+001	-8.947979e+001	-3.079764e+001	-1.379814e+001	-8.846901e+001	9.139503e+001	-4.796737e+001	1.150055e+002
6.153398e+006	-4.497809e+001	-8.963909e+001	-3.078494e+001	-1.369413e+001	-1.039590e+002	-1.118374e+002	-4.808253e+001	1.143870e+002
6.153438e+006	-4.492633e+001	-8.952684e+001	-3.079846e+001	-1.376958e+001	-9.078699e+001	1.677504e+002	-4.804253e+001	1.144404e+002
6.153477e+006	-4.494676e+001	-8.945200e+001	-3.079569e+001	-1.376277e+001	-9.370325e+001	7.145994e+001	-4.802279e+001	1.146979e+002
6.153516e+006	-4.501240e+001	-8.930546e+001	-3.079844e+001	-1.370162e+001	-9.011893e+001	1.380536e+002	-4.800672e+001	1.148306e+002
6.153555e+006	-4.497014e+001	-8.961581e+001	-3.079823e+001	-1.373867e+001	-1.029406e+002	4.579668e+001	-4.801720e+001	1.144473e+002
6.153594e+006	-4.498334e+001	-8.995405e+001	-3.080232e+001	-1.369765e+001	-9.398508e+001	6.874557e+001	-4.806557e+001	1.144965e+002
6.153633e+006	-4.498839e+001	-8.970838e+001	-3.079895e+001	-1.372434e+001	-9.119935e+001	-7.467903e+001	-4.804477e+001	1.141849e+002
6.153672e+006	-4.492687e+001	-8.969565e+001	-3.079748e+001	-1.379486e+001	-9.262099e+001	5.101336e+001	-4.798109e+001	1.144651e+002
6.153711e+006	-4.493110e+001	-8.971630e+001	-3.079275e+001	-1.379282e+001	-9.719285e+001	7.265469e+001	-4.800371e+001	1.141050e+002
6.153750e+006	-4.494673e+001	-8.926972e+001	-3.078184e+001	-1.373639e+001	-1.001596e+002	2.299830e+001	-4.804405e+001	1.144316e+002
6.153789e+006	-4.494724e+001	-8.944165e+001	-3.080228e+001	-1.374214e+001	-9.065783e+001	1.722906e+002	-4.797523e+001	1.145261e+002
6.153828e+006	-4.497316e+001	-8.933593e+001	-3.078965e+001	-1.373985e+001	-8.710553e+001	-1.376368e+002	-4.805240e+001	1.143230e+002
6.153867e+006	-4.494799e+001	-8.964263e+001	-3.080080e+001	-1.376785e+001	-9.085886e+001	1.356708e+002	-4.801861e+001	1.152741e+002
6.153906e+006	-4.496899e+001	-8.960553e+001	-3.079307e+001	-1.376447e+001	-9.378584e+001	9.553134e+001	-4.804049e+001	1.145087e+002
6.153945e+006	-4.496253e+001	-8.973655e+001	-3.080060e+001	-1.374885e+001	-9.746684e+001	-1.437864e+002	-4.794065e+001	1.143441e+002
6.153984e+006	-4.495914e+001	-8.936184e+001	-3.079063e+001	-1.380300e+001	-9.768386e+001	2.126374e+001	-4.798596e+001	1.143394e+002
6.154023e+006	-4.498839e+001	-8.942397e+001	-3.079261e+001	-1.375660e+001	-9.810711e+001	-3.871998e+001	-4.802467e+001	1.148490e+002
6.154063e+006	-4.498615e+001	-8.967999e+001	-3.079820e+001	-1.379813e+001	-9.262332e+001	1.763692e+000	-4.797594e+001	1.143969e+002
6.154102e+006	-4.493344e+001	-8.956786e+001	-3.078999e+001	-1.372486e+001	-9.882464e+001	-1.029108e+002	-4.805953e+001	1.146810e+002
6.154141e+006	-4.497934e+001	-8.943486e+001	-3.080736e+001	-1.378071e+001	-9.200040e+001	1.389358e+002	-4.799008e+001	1.144315e+002
6.154180e+006	-4.499161e+001	-8.948245e+001	-3.080005e+001	-1.374214e+001	-9.305084e+001	5.158581e+001	-4.802689e+001	1.146816e+002
6.154219e+006	-4.496143e+001	-8.943607e+001	-3.079350e+001	-1.376924e+001	-8.836904e+001	9.817812e+001	-4.802035e+001	1.147236e+002
6.154258e+006	-4.495645e+001	-8.941932e+001	-3.079648e+001	-1.379075e+001	-8.951242e+001	1.179315e+002	-4.800853e+001	1.144688e+002
6.154297e+006	-4.495982e+001	-8.963108e+001	-3.079274e+001	-1.373793e+001	-8.890143e+001	-1.493619e+002	-4.805516e+001	1.142250e+002
6.154336e+006	-4.499641e+001	-8.948034e+001	-3.079233e+001	-1.369959e+001	-9.207543e+001	-1.530847e+002	-4.799698e+001	1.145062e+002
6.154375e+006	-4.500475e+001	-8.967672e+001	-3.080087e+001	-1.377786e+001	-1.064591e+002	2.413348e+001	-4.792325e+001	1.148557e+002
6.154414e+006	-4.495223e+001	-8.935494e+001	-3.078772e+001	-1.375151e+001	-9.251966e+001	9.265949e+001	-4.796924e+001	1.149079e+002
6.154453e+006	-4.499288e+001	-8.922886e+001	-3.079895e+001	-1.381495e+001	-9.276982e+001	-1.120928e+002	-4.805081e+001	1.144234e+002
6.154492e+006	-4.499440e+001	-8.974855e+001	-3.078909e+001	-1.377504e+001	-9.824289e+001	-1.436756e+000	-4.803059e+001	1.148398e+002
6.154531e+006	-4.498471e+001	-8.928049e+001	-3.079679e+001	-1.370055e+001	-9.981336e+001	5.322513e+001	-4.797727e+001	1.145568e+002
6.154570e+006	-4.495070e+001	-8.976355e+001	-3.078914e+001	-1.380555e+001	-9.892459e+001	-1.211051e+002	-4.799592e+001	1.141080e+002
6.154609e+006	-4.498543e+001	-8.967620e+001	-3.079077e+001	-1.368569e+001	-8.767583e+001	7.595110e+001	-4.801226e+001	1.147983e+002
6.154648e+006	-4.499577e+001	-8.955577e+001	-3.079980e+001	-1.364659e+001	-9.562930e+001	1.080113e+002	-4.803330e+001	1.142508e+002
6.154688e+006	-4.497753e+001	-8.972014e+001	-3.079427e+001	-1.372262e+001	-1.058278e+002	-1.066999e+002	-4.797293e+001	1.149383e+002
6.154727e+006	-4.495520e+001	-8.956056e+001	-3.079504e+001	-1.374569e+001	-9.469765e+001	-3.362090e+001	-4.803759e+001	1.142190e+002
6.154766e+006	-4.494338e+001	-8.934945e+001	-3.079494e+001	-1.375661e+001	-9.035892e+001	1.259978e+002	-4.808100e+001	1.148885e+002
6.154805e+006	-4.497523e+001	-8.956962e+001	-3.079261e+001	-1.377779e+001	-9.552092e+001	9.636476e+001	-4.791741e+001	1.144258e+002
6.154844e+006	-4.495500e+001	-8.961349e+001	-3.079648e+001	-1.376552e+001	-9.694711e+001	-1.378916e+002	-4.805895e+001	1.143783e+002
6.154883e+006	-4.501997e+001	-8.933891e+001	-3.079473e+001	-1.375683e+001	-1.007596e+002	-1.111071e+002	-4.797784e+001	1.145535e+002
6.154922e+006	-4.501833e+001	-8.943079e+001	-3.079643e+001	-1.374564e+001	-9.461467e+001	-2.490510e+001	-4.795667e+001	1.144473e+002
6.154961e+006	-4.501204e+001	-8.982185e+001	-3.079703e+001	-1.379872e+001	-1.018646e+002	6.441682e+001	-4.798804e+001	1.143847e+002
6.155000e+006	-4.496578e+001	-8.945363e+001	-3.079615e+001	-1.380254e+001	-9.412174e+001	1.104980e+002	-4.790798e+001	1.146032e+002
6.155039e+006	-4.497876e+001	-8.979071e+001	-3.078672e+001	-1.379367e+001	-9.618058e+001	8.589314e+001	-4.802358e+001	1.146755e+002
6.155078e+006	-4.497332e+001	-8.942647e+001	-3.079987e+001	-1.373506e+001	-8.957171e+001	5.995854e+001	-4.796473e+001	1.142002e+002
6.155117e+006	-4.494183e+001	-8.933387e+001	-3.080000e+001	-1.373021e+001	-9.354377e+001	1.672057e+002	-4.797567e+001	1.149471e+002
6.155156e+006	-4.496087e+001	-8.923028e+001	-3.080546e+001	-1.373679e+001	-9.575905e+001	-1.217332e+002	-4.799046e+001	1.144647e+002
6.155195e+006	-4.499685e+001	-8.959921e+001	-3.078710e+001	-1.381521e+001	-9.859633e+001	1.174482e+002	-4.797755e+001	1.142111e+002
6.155234e+006	-4.499594e+001	-8.967657e+001	-3.078155e+001	-1.373943e+001	-9.252185e+001	1.529586e+002	-4.805399e+001	1.150076e+002
6.155273e+006	-4.501326e+001	-8.939721e+001	-3.078737e+001	-1.381608e+001	-1.008909e+002	8.122335e+001	-4.802074e+001	1.146182e+002
6.155313e+006	-4.501224e+001	-8.954378e+001	-3.079781e+001	-1.377667e+001	-9.936190e+001	1.398793e+002	-4.798889e+001	1.144961e+002
6.155352e+006	-4.495375e+001	-8.967248e+001	-3.079996e+001	-1.370352e+001	-9.030887e+001	-1.728358e+002	-4.793080e+001	1.142648e+002
6.155391e+006	-4.500666e+001	-8.928885e+001	-3.079534e+001	-1.376140e+001	-1.004981e+002	2.754774e+001	-4.808035e+001	1.147266e+002
6.155430e+006	-4.500011e+001	-8.990385e+001	-3.080471e+001	-1.384647e+001	-9.197583e+001	1.226838e+002	-4.799569e+001	1.150598e+002
6.155469e+006	-4.495775e+001	-8.987097e+001	-3.079124e+001	-1.372527e+001	-1.096424e+002	-8.810845e+001	-4.800511e+001	1.144313e+002
6.155508e+006	-4.498543e+001	-8.968981e+001	-3.079989e+001	-1.380326e+001	-1.000758e+002	1.772979e+002	-4.799614e+001	1.144077e+002
6.155547e+006	-4.490886e+001	-8.977348e+001	-3.079893e+001	-1.376551e+001	-8.939222e+001	3.004550e+001	-4.802829e+001	1.147553e+002
6.155586e+006	-4.500600e+001	-8.962240e+001	-3.079086e+001	-1.374035e+001	-9.706994e+001	8.661728e+001	-4.803141e+001	1.147689e+002
6.155625e+006	-4.497487e+001	-9.001350e+001	-3.079978e+001	-1.373776e+001	-9.285766e+001	1.492616e+002	-4.802756e+001	1.148369e+002
6.155664e+006	-4.496004e+001	-8.954666e+001	-3.080258e+001	-1.373404e+001	-9.042027e+001	5.287827e+001	-4.795014e+001	1.144515e+002
6.155703e+006	-4.494928e+001	-8.946886e+001	-3.079390e+001	-1.374499e+001	-8.783794e+001	1.005985e+002	-4.801369e+001	1.145895e+002
6.155742e+006	-4.499961e+001	-8.972799e+001	-3.078848e+001	-1.377859e+001	-9.381641e+001	1.494568e+002	-4.807142e+001	1.144066e+002
