!CETC41,AV3656A,ZGL00048,1.3.2
!Calibration ON (Full Solt 2-Port(Omit Isolation))
!Measurements: S11 S21 S12 S22
!2025-04-22 21:37
# Hz  S  dB  R 50.000
6.150000e+006	-4.569206e+001	-9.361214e+001	-3.078611e+001	-1.266097e+001	-9.559703e+001	-3.140026e+001	-4.929318e+001	1.046452e+002
6.150039e+006	-4.575213e+001	-9.406691e+001	-3.077328e+001	-1.264995e+001	-9.427014e+001	1.780374e+001	-4.935829e+001	1.045399e+002
6.150078e+006	-4.566819e+001	-9.386429e+001	-3.079400e+001	-1.262629e+001	-9.669421e+001	1.227342e+002	-4.934357e+001	1.046653e+002
6.150117e+006	-4.570911e+001	-9.380320e+001	-3.078019e+001	-1.258655e+001	-9.754860e+001	1.836017e+000	-4.930335e+001	1.047085e+002
6.150156e+006	-4.570562e+001	-9.357809e+001	-3.078021e+001	-1.258806e+001	-1.013140e+002	-1.757654e+002	-4.937806e+001	1.044853e+002
6.150195e+006	-4.572286e+001	-9.366998e+001	-3.077911e+001	-1.255980e+001	-9.398348e+001	-3.097010e+001	-4.932117e+001	1.048434e+002
6.150234e+006	-4.571235e+001	-9.370953e+001	-3.077852e+001	-1.259326e+001	-1.072003e+002	1.608069e+002	-4.938041e+001	1.046737e+002
6.150273e+006	-4.568190e+001	-9.373689e+001	-3.078101e+001	-1.257891e+001	-9.544209e+001	9.835598e+001	-4.932415e+001	1.047650e+002
6.150313e+006	-4.573315e+001	-9.387463e+001	-3.078047e+001	-1.261340e+001	-9.398681e+001	1.596066e+002	-4.933371e+001	1.043166e+002
6.150352e+006	-4.568633e+001	-9.403278e+001	-3.077794e+001	-1.262384e+001	-9.546946e+001	-7.269939e+001	-4.926408e+001	1.046854e+002
6.150391e+006	-4.571284e+001	-9.358765e+001	-3.078735e+001	-1.259796e+001	-9.932873e+001	6.703236e+001	-4.936309e+001	1.048112e+002
6.150430e+006	-4.567868e+001	-9.376367e+001	-3.078537e+001	-1.258004e+001	-9.161541e+001	6.515365e+001	-4.932455e+001	1.045111e+002
6.150469e+006	-4.565900e+001	-9.394661e+001	-3.078892e+001	-1.256022e+001	-9.354014e+001	9.414128e+001	-4.930489e+001	1.053817e+002
6.150508e+006	-4.568985e+001	-9.339620e+001	-3.078205e+001	-1.258903e+001	-8.522430e+001	5.010523e+001	-4.927060e+001	1.040002e+002
6.150547e+006	-4.571394e+001	-9.384017e+001	-3.078010e+001	-1.260564e+001	-1.040499e+002	5.244493e+001	-4.935947e+001	1.049963e+002
6.150586e+006	-4.569394e+001	-9.409141e+001	-3.078266e+001	-1.257958e+001	-9.486954e+001	4.443719e+001	-4.923927e+001	1.050597e+002
6.150625e+006	-4.571228e+001	-9.407838e+001	-3.078519e+001	-1.262299e+001	-8.473742e+001	1.177018e+002	-4.931464e+001	1.052111e+002
6.150664e+006	-4.570738e+001	-9.374020e+001	-3.077699e+001	-1.254042e+001	-1.081597e+002	-1.328583e+002	-4.930807e+001	1.043437e+002
6.150703e+006	-4.568568e+001	-9.402043e+001	-3.078078e+001	-1.258965e+001	-9.374830e+001	1.029905e+002	-4.939509e+001	1.045002e+002
6.150742e+006	-4.567691e+001	-9.379821e+001	-3.077977e+001	-1.255877e+001	-9.095134e+001	7.819452e+001	-4.924375e+001	1.044925e+002
6.150781e+006	-4.565541e+001	-9.354847e+001	-3.078101e+001	-1.263581e+001	-9.193215e+001	5.566122e+001	-4.924877e+001	1.047330e+002
6.150820e+006	-4.576784e+001	-9.375783e+001	-3.078434e+001	-1.263362e+001	-9.428826e+001	6.095138e+001	-4.940935e+001	1.052842e+002
6.150859e+006	-4.568321e+001	-9.392302e+001	-3.078244e+001	-1.258227e+001	-8.930482e+001	7.937965e+001	-4.930774e+001	1.050621e+002
6.150898e+006	-4.569639e+001	-9.390346e+001	-3.078743e+001	-1.252864e+001	-9.479403e+001	-8.285187e+001	-4.932878e+001	1.042084e+002
6.150938e+006	-4.567953e+001	-9.382432e+001	-3.078609e+001	-1.257602e+001	-1.009798e+002	-1.240753e+002	-4.925095e+001	1.046988e+002
6.150977e+006	-4.571348e+001	-9.402170e+001	-3.078756e+001	-1.264010e+001	-9.502383e+001	5.757787e+000	-4.932061e+001	1.047476e+002
6.151016e+006	-4.570619e+001	-9.368143e+001	-3.077664e+001	-1.257450e+001	-9.785899e+001	-1.167172e+002	-4.928021e+001	1.045968e+002
6.151055e+006	-4.571401e+001	-9.382572e+001	-3.078039e+001	-1.262988e+001	-9.695907e+001	1.098578e+002	-4.932284e+001	1.050404e+002
6.151094e+006	-4.573282e+001	-9.376427e+001	-3.078277e+001	-1.254554e+001	-9.990782e+001	-3.602795e+001	-4.919853e+001	1.049127e+002
6.151133e+006	-4.571160e+001	-9.379645e+001	-3.079462e+001	-1.259544e+001	-8.909242e+001	3.111222e+001	-4.928000e+001	1.048060e+002
6.151172e+006	-4.567289e+001	-9.414411e+001	-3.077863e+001	-1.263328e+001	-1.013261e+002	1.250969e+001	-4.933454e+001	1.050055e+002
6.151211e+006	-4.572124e+001	-9.430594e+001	-3.077732e+001	-1.259421e+001	-9.225228e+001	-1.777736e+002	-4.939286e+001	1.051566e+002
6.151250e+006	-4.570733e+001	-9.368243e+001	-3.078452e+001	-1.264236e+001	-8.866741e+001	1.054303e+002	-4.941336e+001	1.051209e+002
6.151289e+006	-4.568610e+001	-9.378365e+001	-3.078408e+001	-1.258727e+001	-9.792970e+001	5.931523e+001	-4.926420e+001	1.051247e+002
6.151328e+006	-4.568800e+001	-9.386529e+001	-3.078589e+001	-1.262843e+001	-1.014341e+002	4.916957e+001	-4.936142e+001	1.048227e+002
6.151367e+006	-4.569599e+001	-9.421529e+001	-3.077749e+001	-1.259501e+001	-9.584636e+001	-2.533570e+001	-4.928438e+001	1.056355e+002
6.151406e+006	-4.568325e+001	-9.362583e+001	-3.077437e+001	-1.263822e+001	-9.844654e+001	-2.901793e+001	-4.934255e+001	1.048804e+002
6.151445e+006	-4.569696e+001	-9.355972e+001	-3.078215e+001	-1.258601e+001	-9.104157e+001	1.118273e+002	-4.932237e+001	1.048028e+002
6.151484e+006	-4.573585e+001	-9.401110e+001	-3.077800e+001	-1.258580e+001	-1.023955e+002	-1.199248e+002	-4.934550e+001	1.055561e+002
6.151523e+006	-4.568102e+001	-9.390469e+001	-3.078682e+001	-1.263282e+001	-1.131488e+002	-4.245905e+001	-4.925709e+001	1.047248e+002
6.151563e+006	-4.572339e+001	-9.386826e+001	-3.078821e+001	-1.257927e+001	-9.290288e+001	1.797359e+002	-4.931464e+001	1.048928e+002
6.151602e+006	-4.568359e+001	-9.357840e+001	-3.078466e+001	-1.258670e+001	-8.815017e+001	1.499032e+002	-4.921956e+001	1.045864e+002
6.151641e+006	-4.572325e+001	-9.407526e+001	-3.077938e+001	-1.263464e+001	-8.932432e+001	1.540970e+002	-4.926982e+001	1.049283e+002
6.151680e+006	-4.565725e+001	-9.375558e+001	-3.078024e+001	-1.253013e+001	-8.920912e+001	1.253331e+002	-4.936061e+001	1.050068e+002
6.151719e+006	-4.569229e+001	-9.376469e+001	-3.077410e+001	-1.255381e+001	-9.754758e+001	1.466437e+001	-4.927595e+001	1.049091e+002
6.151758e+006	-4.570046e+001	-9.368815e+001	-3.077835e+001	-1.264089e+001	-8.546546e+001	1.085585e+002	-4.930852e+001	1.046790e+002
6.151797e+006	-4.566975e+001	-9.406619e+001	-3.078151e+001	-1.262650e+001	-8.936158e+001	-1.514053e+002	-4.928068e+001	1.044252e+002
6.151836e+006	-4.573416e+001	-9.404858e+001	-3.077842e+001	-1.261751e+001	-8.785243e+001	1.465278e+002	-4.931525e+001	1.044025e+002
6.151875e+006	-4.568128e+001	-9.367361e+001	-3.077982e+001	-1.258240e+001	-8.962311e+001	-1.677366e+002	-4.932317e+001	1.054370e+002
6.151914e+006	-4.570628e+001	-9.412191e+001	-3.078162e+001	-1.261820e+001	-9.949647e+001	4.986838e+001	-4.930936e+001	1.043645e+002
6.151953e+006	-4.571747e+001	-9.373835e+001	-3.077868e+001	-1.260250e+001	-8.905377e+001	3.989875e+001	-4.923047e+001	1.048452e+002
6.151992e+006	-4.571248e+001	-9.383707e+001	-3.078182e+001	-1.258823e+001	-9.195305e+001	5.807184e+001	-4.926701e+001	1.054313e+002
6.152031e+006	-4.567114e+001	-9.386483e+001	-3.077734e+001	-1.267776e+001	-9.176569e+001	1.239892e+002	-4.936068e+001	1.048366e+002
6.152070e+006	-4.573207e+001	-9.395748e+001	-3.077765e+001	-1.256826e+001	-9.428414e+001	2.749741e+001	-4.940134e+001	1.046347e+002
6.152109e+006	-4.569235e+001	-9.404493e+001	-3.078793e+001	-1.260053e+001	-9.682566e+001	1.019765e+002	-4.929514e+001	1.046669e+002
6.152148e+006	-4.565643e+001	-9.385075e+001	-3.078692e+001	-1.261639e+001	-9.879736e+001	1.194221e+002	-4.923160e+001	1.047539e+002
6.152188e+006	-4.570090e+001	-9.379519e+001	-3.078598e+001	-1.264428e+001	-9.482555e+001	7.470121e+001	-4.929578e+001	1.045864e+002
6.152227e+006	-4.573358e+001	-9.391253e+001	-3.077553e+001	-1.258058e+001	-8.905031e+001	1.462126e+002	-4.932909e+001	1.053249e+002
6.152266e+006	-4.570809e+001	-9.372520e+001	-3.077882e+001	-1.255293e+001	-9.548506e+001	6.582981e+000	-4.931091e+001	1.051020e+002
6.152305e+006	-4.570263e+001	-9.395516e+001	-3.078474e+001	-1.259146e+001	-8.886106e+001	8.772441e+001	-4.935486e+001	1.045341e+002
6.152344e+006	-4.572293e+001	-9.400371e+001	-3.078401e+001	-1.257544e+001	-9.858752e+001	7.437294e+001	-4.937700e+001	1.048862e+002
6.152383e+006	-4.572366e+001	-9.416139e+001	-3.078353e+001	-1.258155e+001	-9.779012e+001	1.590240e+002	-4.936442e+001	1.050889e+002
6.152422e+006	-4.567294e+001	-9.356734e+001	-3.077931e+001	-1.257625e+001	-9.078484e+001	7.951713e+001	-4.935936e+001	1.046578e+002
6.152461e+006	-4.568127e+001	-9.376124e+001	-3.078001e+001	-1.262721e+001	-1.056676e+002	-1.542902e+002	-4.934556e+001	1.044429e+002
6.152500e+006	-4.571784e+001	-9.393368e+001	-3.077618e+001	-1.259199e+001	-9.201290e+001	-3.115508e+000	-4.928223e+001	1.049073e+002
6.152539e+006	-4.572052e+001	-9.368084e+001	-3.078364e+001	-1.266211e+001	-9.141078e+001	1.203988e+002	-4.923607e+001	1.051194e+002
6.152578e+006	-4.563544e+001	-9.401568e+001	-3.077936e+001	-1.257255e+001	-1.016037e+002	8.824602e+001	-4.925079e+001	1.050597e+002
6.152617e+006	-4.568753e+001	-9.384767e+001	-3.077943e+001	-1.259666e+001	-9.665264e+001	3.613451e+001	-4.930344e+001	1.051063e+002
6.152656e+006	-4.567280e+001	-9.383635e+001	-3.077881e+001	-1.265099e+001	-1.081166e+002	1.051511e+002	-4.931708e+001	1.044434e+002
6.152695e+006	-4.570677e+001	-9.381235e+001	-3.077816e+001	-1.257483e+001	-1.051369e+002	1.142695e+002	-4.927300e+001	1.046168e+002
6.152734e+006	-4.569757e+001	-9.376950e+001	-3.078387e+001	-1.262858e+001	-9.348113e+001	1.165930e+002	-4.926069e+001	1.050108e+002
6.152773e+006	-4.571469e+001	-9.392112e+001	-3.077898e+001	-1.258155e+001	-1.000288e+002	5.111091e+001	-4.933212e+001	1.046923e+002
6.152813e+006	-4.571815e+001	-9.402554e+001	-3.078154e+001	-1.255437e+001	-9.352756e+001	1.195273e+002	-4.927096e+001	1.053519e+002
6.152852e+006	-4.571282e+001	-9.407312e+001	-3.077902e+001	-1.256974e+001	-9.148889e+001	1.772969e+002	-4.923363e+001	1.048611e+002
6.152891e+006	-4.567125e+001	-9.360585e+001	-3.078515e+001	-1.253396e+001	-9.000982e+001	9.770284e+001	-4.938834e+001	1.051290e+002
6.152930e+006	-4.574503e+001	-9.397168e+001	-3.077692e+001	-1.261828e+001	-1.094965e+002	-1.023813e+002	-4.928288e+001	1.054296e+002
6.152969e+006	-4.569828e+001	-9.379951e+001	-3.076921e+001	-1.253871e+001	-8.865563e+001	1.278921e+001	-4.931563e+001	1.050265e+002
6.153008e+006	-4.564034e+001	-9.420754e+001	-3.077392e+001	-1.255124e+001	-9.153664e+001	3.176968e+001	-4.933643e+001	1.049988e+002
6.153047e+006	-4.566894e+001	-9.365817e+001	-3.077975e+001	-1.259889e+001	-1.003097e+002	8.179737e+001	-4.937392e+001	1.044622e+002
6.153086e+006	-4.569337e+001	-9.418032e+001	-3.077896e+001	-1.259776e+001	-8.964000e+001	8.314115e+001	-4.929021e+001	1.051799e+002
6.153125e+006	-4.566404e+001	-9.384391e+001	-3.077733e+001	-1.261610e+001	-9.170796e+001	8.005756e+001	-4.925853e+001	1.044136e+002
6.153164e+006	-4.564076e+001	-9.405205e+001	-3.077623e+001	-1.260062e+001	-9.660730e+001	5.401677e+000	-4.925609e+001	1.050790e+002
6.153203e+006	-4.561484e+001	-9.390327e+001	-3.077157e+001	-1.262761e+001	-9.601195e+001	-1.508956e+002	-4.939046e+001	1.052779e+002
6.153242e+006	-4.566166e+001	-9.372049e+001	-3.077646e+001	-1.256558e+001	-9.655766e+001	-1.042834e+002	-4.940343e+001	1.052894e+002
6.153281e+006	-4.566802e+001	-9.402746e+001	-3.078187e+001	-1.261224e+001	-9.075425e+001	4.118738e+001	-4.930108e+001	1.053940e+002
6.153320e+006	-4.567040e+001	-9.398516e+001	-3.078424e+001	-1.264956e+001	-1.044517e+002	-1.756211e+002	-4.924333e+001	1.049870e+002
6.153359e+006	-4.571746e+001	-9.394651e+001	-3.077587e+001	-1.262819e+001	-9.405326e+001	-6.187543e-001	-4.928796e+001	1.043641e+002
6.153398e+006	-4.573103e+001	-9.387423e+001	-3.078668e+001	-1.255080e+001	-1.025471e+002	1.537569e+002	-4.932625e+001	1.052387e+002
6.153438e+006	-4.568232e+001	-9.389063e+001	-3.077586e+001	-1.261085e+001	-9.511743e+001	1.724002e+002	-4.929859e+001	1.046449e+002
6.153477e+006	-4.565649e+001	-9.405456e+001	-3.078634e+001	-1.258324e+001	-9.951436e+001	-1.551072e+002	-4.929064e+001	1.049588e+002
6.153516e+006	-4.567896e+001	-9.365240e+001	-3.077469e+001	-1.263176e+001	-9.441678e+001	2.683576e+001	-4.930589e+001	1.049242e+002
6.153555e+006	-4.568114e+001	-9.392754e+001	-3.077429e+001	-1.258775e+001	-9.924293e+001	1.544176e+002	-4.937416e+001	1.046577e+002
6.153594e+006	-4.564452e+001	-9.383130e+001	-3.076989e+001	-1.262031e+001	-9.106096e+001	-8.573079e+001	-4.921403e+001	1.045116e+002
6.153633e+006	-4.572787e+001	-9.365134e+001	-3.077644e+001	-1.262701e+001	-9.049927e+001	1.325493e+002	-4.928630e+001	1.048807e+002
6.153672e+006	-4.567357e+001	-9.383029e+001	-3.078607e+001	-1.260040e+001	-9.683237e+001	-1.328532e+002	-4.936540e+001	1.047576e+002
6.153711e+006	-4.567772e+001	-9.372197e+001	-3.077684e+001	-1.268111e+001	-9.254903e+001	8.611317e+001	-4.928029e+001	1.048693e+002
6.153750e+006	-4.568499e+001	-9.395827e+001	-3.077957e+001	-1.263720e+001	-8.834840e+001	1.221070e+002	-4.931598e+001	1.050422e+002
6.153789e+006	-4.570233e+001	-9.382175e+001	-3.076241e+001	-1.259463e+001	-9.277275e+001	-9.551674e+001	-4.937052e+001	1.049307e+002
6.153828e+006	-4.568978e+001	-9.369277e+001	-3.077777e+001	-1.263871e+001	-9.035198e+001	5.700567e+000	-4.931345e+001	1.052833e+002
6.153867e+006	-4.568964e+001	-9.410454e+001	-3.078587e+001	-1.262669e+001	-9.441131e+001	-8.877440e+001	-4.923483e+001	1.051523e+002
6.153906e+006	-4.569633e+001	-9.349935e+001	-3.078482e+001	-1.263162e+001	-9.572015e+001	-1.579542e+002	-4.922084e+001	1.049054e+002
6.153945e+006	-4.569531e+001	-9.408970e+001	-3.077734e+001	-1.260151e+001	-9.031305e+001	5.359618e+001	-4.932938e+001	1.049106e+002
6.153984e+006	-4.569757e+001	-9.395471e+001	-3.078148e+001	-1.255677e+001	-9.685085e+001	1.135350e+002	-4.928227e+001	1.047105e+002
6.154023e+006	-4.568139e+001	-9.366848e+001	-3.077642e+001	-1.260254e+001	-9.895700e+001	8.093991e+001	-4.925690e+001	1.044811e+002
6.154063e+006	-4.568687e+001	-9.380749e+001	-3.077727e+001	-1.259507e+001	-9.377973e+001	1.653891e+002	-4.937762e+001	1.044394e+002
6.154102e+006	-4.573371e+001	-9.393661e+001	-3.078256e+001	-1.265656e+001	-1.068993e+002	-4.056402e+001	-4.928947e+001	1.053874e+002
6.154141e+006	-4.565641e+001	-9.402690e+001	-3.077597e+001	-1.266007e+001	-8.977566e+001	1.469075e+002	-4.933733e+001	1.051637e+002
6.154180e+006	-4.567204e+001	-9.404673e+001	-3.077472e+001	-1.263613e+001	-9.336913e+001	2.943415e+001	-4.929030e+001	1.045231e+002
6.154219e+006	-4.569490e+001	-9.433201e+001	-3.077706e+001	-1.266189e+001	-9.052763e+001	1.974112e+000	-4.925176e+001	1.046123e+002
6.154258e+006	-4.567073e+001	-9.349171e+001	-3.076821e+001	-1.258397e+001	-8.866091e+001	1.125771e+002	-4.935379e+001	1.049344e+002
6.154297e+006	-4.571413e+001	-9.393070e+001	-3.078509e+001	-1.255403e+001	-9.311726e+001	7.096894e+000	-4.928891e+001	1.054742e+002
6.154336e+006	-4.564064e+001	-9.400597e+001	-3.078472e+001	-1.264406e+001	-8.917631e+001	7.151040e+001	-4.927787e+001	1.048865e+002
6.154375e+006	-4.565672e+001	-9.387035e+001	-3.077900e+001	-1.257491e+001	-9.886537e+001	3.152090e+001	-4.934878e+001	1.051842e+002
6.154414e+006	-4.568897e+001	-9.368351e+001	-3.077883e+001	-1.262258e+001	-8.425541e+001	5.136835e+001	-4.922586e+001	1.055096e+002
6.154453e+006	-4.568359e+001	-9.414298e+001	-3.078283e+001	-1.258540e+001	-8.974178e+001	3.273923e+001	-4.922952e+001	1.050580e+002
6.154492e+006	-4.568437e+001	-9.402985e+001	-3.076143e+001	-1.261232e+001	-9.351723e+001	9.446674e+001	-4.940018e+001	1.048762e+002
6.154531e+006	-4.569593e+001	-9.359834e+001	-3.077493e+001	-1.256058e+001	-9.518764e+001	1.453246e+002	-4.930422e+001	1.048339e+002
6.154570e+006	-4.568406e+001	-9.360544e+001	-3.077470e+001	-1.266514e+001	-8.893145e+001	-1.664582e+002	-4.940647e+001	1.049802e+002
6.154609e+006	-4.568242e+001	-9.391543e+001	-3.077785e+001	-1.261527e+001	-9.232734e+001	-1.212544e+002	-4.932293e+001	1.046142e+002
6.154648e+006	-4.567886e+001	-9.380997e+001	-3.078529e+001	-1.262482e+001	-9.236255e+001	9.005280e+001	-4.920457e+001	1.052101e+002
6.154688e+006	-4.572553e+001	-9.346894e+001	-3.076954e+001	-1.258626e+001	-9.062527e+001	5.120792e+001	-4.926366e+001	1.045493e+002
6.154727e+006	-4.568212e+001	-9.373590e+001	-3.078483e+001	-1.260500e+001	-8.815522e+001	1.283659e+002	-4.923752e+001	1.053102e+002
6.154766e+006	-4.564418e+001	-9.379596e+001	-3.077413e+001	-1.258490e+001	-9.083151e+001	1.272822e+002	-4.927219e+001	1.048625e+002
6.154805e+006	-4.570379e+001	-9.370579e+001	-3.077294e+001	-1.263973e+001	-9.824096e+001	1.730663e+002	-4.927015e+001	1.042268e+002
6.154844e+006	-4.571083e+001	-9.395755e+001	-3.078305e+001	-1.261038e+001	-1.049375e+002	-1.361431e+002	-4.931225e+001	1.051634e+002
6.154883e+006	-4.572172e+001	-9.407046e+001	-3.078172e+001	-1.258884e+001	-9.793889e+001	1.008854e+002	-4.921673e+001	1.046500e+002
6.154922e+006	-4.572542e+001	-9.377970e+001	-3.077577e+001	-1.265118e+001	-9.881136e+001	7.163066e+001	-4.923841e+001	1.047072e+002
6.154961e+006	-4.568257e+001	-9.400492e+001	-3.077633e+001	-1.257863e+001	-9.570703e+001	-3.457481e+001	-4.931480e+001	1.049509e+002
6.155000e+006	-4.571382e+001	-9.421591e+001	-3.077024e+001	-1.253578e+001	-9.618866e+001	-7.193870e+001	-4.930585e+001	1.054753e+002
6.155039e+006	-4.570003e+001	-9.379448e+001	-3.077139e+001	-1.257845e+001	-1.060492e+002	5.625361e+001	-4.930337e+001	1.047442e+002
6.155078e+006	-4.567874e+001	-9.401077e+001	-3.076771e+001	-1.255819e+001	-9.081331e+001	4.464289e+001	-4.933648e+001	1.047938e+002
6.155117e+006	-4.568056e+001	-9.403303e+001	-3.078167e+001	-1.263387e+001	-9.467614e+001	-1.266673e+002	-4.922337e+001	1.046348e+002
6.155156e+006	-4.572976e+001	-9.380913e+001	-3.078253e+001	-1.259054e+001	-8.741985e+001	1.076126e+002	-4.924595e+001	1.044876e+002
6.155195e+006	-4.571786e+001	-9.411382e+001	-3.077526e+001	-1.259492e+001	-9.361838e+001	1.163528e+002	-4.929065e+001	1.046423e+002
6.155234e+006	-4.569451e+001	-9.394001e+001	-3.077829e+001	-1.261396e+001	-9.743406e+001	2.115870e+001	-4.926185e+001	1.049886e+002
6.155273e+006	-4.568275e+001	-9.394812e+001	-3.077036e+001	-1.256991e+001	-9.467183e+001	9.039971e+001	-4.937061e+001	1.050880e+002
6.155313e+006	-4.566638e+001	-9.386393e+001	-3.077492e+001	-1.263616e+001	-9.008637e+001	1.871435e+001	-4.930832e+001	1.050563e+002
6.155352e+006	-4.568132e+001	-9.378801e+001	-3.077355e+001	-1.258685e+001	-8.708083e+001	3.889816e+000	-4.932363e+001	1.045854e+002
6.155391e+006	-4.567677e+001	-9.400603e+001	-3.077871e+001	-1.257453e+001	-9.497532e+001	4.470690e+001	-4.934691e+001	1.050358e+002
6.155430e+006	-4.570554e+001	-9.375875e+001	-3.079296e+001	-1.262858e+001	-9.792790e+001	-1.739896e+002	-4.929089e+001	1.047174e+002
6.155469e+006	-4.570025e+001	-9.379786e+001	-3.077413e+001	-1.265970e+001	-9.761351e+001	5.277248e+001	-4.941208e+001	1.049279e+002
6.155508e+006	-4.574629e+001	-9.393750e+001	-3.077484e+001	-1.256359e+001	-9.127303e+001	5.131360e+001	-4.935510e+001	1.045012e+002
6.155547e+006	-4.567002e+001	-9.371068e+001	-3.078010e+001	-1.264335e+001	-1.117237e+002	1.065297e+002	-4.932362e+001	1.044984e+002
6.155586e+006	-4.565586e+001	-9.391415e+001	-3.077470e+001	-1.256158e+001	-9.176181e+001	1.327615e+002	-4.926278e+001	1.050667e+002
6.155625e+006	-4.565298e+001	-9.408175e+001	-3.077722e+001	-1.255554e+001	-9.478014e+001	-5.477886e+001	-4.929434e+001	1.050840e+002
6.155664e+006	-4.568786e+001	-9.382264e+001	-3.077626e+001	-1.256202e+001	-1.066073e+002	6.718915e+001	-4.930383e+001	1.047152e+002
6.155703e+006	-4.568535e+001	-9.370000e+001	-3.076989e+001	-1.264940e+001	-1.000631e+002	-4.172786e+001	-4.931850e+001	1.054332e+002
6.155742e+006	-4.563611e+001	-9.384242e+001	-3.077411e+001	-1.257713e+001	-9.101983e+001	1.284642e+001	-4.932732e+001	1.040267e+002
