!CETC41,AV3656A,ZGL00048,1.3.2
!Calibration ON (Full Solt 2-Port(Omit Isolation))
!Measurements: S11 S21 S12 S22
!2025-04-22 21:12
# Hz  S  dB  R 50.000
6.150000e+006	-4.585122e+001	-9.519645e+001	-3.078415e+001	-1.241781e+001	-8.973444e+001	1.322877e+002	-4.970318e+001	1.019793e+002
6.150039e+006	-4.585349e+001	-9.517733e+001	-3.078667e+001	-1.245077e+001	-9.134651e+001	1.741960e+002	-4.974132e+001	1.019775e+002
6.150078e+006	-4.592430e+001	-9.493284e+001	-3.078484e+001	-1.245632e+001	-1.034723e+002	-1.735463e+002	-4.977161e+001	1.022168e+002
6.150117e+006	-4.593255e+001	-9.480084e+001	-3.079171e+001	-1.246092e+001	-9.039529e+001	1.008286e+002	-4.968002e+001	1.018954e+002
6.150156e+006	-4.590450e+001	-9.498959e+001	-3.078217e+001	-1.236604e+001	-9.253016e+001	4.323272e+001	-4.977341e+001	1.022428e+002
6.150195e+006	-4.587111e+001	-9.473950e+001	-3.078517e+001	-1.246219e+001	-8.512870e+001	7.926982e+001	-4.967619e+001	1.022965e+002
6.150234e+006	-4.586181e+001	-9.476273e+001	-3.078630e+001	-1.245183e+001	-8.955457e+001	-5.752330e+001	-4.970902e+001	1.021846e+002
6.150273e+006	-4.588726e+001	-9.496845e+001	-3.079226e+001	-1.245751e+001	-9.348953e+001	2.294649e+001	-4.977252e+001	1.018749e+002
6.150313e+006	-4.587447e+001	-9.472751e+001	-3.078502e+001	-1.242053e+001	-9.519284e+001	1.361336e+002	-4.966745e+001	1.015550e+002
6.150352e+006	-4.591868e+001	-9.486292e+001	-3.078688e+001	-1.243516e+001	-8.600468e+001	4.002731e+001	-4.964329e+001	1.020641e+002
6.150391e+006	-4.590140e+001	-9.492285e+001	-3.078501e+001	-1.243096e+001	-1.033962e+002	5.454947e+001	-4.962373e+001	1.022523e+002
6.150430e+006	-4.582591e+001	-9.490564e+001	-3.078405e+001	-1.241441e+001	-1.041014e+002	3.505429e+001	-4.972778e+001	1.020756e+002
6.150469e+006	-4.590764e+001	-9.482751e+001	-3.077768e+001	-1.245354e+001	-1.001155e+002	3.852500e+001	-4.973119e+001	1.020945e+002
6.150508e+006	-4.587133e+001	-9.492345e+001	-3.078742e+001	-1.239628e+001	-9.162857e+001	-1.118418e+002	-4.976403e+001	1.018884e+002
6.150547e+006	-4.581848e+001	-9.502531e+001	-3.077869e+001	-1.237782e+001	-8.990836e+001	8.466701e+001	-4.970014e+001	1.022582e+002
6.150586e+006	-4.591692e+001	-9.459303e+001	-3.078926e+001	-1.244143e+001	-8.918761e+001	1.405173e+002	-4.973941e+001	1.022471e+002
6.150625e+006	-4.587214e+001	-9.468463e+001	-3.078504e+001	-1.249225e+001	-9.304829e+001	-1.525802e+001	-4.969150e+001	1.028331e+002
6.150664e+006	-4.587468e+001	-9.476207e+001	-3.077359e+001	-1.244259e+001	-9.944337e+001	-2.183168e+001	-4.977901e+001	1.022553e+002
6.150703e+006	-4.586144e+001	-9.496287e+001	-3.079208e+001	-1.236491e+001	-8.940487e+001	1.125843e+002	-4.966848e+001	1.016896e+002
6.150742e+006	-4.590011e+001	-9.466025e+001	-3.078916e+001	-1.243135e+001	-8.848741e+001	1.151648e+002	-4.973847e+001	1.022780e+002
6.150781e+006	-4.586894e+001	-9.477137e+001	-3.077624e+001	-1.243117e+001	-9.987774e+001	-1.252025e+002	-4.979420e+001	1.023448e+002
6.150820e+006	-4.583648e+001	-9.475994e+001	-3.078105e+001	-1.244652e+001	-9.329177e+001	9.580935e+001	-4.971806e+001	1.019032e+002
6.150859e+006	-4.588230e+001	-9.483860e+001	-3.079751e+001	-1.234608e+001	-9.639706e+001	3.530475e+001	-4.965841e+001	1.026926e+002
6.150898e+006	-4.585781e+001	-9.485898e+001	-3.079142e+001	-1.245460e+001	-9.387695e+001	9.208658e+001	-4.970374e+001	1.022093e+002
6.150938e+006	-4.584564e+001	-9.512852e+001	-3.078552e+001	-1.243834e+001	-8.924966e+001	-1.657169e+002	-4.974038e+001	1.018187e+002
6.150977e+006	-4.586038e+001	-9.504950e+001	-3.078522e+001	-1.244683e+001	-9.152233e+001	-1.555446e+001	-4.966429e+001	1.017460e+002
6.151016e+006	-4.587504e+001	-9.483467e+001	-3.079612e+001	-1.244272e+001	-8.772026e+001	1.612909e+002	-4.963203e+001	1.019241e+002
6.151055e+006	-4.584907e+001	-9.489363e+001	-3.078778e+001	-1.240610e+001	-9.341820e+001	1.079820e+002	-4.974317e+001	1.016308e+002
6.151094e+006	-4.588921e+001	-9.472437e+001	-3.078859e+001	-1.236507e+001	-9.224262e+001	1.220154e+002	-4.969882e+001	1.017765e+002
6.151133e+006	-4.587254e+001	-9.496002e+001	-3.079188e+001	-1.247105e+001	-1.029281e+002	1.986394e+001	-4.968008e+001	1.020894e+002
6.151172e+006	-4.591189e+001	-9.470577e+001	-3.078938e+001	-1.244434e+001	-9.878062e+001	-1.529505e+002	-4.976593e+001	1.019528e+002
6.151211e+006	-4.589511e+001	-9.501356e+001	-3.078537e+001	-1.237470e+001	-9.139266e+001	1.001090e+002	-4.969903e+001	1.024379e+002
6.151250e+006	-4.587037e+001	-9.457624e+001	-3.078366e+001	-1.244572e+001	-9.868111e+001	-5.629733e+001	-4.973828e+001	1.025684e+002
6.151289e+006	-4.590600e+001	-9.471775e+001	-3.078105e+001	-1.238351e+001	-8.787063e+001	-1.624097e+002	-4.963077e+001	1.028035e+002
6.151328e+006	-4.587347e+001	-9.481103e+001	-3.077463e+001	-1.249975e+001	-1.028577e+002	-2.498169e+001	-4.975238e+001	1.028716e+002
6.151367e+006	-4.588360e+001	-9.481725e+001	-3.078683e+001	-1.244844e+001	-9.995548e+001	1.176473e+002	-4.968063e+001	1.023156e+002
6.151406e+006	-4.587370e+001	-9.471191e+001	-3.078758e+001	-1.238727e+001	-9.289370e+001	1.207609e+002	-4.972174e+001	1.021983e+002
6.151445e+006	-4.589709e+001	-9.437305e+001	-3.078367e+001	-1.235093e+001	-8.687889e+001	1.251180e+002	-4.967816e+001	1.027247e+002
6.151484e+006	-4.583584e+001	-9.498119e+001	-3.078921e+001	-1.242174e+001	-9.759796e+001	-9.002870e+001	-4.974347e+001	1.024494e+002
6.151523e+006	-4.589799e+001	-9.451020e+001	-3.079201e+001	-1.238094e+001	-9.541372e+001	1.710053e+001	-4.967029e+001	1.024149e+002
6.151563e+006	-4.590163e+001	-9.507148e+001	-3.078103e+001	-1.244024e+001	-9.442611e+001	5.828460e+001	-4.962778e+001	1.020682e+002
6.151602e+006	-4.591035e+001	-9.515659e+001	-3.077698e+001	-1.247146e+001	-9.558008e+001	2.406596e+001	-4.967508e+001	1.022981e+002
6.151641e+006	-4.588272e+001	-9.492220e+001	-3.078911e+001	-1.246724e+001	-1.024904e+002	-1.599164e+002	-4.974071e+001	1.023660e+002
6.151680e+006	-4.590663e+001	-9.509247e+001	-3.078083e+001	-1.234424e+001	-9.372336e+001	-3.803365e+000	-4.967209e+001	1.026689e+002
6.151719e+006	-4.583604e+001	-9.482039e+001	-3.077166e+001	-1.245404e+001	-9.210768e+001	4.892427e+001	-4.973949e+001	1.026577e+002
6.151758e+006	-4.586922e+001	-9.471472e+001	-3.079350e+001	-1.239511e+001	-9.506862e+001	7.161490e+001	-4.978518e+001	1.027961e+002
6.151797e+006	-4.590958e+001	-9.466248e+001	-3.078982e+001	-1.241559e+001	-9.659461e+001	-1.737987e+002	-4.979047e+001	1.026762e+002
6.151836e+006	-4.592546e+001	-9.498657e+001	-3.078092e+001	-1.240356e+001	-9.471705e+001	1.053286e+002	-4.968407e+001	1.025559e+002
6.151875e+006	-4.589911e+001	-9.505419e+001	-3.077813e+001	-1.246716e+001	-9.256187e+001	1.293819e+002	-4.967060e+001	1.020821e+002
6.151914e+006	-4.591653e+001	-9.464316e+001	-3.078670e+001	-1.243431e+001	-8.806603e+001	9.755399e+001	-4.968937e+001	1.023836e+002
6.151953e+006	-4.586551e+001	-9.485314e+001	-3.078069e+001	-1.245106e+001	-1.042696e+002	-6.361042e+001	-4.981455e+001	1.029027e+002
6.151992e+006	-4.591884e+001	-9.499963e+001	-3.078543e+001	-1.242603e+001	-9.612498e+001	1.440249e+001	-4.972509e+001	1.023402e+002
6.152031e+006	-4.589416e+001	-9.475309e+001	-3.077937e+001	-1.242755e+001	-9.117067e+001	-9.495701e+001	-4.969507e+001	1.027484e+002
6.152070e+006	-4.585348e+001	-9.479657e+001	-3.077741e+001	-1.246576e+001	-8.944763e+001	1.317865e+002	-4.971739e+001	1.017080e+002
6.152109e+006	-4.582782e+001	-9.459637e+001	-3.077225e+001	-1.252387e+001	-1.036625e+002	1.589447e+002	-4.964242e+001	1.022844e+002
6.152148e+006	-4.587377e+001	-9.478570e+001	-3.077520e+001	-1.239146e+001	-9.072520e+001	-1.596584e+002	-4.976711e+001	1.020065e+002
6.152188e+006	-4.592466e+001	-9.484808e+001	-3.077483e+001	-1.241751e+001	-8.879566e+001	5.148911e+001	-4.971006e+001	1.023012e+002
6.152227e+006	-4.589574e+001	-9.493143e+001	-3.078750e+001	-1.243392e+001	-9.177012e+001	8.553276e+001	-4.967126e+001	1.024845e+002
6.152266e+006	-4.583479e+001	-9.481224e+001	-3.078081e+001	-1.245003e+001	-9.276815e+001	1.233834e+002	-4.971271e+001	1.029834e+002
6.152305e+006	-4.593168e+001	-9.466657e+001	-3.078051e+001	-1.238662e+001	-8.752540e+001	8.505399e+001	-4.978812e+001	1.023258e+002
6.152344e+006	-4.586098e+001	-9.472351e+001	-3.078279e+001	-1.245072e+001	-9.589043e+001	9.280214e+001	-4.968801e+001	1.024103e+002
6.152383e+006	-4.587099e+001	-9.463157e+001	-3.077331e+001	-1.245256e+001	-9.723581e+001	1.569450e+002	-4.975515e+001	1.017224e+002
6.152422e+006	-4.591264e+001	-9.488364e+001	-3.079840e+001	-1.242304e+001	-9.282843e+001	-1.244593e+001	-4.966569e+001	1.024579e+002
6.152461e+006	-4.582642e+001	-9.480438e+001	-3.077568e+001	-1.243204e+001	-1.065704e+002	1.410016e+002	-4.971512e+001	1.023280e+002
6.152500e+006	-4.586174e+001	-9.513053e+001	-3.078450e+001	-1.242393e+001	-8.878522e+001	1.366051e+002	-4.974111e+001	1.025520e+002
6.152539e+006	-4.586117e+001	-9.499494e+001	-3.077727e+001	-1.236872e+001	-9.420759e+001	4.940887e+001	-4.968029e+001	1.025768e+002
6.152578e+006	-4.587987e+001	-9.508792e+001	-3.078486e+001	-1.238274e+001	-9.350130e+001	2.969420e+001	-4.971125e+001	1.023537e+002
6.152617e+006	-4.591811e+001	-9.473203e+001	-3.077995e+001	-1.245096e+001	-8.699386e+001	4.547067e+001	-4.972869e+001	1.023200e+002
6.152656e+006	-4.590841e+001	-9.496162e+001	-3.077758e+001	-1.242613e+001	-9.277797e+001	8.079109e+001	-4.964494e+001	1.025736e+002
6.152695e+006	-4.583275e+001	-9.478430e+001	-3.077700e+001	-1.243898e+001	-9.002618e+001	1.181457e+002	-4.974103e+001	1.026429e+002
6.152734e+006	-4.586492e+001	-9.455061e+001	-3.077990e+001	-1.242179e+001	-9.480025e+001	1.129635e+002	-4.967748e+001	1.020817e+002
6.152773e+006	-4.588331e+001	-9.510731e+001	-3.077438e+001	-1.244443e+001	-9.754454e+001	1.428174e+002	-4.977318e+001	1.025790e+002
6.152813e+006	-4.590917e+001	-9.469919e+001	-3.077806e+001	-1.248576e+001	-9.093449e+001	8.799795e+001	-4.975299e+001	1.022236e+002
6.152852e+006	-4.587894e+001	-9.452429e+001	-3.078017e+001	-1.242561e+001	-8.920151e+001	1.141098e+002	-4.973928e+001	1.021900e+002
6.152891e+006	-4.585036e+001	-9.482886e+001	-3.078621e+001	-1.249092e+001	-9.379342e+001	1.723548e+002	-4.975744e+001	1.023630e+002
6.152930e+006	-4.592980e+001	-9.487139e+001	-3.077897e+001	-1.244116e+001	-9.163521e+001	1.293866e+002	-4.968373e+001	1.021496e+002
6.152969e+006	-4.587518e+001	-9.482916e+001	-3.078395e+001	-1.234022e+001	-9.207440e+001	-9.217079e+001	-4.977793e+001	1.020732e+002
6.153008e+006	-4.582839e+001	-9.473063e+001	-3.077583e+001	-1.253135e+001	-9.466589e+001	5.090094e+001	-4.971136e+001	1.025052e+002
6.153047e+006	-4.589062e+001	-9.482879e+001	-3.077518e+001	-1.243254e+001	-9.020200e+001	7.468281e+001	-4.962664e+001	1.025941e+002
6.153086e+006	-4.590956e+001	-9.499053e+001	-3.078402e+001	-1.241543e+001	-9.159138e+001	1.061415e+002	-4.968163e+001	1.023082e+002
6.153125e+006	-4.586870e+001	-9.474516e+001	-3.077635e+001	-1.236812e+001	-9.013378e+001	-1.608458e+001	-4.960593e+001	1.017043e+002
6.153164e+006	-4.592028e+001	-9.504714e+001	-3.078016e+001	-1.245285e+001	-9.494627e+001	3.188009e+001	-4.976120e+001	1.024025e+002
6.153203e+006	-4.584440e+001	-9.469275e+001	-3.077681e+001	-1.238049e+001	-9.653810e+001	3.657362e+001	-4.974825e+001	1.017804e+002
6.153242e+006	-4.585897e+001	-9.489020e+001	-3.078695e+001	-1.243541e+001	-9.094040e+001	4.205363e+001	-4.966282e+001	1.024241e+002
6.153281e+006	-4.590976e+001	-9.475518e+001	-3.078338e+001	-1.238083e+001	-9.262732e+001	7.900903e+001	-4.971385e+001	1.018388e+002
6.153320e+006	-4.587972e+001	-9.479431e+001	-3.078437e+001	-1.240217e+001	-8.881540e+001	5.969079e+001	-4.969096e+001	1.022521e+002
6.153359e+006	-4.587542e+001	-9.479633e+001	-3.077461e+001	-1.239553e+001	-9.227370e+001	8.287194e+001	-4.970057e+001	1.022527e+002
6.153398e+006	-4.588727e+001	-9.467874e+001	-3.078105e+001	-1.245099e+001	-1.188057e+002	1.638086e+002	-4.971564e+001	1.022354e+002
6.153438e+006	-4.586898e+001	-9.509577e+001	-3.078233e+001	-1.241784e+001	-8.616972e+001	5.376051e+001	-4.969266e+001	1.026612e+002
6.153477e+006	-4.589325e+001	-9.481259e+001	-3.077759e+001	-1.247660e+001	-9.772352e+001	-2.660853e+001	-4.981447e+001	1.025181e+002
6.153516e+006	-4.590194e+001	-9.454339e+001	-3.078759e+001	-1.237346e+001	-9.659916e+001	1.601830e+002	-4.971992e+001	1.024768e+002
6.153555e+006	-4.584593e+001	-9.470343e+001	-3.076905e+001	-1.244230e+001	-9.482667e+001	2.624753e+001	-4.971552e+001	1.021837e+002
6.153594e+006	-4.588217e+001	-9.450287e+001	-3.078072e+001	-1.241750e+001	-8.858720e+001	9.281830e+001	-4.968824e+001	1.022147e+002
6.153633e+006	-4.587555e+001	-9.458189e+001	-3.079048e+001	-1.243529e+001	-9.499788e+001	3.524314e+001	-4.963517e+001	1.020079e+002
6.153672e+006	-4.582429e+001	-9.508917e+001	-3.077709e+001	-1.237655e+001	-8.929923e+001	7.979776e+001	-4.974746e+001	1.018790e+002
6.153711e+006	-4.589391e+001	-9.463783e+001	-3.078220e+001	-1.246005e+001	-8.730589e+001	-4.093444e+000	-4.982681e+001	1.022144e+002
6.153750e+006	-4.582400e+001	-9.492782e+001	-3.078571e+001	-1.243043e+001	-1.148129e+002	-5.215244e+001	-4.967049e+001	1.019543e+002
6.153789e+006	-4.586354e+001	-9.476818e+001	-3.078487e+001	-1.243372e+001	-9.405733e+001	3.862001e+000	-4.968177e+001	1.016462e+002
6.153828e+006	-4.592828e+001	-9.495489e+001	-3.078491e+001	-1.235972e+001	-1.021066e+002	-6.859154e+001	-4.965410e+001	1.025386e+002
6.153867e+006	-4.586075e+001	-9.519691e+001	-3.077479e+001	-1.240335e+001	-9.942259e+001	-3.196407e+001	-4.960092e+001	1.028611e+002
6.153906e+006	-4.590834e+001	-9.468710e+001	-3.078133e+001	-1.242902e+001	-8.934714e+001	5.581247e+001	-4.975808e+001	1.020330e+002
6.153945e+006	-4.587007e+001	-9.496727e+001	-3.078771e+001	-1.239585e+001	-1.098485e+002	-1.033395e+002	-4.969654e+001	1.026338e+002
6.153984e+006	-4.585299e+001	-9.499608e+001	-3.078499e+001	-1.240839e+001	-9.472020e+001	1.119591e+001	-4.970857e+001	1.024865e+002
6.154023e+006	-4.588476e+001	-9.474194e+001	-3.077669e+001	-1.240681e+001	-9.672935e+001	1.096880e+002	-4.965605e+001	1.020510e+002
6.154063e+006	-4.590624e+001	-9.460757e+001	-3.077642e+001	-1.247591e+001	-9.570796e+001	1.308999e+002	-4.971672e+001	1.025653e+002
6.154102e+006	-4.586569e+001	-9.477193e+001	-3.077814e+001	-1.241336e+001	-9.802791e+001	9.187800e+001	-4.958770e+001	1.026054e+002
6.154141e+006	-4.584099e+001	-9.519815e+001	-3.077315e+001	-1.241426e+001	-9.614801e+001	-4.333930e+001	-4.968923e+001	1.020664e+002
6.154180e+006	-4.586202e+001	-9.498564e+001	-3.077804e+001	-1.239313e+001	-9.372885e+001	9.398347e+001	-4.964864e+001	1.030116e+002
6.154219e+006	-4.589694e+001	-9.511800e+001	-3.078612e+001	-1.242941e+001	-9.874254e+001	-1.479249e+002	-4.966508e+001	1.020599e+002
6.154258e+006	-4.585659e+001	-9.471788e+001	-3.077931e+001	-1.244416e+001	-9.132444e+001	4.593156e+001	-4.970624e+001	1.018487e+002
6.154297e+006	-4.587640e+001	-9.449543e+001	-3.078278e+001	-1.246400e+001	-9.210114e+001	9.687714e+001	-4.965079e+001	1.026708e+002
6.154336e+006	-4.594204e+001	-9.463346e+001	-3.078302e+001	-1.244123e+001	-8.751435e+001	4.826664e+001	-4.971776e+001	1.024239e+002
6.154375e+006	-4.582053e+001	-9.508435e+001	-3.077788e+001	-1.240007e+001	-9.307493e+001	-1.752151e+002	-4.965513e+001	1.027640e+002
6.154414e+006	-4.585972e+001	-9.489439e+001	-3.077635e+001	-1.246429e+001	-1.022250e+002	8.700982e+001	-4.971854e+001	1.019760e+002
6.154453e+006	-4.588065e+001	-9.476623e+001	-3.078519e+001	-1.238436e+001	-9.684737e+001	8.108502e+001	-4.963031e+001	1.021776e+002
6.154492e+006	-4.591245e+001	-9.506304e+001	-3.077952e+001	-1.251260e+001	-9.197329e+001	2.917128e+001	-4.965438e+001	1.028126e+002
6.154531e+006	-4.586334e+001	-9.470291e+001	-3.077930e+001	-1.238951e+001	-9.261367e+001	-4.715466e+001	-4.957813e+001	1.021114e+002
6.154570e+006	-4.582460e+001	-9.474416e+001	-3.078545e+001	-1.239849e+001	-9.262660e+001	-1.530214e+002	-4.970012e+001	1.023605e+002
6.154609e+006	-4.589824e+001	-9.479742e+001	-3.078237e+001	-1.239354e+001	-9.655078e+001	-9.893519e+001	-4.973661e+001	1.026084e+002
6.154648e+006	-4.585910e+001	-9.464213e+001	-3.077217e+001	-1.241216e+001	-9.552816e+001	-7.206993e+001	-4.978252e+001	1.020112e+002
6.154688e+006	-4.589826e+001	-9.485993e+001	-3.078265e+001	-1.242429e+001	-9.639953e+001	9.495010e+001	-4.975916e+001	1.027529e+002
6.154727e+006	-4.584693e+001	-9.474689e+001	-3.077834e+001	-1.242030e+001	-8.913175e+001	1.271734e+002	-4.963637e+001	1.022454e+002
6.154766e+006	-4.587126e+001	-9.500180e+001	-3.078536e+001	-1.243249e+001	-8.998943e+001	1.133130e+002	-4.965203e+001	1.028206e+002
6.154805e+006	-4.583980e+001	-9.515086e+001	-3.077382e+001	-1.236936e+001	-9.018857e+001	1.439788e+002	-4.976325e+001	1.026687e+002
6.154844e+006	-4.590319e+001	-9.479073e+001	-3.078478e+001	-1.237704e+001	-9.501895e+001	-9.419509e+000	-4.962483e+001	1.015480e+002
6.154883e+006	-4.587535e+001	-9.467164e+001	-3.078057e+001	-1.245088e+001	-8.731639e+001	1.250808e+001	-4.975576e+001	1.021637e+002
6.154922e+006	-4.592230e+001	-9.472046e+001	-3.077557e+001	-1.247056e+001	-1.097651e+002	-4.002191e+000	-4.969293e+001	1.022140e+002
6.154961e+006	-4.586791e+001	-9.471035e+001	-3.077210e+001	-1.250486e+001	-1.141718e+002	-6.342299e+001	-4.973875e+001	1.023723e+002
6.155000e+006	-4.589682e+001	-9.488850e+001	-3.077213e+001	-1.241669e+001	-9.937195e+001	-3.720382e+001	-4.978716e+001	1.025679e+002
6.155039e+006	-4.591574e+001	-9.454524e+001	-3.077819e+001	-1.241743e+001	-9.355111e+001	5.195487e+001	-4.966451e+001	1.022495e+002
6.155078e+006	-4.586868e+001	-9.508072e+001	-3.077618e+001	-1.248401e+001	-9.252380e+001	7.972331e+001	-4.969340e+001	1.022977e+002
6.155117e+006	-4.589947e+001	-9.521477e+001	-3.077409e+001	-1.241335e+001	-1.005132e+002	9.978051e+001	-4.972837e+001	1.023778e+002
6.155156e+006	-4.591583e+001	-9.483181e+001	-3.078800e+001	-1.246292e+001	-1.049579e+002	1.060457e+002	-4.964577e+001	1.018865e+002
6.155195e+006	-4.585715e+001	-9.502148e+001	-3.077139e+001	-1.242338e+001	-8.687793e+001	1.107714e+002	-4.963411e+001	1.021308e+002
6.155234e+006	-4.582175e+001	-9.470633e+001	-3.077765e+001	-1.240264e+001	-9.418956e+001	5.618698e+001	-4.966504e+001	1.027378e+002
6.155273e+006	-4.585927e+001	-9.480561e+001	-3.076358e+001	-1.242890e+001	-9.197736e+001	3.726635e+000	-4.965202e+001	1.017385e+002
6.155313e+006	-4.586865e+001	-9.497780e+001	-3.078123e+001	-1.247260e+001	-9.755534e+001	5.615697e+001	-4.973102e+001	1.022826e+002
6.155352e+006	-4.587933e+001	-9.453643e+001	-3.077803e+001	-1.240776e+001	-9.652616e+001	2.078339e+001	-4.966899e+001	1.024940e+002
6.155391e+006	-4.587919e+001	-9.469623e+001	-3.077925e+001	-1.235567e+001	-8.755484e+001	1.030139e+002	-4.971879e+001	1.022140e+002
6.155430e+006	-4.584446e+001	-9.433589e+001	-3.077369e+001	-1.248983e+001	-9.084444e+001	1.455837e+002	-4.972440e+001	1.023308e+002
6.155469e+006	-4.584937e+001	-9.525638e+001	-3.077592e+001	-1.256483e+001	-9.364200e+001	5.317206e+001	-4.971162e+001	1.026413e+002
6.155508e+006	-4.589995e+001	-9.482435e+001	-3.077377e+001	-1.241795e+001	-9.141422e+001	1.276360e+002	-4.969653e+001	1.022547e+002
6.155547e+006	-4.583031e+001	-9.463499e+001	-3.077298e+001	-1.246178e+001	-1.141300e+002	-7.382327e+001	-4.967077e+001	1.021457e+002
6.155586e+006	-4.589416e+001	-9.510513e+001	-3.077336e+001	-1.241004e+001	-9.142290e+001	-1.385357e+002	-4.967703e+001	1.024366e+002
6.155625e+006	-4.586675e+001	-9.435830e+001	-3.077416e+001	-1.241527e+001	-9.019719e+001	-1.163853e+002	-4.975341e+001	1.031918e+002
6.155664e+006	-4.585233e+001	-9.468806e+001	-3.077425e+001	-1.242407e+001	-8.996635e+001	8.288483e+001	-4.966608e+001	1.022605e+002
6.155703e+006	-4.583315e+001	-9.457953e+001	-3.077607e+001	-1.250719e+001	-9.295984e+001	1.135015e+002	-4.966837e+001	1.029032e+002
6.155742e+006	-4.587401e+001	-9.493345e+001	-3.076443e+001	-1.238570e+001	-8.977482e+001	-4.413242e+001	-4.975725e+001	1.024558e+002
