!CETC41,AV3656A,ZGL00048,1.3.2
!Calibration ON (Full Solt 2-Port(Omit Isolation))
!Measurements: S11 S21 S12 S22
!2025-04-22 21:54
# Hz  S  dB  R 50.000
6.150000e+006	-4.576092e+001	-9.348854e+001	-3.078208e+001	-1.275240e+001	-9.838923e+001	-1.275440e+002	-4.894138e+001	1.067441e+002
6.150039e+006	-4.579565e+001	-9.327662e+001	-3.076246e+001	-1.274941e+001	-1.079051e+002	1.217766e+002	-4.902030e+001	1.073253e+002
6.150078e+006	-4.576699e+001	-9.362813e+001	-3.078054e+001	-1.284558e+001	-9.177522e+001	7.236311e+001	-4.897528e+001	1.062720e+002
6.150117e+006	-4.580145e+001	-9.331920e+001	-3.077404e+001	-1.273891e+001	-8.946042e+001	1.239495e+002	-4.902873e+001	1.065365e+002
6.150156e+006	-4.576600e+001	-9.343542e+001	-3.078453e+001	-1.276132e+001	-9.503607e+001	1.438759e+002	-4.901064e+001	1.064190e+002
6.150195e+006	-4.575837e+001	-9.355790e+001	-3.078929e+001	-1.269048e+001	-1.017249e+002	-6.539153e+001	-4.894273e+001	1.061834e+002
6.150234e+006	-4.568299e+001	-9.373926e+001	-3.079257e+001	-1.277015e+001	-9.307350e+001	1.200047e+002	-4.898550e+001	1.069584e+002
6.150273e+006	-4.577555e+001	-9.296496e+001	-3.078455e+001	-1.276628e+001	-9.500251e+001	-3.867145e+001	-4.891641e+001	1.060605e+002
6.150313e+006	-4.578967e+001	-9.374892e+001	-3.077336e+001	-1.271151e+001	-8.957978e+001	1.373071e+002	-4.897520e+001	1.066377e+002
6.150352e+006	-4.576576e+001	-9.356190e+001	-3.077600e+001	-1.279930e+001	-8.863912e+001	1.614157e+002	-4.896379e+001	1.067580e+002
6.150391e+006	-4.580818e+001	-9.363413e+001	-3.077171e+001	-1.276697e+001	-8.983371e+001	1.143018e+002	-4.893310e+001	1.060053e+002
6.150430e+006	-4.573205e+001	-9.390202e+001	-3.078155e+001	-1.277593e+001	-9.272965e+001	1.515922e+002	-4.898952e+001	1.069524e+002
6.150469e+006	-4.575859e+001	-9.375758e+001	-3.079589e+001	-1.271460e+001	-9.416254e+001	1.063732e+002	-4.892099e+001	1.064347e+002
6.150508e+006	-4.578249e+001	-9.378670e+001	-3.078618e+001	-1.268436e+001	-1.000589e+002	8.495945e+001	-4.901505e+001	1.066786e+002
6.150547e+006	-4.574286e+001	-9.341029e+001	-3.077864e+001	-1.277377e+001	-9.333447e+001	6.188272e+001	-4.905114e+001	1.070007e+002
6.150586e+006	-4.579846e+001	-9.316701e+001	-3.076719e+001	-1.265933e+001	-1.085978e+002	2.513898e+001	-4.895395e+001	1.066265e+002
6.150625e+006	-4.581122e+001	-9.302990e+001	-3.077149e+001	-1.270396e+001	-9.643391e+001	1.511192e+002	-4.899598e+001	1.070695e+002
6.150664e+006	-4.579385e+001	-9.276631e+001	-3.076995e+001	-1.267028e+001	-8.635054e+001	7.622425e+001	-4.902230e+001	1.066750e+002
6.150703e+006	-4.582430e+001	-9.311517e+001	-3.077477e+001	-1.268378e+001	-9.348690e+001	1.244609e+002	-4.891504e+001	1.060428e+002
6.150742e+006	-4.586175e+001	-9.316804e+001	-3.078304e+001	-1.272659e+001	-1.023825e+002	2.860521e+001	-4.902520e+001	1.066239e+002
6.150781e+006	-4.578640e+001	-9.294564e+001	-3.078168e+001	-1.269482e+001	-9.582835e+001	4.674083e+001	-4.900217e+001	1.067799e+002
6.150820e+006	-4.573903e+001	-9.317824e+001	-3.077126e+001	-1.275547e+001	-1.011712e+002	9.618321e+001	-4.896435e+001	1.061630e+002
6.150859e+006	-4.575216e+001	-9.360084e+001	-3.077640e+001	-1.272631e+001	-8.883038e+001	1.184764e+002	-4.900176e+001	1.066197e+002
6.150898e+006	-4.577285e+001	-9.332707e+001	-3.078120e+001	-1.273217e+001	-9.119816e+001	5.332470e+001	-4.900447e+001	1.061481e+002
6.150938e+006	-4.574843e+001	-9.350843e+001	-3.078607e+001	-1.269554e+001	-1.000174e+002	1.625635e+002	-4.895972e+001	1.063213e+002
6.150977e+006	-4.580794e+001	-9.317999e+001	-3.077194e+001	-1.272121e+001	-9.477285e+001	8.345296e+001	-4.898827e+001	1.063115e+002
6.151016e+006	-4.574047e+001	-9.365699e+001	-3.077623e+001	-1.277418e+001	-9.814442e+001	-1.315427e+002	-4.896979e+001	1.062227e+002
6.151055e+006	-4.584493e+001	-9.335451e+001	-3.078189e+001	-1.275965e+001	-9.966419e+001	1.587804e+002	-4.899499e+001	1.066648e+002
6.151094e+006	-4.575696e+001	-9.319132e+001	-3.076580e+001	-1.281824e+001	-9.599520e+001	1.437063e+002	-4.896094e+001	1.064648e+002
6.151133e+006	-4.575508e+001	-9.361217e+001	-3.077913e+001	-1.281277e+001	-9.084671e+001	2.346414e+001	-4.899833e+001	1.065739e+002
6.151172e+006	-4.578272e+001	-9.344161e+001	-3.078200e+001	-1.276247e+001	-8.850533e+001	1.174747e+002	-4.899299e+001	1.058811e+002
6.151211e+006	-4.573481e+001	-9.324754e+001	-3.076911e+001	-1.273880e+001	-1.005886e+002	6.584677e+001	-4.900554e+001	1.062266e+002
6.151250e+006	-4.583717e+001	-9.355833e+001	-3.078070e+001	-1.269289e+001	-8.885634e+001	4.012261e+001	-4.899063e+001	1.065830e+002
6.151289e+006	-4.577876e+001	-9.345341e+001	-3.078140e+001	-1.273728e+001	-9.469545e+001	9.355247e+001	-4.897432e+001	1.060357e+002
6.151328e+006	-4.573612e+001	-9.302805e+001	-3.077901e+001	-1.282845e+001	-9.071566e+001	1.171400e+002	-4.902496e+001	1.065707e+002
6.151367e+006	-4.582444e+001	-9.358851e+001	-3.077621e+001	-1.273576e+001	-9.548350e+001	-2.093837e+001	-4.899272e+001	1.063579e+002
6.151406e+006	-4.572203e+001	-9.355923e+001	-3.078822e+001	-1.280635e+001	-9.091185e+001	1.402755e+002	-4.903268e+001	1.062994e+002
6.151445e+006	-4.578104e+001	-9.358045e+001	-3.076943e+001	-1.271698e+001	-9.376818e+001	1.746661e+001	-4.896483e+001	1.065950e+002
6.151484e+006	-4.577501e+001	-9.330112e+001	-3.077679e+001	-1.269135e+001	-9.725022e+001	3.867639e+000	-4.899020e+001	1.064117e+002
6.151523e+006	-4.577865e+001	-9.375885e+001	-3.077959e+001	-1.268432e+001	-9.992640e+001	-1.794877e+002	-4.895603e+001	1.068054e+002
6.151563e+006	-4.571603e+001	-9.329093e+001	-3.076980e+001	-1.277854e+001	-9.555705e+001	1.505903e+002	-4.895098e+001	1.065931e+002
6.151602e+006	-4.578288e+001	-9.337894e+001	-3.077751e+001	-1.275800e+001	-8.998257e+001	6.357663e+001	-4.894683e+001	1.066609e+002
6.151641e+006	-4.579123e+001	-9.322737e+001	-3.078963e+001	-1.274158e+001	-9.573599e+001	-2.330574e+001	-4.908758e+001	1.061797e+002
6.151680e+006	-4.571577e+001	-9.340590e+001	-3.076813e+001	-1.275607e+001	-9.295375e+001	1.094842e+002	-4.898904e+001	1.068957e+002
6.151719e+006	-4.573500e+001	-9.349950e+001	-3.077624e+001	-1.267149e+001	-9.471324e+001	1.199934e+002	-4.895965e+001	1.069916e+002
6.151758e+006	-4.581271e+001	-9.322002e+001	-3.078075e+001	-1.267387e+001	-9.667214e+001	1.225820e+002	-4.894683e+001	1.067698e+002
6.151797e+006	-4.581900e+001	-9.341350e+001	-3.078001e+001	-1.281167e+001	-8.991585e+001	6.179978e+001	-4.903303e+001	1.066197e+002
6.151836e+006	-4.579307e+001	-9.349678e+001	-3.077924e+001	-1.276646e+001	-9.300413e+001	-2.814228e+001	-4.892576e+001	1.065867e+002
6.151875e+006	-4.575866e+001	-9.336020e+001	-3.077345e+001	-1.281666e+001	-9.148423e+001	-1.254382e+002	-4.904278e+001	1.061704e+002
6.151914e+006	-4.577169e+001	-9.349121e+001	-3.078139e+001	-1.275463e+001	-9.483376e+001	1.186406e+000	-4.903781e+001	1.074280e+002
6.151953e+006	-4.575979e+001	-9.329940e+001	-3.077752e+001	-1.272948e+001	-1.026200e+002	-1.780817e-001	-4.892501e+001	1.064335e+002
6.151992e+006	-4.574105e+001	-9.340854e+001	-3.077316e+001	-1.276252e+001	-9.128008e+001	-7.534844e+001	-4.885885e+001	1.065245e+002
6.152031e+006	-4.575492e+001	-9.358524e+001	-3.077712e+001	-1.273827e+001	-9.194062e+001	-2.322404e+001	-4.897445e+001	1.061922e+002
6.152070e+006	-4.581929e+001	-9.290825e+001	-3.077901e+001	-1.268395e+001	-1.063982e+002	-3.881065e+001	-4.901714e+001	1.064069e+002
6.152109e+006	-4.578352e+001	-9.330028e+001	-3.077791e+001	-1.279960e+001	-9.670629e+001	9.284118e+001	-4.898221e+001	1.064587e+002
6.152148e+006	-4.576811e+001	-9.377599e+001	-3.078000e+001	-1.272904e+001	-9.726889e+001	9.707325e-001	-4.892308e+001	1.062904e+002
6.152188e+006	-4.576318e+001	-9.304659e+001	-3.077642e+001	-1.271142e+001	-8.754017e+001	1.344274e+002	-4.890669e+001	1.064858e+002
6.152227e+006	-4.577983e+001	-9.348939e+001	-3.077712e+001	-1.273800e+001	-1.001326e+002	6.236859e+001	-4.904837e+001	1.068219e+002
6.152266e+006	-4.576447e+001	-9.354346e+001	-3.078253e+001	-1.280280e+001	-9.292966e+001	7.665901e+001	-4.900862e+001	1.066378e+002
6.152305e+006	-4.579514e+001	-9.362864e+001	-3.076788e+001	-1.274899e+001	-9.620554e+001	1.203254e+002	-4.894661e+001	1.064817e+002
6.152344e+006	-4.578551e+001	-9.322416e+001	-3.077740e+001	-1.276104e+001	-9.065806e+001	-1.013866e+002	-4.896304e+001	1.069298e+002
6.152383e+006	-4.580020e+001	-9.367247e+001	-3.076961e+001	-1.278479e+001	-9.172440e+001	9.922436e+001	-4.902283e+001	1.065267e+002
6.152422e+006	-4.570841e+001	-9.323805e+001	-3.076913e+001	-1.274777e+001	-9.408421e+001	1.054097e+002	-4.902452e+001	1.063787e+002
6.152461e+006	-4.579403e+001	-9.314630e+001	-3.078066e+001	-1.269452e+001	-9.574240e+001	1.764813e+001	-4.895647e+001	1.066552e+002
6.152500e+006	-4.579353e+001	-9.382797e+001	-3.077531e+001	-1.275580e+001	-1.057313e+002	-8.331269e+000	-4.905896e+001	1.067825e+002
6.152539e+006	-4.572853e+001	-9.320753e+001	-3.078129e+001	-1.274705e+001	-8.818765e+001	1.203167e+002	-4.891848e+001	1.065387e+002
6.152578e+006	-4.572479e+001	-9.320382e+001	-3.077497e+001	-1.274208e+001	-9.029602e+001	1.103500e+002	-4.887043e+001	1.065180e+002
6.152617e+006	-4.574187e+001	-9.317627e+001	-3.077881e+001	-1.276573e+001	-9.388313e+001	9.023727e+001	-4.896821e+001	1.066113e+002
6.152656e+006	-4.577311e+001	-9.340940e+001	-3.078298e+001	-1.280741e+001	-9.392126e+001	2.771414e+000	-4.903757e+001	1.064819e+002
6.152695e+006	-4.574911e+001	-9.310794e+001	-3.077332e+001	-1.274221e+001	-9.868888e+001	9.153613e+001	-4.909654e+001	1.068928e+002
6.152734e+006	-4.574955e+001	-9.327561e+001	-3.077166e+001	-1.276268e+001	-1.105839e+002	1.449404e+002	-4.893331e+001	1.067936e+002
6.152773e+006	-4.577963e+001	-9.327231e+001	-3.077862e+001	-1.275206e+001	-8.659334e+001	-1.103003e+002	-4.891282e+001	1.068116e+002
6.152813e+006	-4.576146e+001	-9.343115e+001	-3.078136e+001	-1.270328e+001	-9.371890e+001	-3.079781e+001	-4.900276e+001	1.063156e+002
6.152852e+006	-4.576758e+001	-9.298935e+001	-3.076857e+001	-1.278860e+001	-8.609038e+001	1.114486e+002	-4.901041e+001	1.066887e+002
6.152891e+006	-4.570526e+001	-9.327363e+001	-3.077658e+001	-1.276204e+001	-9.055717e+001	2.604358e+001	-4.892033e+001	1.061309e+002
6.152930e+006	-4.570797e+001	-9.340731e+001	-3.078019e+001	-1.278334e+001	-8.366842e+001	1.308122e+002	-4.897210e+001	1.066132e+002
6.152969e+006	-4.578382e+001	-9.349913e+001	-3.076455e+001	-1.272622e+001	-9.444304e+001	3.589545e+001	-4.898014e+001	1.067499e+002
6.153008e+006	-4.573293e+001	-9.302079e+001	-3.077530e+001	-1.278026e+001	-9.278310e+001	7.805514e+001	-4.896616e+001	1.067340e+002
6.153047e+006	-4.578543e+001	-9.343358e+001	-3.076886e+001	-1.271591e+001	-9.059398e+001	-1.762024e+002	-4.896702e+001	1.071176e+002
6.153086e+006	-4.576992e+001	-9.358827e+001	-3.076038e+001	-1.279792e+001	-8.622865e+001	-1.452133e+002	-4.905853e+001	1.068484e+002
6.153125e+006	-4.578018e+001	-9.305479e+001	-3.076523e+001	-1.274643e+001	-9.219873e+001	7.488858e+001	-4.897277e+001	1.067273e+002
6.153164e+006	-4.576755e+001	-9.371108e+001	-3.078143e+001	-1.277643e+001	-9.588063e+001	6.825120e+001	-4.910702e+001	1.065016e+002
6.153203e+006	-4.571308e+001	-9.338563e+001	-3.077478e+001	-1.275558e+001	-1.013209e+002	-1.215052e+002	-4.898398e+001	1.071117e+002
6.153242e+006	-4.579436e+001	-9.337216e+001	-3.077363e+001	-1.272731e+001	-9.814263e+001	2.685609e+001	-4.894475e+001	1.063281e+002
6.153281e+006	-4.571302e+001	-9.347669e+001	-3.078178e+001	-1.270912e+001	-1.015809e+002	3.275951e+001	-4.893212e+001	1.065995e+002
6.153320e+006	-4.576567e+001	-9.341312e+001	-3.077107e+001	-1.282577e+001	-9.246822e+001	1.757099e+000	-4.891622e+001	1.066325e+002
6.153359e+006	-4.579654e+001	-9.315676e+001	-3.077305e+001	-1.270795e+001	-9.332149e+001	4.905144e+001	-4.901138e+001	1.068235e+002
6.153398e+006	-4.576466e+001	-9.365432e+001	-3.077601e+001	-1.276321e+001	-9.044035e+001	7.353115e+001	-4.895195e+001	1.065993e+002
6.153438e+006	-4.577391e+001	-9.329154e+001	-3.076789e+001	-1.272683e+001	-9.579513e+001	9.350518e+001	-4.895378e+001	1.060470e+002
6.153477e+006	-4.569699e+001	-9.343966e+001	-3.077535e+001	-1.276147e+001	-9.124038e+001	1.090574e+002	-4.900893e+001	1.065441e+002
6.153516e+006	-4.580936e+001	-9.316570e+001	-3.076972e+001	-1.268955e+001	-9.428350e+001	1.217572e+002	-4.901648e+001	1.069659e+002
6.153555e+006	-4.574630e+001	-9.294723e+001	-3.078534e+001	-1.282884e+001	-9.759025e+001	1.317160e+002	-4.896272e+001	1.065670e+002
6.153594e+006	-4.579724e+001	-9.341102e+001	-3.076658e+001	-1.274871e+001	-9.191749e+001	1.186689e+001	-4.900641e+001	1.069003e+002
6.153633e+006	-4.572351e+001	-9.326331e+001	-3.076680e+001	-1.277057e+001	-8.998087e+001	7.928084e+001	-4.898362e+001	1.067977e+002
6.153672e+006	-4.572688e+001	-9.369208e+001	-3.077665e+001	-1.277432e+001	-9.301754e+001	2.321074e+001	-4.891737e+001	1.061892e+002
6.153711e+006	-4.578510e+001	-9.317340e+001	-3.078242e+001	-1.277037e+001	-9.662344e+001	5.740547e+001	-4.893102e+001	1.074839e+002
6.153750e+006	-4.574856e+001	-9.350521e+001	-3.077381e+001	-1.279453e+001	-9.829406e+001	-6.878047e+001	-4.898897e+001	1.068667e+002
6.153789e+006	-4.578173e+001	-9.269680e+001	-3.077461e+001	-1.278321e+001	-9.452881e+001	9.806701e+001	-4.891449e+001	1.066538e+002
6.153828e+006	-4.572895e+001	-9.287721e+001	-3.077675e+001	-1.272230e+001	-9.423237e+001	1.308973e+002	-4.900179e+001	1.063896e+002
6.153867e+006	-4.579255e+001	-9.335273e+001	-3.077136e+001	-1.279611e+001	-9.268488e+001	1.204796e+002	-4.897809e+001	1.062632e+002
6.153906e+006	-4.580282e+001	-9.324322e+001	-3.077435e+001	-1.274749e+001	-8.933574e+001	5.826700e+001	-4.899695e+001	1.066415e+002
6.153945e+006	-4.580791e+001	-9.342285e+001	-3.078397e+001	-1.275976e+001	-9.368639e+001	1.096268e+002	-4.894537e+001	1.067491e+002
6.153984e+006	-4.575559e+001	-9.322905e+001	-3.076516e+001	-1.271261e+001	-9.784321e+001	-1.306038e+002	-4.895453e+001	1.063378e+002
6.154023e+006	-4.579378e+001	-9.353101e+001	-3.077030e+001	-1.277113e+001	-9.429071e+001	6.369060e+001	-4.890561e+001	1.068825e+002
6.154063e+006	-4.571289e+001	-9.330677e+001	-3.077997e+001	-1.273460e+001	-1.072650e+002	-4.091794e+001	-4.896361e+001	1.063456e+002
6.154102e+006	-4.574167e+001	-9.321990e+001	-3.076793e+001	-1.274651e+001	-9.752077e+001	-1.328763e+002	-4.898640e+001	1.068010e+002
6.154141e+006	-4.573499e+001	-9.345739e+001	-3.078144e+001	-1.272619e+001	-9.941649e+001	4.893805e+001	-4.898419e+001	1.065079e+002
6.154180e+006	-4.579808e+001	-9.360070e+001	-3.078128e+001	-1.271871e+001	-9.130155e+001	8.940527e+001	-4.899189e+001	1.062712e+002
6.154219e+006	-4.575395e+001	-9.333116e+001	-3.077422e+001	-1.275555e+001	-9.316444e+001	1.400768e+002	-4.890879e+001	1.068876e+002
6.154258e+006	-4.575887e+001	-9.353736e+001	-3.076831e+001	-1.278601e+001	-9.230706e+001	2.236787e+001	-4.893333e+001	1.066047e+002
6.154297e+006	-4.577061e+001	-9.363200e+001	-3.077904e+001	-1.280052e+001	-9.782318e+001	1.664332e+002	-4.900404e+001	1.067020e+002
6.154336e+006	-4.577828e+001	-9.366868e+001	-3.077821e+001	-1.273523e+001	-1.482860e+002	-2.701513e+001	-4.903779e+001	1.062052e+002
6.154375e+006	-4.578619e+001	-9.325352e+001	-3.077362e+001	-1.276502e+001	-9.522555e+001	6.942613e+001	-4.896376e+001	1.059806e+002
6.154414e+006	-4.578427e+001	-9.371976e+001	-3.077991e+001	-1.276158e+001	-9.988783e+001	-4.793078e+001	-4.892922e+001	1.066663e+002
6.154453e+006	-4.578330e+001	-9.342607e+001	-3.077458e+001	-1.274427e+001	-9.276347e+001	1.572780e+002	-4.895079e+001	1.067344e+002
6.154492e+006	-4.578402e+001	-9.363761e+001	-3.078229e+001	-1.277570e+001	-8.741949e+001	9.690767e+001	-4.898662e+001	1.068856e+002
6.154531e+006	-4.579006e+001	-9.343979e+001	-3.077390e+001	-1.276352e+001	-9.068316e+001	1.494761e+002	-4.900883e+001	1.067462e+002
6.154570e+006	-4.574660e+001	-9.328458e+001	-3.077628e+001	-1.277486e+001	-9.317501e+001	-2.485810e+000	-4.899151e+001	1.068040e+002
6.154609e+006	-4.576474e+001	-9.334886e+001	-3.077056e+001	-1.273104e+001	-9.927248e+001	1.242653e+002	-4.897058e+001	1.068464e+002
6.154648e+006	-4.574696e+001	-9.332739e+001	-3.077861e+001	-1.279764e+001	-9.651720e+001	1.251753e+002	-4.889925e+001	1.071745e+002
6.154688e+006	-4.575880e+001	-9.367503e+001	-3.076689e+001	-1.274786e+001	-9.473110e+001	-1.666272e+002	-4.903848e+001	1.064164e+002
6.154727e+006	-4.575748e+001	-9.334742e+001	-3.077318e+001	-1.278751e+001	-9.069829e+001	8.837975e+001	-4.900746e+001	1.061393e+002
6.154766e+006	-4.580394e+001	-9.344078e+001	-3.076815e+001	-1.272463e+001	-9.548428e+001	8.320880e+001	-4.896638e+001	1.067540e+002
6.154805e+006	-4.574393e+001	-9.353194e+001	-3.076000e+001	-1.277559e+001	-8.887700e+001	1.351219e+002	-4.890574e+001	1.069957e+002
6.154844e+006	-4.577956e+001	-9.335357e+001	-3.077655e+001	-1.272195e+001	-8.700881e+001	1.232798e+002	-4.903408e+001	1.066183e+002
6.154883e+006	-4.568728e+001	-9.352910e+001	-3.077846e+001	-1.271266e+001	-1.029710e+002	-4.007223e+001	-4.899911e+001	1.066979e+002
6.154922e+006	-4.583832e+001	-9.343699e+001	-3.076811e+001	-1.273057e+001	-8.494188e+001	1.421219e+002	-4.894105e+001	1.063801e+002
6.154961e+006	-4.577231e+001	-9.366323e+001	-3.077730e+001	-1.282334e+001	-9.641853e+001	1.678293e+002	-4.899563e+001	1.065266e+002
6.155000e+006	-4.575001e+001	-9.347006e+001	-3.077364e+001	-1.272909e+001	-9.632956e+001	3.660543e+001	-4.897918e+001	1.067691e+002
6.155039e+006	-4.575504e+001	-9.355832e+001	-3.077804e+001	-1.275106e+001	-9.640498e+001	1.591661e+002	-4.895859e+001	1.067974e+002
6.155078e+006	-4.571205e+001	-9.331782e+001	-3.076843e+001	-1.274266e+001	-8.635947e+001	1.200287e+002	-4.902592e+001	1.065094e+002
6.155117e+006	-4.571855e+001	-9.339016e+001	-3.077788e+001	-1.274407e+001	-9.699936e+001	1.391853e+002	-4.895791e+001	1.066667e+002
6.155156e+006	-4.581000e+001	-9.348078e+001	-3.078088e+001	-1.278936e+001	-9.160278e+001	1.160568e+002	-4.896118e+001	1.062869e+002
6.155195e+006	-4.570674e+001	-9.348435e+001	-3.077484e+001	-1.277260e+001	-9.166382e+001	-5.867149e+001	-4.902390e+001	1.066223e+002
6.155234e+006	-4.571583e+001	-9.328099e+001	-3.077266e+001	-1.270272e+001	-1.109267e+002	3.488522e+001	-4.901626e+001	1.068845e+002
6.155273e+006	-4.575181e+001	-9.344389e+001	-3.076862e+001	-1.272129e+001	-9.588312e+001	1.222948e+002	-4.900939e+001	1.072411e+002
6.155313e+006	-4.572185e+001	-9.323119e+001	-3.076833e+001	-1.269550e+001	-8.970174e+001	6.918016e+001	-4.894819e+001	1.073228e+002
6.155352e+006	-4.576558e+001	-9.353499e+001	-3.077378e+001	-1.273135e+001	-8.890408e+001	1.339850e+002	-4.899478e+001	1.067763e+002
6.155391e+006	-4.575399e+001	-9.340571e+001	-3.078400e+001	-1.268530e+001	-9.800670e+001	-1.576122e+002	-4.894409e+001	1.067806e+002
6.155430e+006	-4.579459e+001	-9.357917e+001	-3.076561e+001	-1.275626e+001	-9.079699e+001	-2.396567e+001	-4.901809e+001	1.067106e+002
6.155469e+006	-4.573753e+001	-9.336906e+001	-3.076823e+001	-1.270520e+001	-9.008947e+001	1.066984e+002	-4.892341e+001	1.065210e+002
6.155508e+006	-4.579153e+001	-9.371230e+001	-3.077016e+001	-1.277259e+001	-1.080846e+002	-5.229750e+000	-4.898150e+001	1.065900e+002
6.155547e+006	-4.578443e+001	-9.321920e+001	-3.076416e+001	-1.278534e+001	-9.448257e+001	1.416331e+002	-4.900762e+001	1.063083e+002
6.155586e+006	-4.577411e+001	-9.354355e+001	-3.077861e+001	-1.276727e+001	-9.052460e+001	7.403683e+001	-4.899062e+001	1.065055e+002
6.155625e+006	-4.573956e+001	-9.334034e+001	-3.076470e+001	-1.275037e+001	-8.768407e+001	9.766621e+001	-4.895777e+001	1.061981e+002
6.155664e+006	-4.574587e+001	-9.340810e+001	-3.076672e+001	-1.277870e+001	-9.551863e+001	1.677749e+002	-4.897047e+001	1.072025e+002
6.155703e+006	-4.576748e+001	-9.325262e+001	-3.077457e+001	-1.275388e+001	-9.219455e+001	-9.246498e+001	-4.898162e+001	1.067826e+002
6.155742e+006	-4.578318e+001	-9.348211e+001	-3.076740e+001	-1.271220e+001	-8.968432e+001	9.314684e+001	-4.893776e+001	1.070446e+002
