!CETC41,AV3656A,ZGL00048,1.3.2
!Calibration ON (Full Solt 2-Port(Omit Isolation))
!Measurements: S11 S21 S12 S22
!2025-04-18 22:09
# Hz  S  dB  R 50.000
9.990000e+006	-3.537476e+001	1.564329e+002	-3.055739e+001	-2.463813e+001	-1.038493e+002	-1.797876e+001	-3.222271e+001	1.440261e+002
9.990005e+006	-3.536402e+001	1.564249e+002	-3.055899e+001	-2.451121e+001	-8.959419e+001	6.677838e+001	-3.223832e+001	1.440191e+002
9.990009e+006	-3.537458e+001	1.564279e+002	-3.054696e+001	-2.456309e+001	-9.249487e+001	4.654957e+001	-3.224084e+001	1.439668e+002
9.990014e+006	-3.536101e+001	1.564688e+002	-3.053899e+001	-2.455888e+001	-9.025163e+001	9.898984e+001	-3.225686e+001	1.439155e+002
9.990019e+006	-3.536334e+001	1.565050e+002	-3.055272e+001	-2.447536e+001	-9.763987e+001	-1.208837e+002	-3.224768e+001	1.439056e+002
9.990023e+006	-3.535175e+001	1.565037e+002	-3.054733e+001	-2.452355e+001	-9.277039e+001	1.479208e+002	-3.225396e+001	1.438423e+002
9.990028e+006	-3.537005e+001	1.564419e+002	-3.054981e+001	-2.438794e+001	-1.032366e+002	4.483777e+001	-3.223340e+001	1.438604e+002
9.990033e+006	-3.535506e+001	1.564197e+002	-3.055822e+001	-2.444076e+001	-9.592044e+001	-1.584608e+002	-3.222990e+001	1.438731e+002
9.990038e+006	-3.536778e+001	1.564294e+002	-3.055811e+001	-2.447878e+001	-9.191720e+001	9.724294e+001	-3.224142e+001	1.438699e+002
9.990042e+006	-3.534629e+001	1.564993e+002	-3.055830e+001	-2.449933e+001	-9.387627e+001	1.760679e+002	-3.222833e+001	1.438923e+002
9.990047e+006	-3.537298e+001	1.563825e+002	-3.055362e+001	-2.448981e+001	-8.894925e+001	7.989958e+001	-3.222707e+001	1.438430e+002
9.990052e+006	-3.535786e+001	1.564770e+002	-3.055498e+001	-2.453856e+001	-9.431589e+001	-1.777762e+002	-3.221573e+001	1.439575e+002
9.990056e+006	-3.535630e+001	1.564990e+002	-3.055184e+001	-2.446697e+001	-9.673489e+001	2.031224e+001	-3.223780e+001	1.439018e+002
9.990061e+006	-3.536322e+001	1.566074e+002	-3.055802e+001	-2.457521e+001	-9.890541e+001	1.097310e+002	-3.223377e+001	1.439095e+002
9.990066e+006	-3.536832e+001	1.563742e+002	-3.054403e+001	-2.457111e+001	-9.582420e+001	8.262231e+001	-3.224174e+001	1.437938e+002
9.990070e+006	-3.535310e+001	1.564801e+002	-3.054591e+001	-2.458702e+001	-9.357649e+001	1.409303e+000	-3.224465e+001	1.438755e+002
9.990075e+006	-3.536678e+001	1.564676e+002	-3.055815e+001	-2.455954e+001	-9.626500e+001	-4.523474e+001	-3.224303e+001	1.439008e+002
9.990080e+006	-3.536845e+001	1.563921e+002	-3.054951e+001	-2.455816e+001	-9.378623e+001	-1.182967e+002	-3.222823e+001	1.438674e+002
9.990084e+006	-3.536572e+001	1.564064e+002	-3.055506e+001	-2.460130e+001	-9.459396e+001	-6.014177e+000	-3.224439e+001	1.437871e+002
9.990089e+006	-3.536544e+001	1.563969e+002	-3.055264e+001	-2.463773e+001	-9.084950e+001	1.050664e+002	-3.223335e+001	1.438684e+002
9.990094e+006	-3.536531e+001	1.564701e+002	-3.056354e+001	-2.452772e+001	-9.971561e+001	1.506262e+002	-3.223338e+001	1.439055e+002
9.990098e+006	-3.536196e+001	1.564500e+002	-3.056728e+001	-2.462057e+001	-8.680026e+001	1.091453e+002	-3.223593e+001	1.438654e+002
9.990103e+006	-3.537009e+001	1.563691e+002	-3.055903e+001	-2.464081e+001	-9.200125e+001	1.226140e+002	-3.223896e+001	1.439301e+002
9.990108e+006	-3.537041e+001	1.564117e+002	-3.055924e+001	-2.461813e+001	-1.120803e+002	6.016030e+001	-3.222938e+001	1.438237e+002
9.990113e+006	-3.537567e+001	1.564850e+002	-3.055096e+001	-2.463179e+001	-9.031220e+001	1.410033e+002	-3.222955e+001	1.439421e+002
9.990117e+006	-3.535847e+001	1.563097e+002	-3.056730e+001	-2.460926e+001	-9.870604e+001	-1.014690e+002	-3.224369e+001	1.438997e+002
9.990122e+006	-3.537333e+001	1.564265e+002	-3.056202e+001	-2.448698e+001	-9.236218e+001	1.255721e+002	-3.223131e+001	1.439371e+002
9.990127e+006	-3.536563e+001	1.565488e+002	-3.056563e+001	-2.452120e+001	-8.870945e+001	1.536904e+002	-3.223791e+001	1.439256e+002
9.990131e+006	-3.535913e+001	1.565237e+002	-3.056918e+001	-2.454312e+001	-9.297577e+001	5.088884e+001	-3.224108e+001	1.439480e+002
9.990136e+006	-3.537092e+001	1.564550e+002	-3.057561e+001	-2.446069e+001	-9.824503e+001	-3.782232e+001	-3.223265e+001	1.439713e+002
9.990141e+006	-3.536252e+001	1.563983e+002	-3.056500e+001	-2.441684e+001	-8.993933e+001	1.466132e+002	-3.222829e+001	1.440234e+002
9.990145e+006	-3.536285e+001	1.564253e+002	-3.056214e+001	-2.436186e+001	-8.761405e+001	1.377664e+002	-3.222517e+001	1.440003e+002
9.990150e+006	-3.537157e+001	1.564315e+002	-3.055873e+001	-2.444568e+001	-9.662960e+001	-2.158668e+001	-3.223401e+001	1.439036e+002
9.990155e+006	-3.536793e+001	1.563491e+002	-3.054797e+001	-2.441926e+001	-9.195155e+001	1.124508e+002	-3.223574e+001	1.438979e+002
9.990159e+006	-3.537393e+001	1.564144e+002	-3.055047e+001	-2.453059e+001	-9.832732e+001	-1.668813e+002	-3.223743e+001	1.439260e+002
9.990164e+006	-3.536635e+001	1.564006e+002	-3.055660e+001	-2.447539e+001	-9.038686e+001	1.636123e+002	-3.223726e+001	1.439137e+002
9.990169e+006	-3.536502e+001	1.564335e+002	-3.054805e+001	-2.453697e+001	-9.563128e+001	-7.150956e+001	-3.223107e+001	1.438927e+002
9.990173e+006	-3.536750e+001	1.563546e+002	-3.054422e+001	-2.452328e+001	-9.799995e+001	-1.967948e+001	-3.224487e+001	1.439818e+002
9.990178e+006	-3.538047e+001	1.564263e+002	-3.056038e+001	-2.454083e+001	-8.888050e+001	1.500918e+002	-3.224043e+001	1.439385e+002
9.990183e+006	-3.536942e+001	1.563564e+002	-3.056440e+001	-2.452409e+001	-9.761224e+001	2.028958e+001	-3.223932e+001	1.439210e+002
9.990188e+006	-3.537485e+001	1.563816e+002	-3.056676e+001	-2.450489e+001	-9.622968e+001	5.425129e+001	-3.223326e+001	1.439176e+002
9.990192e+006	-3.536380e+001	1.564502e+002	-3.055595e+001	-2.448582e+001	-9.168435e+001	3.841153e+001	-3.223790e+001	1.439835e+002
9.990197e+006	-3.538052e+001	1.564046e+002	-3.054135e+001	-2.447382e+001	-9.461633e+001	7.974645e+001	-3.223258e+001	1.440048e+002
9.990202e+006	-3.535917e+001	1.564839e+002	-3.054417e+001	-2.450815e+001	-9.062887e+001	-7.243903e+001	-3.223286e+001	1.439366e+002
9.990206e+006	-3.536409e+001	1.564184e+002	-3.054537e+001	-2.452320e+001	-8.918145e+001	1.178604e+002	-3.224399e+001	1.439241e+002
9.990211e+006	-3.536572e+001	1.564846e+002	-3.054978e+001	-2.452979e+001	-9.490992e+001	1.796698e+002	-3.222949e+001	1.439010e+002
9.990216e+006	-3.536922e+001	1.564833e+002	-3.054787e+001	-2.455814e+001	-9.926688e+001	1.412881e+002	-3.223750e+001	1.438893e+002
9.990220e+006	-3.537451e+001	1.564207e+002	-3.055552e+001	-2.452538e+001	-8.817089e+001	6.974089e+001	-3.224680e+001	1.438619e+002
9.990225e+006	-3.537464e+001	1.565180e+002	-3.055052e+001	-2.450775e+001	-9.310945e+001	1.548737e+002	-3.223601e+001	1.439079e+002
9.990230e+006	-3.535606e+001	1.564640e+002	-3.055258e+001	-2.444438e+001	-9.469450e+001	1.384034e+002	-3.222607e+001	1.439033e+002
9.990234e+006	-3.537509e+001	1.564124e+002	-3.055542e+001	-2.452658e+001	-1.005656e+002	1.033317e+002	-3.223246e+001	1.439049e+002
9.990239e+006	-3.537635e+001	1.563150e+002	-3.055316e+001	-2.449298e+001	-9.038709e+001	1.323691e+002	-3.223719e+001	1.439415e+002
9.990244e+006	-3.534719e+001	1.564149e+002	-3.055819e+001	-2.452744e+001	-9.290733e+001	-2.704110e-001	-3.223703e+001	1.439077e+002
9.990248e+006	-3.535928e+001	1.564411e+002	-3.056049e+001	-2.447976e+001	-9.770285e+001	-1.728334e+002	-3.223286e+001	1.439219e+002
9.990253e+006	-3.537683e+001	1.564746e+002	-3.056012e+001	-2.450943e+001	-9.825958e+001	1.497292e+002	-3.223777e+001	1.438666e+002
9.990258e+006	-3.537424e+001	1.564671e+002	-3.055907e+001	-2.452669e+001	-9.867159e+001	-1.183375e+001	-3.222332e+001	1.439164e+002
9.990263e+006	-3.538015e+001	1.563823e+002	-3.054924e+001	-2.450363e+001	-9.008877e+001	1.235312e+002	-3.224839e+001	1.439163e+002
9.990267e+006	-3.536708e+001	1.564286e+002	-3.054395e+001	-2.450192e+001	-9.189630e+001	1.203282e+002	-3.222370e+001	1.439760e+002
9.990272e+006	-3.536180e+001	1.564702e+002	-3.055015e+001	-2.454862e+001	-9.091515e+001	8.272447e+001	-3.223713e+001	1.439199e+002
9.990277e+006	-3.536257e+001	1.564930e+002	-3.055224e+001	-2.442664e+001	-1.107049e+002	-1.685632e+002	-3.224254e+001	1.439152e+002
9.990281e+006	-3.536649e+001	1.564263e+002	-3.055848e+001	-2.451160e+001	-8.818972e+001	4.936022e+001	-3.222675e+001	1.438680e+002
9.990286e+006	-3.536967e+001	1.564728e+002	-3.055798e+001	-2.444496e+001	-8.974502e+001	-1.531854e+002	-3.223182e+001	1.440200e+002
9.990291e+006	-3.536929e+001	1.563673e+002	-3.055279e+001	-2.454866e+001	-9.919587e+001	2.728304e+001	-3.224105e+001	1.438816e+002
9.990295e+006	-3.536386e+001	1.564197e+002	-3.054101e+001	-2.452908e+001	-9.765256e+001	6.975404e+001	-3.223909e+001	1.439418e+002
9.990300e+006	-3.536937e+001	1.564842e+002	-3.054440e+001	-2.446301e+001	-9.596391e+001	-3.136855e+000	-3.223005e+001	1.439220e+002
9.990305e+006	-3.536216e+001	1.565999e+002	-3.054879e+001	-2.446713e+001	-9.590115e+001	1.076838e+002	-3.222943e+001	1.439885e+002
9.990309e+006	-3.537330e+001	1.564893e+002	-3.055032e+001	-2.452363e+001	-8.804218e+001	1.391554e+002	-3.223765e+001	1.438672e+002
9.990314e+006	-3.536104e+001	1.564713e+002	-3.055388e+001	-2.450251e+001	-1.054258e+002	1.100000e+002	-3.224350e+001	1.439756e+002
9.990319e+006	-3.536404e+001	1.564189e+002	-3.055866e+001	-2.452310e+001	-9.732637e+001	3.094324e+001	-3.223518e+001	1.438682e+002
9.990323e+006	-3.536116e+001	1.564307e+002	-3.055214e+001	-2.444812e+001	-9.935477e+001	1.636107e+002	-3.223461e+001	1.439309e+002
9.990328e+006	-3.536185e+001	1.564383e+002	-3.055231e+001	-2.452299e+001	-9.402406e+001	-1.644600e+002	-3.223444e+001	1.438934e+002
9.990333e+006	-3.537436e+001	1.564982e+002	-3.055897e+001	-2.450948e+001	-1.018974e+002	1.052261e+002	-3.223903e+001	1.439160e+002
9.990338e+006	-3.538119e+001	1.563799e+002	-3.054239e+001	-2.452181e+001	-9.234089e+001	6.500241e+001	-3.224038e+001	1.439198e+002
9.990342e+006	-3.536438e+001	1.564428e+002	-3.055503e+001	-2.449555e+001	-9.618106e+001	1.759359e+002	-3.223881e+001	1.439603e+002
9.990347e+006	-3.536532e+001	1.564283e+002	-3.055516e+001	-2.452894e+001	-9.059307e+001	-1.755827e+002	-3.223205e+001	1.439086e+002
9.990352e+006	-3.536332e+001	1.565199e+002	-3.054657e+001	-2.452426e+001	-9.044638e+001	1.282080e+002	-3.223066e+001	1.438483e+002
9.990356e+006	-3.535880e+001	1.564452e+002	-3.054882e+001	-2.452474e+001	-9.663087e+001	1.137382e-001	-3.223819e+001	1.439830e+002
9.990361e+006	-3.536282e+001	1.563630e+002	-3.055500e+001	-2.454383e+001	-9.365991e+001	-1.131165e+002	-3.223387e+001	1.439698e+002
9.990366e+006	-3.537239e+001	1.564636e+002	-3.055177e+001	-2.452363e+001	-1.121838e+002	-1.564943e+000	-3.223972e+001	1.439505e+002
9.990370e+006	-3.536677e+001	1.565154e+002	-3.056022e+001	-2.450478e+001	-9.217913e+001	1.564938e+002	-3.223243e+001	1.439404e+002
9.990375e+006	-3.536248e+001	1.564701e+002	-3.055190e+001	-2.453041e+001	-9.132602e+001	-2.089023e+001	-3.224060e+001	1.439665e+002
9.990380e+006	-3.536352e+001	1.565009e+002	-3.054932e+001	-2.452054e+001	-9.887940e+001	8.612554e+001	-3.224609e+001	1.438985e+002
9.990384e+006	-3.536572e+001	1.564515e+002	-3.055328e+001	-2.452679e+001	-8.706962e+001	1.027924e+002	-3.223709e+001	1.439003e+002
9.990389e+006	-3.536179e+001	1.564000e+002	-3.056590e+001	-2.447798e+001	-9.812760e+001	-9.544585e+001	-3.223853e+001	1.438733e+002
9.990394e+006	-3.538119e+001	1.563932e+002	-3.055463e+001	-2.447965e+001	-9.464700e+001	8.889804e+001	-3.224475e+001	1.438899e+002
9.990398e+006	-3.536580e+001	1.564434e+002	-3.055332e+001	-2.449578e+001	-9.118766e+001	1.359388e+002	-3.223169e+001	1.439450e+002
9.990403e+006	-3.536821e+001	1.565006e+002	-3.054056e+001	-2.449901e+001	-9.121059e+001	9.644242e+001	-3.222749e+001	1.439442e+002
9.990408e+006	-3.537146e+001	1.565033e+002	-3.054843e+001	-2.442005e+001	-9.290130e+001	9.787124e+001	-3.223762e+001	1.438977e+002
9.990413e+006	-3.537004e+001	1.564528e+002	-3.054619e+001	-2.446533e+001	-9.078799e+001	5.268904e+001	-3.223452e+001	1.438737e+002
9.990417e+006	-3.537413e+001	1.564362e+002	-3.054636e+001	-2.447933e+001	-1.013395e+002	8.994159e+001	-3.222903e+001	1.439604e+002
9.990422e+006	-3.536302e+001	1.564007e+002	-3.054976e+001	-2.452694e+001	-8.929255e+001	-1.634910e+002	-3.223043e+001	1.438646e+002
9.990427e+006	-3.536401e+001	1.564917e+002	-3.054887e+001	-2.450589e+001	-9.520016e+001	3.344033e+000	-3.224577e+001	1.438814e+002
9.990431e+006	-3.535779e+001	1.563662e+002	-3.054442e+001	-2.451465e+001	-1.027468e+002	9.815722e+001	-3.223955e+001	1.439031e+002
9.990436e+006	-3.536024e+001	1.564726e+002	-3.054784e+001	-2.451844e+001	-9.137114e+001	1.449964e+002	-3.223099e+001	1.439028e+002
9.990441e+006	-3.536947e+001	1.564622e+002	-3.054606e+001	-2.450597e+001	-9.066395e+001	1.297766e+002	-3.223754e+001	1.438879e+002
9.990445e+006	-3.535403e+001	1.565091e+002	-3.055591e+001	-2.452295e+001	-9.826107e+001	-3.433499e+000	-3.224058e+001	1.439606e+002
9.990450e+006	-3.537502e+001	1.565092e+002	-3.054875e+001	-2.448666e+001	-9.442757e+001	4.268361e+001	-3.223869e+001	1.439515e+002
9.990455e+006	-3.535951e+001	1.565069e+002	-3.055399e+001	-2.447981e+001	-1.004719e+002	4.181909e+000	-3.223770e+001	1.438841e+002
9.990459e+006	-3.535778e+001	1.563989e+002	-3.054810e+001	-2.450930e+001	-1.056844e+002	-1.269321e+002	-3.222994e+001	1.438761e+002
9.990464e+006	-3.537622e+001	1.565086e+002	-3.055563e+001	-2.447808e+001	-1.012703e+002	9.929182e+001	-3.224516e+001	1.438790e+002
9.990469e+006	-3.537608e+001	1.564212e+002	-3.055572e+001	-2.449424e+001	-9.045592e+001	9.933042e+001	-3.223721e+001	1.439380e+002
9.990473e+006	-3.536354e+001	1.563941e+002	-3.054350e+001	-2.448069e+001	-9.330721e+001	2.300140e+001	-3.224927e+001	1.438311e+002
9.990478e+006	-3.536502e+001	1.563843e+002	-3.055009e+001	-2.448654e+001	-8.750627e+001	1.516943e+002	-3.223675e+001	1.439201e+002
9.990483e+006	-3.536811e+001	1.563487e+002	-3.054856e+001	-2.450652e+001	-9.462793e+001	6.717258e+001	-3.224251e+001	1.439226e+002
9.990488e+006	-3.535664e+001	1.564609e+002	-3.054623e+001	-2.449401e+001	-8.920155e+001	9.063745e+001	-3.224252e+001	1.439483e+002
9.990492e+006	-3.537557e+001	1.564429e+002	-3.054243e+001	-2.453691e+001	-9.347337e+001	-2.356796e+001	-3.223800e+001	1.439659e+002
9.990497e+006	-3.535848e+001	1.564579e+002	-3.054075e+001	-2.455526e+001	-9.766755e+001	8.897994e+001	-3.223406e+001	1.439112e+002
9.990502e+006	-3.537226e+001	1.565557e+002	-3.054281e+001	-2.451031e+001	-9.358193e+001	4.919382e+001	-3.223929e+001	1.438877e+002
9.990506e+006	-3.535851e+001	1.564844e+002	-3.054096e+001	-2.450420e+001	-9.236469e+001	1.032056e+002	-3.222641e+001	1.438666e+002
9.990511e+006	-3.536936e+001	1.564447e+002	-3.054082e+001	-2.455421e+001	-9.314985e+001	9.368022e+001	-3.222396e+001	1.439052e+002
9.990516e+006	-3.537232e+001	1.563858e+002	-3.054666e+001	-2.446708e+001	-8.943795e+001	1.181979e+002	-3.223749e+001	1.438682e+002
9.990520e+006	-3.536861e+001	1.563946e+002	-3.055836e+001	-2.451538e+001	-9.932200e+001	-1.498734e+002	-3.223772e+001	1.438838e+002
9.990525e+006	-3.537405e+001	1.565097e+002	-3.055050e+001	-2.452447e+001	-8.857670e+001	9.195271e+001	-3.223618e+001	1.439165e+002
9.990530e+006	-3.535918e+001	1.565061e+002	-3.055389e+001	-2.451264e+001	-9.414804e+001	-1.350226e+002	-3.224229e+001	1.438770e+002
9.990534e+006	-3.537313e+001	1.566104e+002	-3.054746e+001	-2.456399e+001	-9.247778e+001	-1.020421e+001	-3.223430e+001	1.438770e+002
9.990539e+006	-3.536101e+001	1.564698e+002	-3.054080e+001	-2.448956e+001	-9.286816e+001	1.654848e+002	-3.224147e+001	1.439629e+002
9.990544e+006	-3.535232e+001	1.563809e+002	-3.054527e+001	-2.454199e+001	-9.831741e+001	-1.569306e+002	-3.222718e+001	1.438971e+002
9.990548e+006	-3.537758e+001	1.564330e+002	-3.054823e+001	-2.451137e+001	-9.245417e+001	5.727749e+001	-3.223755e+001	1.439169e+002
9.990553e+006	-3.536648e+001	1.565607e+002	-3.055791e+001	-2.454120e+001	-9.898643e+001	-3.594805e+001	-3.223466e+001	1.439372e+002
9.990558e+006	-3.536765e+001	1.563242e+002	-3.055035e+001	-2.451319e+001	-9.273830e+001	1.159415e+002	-3.223792e+001	1.439728e+002
9.990563e+006	-3.537033e+001	1.564318e+002	-3.054924e+001	-2.442526e+001	-9.954080e+001	-1.150418e+002	-3.223132e+001	1.438919e+002
9.990567e+006	-3.536261e+001	1.564624e+002	-3.054184e+001	-2.453447e+001	-9.638685e+001	1.612588e+002	-3.223371e+001	1.439539e+002
9.990572e+006	-3.536607e+001	1.564242e+002	-3.055075e+001	-2.449516e+001	-8.964481e+001	-1.591166e+002	-3.224257e+001	1.438863e+002
9.990577e+006	-3.538275e+001	1.564572e+002	-3.054422e+001	-2.446193e+001	-8.951757e+001	1.043072e+002	-3.224718e+001	1.439474e+002
9.990581e+006	-3.537077e+001	1.564994e+002	-3.054525e+001	-2.454521e+001	-9.014083e+001	1.220633e+002	-3.224241e+001	1.438882e+002
9.990586e+006	-3.535474e+001	1.564192e+002	-3.054955e+001	-2.449204e+001	-9.615665e+001	-1.353815e+001	-3.224200e+001	1.439420e+002
9.990591e+006	-3.537510e+001	1.563808e+002	-3.054664e+001	-2.450366e+001	-9.307803e+001	1.510281e+002	-3.224601e+001	1.439128e+002
9.990595e+006	-3.537889e+001	1.564305e+002	-3.054655e+001	-2.452418e+001	-9.768624e+001	1.123297e+002	-3.223369e+001	1.439627e+002
9.990600e+006	-3.536326e+001	1.564510e+002	-3.052983e+001	-2.449870e+001	-1.059101e+002	8.128975e+001	-3.223869e+001	1.439684e+002
9.990605e+006	-3.536875e+001	1.564732e+002	-3.054364e+001	-2.456498e+001	-8.914172e+001	1.407693e+002	-3.223713e+001	1.439328e+002
9.990609e+006	-3.536399e+001	1.564740e+002	-3.053905e+001	-2.452228e+001	-9.222221e+001	1.269635e+002	-3.223456e+001	1.439446e+002
9.990614e+006	-3.537687e+001	1.565158e+002	-3.054634e+001	-2.448407e+001	-9.143552e+001	9.097286e+001	-3.223357e+001	1.438540e+002
9.990619e+006	-3.537553e+001	1.564764e+002	-3.055743e+001	-2.457411e+001	-1.017667e+002	-4.835898e+000	-3.222382e+001	1.438811e+002
9.990623e+006	-3.535926e+001	1.564223e+002	-3.054208e+001	-2.449334e+001	-9.272043e+001	1.673113e+002	-3.223228e+001	1.439163e+002
9.990628e+006	-3.536830e+001	1.564298e+002	-3.054442e+001	-2.449997e+001	-1.089473e+002	-1.692477e+002	-3.223260e+001	1.438857e+002
9.990633e+006	-3.539011e+001	1.564123e+002	-3.056050e+001	-2.449906e+001	-8.953959e+001	9.549211e+001	-3.223700e+001	1.439055e+002
9.990638e+006	-3.537927e+001	1.564958e+002	-3.054255e+001	-2.447850e+001	-9.453446e+001	7.323297e+001	-3.222752e+001	1.439014e+002
9.990642e+006	-3.535324e+001	1.563979e+002	-3.054120e+001	-2.449471e+001	-8.843120e+001	1.552093e+002	-3.223429e+001	1.438618e+002
9.990647e+006	-3.536357e+001	1.563715e+002	-3.055164e+001	-2.449532e+001	-9.250611e+001	1.050515e+002	-3.223573e+001	1.439190e+002
9.990652e+006	-3.536170e+001	1.564840e+002	-3.053906e+001	-2.443422e+001	-9.332848e+001	8.775268e+001	-3.223588e+001	1.439142e+002
9.990656e+006	-3.537847e+001	1.564090e+002	-3.055368e+001	-2.448142e+001	-8.912996e+001	-2.946417e+000	-3.224220e+001	1.439530e+002
9.990661e+006	-3.537235e+001	1.564818e+002	-3.054364e+001	-2.453970e+001	-8.899506e+001	6.092057e+001	-3.223917e+001	1.439125e+002
9.990666e+006	-3.535659e+001	1.564509e+002	-3.055359e+001	-2.454484e+001	-1.033341e+002	8.996912e+001	-3.224412e+001	1.439911e+002
9.990670e+006	-3.536641e+001	1.564079e+002	-3.054253e+001	-2.452119e+001	-8.988039e+001	-1.766186e+002	-3.223630e+001	1.438971e+002
9.990675e+006	-3.536131e+001	1.564643e+002	-3.053613e+001	-2.451130e+001	-8.880349e+001	7.879007e+001	-3.223845e+001	1.439195e+002
9.990680e+006	-3.536229e+001	1.564235e+002	-3.054063e+001	-2.450883e+001	-9.578401e+001	1.340761e+002	-3.223455e+001	1.440082e+002
9.990684e+006	-3.537301e+001	1.564571e+002	-3.055669e+001	-2.451116e+001	-9.238533e+001	1.510899e+002	-3.223518e+001	1.439283e+002
9.990689e+006	-3.536563e+001	1.564174e+002	-3.054052e+001	-2.450727e+001	-9.675647e+001	-1.493896e+002	-3.223970e+001	1.439343e+002
9.990694e+006	-3.538087e+001	1.563727e+002	-3.054671e+001	-2.450336e+001	-8.880607e+001	6.450384e+001	-3.223196e+001	1.439151e+002
