!CETC41,AV3656A,ZGL00048,1.3.2
!Calibration ON (Full Solt 2-Port(Omit Isolation))
!Measurements: S11 S21 S12 S22
!2025-04-18 22:47
# Hz  S  dB  R 50.000
9.990000e+006	-3.547600e+001	1.572894e+002	-3.054349e+001	-2.539669e+001	-8.925115e+001	4.962808e+001	-3.205432e+001	1.443470e+002
9.990005e+006	-3.548708e+001	1.573203e+002	-3.053907e+001	-2.538947e+001	-9.556609e+001	1.298652e+002	-3.204064e+001	1.443214e+002
9.990009e+006	-3.548365e+001	1.572719e+002	-3.054496e+001	-2.537903e+001	-9.902472e+001	1.127489e+002	-3.205166e+001	1.443255e+002
9.990014e+006	-3.547957e+001	1.572197e+002	-3.053917e+001	-2.535853e+001	-9.718752e+001	9.261747e+001	-3.205726e+001	1.443739e+002
9.990019e+006	-3.547717e+001	1.571807e+002	-3.054562e+001	-2.537423e+001	-9.320460e+001	1.343457e+002	-3.204415e+001	1.443202e+002
9.990023e+006	-3.547389e+001	1.572915e+002	-3.054240e+001	-2.542060e+001	-9.001786e+001	1.012173e+002	-3.205001e+001	1.443319e+002
9.990028e+006	-3.547833e+001	1.572741e+002	-3.053901e+001	-2.542554e+001	-9.131208e+001	1.064628e+002	-3.205152e+001	1.443273e+002
9.990033e+006	-3.548334e+001	1.573201e+002	-3.053725e+001	-2.541944e+001	-9.779733e+001	1.684379e+002	-3.204028e+001	1.443320e+002
9.990038e+006	-3.547817e+001	1.572264e+002	-3.053482e+001	-2.543125e+001	-9.532225e+001	-2.057670e+001	-3.203976e+001	1.443343e+002
9.990042e+006	-3.545972e+001	1.572870e+002	-3.054307e+001	-2.540012e+001	-8.887336e+001	1.652712e+002	-3.204520e+001	1.444470e+002
9.990047e+006	-3.546885e+001	1.572992e+002	-3.054573e+001	-2.539519e+001	-9.230168e+001	9.863735e+001	-3.204429e+001	1.443852e+002
9.990052e+006	-3.548194e+001	1.573027e+002	-3.054183e+001	-2.539407e+001	-9.039645e+001	4.882234e+001	-3.204733e+001	1.443452e+002
9.990056e+006	-3.547729e+001	1.573775e+002	-3.053989e+001	-2.542738e+001	-9.149837e+001	-1.124060e+002	-3.205751e+001	1.443319e+002
9.990061e+006	-3.548780e+001	1.572290e+002	-3.053520e+001	-2.543085e+001	-9.072510e+001	7.567887e+001	-3.205491e+001	1.443547e+002
9.990066e+006	-3.547240e+001	1.573681e+002	-3.053476e+001	-2.543545e+001	-8.764928e+001	7.701554e+001	-3.205417e+001	1.443592e+002
9.990070e+006	-3.547915e+001	1.572425e+002	-3.053491e+001	-2.544374e+001	-9.394464e+001	6.985273e+001	-3.205373e+001	1.444232e+002
9.990075e+006	-3.545247e+001	1.572134e+002	-3.054245e+001	-2.547194e+001	-9.590021e+001	-1.120540e+002	-3.205362e+001	1.444512e+002
9.990080e+006	-3.548354e+001	1.572923e+002	-3.055697e+001	-2.547307e+001	-9.247250e+001	7.843796e+001	-3.204538e+001	1.443826e+002
9.990084e+006	-3.546622e+001	1.573516e+002	-3.056009e+001	-2.545809e+001	-9.655135e+001	1.300019e+002	-3.204369e+001	1.444311e+002
9.990089e+006	-3.544441e+001	1.573345e+002	-3.055214e+001	-2.545386e+001	-9.881688e+001	7.863427e+001	-3.203361e+001	1.443605e+002
9.990094e+006	-3.547939e+001	1.572249e+002	-3.056501e+001	-2.539891e+001	-8.510301e+001	1.228339e+002	-3.204111e+001	1.444262e+002
9.990098e+006	-3.546716e+001	1.572854e+002	-3.055897e+001	-2.540960e+001	-9.408122e+001	1.012521e+002	-3.203757e+001	1.443750e+002
9.990103e+006	-3.546975e+001	1.573424e+002	-3.055303e+001	-2.537752e+001	-9.367376e+001	5.413086e+001	-3.203795e+001	1.442971e+002
9.990108e+006	-3.546749e+001	1.573342e+002	-3.055803e+001	-2.535548e+001	-9.948343e+001	-2.229919e+001	-3.203687e+001	1.443909e+002
9.990113e+006	-3.547927e+001	1.573114e+002	-3.054456e+001	-2.540122e+001	-8.556727e+001	1.272523e+002	-3.204796e+001	1.443429e+002
9.990117e+006	-3.547387e+001	1.571584e+002	-3.053412e+001	-2.538953e+001	-1.087397e+002	-2.510529e+001	-3.205413e+001	1.444370e+002
9.990122e+006	-3.547229e+001	1.572603e+002	-3.054418e+001	-2.545550e+001	-1.130872e+002	9.827282e+001	-3.204758e+001	1.443673e+002
9.990127e+006	-3.548290e+001	1.573099e+002	-3.054676e+001	-2.544949e+001	-9.272741e+001	1.344120e+002	-3.205584e+001	1.444275e+002
9.990131e+006	-3.546368e+001	1.571241e+002	-3.056460e+001	-2.547305e+001	-1.032109e+002	1.733829e+002	-3.204635e+001	1.444048e+002
9.990136e+006	-3.546975e+001	1.572447e+002	-3.055628e+001	-2.535472e+001	-8.685217e+001	1.499997e+002	-3.204425e+001	1.443906e+002
9.990141e+006	-3.547014e+001	1.573240e+002	-3.054509e+001	-2.542657e+001	-1.069805e+002	-9.689747e+001	-3.204679e+001	1.443181e+002
9.990145e+006	-3.547253e+001	1.573381e+002	-3.054335e+001	-2.536188e+001	-9.123524e+001	1.077652e+002	-3.204383e+001	1.443893e+002
9.990150e+006	-3.548900e+001	1.572734e+002	-3.054792e+001	-2.537423e+001	-9.059146e+001	1.392198e+002	-3.204311e+001	1.443579e+002
9.990155e+006	-3.547726e+001	1.573518e+002	-3.054454e+001	-2.534216e+001	-9.864757e+001	8.076480e+001	-3.205068e+001	1.443728e+002
9.990159e+006	-3.547184e+001	1.572608e+002	-3.055057e+001	-2.542690e+001	-8.709564e+001	1.036957e+002	-3.203950e+001	1.444174e+002
9.990164e+006	-3.547659e+001	1.572837e+002	-3.054878e+001	-2.543921e+001	-8.426747e+001	4.864833e+001	-3.205653e+001	1.443120e+002
9.990169e+006	-3.549608e+001	1.572656e+002	-3.055446e+001	-2.539555e+001	-8.877305e+001	-7.207470e+001	-3.203877e+001	1.444519e+002
9.990173e+006	-3.548205e+001	1.573295e+002	-3.054700e+001	-2.539321e+001	-1.018824e+002	-1.695678e+002	-3.204317e+001	1.444466e+002
9.990178e+006	-3.547625e+001	1.573556e+002	-3.053780e+001	-2.537464e+001	-9.178264e+001	8.255603e+001	-3.205839e+001	1.443631e+002
9.990183e+006	-3.548463e+001	1.572321e+002	-3.054332e+001	-2.536667e+001	-1.014105e+002	-9.601864e+000	-3.204185e+001	1.444199e+002
9.990188e+006	-3.548406e+001	1.573328e+002	-3.054678e+001	-2.540557e+001	-9.580100e+001	-5.137154e+001	-3.204606e+001	1.444227e+002
9.990192e+006	-3.548111e+001	1.572428e+002	-3.055070e+001	-2.539665e+001	-9.282562e+001	1.152506e+002	-3.203404e+001	1.443481e+002
9.990197e+006	-3.548164e+001	1.572244e+002	-3.054332e+001	-2.534398e+001	-1.121569e+002	1.645438e+002	-3.203898e+001	1.444179e+002
9.990202e+006	-3.547487e+001	1.572093e+002	-3.053963e+001	-2.535750e+001	-9.425065e+001	1.062648e+002	-3.205148e+001	1.444206e+002
9.990206e+006	-3.547266e+001	1.572367e+002	-3.054575e+001	-2.537399e+001	-8.960363e+001	6.530751e+001	-3.204467e+001	1.443902e+002
9.990211e+006	-3.548450e+001	1.573396e+002	-3.054419e+001	-2.535378e+001	-9.319937e+001	1.213729e+001	-3.202936e+001	1.443989e+002
9.990216e+006	-3.547849e+001	1.571893e+002	-3.053834e+001	-2.542112e+001	-9.014808e+001	1.695225e+002	-3.204246e+001	1.443260e+002
9.990220e+006	-3.546798e+001	1.571770e+002	-3.053994e+001	-2.532980e+001	-9.290033e+001	-1.678608e+002	-3.204241e+001	1.444072e+002
9.990225e+006	-3.547676e+001	1.572712e+002	-3.053699e+001	-2.540603e+001	-9.974308e+001	7.874930e+000	-3.203953e+001	1.443421e+002
9.990230e+006	-3.547290e+001	1.573860e+002	-3.054418e+001	-2.537110e+001	-9.404418e+001	1.519936e+002	-3.204100e+001	1.444628e+002
9.990234e+006	-3.547078e+001	1.573371e+002	-3.054077e+001	-2.544640e+001	-8.739145e+001	7.040647e+001	-3.203662e+001	1.443939e+002
9.990239e+006	-3.547493e+001	1.572089e+002	-3.054100e+001	-2.539158e+001	-8.848640e+001	1.691236e+002	-3.203578e+001	1.443876e+002
9.990244e+006	-3.546877e+001	1.573029e+002	-3.053158e+001	-2.539669e+001	-9.536281e+001	8.951847e+001	-3.205342e+001	1.444042e+002
9.990248e+006	-3.547846e+001	1.571864e+002	-3.055253e+001	-2.537118e+001	-9.051046e+001	1.322430e+002	-3.203754e+001	1.444711e+002
9.990253e+006	-3.547351e+001	1.573229e+002	-3.055904e+001	-2.543309e+001	-8.813858e+001	1.241882e+002	-3.204520e+001	1.444164e+002
9.990258e+006	-3.547376e+001	1.572159e+002	-3.053962e+001	-2.541415e+001	-1.075134e+002	3.481877e+001	-3.204885e+001	1.444355e+002
9.990263e+006	-3.546845e+001	1.571681e+002	-3.054697e+001	-2.542188e+001	-9.393735e+001	-9.180045e+000	-3.203960e+001	1.443500e+002
9.990267e+006	-3.546506e+001	1.572436e+002	-3.054778e+001	-2.539858e+001	-9.206716e+001	1.341683e+002	-3.204643e+001	1.443776e+002
9.990272e+006	-3.548396e+001	1.571483e+002	-3.054596e+001	-2.540757e+001	-8.644176e+001	1.177217e+002	-3.205312e+001	1.443753e+002
9.990277e+006	-3.546689e+001	1.572829e+002	-3.054447e+001	-2.533577e+001	-8.714876e+001	1.440486e+002	-3.204664e+001	1.444424e+002
9.990281e+006	-3.549466e+001	1.572886e+002	-3.055141e+001	-2.541715e+001	-9.968387e+001	1.760928e+002	-3.204729e+001	1.443782e+002
9.990286e+006	-3.546501e+001	1.573371e+002	-3.054711e+001	-2.540832e+001	-9.492698e+001	-5.032762e+001	-3.204385e+001	1.443636e+002
9.990291e+006	-3.547206e+001	1.573081e+002	-3.054364e+001	-2.542668e+001	-9.312428e+001	-1.636085e+001	-3.204464e+001	1.444230e+002
9.990295e+006	-3.546579e+001	1.572356e+002	-3.054660e+001	-2.538298e+001	-9.182049e+001	1.643502e+002	-3.205542e+001	1.443818e+002
9.990300e+006	-3.548255e+001	1.572405e+002	-3.054483e+001	-2.539575e+001	-9.789443e+001	-9.979292e+001	-3.205331e+001	1.443676e+002
9.990305e+006	-3.548834e+001	1.573394e+002	-3.054136e+001	-2.534304e+001	-9.050884e+001	-1.663766e+001	-3.204638e+001	1.444710e+002
9.990309e+006	-3.547964e+001	1.573162e+002	-3.053960e+001	-2.535695e+001	-1.004623e+002	1.157789e+002	-3.204470e+001	1.443887e+002
9.990314e+006	-3.547463e+001	1.572381e+002	-3.054739e+001	-2.546464e+001	-9.471845e+001	-1.064377e+002	-3.204106e+001	1.444296e+002
9.990319e+006	-3.549277e+001	1.573322e+002	-3.053957e+001	-2.545381e+001	-9.342738e+001	2.964840e+001	-3.204510e+001	1.443756e+002
9.990323e+006	-3.548003e+001	1.573269e+002	-3.053834e+001	-2.534489e+001	-9.277724e+001	1.316730e+002	-3.203863e+001	1.444342e+002
9.990328e+006	-3.548117e+001	1.572621e+002	-3.054379e+001	-2.539218e+001	-9.661356e+001	6.994283e+001	-3.204305e+001	1.444727e+002
9.990333e+006	-3.548570e+001	1.572935e+002	-3.054920e+001	-2.539063e+001	-9.615233e+001	8.784987e+001	-3.203496e+001	1.444356e+002
9.990338e+006	-3.547529e+001	1.572700e+002	-3.053699e+001	-2.532059e+001	-8.586607e+001	1.534414e+002	-3.204892e+001	1.443312e+002
9.990342e+006	-3.547383e+001	1.572589e+002	-3.054548e+001	-2.538095e+001	-9.136765e+001	6.219128e+001	-3.204132e+001	1.444260e+002
9.990347e+006	-3.548396e+001	1.572957e+002	-3.054046e+001	-2.536040e+001	-9.690076e+001	8.911547e+001	-3.204035e+001	1.443721e+002
9.990352e+006	-3.546368e+001	1.572830e+002	-3.054359e+001	-2.535589e+001	-9.647190e+001	1.468126e+002	-3.204066e+001	1.444207e+002
9.990356e+006	-3.547789e+001	1.572238e+002	-3.054000e+001	-2.545472e+001	-9.426896e+001	7.804972e+001	-3.205239e+001	1.444520e+002
9.990361e+006	-3.546144e+001	1.572564e+002	-3.053380e+001	-2.540700e+001	-9.050923e+001	1.422314e+002	-3.204719e+001	1.443680e+002
9.990366e+006	-3.546559e+001	1.572267e+002	-3.053751e+001	-2.542900e+001	-1.064173e+002	1.202220e+002	-3.203837e+001	1.443622e+002
9.990370e+006	-3.546824e+001	1.572457e+002	-3.054207e+001	-2.539724e+001	-9.638962e+001	1.519896e+002	-3.204829e+001	1.443557e+002
9.990375e+006	-3.546666e+001	1.572918e+002	-3.054877e+001	-2.535934e+001	-9.349222e+001	-1.774746e+002	-3.203792e+001	1.443500e+002
9.990380e+006	-3.548154e+001	1.572082e+002	-3.054491e+001	-2.538838e+001	-8.964296e+001	4.768779e+001	-3.204988e+001	1.444144e+002
9.990384e+006	-3.549336e+001	1.572106e+002	-3.055242e+001	-2.539852e+001	-8.993322e+001	7.575461e+001	-3.203078e+001	1.443575e+002
9.990389e+006	-3.548737e+001	1.572813e+002	-3.053831e+001	-2.533130e+001	-8.929869e+001	1.170807e+002	-3.205083e+001	1.444706e+002
9.990394e+006	-3.547323e+001	1.572278e+002	-3.053115e+001	-2.547498e+001	-9.877479e+001	-5.902158e+001	-3.205030e+001	1.443809e+002
9.990398e+006	-3.548431e+001	1.572112e+002	-3.054705e+001	-2.536395e+001	-8.913377e+001	1.063289e+002	-3.204069e+001	1.443696e+002
9.990403e+006	-3.548048e+001	1.573413e+002	-3.053836e+001	-2.541558e+001	-1.090781e+002	1.114441e+002	-3.203900e+001	1.443892e+002
9.990408e+006	-3.547545e+001	1.572928e+002	-3.054742e+001	-2.539163e+001	-9.279957e+001	-3.760633e+001	-3.205016e+001	1.444326e+002
9.990413e+006	-3.547713e+001	1.573497e+002	-3.055075e+001	-2.535832e+001	-9.072914e+001	2.374237e+001	-3.205541e+001	1.444594e+002
9.990417e+006	-3.547491e+001	1.572986e+002	-3.052919e+001	-2.543279e+001	-1.098324e+002	1.516044e+002	-3.205013e+001	1.443513e+002
9.990422e+006	-3.548043e+001	1.572309e+002	-3.054447e+001	-2.541322e+001	-9.363933e+001	-1.490665e+002	-3.203823e+001	1.443725e+002
9.990427e+006	-3.547396e+001	1.573550e+002	-3.053840e+001	-2.529356e+001	-9.052281e+001	1.422749e+002	-3.204634e+001	1.444552e+002
9.990431e+006	-3.548640e+001	1.573548e+002	-3.054670e+001	-2.541571e+001	-9.718319e+001	-1.377875e+002	-3.204462e+001	1.443476e+002
9.990436e+006	-3.547253e+001	1.571966e+002	-3.053297e+001	-2.536374e+001	-9.124179e+001	8.997614e+001	-3.203525e+001	1.443083e+002
9.990441e+006	-3.546683e+001	1.572910e+002	-3.053729e+001	-2.542724e+001	-9.570938e+001	5.558406e+001	-3.204321e+001	1.443878e+002
9.990445e+006	-3.547158e+001	1.572280e+002	-3.053995e+001	-2.542457e+001	-9.415337e+001	9.934163e+001	-3.203463e+001	1.443486e+002
9.990450e+006	-3.547557e+001	1.572248e+002	-3.053486e+001	-2.534939e+001	-9.562425e+001	9.727463e+001	-3.202385e+001	1.443282e+002
9.990455e+006	-3.547271e+001	1.573613e+002	-3.053976e+001	-2.542522e+001	-9.151153e+001	7.673367e+001	-3.203741e+001	1.443812e+002
9.990459e+006	-3.547690e+001	1.573033e+002	-3.053632e+001	-2.542414e+001	-9.679809e+001	-1.517653e+002	-3.205139e+001	1.444180e+002
9.990464e+006	-3.547604e+001	1.572097e+002	-3.053802e+001	-2.542617e+001	-8.831501e+001	4.049601e+001	-3.204727e+001	1.444093e+002
9.990469e+006	-3.548138e+001	1.573292e+002	-3.053925e+001	-2.535255e+001	-8.823378e+001	9.062685e+001	-3.205569e+001	1.444070e+002
9.990473e+006	-3.548515e+001	1.572851e+002	-3.053243e+001	-2.538713e+001	-1.031477e+002	1.746361e+002	-3.204935e+001	1.443429e+002
9.990478e+006	-3.548101e+001	1.572609e+002	-3.053225e+001	-2.535516e+001	-8.757732e+001	8.689150e+001	-3.204495e+001	1.443978e+002
9.990483e+006	-3.546028e+001	1.573529e+002	-3.054825e+001	-2.542413e+001	-1.001217e+002	-3.338436e+001	-3.205287e+001	1.444193e+002
9.990488e+006	-3.547155e+001	1.574339e+002	-3.053257e+001	-2.536613e+001	-8.503174e+001	3.938557e+001	-3.204834e+001	1.444244e+002
9.990492e+006	-3.547904e+001	1.573392e+002	-3.054233e+001	-2.537269e+001	-9.069672e+001	1.751413e+002	-3.205639e+001	1.444460e+002
9.990497e+006	-3.547590e+001	1.572611e+002	-3.053017e+001	-2.532661e+001	-8.727900e+001	8.671392e+001	-3.204834e+001	1.443365e+002
9.990502e+006	-3.547186e+001	1.573241e+002	-3.053568e+001	-2.540822e+001	-9.965993e+001	-9.105528e+001	-3.205403e+001	1.444264e+002
9.990506e+006	-3.548117e+001	1.572474e+002	-3.053575e+001	-2.535310e+001	-1.020566e+002	1.314137e+002	-3.204109e+001	1.443217e+002
9.990511e+006	-3.548166e+001	1.572294e+002	-3.053057e+001	-2.532196e+001	-8.455460e+001	8.855633e+001	-3.204648e+001	1.444266e+002
9.990516e+006	-3.548231e+001	1.573344e+002	-3.053563e+001	-2.543795e+001	-1.025485e+002	1.791201e+000	-3.204058e+001	1.444207e+002
9.990520e+006	-3.546851e+001	1.572710e+002	-3.054323e+001	-2.533465e+001	-9.477172e+001	1.252231e+002	-3.204692e+001	1.443785e+002
9.990525e+006	-3.548422e+001	1.572184e+002	-3.053199e+001	-2.540875e+001	-8.648115e+001	1.164931e+002	-3.204023e+001	1.443866e+002
9.990530e+006	-3.548692e+001	1.572821e+002	-3.053435e+001	-2.537066e+001	-1.193197e+002	1.619761e+002	-3.204295e+001	1.444213e+002
9.990534e+006	-3.547674e+001	1.573154e+002	-3.053358e+001	-2.533742e+001	-8.976103e+001	7.482212e+001	-3.204372e+001	1.444014e+002
9.990539e+006	-3.545799e+001	1.572148e+002	-3.054056e+001	-2.531242e+001	-9.447576e+001	1.632386e+002	-3.204154e+001	1.444343e+002
9.990544e+006	-3.548744e+001	1.572557e+002	-3.052954e+001	-2.540578e+001	-9.351236e+001	-1.244539e+002	-3.204326e+001	1.443729e+002
9.990548e+006	-3.547486e+001	1.572589e+002	-3.053031e+001	-2.534195e+001	-9.188319e+001	1.461934e+002	-3.203797e+001	1.444127e+002
9.990553e+006	-3.548531e+001	1.573044e+002	-3.054005e+001	-2.541942e+001	-9.237005e+001	1.041850e+002	-3.204084e+001	1.444290e+002
9.990558e+006	-3.547418e+001	1.572749e+002	-3.054908e+001	-2.536447e+001	-9.036649e+001	4.412669e+001	-3.202925e+001	1.444265e+002
9.990563e+006	-3.546682e+001	1.573529e+002	-3.053533e+001	-2.531619e+001	-9.288986e+001	1.424719e+002	-3.203950e+001	1.444251e+002
9.990567e+006	-3.547362e+001	1.572363e+002	-3.054629e+001	-2.544393e+001	-9.026772e+001	8.260989e+001	-3.204484e+001	1.443902e+002
9.990572e+006	-3.546905e+001	1.572831e+002	-3.052870e+001	-2.533834e+001	-9.554491e+001	1.665645e+002	-3.204481e+001	1.443460e+002
9.990577e+006	-3.547544e+001	1.573384e+002	-3.053789e+001	-2.543866e+001	-9.557173e+001	-8.458851e+001	-3.203878e+001	1.443639e+002
9.990581e+006	-3.547055e+001	1.572710e+002	-3.052678e+001	-2.533819e+001	-9.743271e+001	6.539194e+001	-3.204409e+001	1.444345e+002
9.990586e+006	-3.548358e+001	1.572752e+002	-3.054560e+001	-2.534794e+001	-9.288090e+001	1.597086e+002	-3.204496e+001	1.443537e+002
9.990591e+006	-3.546924e+001	1.573571e+002	-3.054523e+001	-2.546825e+001	-1.017012e+002	-4.920263e+001	-3.203662e+001	1.445060e+002
9.990595e+006	-3.547933e+001	1.573891e+002	-3.052851e+001	-2.536998e+001	-9.648371e+001	1.911298e+001	-3.204228e+001	1.443499e+002
9.990600e+006	-3.550150e+001	1.572401e+002	-3.054394e+001	-2.542011e+001	-9.076055e+001	-1.545786e+002	-3.204653e+001	1.443283e+002
9.990605e+006	-3.546226e+001	1.572888e+002	-3.052946e+001	-2.545414e+001	-8.889876e+001	-9.836669e+001	-3.204779e+001	1.443442e+002
9.990609e+006	-3.547754e+001	1.573186e+002	-3.053819e+001	-2.540590e+001	-9.572795e+001	-1.016430e+001	-3.203996e+001	1.444799e+002
9.990614e+006	-3.547290e+001	1.573355e+002	-3.054402e+001	-2.537178e+001	-1.016479e+002	-3.897144e+001	-3.205212e+001	1.444202e+002
9.990619e+006	-3.546884e+001	1.572990e+002	-3.054115e+001	-2.546421e+001	-9.605547e+001	-1.705420e+002	-3.204114e+001	1.443572e+002
9.990623e+006	-3.548587e+001	1.572052e+002	-3.053029e+001	-2.540298e+001	-9.501116e+001	5.381759e+001	-3.203984e+001	1.444365e+002
9.990628e+006	-3.548303e+001	1.573102e+002	-3.054705e+001	-2.530794e+001	-1.017148e+002	1.480952e+002	-3.204348e+001	1.443926e+002
9.990633e+006	-3.547529e+001	1.573135e+002	-3.052382e+001	-2.535571e+001	-9.079216e+001	4.395898e+001	-3.205138e+001	1.443719e+002
9.990638e+006	-3.547061e+001	1.572972e+002	-3.052811e+001	-2.534098e+001	-8.650202e+001	6.287877e+001	-3.205182e+001	1.443505e+002
9.990642e+006	-3.547651e+001	1.574229e+002	-3.055093e+001	-2.544807e+001	-8.862856e+001	2.865060e+001	-3.202438e+001	1.443801e+002
9.990647e+006	-3.546351e+001	1.573198e+002	-3.053033e+001	-2.550470e+001	-8.688825e+001	1.061649e+002	-3.203652e+001	1.443760e+002
9.990652e+006	-3.548307e+001	1.572048e+002	-3.052679e+001	-2.542925e+001	-9.309555e+001	1.013167e+002	-3.204698e+001	1.444023e+002
9.990656e+006	-3.547708e+001	1.572380e+002	-3.054936e+001	-2.540594e+001	-9.614891e+001	1.165304e+002	-3.203535e+001	1.444312e+002
9.990661e+006	-3.548109e+001	1.573265e+002	-3.051507e+001	-2.534825e+001	-8.878443e+001	1.184778e+002	-3.203884e+001	1.444066e+002
9.990666e+006	-3.549148e+001	1.572281e+002	-3.053448e+001	-2.529794e+001	-1.004918e+002	1.438037e+002	-3.204546e+001	1.443950e+002
9.990670e+006	-3.548488e+001	1.572472e+002	-3.053592e+001	-2.550070e+001	-9.620138e+001	1.035174e+002	-3.203406e+001	1.443769e+002
9.990675e+006	-3.548601e+001	1.572349e+002	-3.054406e+001	-2.551529e+001	-9.484442e+001	-9.205189e+001	-3.204040e+001	1.443283e+002
9.990680e+006	-3.546987e+001	1.572811e+002	-3.054041e+001	-2.550426e+001	-9.022767e+001	1.304170e+002	-3.204148e+001	1.444359e+002
9.990684e+006	-3.548049e+001	1.572803e+002	-3.051949e+001	-2.544759e+001	-9.099484e+001	8.717501e+001	-3.204115e+001	1.444653e+002
9.990689e+006	-3.547892e+001	1.573725e+002	-3.052167e+001	-2.535922e+001	-9.507088e+001	1.244500e+002	-3.205151e+001	1.443447e+002
9.990694e+006	-3.547179e+001	1.572116e+002	-3.055278e+001	-2.534543e+001	-9.009886e+001	1.312589e+002	-3.204317e+001	1.443663e+002
9.990698e+006	-3.547634e+001	1.573469e+002	-3.054652e+001	-2.532882e+001	-8.848866e+001	8.614289e+001	-3.203078e+001	1.443965e+002
