!CETC41,AV3656A,ZGL00048,1.3.2
!Calibration ON (Full Solt 2-Port(Omit Isolation))
!Measurements: S11 S21 S12 S22
!2025-04-18 23:28
# Hz  S  dB  R 50.000
9.990000e+006	-3.554001e+001	1.571417e+002	-3.054742e+001	-2.642007e+001	-9.815500e+001	9.037629e+001	-3.179968e+001	1.445616e+002
9.990005e+006	-3.553906e+001	1.571559e+002	-3.054148e+001	-2.642834e+001	-9.411627e+001	2.023151e+001	-3.181043e+001	1.445931e+002
9.990009e+006	-3.552631e+001	1.571493e+002	-3.054569e+001	-2.645567e+001	-9.121888e+001	1.266007e+002	-3.180170e+001	1.445899e+002
9.990014e+006	-3.552555e+001	1.572778e+002	-3.053857e+001	-2.641002e+001	-9.763910e+001	-7.922193e+001	-3.180138e+001	1.445185e+002
9.990019e+006	-3.553559e+001	1.571653e+002	-3.053889e+001	-2.641716e+001	-8.722910e+001	9.527807e+001	-3.180164e+001	1.445875e+002
9.990023e+006	-3.553216e+001	1.571924e+002	-3.055067e+001	-2.644690e+001	-9.670133e+001	4.362230e+001	-3.179243e+001	1.445497e+002
9.990028e+006	-3.554044e+001	1.572048e+002	-3.054249e+001	-2.639835e+001	-9.625941e+001	-5.447957e+001	-3.180229e+001	1.445811e+002
9.990033e+006	-3.553971e+001	1.571484e+002	-3.055486e+001	-2.636770e+001	-9.364603e+001	1.123325e+002	-3.179270e+001	1.445964e+002
9.990038e+006	-3.554024e+001	1.571180e+002	-3.054549e+001	-2.641487e+001	-8.539728e+001	1.805565e+001	-3.180087e+001	1.445179e+002
9.990042e+006	-3.551327e+001	1.571556e+002	-3.054533e+001	-2.634264e+001	-8.964539e+001	8.446839e+001	-3.180483e+001	1.445793e+002
9.990047e+006	-3.551741e+001	1.571575e+002	-3.053701e+001	-2.633993e+001	-8.736682e+001	1.790895e+002	-3.180160e+001	1.445934e+002
9.990052e+006	-3.554169e+001	1.571015e+002	-3.054299e+001	-2.635896e+001	-9.146071e+001	1.103151e+002	-3.179964e+001	1.445222e+002
9.990056e+006	-3.551803e+001	1.571701e+002	-3.052877e+001	-2.632219e+001	-9.785689e+001	1.182413e+002	-3.179835e+001	1.445475e+002
9.990061e+006	-3.553135e+001	1.572350e+002	-3.053690e+001	-2.636038e+001	-9.231288e+001	2.486640e+001	-3.179634e+001	1.446300e+002
9.990066e+006	-3.552671e+001	1.571176e+002	-3.053885e+001	-2.635741e+001	-9.317679e+001	-1.792542e+002	-3.179849e+001	1.445430e+002
9.990070e+006	-3.554065e+001	1.571581e+002	-3.054023e+001	-2.635667e+001	-9.956512e+001	1.778636e+002	-3.179942e+001	1.446242e+002
9.990075e+006	-3.553451e+001	1.572015e+002	-3.053835e+001	-2.636248e+001	-9.013529e+001	1.218192e+002	-3.179860e+001	1.445449e+002
9.990080e+006	-3.552498e+001	1.571525e+002	-3.053992e+001	-2.630779e+001	-9.265490e+001	1.208343e+002	-3.181437e+001	1.445486e+002
9.990084e+006	-3.554727e+001	1.570128e+002	-3.052151e+001	-2.628977e+001	-9.742265e+001	5.006085e+001	-3.180078e+001	1.445198e+002
9.990089e+006	-3.554301e+001	1.572051e+002	-3.054117e+001	-2.641966e+001	-9.205528e+001	5.377270e+001	-3.180135e+001	1.445773e+002
9.990094e+006	-3.554924e+001	1.570741e+002	-3.054129e+001	-2.646986e+001	-9.051292e+001	1.252419e+002	-3.180052e+001	1.445641e+002
9.990098e+006	-3.553734e+001	1.572598e+002	-3.054549e+001	-2.638154e+001	-9.081069e+001	1.071806e+002	-3.180031e+001	1.445240e+002
9.990103e+006	-3.553539e+001	1.571529e+002	-3.054169e+001	-2.637414e+001	-9.351454e+001	1.484205e+002	-3.180479e+001	1.445696e+002
9.990108e+006	-3.551896e+001	1.570984e+002	-3.053384e+001	-2.634607e+001	-8.395456e+001	9.114046e+001	-3.180345e+001	1.445627e+002
9.990113e+006	-3.554048e+001	1.572176e+002	-3.053215e+001	-2.633497e+001	-8.853870e+001	1.656390e+002	-3.179662e+001	1.445487e+002
9.990117e+006	-3.555284e+001	1.570672e+002	-3.054668e+001	-2.638258e+001	-1.004462e+002	1.488743e+002	-3.179643e+001	1.445467e+002
9.990122e+006	-3.553649e+001	1.570445e+002	-3.053874e+001	-2.635147e+001	-9.262031e+001	1.014237e+002	-3.179304e+001	1.445928e+002
9.990127e+006	-3.554341e+001	1.571046e+002	-3.053571e+001	-2.632894e+001	-9.615509e+001	1.244637e+002	-3.179692e+001	1.445993e+002
9.990131e+006	-3.554666e+001	1.571265e+002	-3.053234e+001	-2.633970e+001	-1.081063e+002	-1.473428e+002	-3.181209e+001	1.445448e+002
9.990136e+006	-3.554560e+001	1.570885e+002	-3.054543e+001	-2.638920e+001	-9.190966e+001	1.141248e+002	-3.180290e+001	1.445594e+002
9.990141e+006	-3.553295e+001	1.571132e+002	-3.054421e+001	-2.632698e+001	-9.539188e+001	1.620127e+002	-3.180406e+001	1.446663e+002
9.990145e+006	-3.553060e+001	1.571985e+002	-3.054178e+001	-2.642881e+001	-9.196358e+001	-1.787555e+002	-3.180104e+001	1.445646e+002
9.990150e+006	-3.554902e+001	1.571492e+002	-3.053283e+001	-2.636312e+001	-8.928802e+001	7.495180e+001	-3.180420e+001	1.445132e+002
9.990155e+006	-3.554659e+001	1.571663e+002	-3.053926e+001	-2.635838e+001	-9.213127e+001	1.452758e+002	-3.180553e+001	1.445295e+002
9.990159e+006	-3.552206e+001	1.571126e+002	-3.054388e+001	-2.639486e+001	-9.576741e+001	9.755428e+001	-3.179013e+001	1.445720e+002
9.990164e+006	-3.552933e+001	1.570930e+002	-3.053746e+001	-2.637508e+001	-8.863523e+001	1.753317e+002	-3.179460e+001	1.445576e+002
9.990169e+006	-3.554194e+001	1.570484e+002	-3.053777e+001	-2.636152e+001	-9.705436e+001	8.808724e+001	-3.180557e+001	1.445106e+002
9.990173e+006	-3.553053e+001	1.572160e+002	-3.053983e+001	-2.642358e+001	-9.485952e+001	-1.566145e+002	-3.180246e+001	1.445160e+002
9.990178e+006	-3.552857e+001	1.572334e+002	-3.053693e+001	-2.641051e+001	-9.482730e+001	-1.162143e+002	-3.180327e+001	1.445745e+002
9.990183e+006	-3.552624e+001	1.571429e+002	-3.053476e+001	-2.638060e+001	-9.858692e+001	-5.858588e+000	-3.181808e+001	1.445365e+002
9.990188e+006	-3.553383e+001	1.571964e+002	-3.054157e+001	-2.635830e+001	-9.662930e+001	9.722819e+001	-3.180242e+001	1.446679e+002
9.990192e+006	-3.554371e+001	1.571617e+002	-3.054300e+001	-2.643217e+001	-9.980822e+001	1.781340e+002	-3.180813e+001	1.446309e+002
9.990197e+006	-3.553492e+001	1.572146e+002	-3.053580e+001	-2.639279e+001	-9.828819e+001	-1.457020e+002	-3.179098e+001	1.446078e+002
9.990202e+006	-3.553448e+001	1.571423e+002	-3.052941e+001	-2.639038e+001	-9.173864e+001	1.341335e+002	-3.179481e+001	1.445994e+002
9.990206e+006	-3.553091e+001	1.571533e+002	-3.053608e+001	-2.639589e+001	-9.765914e+001	1.540790e+002	-3.179252e+001	1.445611e+002
9.990211e+006	-3.552860e+001	1.571609e+002	-3.053870e+001	-2.642762e+001	-1.033423e+002	-9.614900e+001	-3.179964e+001	1.445361e+002
9.990216e+006	-3.553886e+001	1.572811e+002	-3.053539e+001	-2.632402e+001	-9.429142e+001	-1.377007e+002	-3.180035e+001	1.446206e+002
9.990220e+006	-3.553559e+001	1.570582e+002	-3.054774e+001	-2.636377e+001	-9.100370e+001	4.346416e+001	-3.180179e+001	1.446477e+002
9.990225e+006	-3.554110e+001	1.570884e+002	-3.054441e+001	-2.638830e+001	-9.559820e+001	4.627564e+001	-3.179824e+001	1.445092e+002
9.990230e+006	-3.553177e+001	1.571487e+002	-3.051883e+001	-2.638074e+001	-8.741481e+001	7.289464e+001	-3.180425e+001	1.445118e+002
9.990234e+006	-3.552824e+001	1.571501e+002	-3.052717e+001	-2.638183e+001	-9.530616e+001	7.574282e+001	-3.178859e+001	1.444150e+002
9.990239e+006	-3.552480e+001	1.572043e+002	-3.052773e+001	-2.639048e+001	-1.009193e+002	-2.406868e+001	-3.180090e+001	1.445401e+002
9.990244e+006	-3.553642e+001	1.570184e+002	-3.053520e+001	-2.637916e+001	-8.807458e+001	1.510381e+002	-3.180187e+001	1.445570e+002
9.990248e+006	-3.552241e+001	1.571650e+002	-3.054106e+001	-2.633718e+001	-9.055092e+001	5.537262e+001	-3.180335e+001	1.445036e+002
9.990253e+006	-3.554438e+001	1.571535e+002	-3.053172e+001	-2.641909e+001	-9.111119e+001	1.250693e+002	-3.179046e+001	1.445286e+002
9.990258e+006	-3.552258e+001	1.571825e+002	-3.052953e+001	-2.634833e+001	-1.020257e+002	-4.138626e+001	-3.180641e+001	1.445649e+002
9.990263e+006	-3.553222e+001	1.571629e+002	-3.052754e+001	-2.639115e+001	-1.036733e+002	8.598606e+001	-3.180150e+001	1.446100e+002
9.990267e+006	-3.554057e+001	1.571041e+002	-3.054104e+001	-2.633512e+001	-9.570465e+001	-4.420484e+000	-3.179830e+001	1.445225e+002
9.990272e+006	-3.552183e+001	1.572039e+002	-3.052603e+001	-2.639244e+001	-8.841882e+001	-1.746033e+002	-3.179653e+001	1.445697e+002
9.990277e+006	-3.553753e+001	1.571170e+002	-3.053749e+001	-2.639585e+001	-9.526201e+001	5.182948e+001	-3.179927e+001	1.445731e+002
9.990281e+006	-3.554495e+001	1.570985e+002	-3.054104e+001	-2.636652e+001	-9.437479e+001	-1.779804e+002	-3.180370e+001	1.446181e+002
9.990286e+006	-3.553012e+001	1.572682e+002	-3.053161e+001	-2.636406e+001	-9.243214e+001	9.286551e+001	-3.181024e+001	1.445915e+002
9.990291e+006	-3.553510e+001	1.571707e+002	-3.053958e+001	-2.632677e+001	-8.816689e+001	3.200314e+001	-3.180041e+001	1.446028e+002
9.990295e+006	-3.553282e+001	1.572394e+002	-3.053210e+001	-2.637725e+001	-1.027666e+002	-5.918984e+000	-3.179462e+001	1.445053e+002
9.990300e+006	-3.553307e+001	1.570958e+002	-3.052727e+001	-2.631388e+001	-8.874767e+001	6.113500e+001	-3.180129e+001	1.445133e+002
9.990305e+006	-3.552947e+001	1.571711e+002	-3.053924e+001	-2.634312e+001	-8.849881e+001	1.550130e+002	-3.180384e+001	1.445561e+002
9.990309e+006	-3.553554e+001	1.571525e+002	-3.053016e+001	-2.635908e+001	-8.336453e+001	1.000802e+002	-3.180064e+001	1.445478e+002
9.990314e+006	-3.553151e+001	1.571065e+002	-3.054136e+001	-2.624405e+001	-1.010969e+002	-7.645982e+001	-3.180564e+001	1.445220e+002
9.990319e+006	-3.551341e+001	1.571766e+002	-3.052980e+001	-2.635593e+001	-9.408973e+001	9.241826e+001	-3.179536e+001	1.445453e+002
9.990323e+006	-3.553258e+001	1.571785e+002	-3.053831e+001	-2.643914e+001	-1.099856e+002	-1.190366e+002	-3.179535e+001	1.445258e+002
9.990328e+006	-3.553418e+001	1.571138e+002	-3.053841e+001	-2.634762e+001	-8.793260e+001	1.100605e+002	-3.179050e+001	1.445291e+002
9.990333e+006	-3.553798e+001	1.572141e+002	-3.054289e+001	-2.636718e+001	-9.548709e+001	7.338015e+001	-3.179695e+001	1.445809e+002
9.990338e+006	-3.553546e+001	1.570733e+002	-3.054617e+001	-2.639809e+001	-8.900134e+001	1.113750e+002	-3.180280e+001	1.445571e+002
9.990342e+006	-3.553379e+001	1.571271e+002	-3.053982e+001	-2.635896e+001	-9.213362e+001	-1.733955e+002	-3.179387e+001	1.445431e+002
9.990347e+006	-3.552494e+001	1.571310e+002	-3.053582e+001	-2.629329e+001	-9.329252e+001	1.328934e+002	-3.178296e+001	1.445447e+002
9.990352e+006	-3.552940e+001	1.570678e+002	-3.053426e+001	-2.640615e+001	-9.272374e+001	1.070929e+002	-3.179172e+001	1.445730e+002
9.990356e+006	-3.553161e+001	1.571428e+002	-3.054136e+001	-2.639786e+001	-8.940120e+001	1.682553e+002	-3.179493e+001	1.445879e+002
9.990361e+006	-3.553652e+001	1.571462e+002	-3.053452e+001	-2.641797e+001	-9.597285e+001	1.372860e+002	-3.179969e+001	1.445243e+002
9.990366e+006	-3.554152e+001	1.571661e+002	-3.054669e+001	-2.631559e+001	-8.955456e+001	9.518320e+001	-3.179422e+001	1.445755e+002
9.990370e+006	-3.554150e+001	1.571482e+002	-3.053304e+001	-2.637607e+001	-9.177956e+001	5.720073e+001	-3.179665e+001	1.445475e+002
9.990375e+006	-3.552669e+001	1.570995e+002	-3.052719e+001	-2.638678e+001	-9.988298e+001	-3.162623e+001	-3.179803e+001	1.445191e+002
9.990380e+006	-3.552730e+001	1.571381e+002	-3.052299e+001	-2.635717e+001	-9.075230e+001	1.011982e+002	-3.179855e+001	1.445633e+002
9.990384e+006	-3.553308e+001	1.571043e+002	-3.053828e+001	-2.639872e+001	-9.288760e+001	-1.420566e+002	-3.179465e+001	1.445688e+002
9.990389e+006	-3.554807e+001	1.571472e+002	-3.053278e+001	-2.632686e+001	-1.027872e+002	5.338759e+001	-3.179536e+001	1.446121e+002
9.990394e+006	-3.552851e+001	1.571603e+002	-3.054385e+001	-2.639550e+001	-9.309205e+001	1.089748e+002	-3.179619e+001	1.445599e+002
9.990398e+006	-3.553909e+001	1.570807e+002	-3.052607e+001	-2.640337e+001	-9.352980e+001	1.458769e+002	-3.180423e+001	1.446199e+002
9.990403e+006	-3.555578e+001	1.571918e+002	-3.053616e+001	-2.639063e+001	-8.806297e+001	6.328731e+001	-3.180207e+001	1.445083e+002
9.990408e+006	-3.553813e+001	1.571523e+002	-3.053897e+001	-2.634974e+001	-1.038414e+002	-1.715913e+002	-3.179864e+001	1.446716e+002
9.990413e+006	-3.554445e+001	1.572010e+002	-3.053846e+001	-2.639761e+001	-9.282129e+001	7.537348e+001	-3.179599e+001	1.445306e+002
9.990417e+006	-3.552582e+001	1.571768e+002	-3.052665e+001	-2.632165e+001	-9.982598e+001	7.274953e+001	-3.180048e+001	1.445470e+002
9.990422e+006	-3.553556e+001	1.570548e+002	-3.052932e+001	-2.636935e+001	-1.012120e+002	-6.613930e+001	-3.181389e+001	1.445502e+002
9.990427e+006	-3.553642e+001	1.572122e+002	-3.053248e+001	-2.638694e+001	-9.379819e+001	2.187609e+001	-3.179516e+001	1.445656e+002
9.990431e+006	-3.552832e+001	1.571718e+002	-3.054268e+001	-2.639975e+001	-9.046716e+001	1.537342e+002	-3.179115e+001	1.445896e+002
9.990436e+006	-3.552073e+001	1.571662e+002	-3.053524e+001	-2.630794e+001	-9.280447e+001	-1.729355e+002	-3.181485e+001	1.445661e+002
9.990441e+006	-3.552943e+001	1.571854e+002	-3.053251e+001	-2.641323e+001	-8.874111e+001	1.093423e+002	-3.179813e+001	1.445463e+002
9.990445e+006	-3.552475e+001	1.571843e+002	-3.052422e+001	-2.636045e+001	-9.511109e+001	-1.015362e+002	-3.179944e+001	1.445497e+002
9.990450e+006	-3.553357e+001	1.571700e+002	-3.053581e+001	-2.637962e+001	-9.880335e+001	1.080127e+002	-3.179833e+001	1.445328e+002
9.990455e+006	-3.553629e+001	1.571238e+002	-3.052847e+001	-2.640873e+001	-9.137603e+001	1.301349e+002	-3.180911e+001	1.445568e+002
9.990459e+006	-3.553095e+001	1.571142e+002	-3.054624e+001	-2.637757e+001	-9.541776e+001	8.519946e+001	-3.180435e+001	1.445538e+002
9.990464e+006	-3.553648e+001	1.570776e+002	-3.052158e+001	-2.637981e+001	-9.668508e+001	-1.379603e+002	-3.179697e+001	1.445143e+002
9.990469e+006	-3.553653e+001	1.570828e+002	-3.054062e+001	-2.635544e+001	-9.744408e+001	-3.742975e+001	-3.179698e+001	1.445821e+002
9.990473e+006	-3.553613e+001	1.570581e+002	-3.053919e+001	-2.633950e+001	-1.013592e+002	7.201813e+001	-3.179472e+001	1.445692e+002
9.990478e+006	-3.552905e+001	1.571255e+002	-3.053440e+001	-2.632930e+001	-1.076301e+002	1.342682e+001	-3.179541e+001	1.445124e+002
9.990483e+006	-3.554603e+001	1.571538e+002	-3.053891e+001	-2.638475e+001	-8.720211e+001	4.442977e+001	-3.180492e+001	1.445490e+002
9.990488e+006	-3.553801e+001	1.572325e+002	-3.053563e+001	-2.639144e+001	-9.180315e+001	1.447840e+002	-3.180171e+001	1.445386e+002
9.990492e+006	-3.554818e+001	1.571946e+002	-3.052311e+001	-2.631281e+001	-9.928502e+001	-1.253722e+002	-3.180044e+001	1.445233e+002
9.990497e+006	-3.554273e+001	1.571056e+002	-3.054057e+001	-2.633377e+001	-8.760440e+001	2.708703e+001	-3.180184e+001	1.445812e+002
9.990502e+006	-3.552680e+001	1.572324e+002	-3.052625e+001	-2.640923e+001	-9.151521e+001	9.675411e+001	-3.179991e+001	1.445700e+002
9.990506e+006	-3.554253e+001	1.571478e+002	-3.054173e+001	-2.633672e+001	-9.806589e+001	1.511876e+002	-3.180035e+001	1.444788e+002
9.990511e+006	-3.552969e+001	1.572139e+002	-3.052898e+001	-2.635199e+001	-9.005348e+001	2.941435e+001	-3.180610e+001	1.445432e+002
9.990516e+006	-3.554880e+001	1.570699e+002	-3.053905e+001	-2.631027e+001	-8.851017e+001	1.572494e+002	-3.179903e+001	1.445428e+002
9.990520e+006	-3.554662e+001	1.571376e+002	-3.053983e+001	-2.634433e+001	-9.405781e+001	1.569192e+002	-3.180097e+001	1.445592e+002
9.990525e+006	-3.551952e+001	1.571765e+002	-3.052251e+001	-2.635659e+001	-9.624823e+001	-1.123014e+002	-3.179184e+001	1.445781e+002
9.990530e+006	-3.553350e+001	1.570709e+002	-3.052865e+001	-2.633169e+001	-9.319517e+001	4.600142e+001	-3.179961e+001	1.445233e+002
9.990534e+006	-3.553821e+001	1.570791e+002	-3.052879e+001	-2.640454e+001	-9.197491e+001	8.105265e+001	-3.179997e+001	1.445250e+002
9.990539e+006	-3.552893e+001	1.570205e+002	-3.052849e+001	-2.636301e+001	-1.131087e+002	-7.162967e+001	-3.179629e+001	1.445557e+002
9.990544e+006	-3.553250e+001	1.571384e+002	-3.053000e+001	-2.634551e+001	-9.759933e+001	-1.468204e+000	-3.179150e+001	1.445137e+002
9.990548e+006	-3.553379e+001	1.571227e+002	-3.052770e+001	-2.631109e+001	-8.827314e+001	1.141621e+002	-3.179563e+001	1.445331e+002
9.990553e+006	-3.552770e+001	1.570995e+002	-3.053128e+001	-2.637448e+001	-9.168393e+001	-1.649047e+002	-3.179563e+001	1.445774e+002
9.990558e+006	-3.554193e+001	1.571954e+002	-3.052890e+001	-2.642365e+001	-9.579203e+001	1.341562e+002	-3.179348e+001	1.445118e+002
9.990563e+006	-3.554413e+001	1.570495e+002	-3.052426e+001	-2.641207e+001	-9.315457e+001	1.042615e+002	-3.180499e+001	1.445330e+002
9.990567e+006	-3.554245e+001	1.572212e+002	-3.054214e+001	-2.634416e+001	-1.029705e+002	-1.414464e+002	-3.178418e+001	1.445433e+002
9.990572e+006	-3.554537e+001	1.571365e+002	-3.053899e+001	-2.631777e+001	-9.198432e+001	-1.487034e+002	-3.179687e+001	1.445364e+002
9.990577e+006	-3.553643e+001	1.571242e+002	-3.053460e+001	-2.645756e+001	-9.135317e+001	-2.054378e+000	-3.179609e+001	1.446001e+002
9.990581e+006	-3.554505e+001	1.571088e+002	-3.052625e+001	-2.637777e+001	-8.805963e+001	7.187306e+001	-3.179783e+001	1.445571e+002
9.990586e+006	-3.553263e+001	1.571698e+002	-3.053551e+001	-2.635342e+001	-1.012125e+002	-8.292644e+001	-3.179255e+001	1.446095e+002
9.990591e+006	-3.555070e+001	1.571458e+002	-3.054493e+001	-2.643486e+001	-8.936864e+001	9.860548e+001	-3.180425e+001	1.445376e+002
9.990595e+006	-3.553005e+001	1.571030e+002	-3.053113e+001	-2.638192e+001	-9.669269e+001	-1.257612e+002	-3.179983e+001	1.445435e+002
9.990600e+006	-3.554114e+001	1.571469e+002	-3.053139e+001	-2.632122e+001	-9.239507e+001	9.498886e+001	-3.179983e+001	1.445306e+002
9.990605e+006	-3.552658e+001	1.571799e+002	-3.053520e+001	-2.638361e+001	-9.081125e+001	1.122466e+001	-3.179546e+001	1.445091e+002
9.990609e+006	-3.552923e+001	1.571289e+002	-3.054255e+001	-2.641422e+001	-9.669280e+001	1.309861e+002	-3.179859e+001	1.445550e+002
9.990614e+006	-3.551983e+001	1.571073e+002	-3.052094e+001	-2.633907e+001	-9.846708e+001	9.047655e+001	-3.179644e+001	1.445800e+002
9.990619e+006	-3.552835e+001	1.570998e+002	-3.052135e+001	-2.637977e+001	-9.034660e+001	-1.077105e+002	-3.181150e+001	1.446209e+002
9.990623e+006	-3.554477e+001	1.572170e+002	-3.053628e+001	-2.638244e+001	-9.361361e+001	6.012166e+001	-3.180851e+001	1.445440e+002
9.990628e+006	-3.552118e+001	1.571458e+002	-3.054692e+001	-2.634408e+001	-9.883783e+001	1.585478e+002	-3.178921e+001	1.446056e+002
9.990633e+006	-3.553786e+001	1.572523e+002	-3.052498e+001	-2.647258e+001	-9.808176e+001	-6.167617e+000	-3.179759e+001	1.445206e+002
9.990638e+006	-3.553596e+001	1.571517e+002	-3.052476e+001	-2.641109e+001	-8.673019e+001	1.000275e+002	-3.179618e+001	1.445421e+002
9.990642e+006	-3.554003e+001	1.571465e+002	-3.052329e+001	-2.628418e+001	-9.909769e+001	1.381892e+002	-3.179437e+001	1.445118e+002
9.990647e+006	-3.553690e+001	1.571124e+002	-3.052597e+001	-2.640450e+001	-8.990672e+001	1.780815e+002	-3.180704e+001	1.446080e+002
9.990652e+006	-3.552494e+001	1.570961e+002	-3.052970e+001	-2.641338e+001	-8.884630e+001	2.778872e+001	-3.179823e+001	1.445433e+002
9.990656e+006	-3.552354e+001	1.571072e+002	-3.052428e+001	-2.636887e+001	-8.853592e+001	2.723268e+000	-3.180089e+001	1.445047e+002
9.990661e+006	-3.554001e+001	1.571926e+002	-3.052516e+001	-2.635338e+001	-9.872412e+001	7.116922e+001	-3.179850e+001	1.445561e+002
9.990666e+006	-3.553795e+001	1.571089e+002	-3.052907e+001	-2.638534e+001	-9.376090e+001	9.608599e+001	-3.179651e+001	1.445685e+002
9.990670e+006	-3.552842e+001	1.571291e+002	-3.053949e+001	-2.636370e+001	-9.355087e+001	-3.614127e+001	-3.179070e+001	1.445290e+002
9.990675e+006	-3.552627e+001	1.571173e+002	-3.052382e+001	-2.633051e+001	-1.236333e+002	-9.240446e+001	-3.178647e+001	1.445543e+002
9.990680e+006	-3.552094e+001	1.571674e+002	-3.053120e+001	-2.634905e+001	-9.413245e+001	4.439836e+001	-3.179812e+001	1.445645e+002
9.990684e+006	-3.552280e+001	1.572468e+002	-3.052773e+001	-2.634301e+001	-9.150608e+001	1.382863e+002	-3.179744e+001	1.444981e+002
9.990689e+006	-3.554060e+001	1.571009e+002	-3.053194e+001	-2.636210e+001	-9.178845e+001	3.199208e+001	-3.180375e+001	1.445960e+002
9.990694e+006	-3.552947e+001	1.571657e+002	-3.053139e+001	-2.634943e+001	-8.895648e+001	-1.577841e+002	-3.179441e+001	1.445767e+002
