!CETC41,AV3656A,ZGL00048,1.3.2
!Calibration ON (Full Solt 2-Port(Omit Isolation))
!Measurements: S11 S21 S12 S22
!2025-04-18 22:34
# Hz  S  dB  R 50.000
9.990000e+006	-3.541559e+001	1.570065e+002	-3.054749e+001	-2.507460e+001	-9.416246e+001	7.797893e+001	-3.209779e+001	1.441793e+002
9.990005e+006	-3.542744e+001	1.571745e+002	-3.054401e+001	-2.510270e+001	-9.000622e+001	1.666060e+002	-3.210911e+001	1.441213e+002
9.990009e+006	-3.542903e+001	1.571694e+002	-3.054328e+001	-2.513881e+001	-8.987077e+001	5.232152e+001	-3.210958e+001	1.440617e+002
9.990014e+006	-3.542922e+001	1.570618e+002	-3.053953e+001	-2.520424e+001	-9.188288e+001	1.284719e+002	-3.211642e+001	1.440991e+002
9.990019e+006	-3.543695e+001	1.570973e+002	-3.053395e+001	-2.517825e+001	-1.045066e+002	4.732204e+001	-3.210615e+001	1.441483e+002
9.990023e+006	-3.542060e+001	1.569764e+002	-3.054265e+001	-2.514400e+001	-8.977235e+001	-1.428917e+002	-3.212032e+001	1.441256e+002
9.990028e+006	-3.542726e+001	1.570847e+002	-3.053419e+001	-2.514486e+001	-8.572129e+001	1.733841e+002	-3.212005e+001	1.441296e+002
9.990033e+006	-3.542445e+001	1.570238e+002	-3.053737e+001	-2.504960e+001	-9.742972e+001	1.332249e+002	-3.211297e+001	1.441448e+002
9.990038e+006	-3.543489e+001	1.570935e+002	-3.054098e+001	-2.512659e+001	-1.091292e+002	3.023272e+001	-3.210754e+001	1.441598e+002
9.990042e+006	-3.542268e+001	1.570904e+002	-3.053948e+001	-2.516185e+001	-8.772721e+001	1.581093e+002	-3.209929e+001	1.441256e+002
9.990047e+006	-3.542034e+001	1.570924e+002	-3.053715e+001	-2.500682e+001	-9.923589e+001	-1.821707e+001	-3.212279e+001	1.440830e+002
9.990052e+006	-3.543001e+001	1.570801e+002	-3.054854e+001	-2.506494e+001	-1.003173e+002	-9.462645e+001	-3.211668e+001	1.442221e+002
9.990056e+006	-3.542812e+001	1.571556e+002	-3.053658e+001	-2.508022e+001	-9.274985e+001	4.658772e+000	-3.210075e+001	1.440872e+002
9.990061e+006	-3.543297e+001	1.571300e+002	-3.053402e+001	-2.515015e+001	-9.563515e+001	-1.787315e+002	-3.210607e+001	1.441131e+002
9.990066e+006	-3.543136e+001	1.570521e+002	-3.053738e+001	-2.506590e+001	-8.971060e+001	-1.389714e+001	-3.212254e+001	1.440928e+002
9.990070e+006	-3.542970e+001	1.570363e+002	-3.053214e+001	-2.514758e+001	-1.126039e+002	1.481324e+002	-3.210754e+001	1.441714e+002
9.990075e+006	-3.544272e+001	1.571239e+002	-3.054028e+001	-2.505982e+001	-8.920992e+001	1.439444e+002	-3.210274e+001	1.441471e+002
9.990080e+006	-3.543077e+001	1.570995e+002	-3.053787e+001	-2.507282e+001	-9.307294e+001	1.222424e+002	-3.209501e+001	1.441157e+002
9.990084e+006	-3.542335e+001	1.572272e+002	-3.053610e+001	-2.514311e+001	-9.428988e+001	-1.591631e+002	-3.209731e+001	1.440657e+002
9.990089e+006	-3.542827e+001	1.570818e+002	-3.054686e+001	-2.515305e+001	-9.719550e+001	-1.697427e+002	-3.209125e+001	1.441529e+002
9.990094e+006	-3.543331e+001	1.570567e+002	-3.055734e+001	-2.512855e+001	-1.022463e+002	9.250182e+001	-3.210424e+001	1.441826e+002
9.990098e+006	-3.542682e+001	1.571144e+002	-3.055736e+001	-2.519959e+001	-9.078374e+001	1.433554e+002	-3.210775e+001	1.440882e+002
9.990103e+006	-3.544183e+001	1.570487e+002	-3.054613e+001	-2.521170e+001	-9.409077e+001	6.840155e+001	-3.209836e+001	1.440188e+002
9.990108e+006	-3.542616e+001	1.570605e+002	-3.055739e+001	-2.519063e+001	-9.263573e+001	1.094662e+002	-3.209648e+001	1.439656e+002
9.990113e+006	-3.542696e+001	1.569487e+002	-3.054481e+001	-2.514742e+001	-1.048808e+002	-9.774955e+001	-3.209556e+001	1.440898e+002
9.990117e+006	-3.543229e+001	1.569975e+002	-3.055360e+001	-2.512732e+001	-9.209164e+001	7.618073e+001	-3.210105e+001	1.440451e+002
9.990122e+006	-3.542346e+001	1.570623e+002	-3.055284e+001	-2.521722e+001	-9.682036e+001	5.008881e+001	-3.210573e+001	1.441126e+002
9.990127e+006	-3.542403e+001	1.571402e+002	-3.055082e+001	-2.514662e+001	-9.810288e+001	4.845898e+001	-3.210780e+001	1.441379e+002
9.990131e+006	-3.541183e+001	1.571726e+002	-3.055454e+001	-2.517195e+001	-9.234387e+001	-1.256428e+002	-3.209906e+001	1.440996e+002
9.990136e+006	-3.541916e+001	1.570994e+002	-3.054626e+001	-2.504955e+001	-9.183718e+001	-1.855167e+001	-3.210184e+001	1.441126e+002
9.990141e+006	-3.542454e+001	1.570197e+002	-3.053814e+001	-2.500824e+001	-9.015758e+001	5.227920e+001	-3.209626e+001	1.441000e+002
9.990145e+006	-3.543722e+001	1.570564e+002	-3.054063e+001	-2.507000e+001	-9.746658e+001	-5.207657e+001	-3.209739e+001	1.441101e+002
9.990150e+006	-3.541926e+001	1.571363e+002	-3.053944e+001	-2.510979e+001	-8.722953e+001	-1.024126e+002	-3.210301e+001	1.440653e+002
9.990155e+006	-3.542143e+001	1.570777e+002	-3.054936e+001	-2.521756e+001	-1.073774e+002	1.271548e+002	-3.209936e+001	1.440831e+002
9.990159e+006	-3.541798e+001	1.570978e+002	-3.055399e+001	-2.515861e+001	-9.079046e+001	9.186232e+000	-3.209673e+001	1.440622e+002
9.990164e+006	-3.543994e+001	1.570915e+002	-3.054858e+001	-2.518528e+001	-9.828875e+001	1.124161e+002	-3.211505e+001	1.440303e+002
9.990169e+006	-3.542634e+001	1.570279e+002	-3.055185e+001	-2.515482e+001	-9.445374e+001	1.386318e+001	-3.210252e+001	1.440152e+002
9.990173e+006	-3.542375e+001	1.572313e+002	-3.055527e+001	-2.515057e+001	-8.893511e+001	4.345081e+001	-3.209928e+001	1.440830e+002
9.990178e+006	-3.542579e+001	1.572007e+002	-3.054109e+001	-2.508201e+001	-9.201891e+001	9.314583e+001	-3.210194e+001	1.440900e+002
9.990183e+006	-3.542009e+001	1.571277e+002	-3.054648e+001	-2.506379e+001	-9.212502e+001	9.725114e+001	-3.210074e+001	1.440981e+002
9.990188e+006	-3.543267e+001	1.570042e+002	-3.053494e+001	-2.509100e+001	-8.935540e+001	1.273153e+002	-3.210723e+001	1.441080e+002
9.990192e+006	-3.543332e+001	1.569782e+002	-3.054818e+001	-2.516767e+001	-1.006114e+002	8.777200e+001	-3.210838e+001	1.441297e+002
9.990197e+006	-3.542871e+001	1.571187e+002	-3.055160e+001	-2.514884e+001	-9.569584e+001	4.972366e+001	-3.209917e+001	1.441306e+002
9.990202e+006	-3.543717e+001	1.571246e+002	-3.054323e+001	-2.509864e+001	-9.162199e+001	7.405554e+001	-3.210303e+001	1.440749e+002
9.990206e+006	-3.544664e+001	1.570613e+002	-3.053986e+001	-2.513215e+001	-8.549987e+001	6.892971e+001	-3.210627e+001	1.440253e+002
9.990211e+006	-3.542576e+001	1.571652e+002	-3.054625e+001	-2.512454e+001	-1.021041e+002	7.855911e+001	-3.209645e+001	1.440838e+002
9.990216e+006	-3.543218e+001	1.570449e+002	-3.054684e+001	-2.514884e+001	-9.536609e+001	1.033451e+001	-3.210238e+001	1.441350e+002
9.990220e+006	-3.543337e+001	1.570768e+002	-3.055349e+001	-2.512842e+001	-8.770258e+001	4.788167e+001	-3.209441e+001	1.440149e+002
9.990225e+006	-3.542942e+001	1.571324e+002	-3.054526e+001	-2.513063e+001	-1.084860e+002	-3.077155e+001	-3.211091e+001	1.440426e+002
9.990230e+006	-3.542063e+001	1.571275e+002	-3.054908e+001	-2.516510e+001	-9.376538e+001	9.448143e+001	-3.210511e+001	1.440300e+002
9.990234e+006	-3.542661e+001	1.571851e+002	-3.054367e+001	-2.508074e+001	-9.507459e+001	7.875361e+001	-3.210860e+001	1.440384e+002
9.990239e+006	-3.542272e+001	1.570949e+002	-3.054854e+001	-2.511067e+001	-9.398552e+001	1.765452e+001	-3.211186e+001	1.440921e+002
9.990244e+006	-3.541253e+001	1.570952e+002	-3.054458e+001	-2.506790e+001	-9.322254e+001	1.172698e+002	-3.210210e+001	1.440709e+002
9.990248e+006	-3.542745e+001	1.570805e+002	-3.055405e+001	-2.513193e+001	-9.485463e+001	1.574032e+001	-3.210265e+001	1.441325e+002
9.990253e+006	-3.542653e+001	1.570479e+002	-3.054447e+001	-2.512293e+001	-1.026157e+002	1.257369e+002	-3.210520e+001	1.441140e+002
9.990258e+006	-3.543756e+001	1.570670e+002	-3.054035e+001	-2.511367e+001	-9.679855e+001	5.743999e+001	-3.209414e+001	1.440500e+002
9.990263e+006	-3.542341e+001	1.570738e+002	-3.054053e+001	-2.515609e+001	-8.745630e+001	-1.628238e+002	-3.210128e+001	1.440388e+002
9.990267e+006	-3.543747e+001	1.570879e+002	-3.055171e+001	-2.513240e+001	-1.008122e+002	-1.208928e+002	-3.210204e+001	1.441144e+002
9.990272e+006	-3.541333e+001	1.570723e+002	-3.054182e+001	-2.510549e+001	-9.188478e+001	7.614515e+001	-3.209603e+001	1.440678e+002
9.990277e+006	-3.543472e+001	1.570257e+002	-3.054872e+001	-2.510569e+001	-9.485386e+001	-1.703057e+002	-3.209770e+001	1.440286e+002
9.990281e+006	-3.542308e+001	1.571627e+002	-3.054759e+001	-2.508322e+001	-9.361956e+001	1.454820e+002	-3.209942e+001	1.440744e+002
9.990286e+006	-3.544033e+001	1.571180e+002	-3.053949e+001	-2.514143e+001	-9.294799e+001	1.746508e+001	-3.210465e+001	1.440562e+002
9.990291e+006	-3.542755e+001	1.570545e+002	-3.055378e+001	-2.506864e+001	-9.403520e+001	1.255826e+002	-3.210456e+001	1.440942e+002
9.990295e+006	-3.543124e+001	1.570917e+002	-3.054056e+001	-2.512618e+001	-8.737577e+001	1.591448e+002	-3.210392e+001	1.440602e+002
9.990300e+006	-3.543013e+001	1.571221e+002	-3.055897e+001	-2.505575e+001	-9.218967e+001	8.499444e+001	-3.211032e+001	1.440511e+002
9.990305e+006	-3.543239e+001	1.571227e+002	-3.054947e+001	-2.510400e+001	-1.052317e+002	1.414106e+002	-3.211156e+001	1.440878e+002
9.990309e+006	-3.542885e+001	1.571016e+002	-3.054588e+001	-2.505705e+001	-9.370503e+001	1.341551e+002	-3.211309e+001	1.440365e+002
9.990314e+006	-3.542260e+001	1.571568e+002	-3.053495e+001	-2.514139e+001	-9.703589e+001	1.200418e+002	-3.209573e+001	1.440721e+002
9.990319e+006	-3.543446e+001	1.570623e+002	-3.054692e+001	-2.516089e+001	-9.174429e+001	5.433557e+001	-3.210238e+001	1.440832e+002
9.990323e+006	-3.542739e+001	1.570843e+002	-3.054942e+001	-2.509517e+001	-9.598463e+001	4.935055e+000	-3.209860e+001	1.440329e+002
9.990328e+006	-3.541751e+001	1.570316e+002	-3.053436e+001	-2.506989e+001	-9.698598e+001	-6.386272e+001	-3.208748e+001	1.440705e+002
9.990333e+006	-3.542995e+001	1.570598e+002	-3.054467e+001	-2.510432e+001	-9.722925e+001	5.043426e+001	-3.209778e+001	1.440998e+002
9.990338e+006	-3.542549e+001	1.569607e+002	-3.054846e+001	-2.508762e+001	-8.805659e+001	7.503066e+001	-3.210480e+001	1.440846e+002
9.990342e+006	-3.542286e+001	1.571844e+002	-3.055018e+001	-2.509776e+001	-8.780989e+001	1.174031e+002	-3.209458e+001	1.440705e+002
9.990347e+006	-3.543724e+001	1.571001e+002	-3.054446e+001	-2.508612e+001	-9.001051e+001	2.216035e+001	-3.209524e+001	1.440217e+002
9.990352e+006	-3.542266e+001	1.571097e+002	-3.054463e+001	-2.513389e+001	-9.609104e+001	4.122543e+001	-3.211972e+001	1.440757e+002
9.990356e+006	-3.543267e+001	1.572248e+002	-3.055181e+001	-2.513962e+001	-8.948837e+001	1.768379e+002	-3.210898e+001	1.440654e+002
9.990361e+006	-3.542997e+001	1.570588e+002	-3.054296e+001	-2.514346e+001	-1.005801e+002	-5.303611e+000	-3.210337e+001	1.440575e+002
9.990366e+006	-3.542409e+001	1.570793e+002	-3.054620e+001	-2.505985e+001	-9.890570e+001	1.106519e+002	-3.211018e+001	1.440493e+002
9.990370e+006	-3.543155e+001	1.570470e+002	-3.053644e+001	-2.506955e+001	-1.000667e+002	1.319659e+002	-3.210708e+001	1.440974e+002
9.990375e+006	-3.543541e+001	1.571595e+002	-3.054438e+001	-2.504771e+001	-8.940301e+001	7.453509e+001	-3.210872e+001	1.440962e+002
9.990380e+006	-3.543215e+001	1.571938e+002	-3.054332e+001	-2.514317e+001	-1.029146e+002	1.412353e+002	-3.209386e+001	1.440531e+002
9.990384e+006	-3.542709e+001	1.571578e+002	-3.054010e+001	-2.508227e+001	-9.172904e+001	1.148100e+002	-3.210590e+001	1.441190e+002
9.990389e+006	-3.541080e+001	1.571027e+002	-3.054164e+001	-2.511232e+001	-8.927366e+001	7.045604e+001	-3.209789e+001	1.441071e+002
9.990394e+006	-3.544790e+001	1.570785e+002	-3.053736e+001	-2.512877e+001	-9.658106e+001	1.302483e+002	-3.210277e+001	1.441681e+002
9.990398e+006	-3.541931e+001	1.570874e+002	-3.055401e+001	-2.512007e+001	-9.641839e+001	-1.620188e+002	-3.210285e+001	1.441081e+002
9.990403e+006	-3.543301e+001	1.571287e+002	-3.054506e+001	-2.515338e+001	-9.568768e+001	1.073169e+002	-3.209018e+001	1.441123e+002
9.990408e+006	-3.542735e+001	1.571537e+002	-3.053684e+001	-2.513940e+001	-9.702640e+001	9.058841e+001	-3.209806e+001	1.441038e+002
9.990413e+006	-3.541549e+001	1.571022e+002	-3.053548e+001	-2.511383e+001	-9.808376e+001	1.920879e+001	-3.209547e+001	1.441056e+002
9.990417e+006	-3.543474e+001	1.571411e+002	-3.054184e+001	-2.510901e+001	-9.761985e+001	-1.399011e+002	-3.210210e+001	1.440715e+002
9.990422e+006	-3.541922e+001	1.570067e+002	-3.054706e+001	-2.511286e+001	-9.178146e+001	1.073597e+002	-3.209500e+001	1.440976e+002
9.990427e+006	-3.543402e+001	1.570597e+002	-3.054739e+001	-2.517587e+001	-9.168616e+001	4.600168e+001	-3.209930e+001	1.440774e+002
9.990431e+006	-3.541587e+001	1.570419e+002	-3.053554e+001	-2.504987e+001	-1.069281e+002	1.052447e+001	-3.211194e+001	1.441478e+002
9.990436e+006	-3.542312e+001	1.571189e+002	-3.053498e+001	-2.509580e+001	-9.387624e+001	3.628170e+001	-3.210427e+001	1.441072e+002
9.990441e+006	-3.542943e+001	1.571055e+002	-3.054099e+001	-2.507811e+001	-9.481389e+001	5.705720e+001	-3.209956e+001	1.440830e+002
9.990445e+006	-3.544049e+001	1.570960e+002	-3.054291e+001	-2.510139e+001	-1.111156e+002	7.865105e+001	-3.210238e+001	1.441520e+002
9.990450e+006	-3.542756e+001	1.571400e+002	-3.054893e+001	-2.509794e+001	-9.181849e+001	1.124469e+002	-3.210638e+001	1.440189e+002
9.990455e+006	-3.541397e+001	1.571171e+002	-3.054177e+001	-2.513320e+001	-9.763201e+001	-1.792107e+002	-3.209943e+001	1.440335e+002
9.990459e+006	-3.542451e+001	1.570705e+002	-3.054308e+001	-2.515835e+001	-9.688688e+001	5.077079e+001	-3.209033e+001	1.440624e+002
9.990464e+006	-3.541515e+001	1.571138e+002	-3.053358e+001	-2.509716e+001	-9.084280e+001	1.003038e+002	-3.211406e+001	1.441170e+002
9.990469e+006	-3.542923e+001	1.571291e+002	-3.054748e+001	-2.510969e+001	-9.516838e+001	1.006007e+002	-3.210453e+001	1.441382e+002
9.990473e+006	-3.542591e+001	1.569892e+002	-3.055044e+001	-2.508202e+001	-9.230305e+001	-1.778271e+001	-3.209681e+001	1.441616e+002
9.990478e+006	-3.542462e+001	1.570498e+002	-3.053547e+001	-2.515379e+001	-8.760667e+001	9.503271e+001	-3.210704e+001	1.440909e+002
9.990483e+006	-3.541328e+001	1.570951e+002	-3.053086e+001	-2.509388e+001	-1.007347e+002	1.375490e+001	-3.209287e+001	1.440557e+002
9.990488e+006	-3.543511e+001	1.570818e+002	-3.054233e+001	-2.510108e+001	-9.239141e+001	1.435798e+002	-3.209845e+001	1.440657e+002
9.990492e+006	-3.543126e+001	1.571849e+002	-3.054373e+001	-2.509195e+001	-8.905722e+001	-1.772092e+002	-3.210482e+001	1.440176e+002
9.990497e+006	-3.542413e+001	1.569938e+002	-3.053393e+001	-2.513160e+001	-9.421728e+001	6.524209e+001	-3.210190e+001	1.440814e+002
9.990502e+006	-3.543658e+001	1.570799e+002	-3.054276e+001	-2.512683e+001	-9.854879e+001	8.172202e+001	-3.209729e+001	1.440647e+002
9.990506e+006	-3.542472e+001	1.571460e+002	-3.053823e+001	-2.514002e+001	-9.227759e+001	1.382529e+002	-3.209195e+001	1.440826e+002
9.990511e+006	-3.542537e+001	1.570331e+002	-3.053520e+001	-2.506231e+001	-1.024800e+002	1.502371e+002	-3.209941e+001	1.440260e+002
9.990516e+006	-3.543577e+001	1.571008e+002	-3.054279e+001	-2.510872e+001	-8.610687e+001	1.322995e+002	-3.209705e+001	1.441411e+002
9.990520e+006	-3.543679e+001	1.570926e+002	-3.054427e+001	-2.506325e+001	-1.082689e+002	1.905735e+001	-3.209839e+001	1.440758e+002
9.990525e+006	-3.541732e+001	1.571123e+002	-3.054630e+001	-2.516272e+001	-9.676740e+001	5.285218e+001	-3.211334e+001	1.440138e+002
9.990530e+006	-3.542130e+001	1.570848e+002	-3.054377e+001	-2.509674e+001	-9.349742e+001	-1.275162e+002	-3.210814e+001	1.440532e+002
9.990534e+006	-3.541647e+001	1.570847e+002	-3.054586e+001	-2.506287e+001	-9.531506e+001	1.215803e+002	-3.210617e+001	1.440897e+002
9.990539e+006	-3.543426e+001	1.570653e+002	-3.054064e+001	-2.511091e+001	-9.274253e+001	1.739058e+002	-3.208949e+001	1.441217e+002
9.990544e+006	-3.542052e+001	1.571274e+002	-3.053800e+001	-2.512159e+001	-8.574887e+001	1.731954e+002	-3.209957e+001	1.441184e+002
9.990548e+006	-3.541388e+001	1.571470e+002	-3.053177e+001	-2.511621e+001	-1.053682e+002	-1.669632e+002	-3.210460e+001	1.440387e+002
9.990553e+006	-3.541958e+001	1.572142e+002	-3.053787e+001	-2.513338e+001	-9.067570e+001	1.104494e+002	-3.211443e+001	1.440953e+002
9.990558e+006	-3.542612e+001	1.570401e+002	-3.054701e+001	-2.514900e+001	-9.010109e+001	-7.885213e+001	-3.210506e+001	1.440677e+002
9.990563e+006	-3.542386e+001	1.570260e+002	-3.053488e+001	-2.514974e+001	-1.016356e+002	-1.415517e+002	-3.208902e+001	1.441239e+002
9.990567e+006	-3.541519e+001	1.571125e+002	-3.054302e+001	-2.513848e+001	-9.693045e+001	1.773101e+002	-3.210495e+001	1.439980e+002
9.990572e+006	-3.542697e+001	1.571561e+002	-3.054168e+001	-2.505127e+001	-9.872032e+001	1.318352e+002	-3.210341e+001	1.440795e+002
9.990577e+006	-3.541911e+001	1.571153e+002	-3.053821e+001	-2.514320e+001	-9.549956e+001	1.045247e+002	-3.210411e+001	1.441887e+002
9.990581e+006	-3.541695e+001	1.570979e+002	-3.054366e+001	-2.501868e+001	-9.485589e+001	-1.726806e+002	-3.210977e+001	1.440817e+002
9.990586e+006	-3.543092e+001	1.570214e+002	-3.054723e+001	-2.509172e+001	-9.123577e+001	1.011230e+002	-3.210641e+001	1.440107e+002
9.990591e+006	-3.541504e+001	1.570825e+002	-3.053340e+001	-2.517355e+001	-1.010165e+002	1.125804e+002	-3.210746e+001	1.441041e+002
9.990595e+006	-3.544122e+001	1.570211e+002	-3.054800e+001	-2.509383e+001	-9.148969e+001	8.636118e+001	-3.210131e+001	1.441220e+002
9.990600e+006	-3.542781e+001	1.572420e+002	-3.053380e+001	-2.503146e+001	-9.494554e+001	-1.105841e+002	-3.210148e+001	1.441302e+002
9.990605e+006	-3.543955e+001	1.572690e+002	-3.054053e+001	-2.511957e+001	-9.127864e+001	5.282469e+001	-3.209056e+001	1.441655e+002
9.990609e+006	-3.541032e+001	1.570989e+002	-3.052736e+001	-2.506555e+001	-9.020856e+001	-1.586551e+002	-3.211183e+001	1.440664e+002
9.990614e+006	-3.543047e+001	1.571038e+002	-3.053838e+001	-2.521814e+001	-9.664070e+001	1.687649e+002	-3.209429e+001	1.441317e+002
9.990619e+006	-3.542417e+001	1.571695e+002	-3.054285e+001	-2.505482e+001	-9.595422e+001	1.759995e+002	-3.210581e+001	1.440999e+002
9.990623e+006	-3.542241e+001	1.570844e+002	-3.053602e+001	-2.512820e+001	-9.759251e+001	7.142104e+001	-3.208814e+001	1.441122e+002
9.990628e+006	-3.543008e+001	1.571002e+002	-3.053380e+001	-2.512399e+001	-9.368572e+001	1.069041e+002	-3.210682e+001	1.439931e+002
9.990633e+006	-3.542441e+001	1.570978e+002	-3.053833e+001	-2.510146e+001	-1.037527e+002	7.454020e+001	-3.209437e+001	1.440891e+002
9.990638e+006	-3.543228e+001	1.569446e+002	-3.054281e+001	-2.509949e+001	-1.008896e+002	2.295234e+001	-3.210699e+001	1.441003e+002
9.990642e+006	-3.542925e+001	1.570780e+002	-3.053491e+001	-2.515159e+001	-8.889137e+001	1.379540e+002	-3.210779e+001	1.440418e+002
9.990647e+006	-3.541430e+001	1.570342e+002	-3.054678e+001	-2.505244e+001	-8.784877e+001	1.498369e+002	-3.209987e+001	1.440855e+002
9.990652e+006	-3.541857e+001	1.570775e+002	-3.052597e+001	-2.505645e+001	-9.283847e+001	1.182342e+002	-3.211501e+001	1.440477e+002
9.990656e+006	-3.543453e+001	1.570802e+002	-3.054275e+001	-2.510096e+001	-9.326015e+001	-1.578931e+002	-3.209757e+001	1.440445e+002
9.990661e+006	-3.542832e+001	1.571167e+002	-3.053073e+001	-2.505952e+001	-9.324966e+001	-1.129353e+002	-3.209514e+001	1.439970e+002
9.990666e+006	-3.543094e+001	1.570098e+002	-3.053339e+001	-2.515297e+001	-9.304381e+001	4.987952e+001	-3.209548e+001	1.440874e+002
9.990670e+006	-3.542386e+001	1.571921e+002	-3.053577e+001	-2.513497e+001	-8.474048e+001	4.730086e+001	-3.211137e+001	1.441277e+002
9.990675e+006	-3.543103e+001	1.569816e+002	-3.053139e+001	-2.512612e+001	-9.521742e+001	-1.035275e+002	-3.209350e+001	1.440722e+002
9.990680e+006	-3.542523e+001	1.571273e+002	-3.054026e+001	-2.514056e+001	-8.957412e+001	1.508634e+002	-3.210615e+001	1.441438e+002
9.990684e+006	-3.542382e+001	1.571622e+002	-3.053782e+001	-2.506594e+001	-9.384495e+001	9.794472e+001	-3.209551e+001	1.440928e+002
9.990689e+006	-3.541962e+001	1.571308e+002	-3.054580e+001	-2.515147e+001	-8.997946e+001	1.555302e+002	-3.210017e+001	1.441065e+002
9.990694e+006	-3.541540e+001	1.570677e+002	-3.053530e+001	-2.507616e+001	-9.117336e+001	1.129958e+002	-3.209870e+001	1.440706e+002
9.990698e+006	-3.541457e+001	1.572064e+002	-3.054325e+001	-2.510778e+001	-1.041365e+002	-9.041283e+001	-3.210483e+001	1.440697e+002
