!CETC41,AV3656A,ZGL00048,1.3.2
!Calibration ON (Full Solt 2-Port(Omit Isolation))
!Measurements: S11 S21 S12 S22
!2025-04-18 21:56
# Hz  S  dB  R 50.000
9.990000e+006	-3.532644e+001	1.560693e+002	-3.056532e+001	-2.434610e+001	-9.385648e+001	9.324317e+001	-3.230588e+001	1.433205e+002
9.990005e+006	-3.531909e+001	1.561126e+002	-3.055837e+001	-2.432265e+001	-1.029856e+002	-1.282767e+002	-3.230578e+001	1.433614e+002
9.990009e+006	-3.531104e+001	1.560107e+002	-3.054272e+001	-2.430861e+001	-8.866172e+001	8.607251e+001	-3.231487e+001	1.434630e+002
9.990014e+006	-3.532276e+001	1.560055e+002	-3.054824e+001	-2.422736e+001	-9.005483e+001	7.568723e+001	-3.232176e+001	1.434977e+002
9.990019e+006	-3.534057e+001	1.559802e+002	-3.055825e+001	-2.417158e+001	-1.005359e+002	-1.017791e+002	-3.232784e+001	1.434686e+002
9.990023e+006	-3.532416e+001	1.560332e+002	-3.055999e+001	-2.425579e+001	-8.789284e+001	2.278173e+001	-3.233691e+001	1.433967e+002
9.990028e+006	-3.530805e+001	1.560985e+002	-3.056654e+001	-2.415948e+001	-9.764411e+001	1.359594e+002	-3.233169e+001	1.432677e+002
9.990033e+006	-3.531818e+001	1.560299e+002	-3.057030e+001	-2.426818e+001	-9.147781e+001	4.759042e+001	-3.232424e+001	1.432457e+002
9.990038e+006	-3.532830e+001	1.559330e+002	-3.055978e+001	-2.425338e+001	-9.128852e+001	1.159162e+002	-3.231219e+001	1.432965e+002
9.990042e+006	-3.533882e+001	1.560372e+002	-3.056324e+001	-2.423351e+001	-8.754193e+001	1.419005e+002	-3.231035e+001	1.433237e+002
9.990047e+006	-3.532620e+001	1.560737e+002	-3.055927e+001	-2.432314e+001	-1.013285e+002	9.131116e+000	-3.230839e+001	1.433532e+002
9.990052e+006	-3.532096e+001	1.561045e+002	-3.054814e+001	-2.429137e+001	-9.087295e+001	1.370781e+002	-3.230361e+001	1.432643e+002
9.990056e+006	-3.531550e+001	1.560835e+002	-3.055149e+001	-2.429486e+001	-8.907665e+001	1.449609e+002	-3.231273e+001	1.434131e+002
9.990061e+006	-3.533082e+001	1.559438e+002	-3.055828e+001	-2.424773e+001	-8.734306e+001	1.075876e+002	-3.231776e+001	1.434483e+002
9.990066e+006	-3.530972e+001	1.560423e+002	-3.055251e+001	-2.429770e+001	-9.649739e+001	9.275237e+001	-3.230935e+001	1.433892e+002
9.990070e+006	-3.531706e+001	1.561065e+002	-3.055795e+001	-2.433363e+001	-9.460734e+001	-1.744336e+001	-3.230563e+001	1.434101e+002
9.990075e+006	-3.532026e+001	1.560735e+002	-3.055005e+001	-2.429899e+001	-9.898578e+001	-1.515704e+002	-3.230665e+001	1.433500e+002
9.990080e+006	-3.533202e+001	1.560365e+002	-3.055279e+001	-2.434354e+001	-9.257108e+001	-1.419956e+002	-3.231085e+001	1.433005e+002
9.990084e+006	-3.532534e+001	1.560270e+002	-3.055122e+001	-2.436325e+001	-9.589812e+001	9.865519e+001	-3.230914e+001	1.434204e+002
9.990089e+006	-3.531530e+001	1.559760e+002	-3.054735e+001	-2.434895e+001	-9.677638e+001	3.287928e+001	-3.230749e+001	1.433809e+002
9.990094e+006	-3.531227e+001	1.560608e+002	-3.054865e+001	-2.434558e+001	-9.473370e+001	5.175829e+001	-3.230486e+001	1.433609e+002
9.990098e+006	-3.532602e+001	1.561013e+002	-3.054721e+001	-2.433205e+001	-9.008841e+001	7.900121e+001	-3.230643e+001	1.434094e+002
9.990103e+006	-3.532765e+001	1.559832e+002	-3.055230e+001	-2.435056e+001	-8.700149e+001	1.363407e+002	-3.231626e+001	1.433649e+002
9.990108e+006	-3.531265e+001	1.560372e+002	-3.054792e+001	-2.434679e+001	-9.780559e+001	2.589292e+001	-3.231925e+001	1.433550e+002
9.990113e+006	-3.532771e+001	1.559529e+002	-3.053874e+001	-2.431984e+001	-8.796906e+001	7.121769e+001	-3.230722e+001	1.433890e+002
9.990117e+006	-3.532225e+001	1.559703e+002	-3.054896e+001	-2.434953e+001	-9.313192e+001	1.342421e+002	-3.231076e+001	1.434187e+002
9.990122e+006	-3.534517e+001	1.560904e+002	-3.058051e+001	-2.438492e+001	-1.218648e+002	-1.509675e+002	-3.232384e+001	1.433714e+002
9.990127e+006	-3.534059e+001	1.560189e+002	-3.056334e+001	-2.439351e+001	-8.637377e+001	8.648345e+001	-3.230943e+001	1.433619e+002
9.990131e+006	-3.531539e+001	1.560301e+002	-3.055723e+001	-2.446566e+001	-9.874650e+001	9.167476e+001	-3.230810e+001	1.433916e+002
9.990136e+006	-3.531801e+001	1.560704e+002	-3.056200e+001	-2.445356e+001	-9.781092e+001	2.300135e+001	-3.232106e+001	1.433656e+002
9.990141e+006	-3.533459e+001	1.561161e+002	-3.055778e+001	-2.436826e+001	-8.905949e+001	9.353881e+001	-3.232122e+001	1.433505e+002
9.990145e+006	-3.532458e+001	1.560271e+002	-3.054883e+001	-2.436923e+001	-1.052356e+002	5.873350e+001	-3.230837e+001	1.433188e+002
9.990150e+006	-3.531936e+001	1.560865e+002	-3.055465e+001	-2.446919e+001	-8.413099e+001	1.126668e+002	-3.232425e+001	1.433608e+002
9.990155e+006	-3.532804e+001	1.559732e+002	-3.056687e+001	-2.434444e+001	-9.552417e+001	-8.635441e+000	-3.232113e+001	1.433204e+002
9.990159e+006	-3.532097e+001	1.560228e+002	-3.057878e+001	-2.440674e+001	-8.984045e+001	1.394578e+002	-3.231362e+001	1.433525e+002
9.990164e+006	-3.532336e+001	1.560700e+002	-3.057466e+001	-2.448090e+001	-9.504986e+001	1.534592e+002	-3.231663e+001	1.433835e+002
9.990169e+006	-3.532059e+001	1.560121e+002	-3.057587e+001	-2.433651e+001	-1.053454e+002	-1.407524e+001	-3.230841e+001	1.433070e+002
9.990173e+006	-3.532289e+001	1.560721e+002	-3.058137e+001	-2.433095e+001	-9.061624e+001	1.143876e+002	-3.231765e+001	1.434577e+002
9.990178e+006	-3.534901e+001	1.561408e+002	-3.057167e+001	-2.437267e+001	-9.989101e+001	1.013924e+002	-3.230366e+001	1.433075e+002
9.990183e+006	-3.532800e+001	1.559790e+002	-3.057309e+001	-2.436297e+001	-9.250678e+001	7.861018e+001	-3.231341e+001	1.433301e+002
9.990188e+006	-3.531642e+001	1.560230e+002	-3.056999e+001	-2.414631e+001	-9.274601e+001	3.852024e+001	-3.231046e+001	1.432732e+002
9.990192e+006	-3.532479e+001	1.560361e+002	-3.056512e+001	-2.418625e+001	-9.168618e+001	5.629553e+001	-3.231911e+001	1.433869e+002
9.990197e+006	-3.533212e+001	1.561322e+002	-3.056330e+001	-2.419155e+001	-8.669858e+001	1.186360e+002	-3.230428e+001	1.432749e+002
9.990202e+006	-3.531968e+001	1.560539e+002	-3.054132e+001	-2.418841e+001	-9.456985e+001	5.836617e+001	-3.232528e+001	1.432614e+002
9.990206e+006	-3.532299e+001	1.561659e+002	-3.054921e+001	-2.423984e+001	-8.678588e+001	9.517888e+001	-3.232379e+001	1.432848e+002
9.990211e+006	-3.532031e+001	1.561440e+002	-3.055581e+001	-2.434139e+001	-9.236884e+001	1.161704e+002	-3.231809e+001	1.434146e+002
9.990216e+006	-3.532044e+001	1.561277e+002	-3.057321e+001	-2.436544e+001	-8.402771e+001	1.291826e+002	-3.233409e+001	1.434258e+002
9.990220e+006	-3.532727e+001	1.560930e+002	-3.056114e+001	-2.428854e+001	-9.000221e+001	1.431142e+002	-3.231609e+001	1.433542e+002
9.990225e+006	-3.532097e+001	1.560290e+002	-3.056342e+001	-2.418111e+001	-8.928491e+001	1.623078e+002	-3.231479e+001	1.434060e+002
9.990230e+006	-3.533239e+001	1.560548e+002	-3.054946e+001	-2.421382e+001	-9.214354e+001	5.909806e+001	-3.231864e+001	1.433144e+002
9.990234e+006	-3.532734e+001	1.560647e+002	-3.055002e+001	-2.426441e+001	-1.009253e+002	3.714342e+001	-3.231293e+001	1.433126e+002
9.990239e+006	-3.532032e+001	1.560522e+002	-3.056732e+001	-2.425736e+001	-8.763513e+001	1.246704e+002	-3.231269e+001	1.434076e+002
9.990244e+006	-3.532506e+001	1.560576e+002	-3.055826e+001	-2.421490e+001	-9.414068e+001	1.021232e+002	-3.232393e+001	1.434276e+002
9.990248e+006	-3.533045e+001	1.560596e+002	-3.055996e+001	-2.417315e+001	-9.455459e+001	9.104198e+001	-3.230698e+001	1.433683e+002
9.990253e+006	-3.533992e+001	1.559420e+002	-3.054183e+001	-2.423765e+001	-9.292838e+001	3.131004e+001	-3.232747e+001	1.434217e+002
9.990258e+006	-3.533441e+001	1.561735e+002	-3.056290e+001	-2.431400e+001	-8.880062e+001	1.328674e+002	-3.231023e+001	1.433764e+002
9.990263e+006	-3.532296e+001	1.559607e+002	-3.055590e+001	-2.422714e+001	-9.020659e+001	9.857670e+001	-3.231145e+001	1.433212e+002
9.990267e+006	-3.532704e+001	1.560288e+002	-3.055444e+001	-2.417141e+001	-1.002938e+002	1.374059e+002	-3.231886e+001	1.433669e+002
9.990272e+006	-3.531953e+001	1.559949e+002	-3.054678e+001	-2.422691e+001	-9.266629e+001	1.071009e+002	-3.231805e+001	1.433117e+002
9.990277e+006	-3.531860e+001	1.559907e+002	-3.055720e+001	-2.421410e+001	-9.011742e+001	6.399476e+001	-3.232178e+001	1.433198e+002
9.990281e+006	-3.532525e+001	1.560232e+002	-3.055036e+001	-2.428477e+001	-9.157740e+001	1.583808e+002	-3.232327e+001	1.432511e+002
9.990286e+006	-3.534098e+001	1.559923e+002	-3.055588e+001	-2.426376e+001	-9.469998e+001	6.686352e+001	-3.230882e+001	1.433301e+002
9.990291e+006	-3.531500e+001	1.559306e+002	-3.055260e+001	-2.427001e+001	-8.957780e+001	-1.595334e+002	-3.230848e+001	1.433973e+002
9.990295e+006	-3.531895e+001	1.559960e+002	-3.056458e+001	-2.427805e+001	-1.031536e+002	-8.373257e+001	-3.231620e+001	1.433895e+002
9.990300e+006	-3.532130e+001	1.559934e+002	-3.056184e+001	-2.417070e+001	-1.002615e+002	-1.662292e+002	-3.231667e+001	1.433136e+002
9.990305e+006	-3.531046e+001	1.560643e+002	-3.055418e+001	-2.423203e+001	-8.989653e+001	-1.028043e+002	-3.231957e+001	1.433122e+002
9.990309e+006	-3.532668e+001	1.560441e+002	-3.055803e+001	-2.429214e+001	-9.369075e+001	1.333210e+002	-3.231150e+001	1.433346e+002
9.990314e+006	-3.531995e+001	1.559923e+002	-3.056080e+001	-2.428301e+001	-9.093790e+001	1.349202e+002	-3.232205e+001	1.433908e+002
9.990319e+006	-3.532074e+001	1.560219e+002	-3.055983e+001	-2.422543e+001	-9.986263e+001	1.070652e+002	-3.231238e+001	1.434363e+002
9.990323e+006	-3.532943e+001	1.560393e+002	-3.055907e+001	-2.421426e+001	-8.696509e+001	1.311160e+002	-3.232162e+001	1.433250e+002
9.990328e+006	-3.531751e+001	1.560293e+002	-3.055930e+001	-2.424773e+001	-8.877337e+001	7.503274e+001	-3.231435e+001	1.433209e+002
9.990333e+006	-3.531032e+001	1.559668e+002	-3.055234e+001	-2.427789e+001	-8.777995e+001	-8.786665e+000	-3.230440e+001	1.433658e+002
9.990338e+006	-3.531855e+001	1.561065e+002	-3.055927e+001	-2.419364e+001	-9.091933e+001	7.475865e+001	-3.233194e+001	1.433644e+002
9.990342e+006	-3.532027e+001	1.560507e+002	-3.055643e+001	-2.424184e+001	-9.087963e+001	1.777826e+002	-3.233212e+001	1.433643e+002
9.990347e+006	-3.532958e+001	1.561109e+002	-3.055386e+001	-2.420290e+001	-9.805710e+001	4.552009e+001	-3.232634e+001	1.433681e+002
9.990352e+006	-3.531810e+001	1.560495e+002	-3.055978e+001	-2.430616e+001	-1.127241e+002	1.438626e+002	-3.230570e+001	1.433690e+002
9.990356e+006	-3.532650e+001	1.560387e+002	-3.055629e+001	-2.411349e+001	-1.010546e+002	9.604587e+001	-3.232097e+001	1.434142e+002
9.990361e+006	-3.531901e+001	1.560574e+002	-3.055858e+001	-2.414850e+001	-9.730255e+001	1.436208e+002	-3.231055e+001	1.433139e+002
9.990366e+006	-3.532500e+001	1.559899e+002	-3.056044e+001	-2.425960e+001	-8.631061e+001	9.544475e+001	-3.231395e+001	1.433361e+002
9.990370e+006	-3.533550e+001	1.560250e+002	-3.057050e+001	-2.429818e+001	-9.336636e+001	6.267011e+001	-3.232020e+001	1.433867e+002
9.990375e+006	-3.531947e+001	1.560677e+002	-3.055582e+001	-2.421032e+001	-8.894739e+001	1.269366e+002	-3.230398e+001	1.434231e+002
9.990380e+006	-3.532014e+001	1.560116e+002	-3.055130e+001	-2.429577e+001	-1.021733e+002	-2.543169e+001	-3.231724e+001	1.433931e+002
9.990384e+006	-3.531350e+001	1.559978e+002	-3.055491e+001	-2.416714e+001	-9.735242e+001	1.214854e+002	-3.231636e+001	1.434658e+002
9.990389e+006	-3.532129e+001	1.560991e+002	-3.056668e+001	-2.420171e+001	-9.114495e+001	1.519564e+002	-3.230794e+001	1.433802e+002
9.990394e+006	-3.533073e+001	1.559077e+002	-3.055696e+001	-2.421362e+001	-8.874827e+001	9.675517e+001	-3.231854e+001	1.433376e+002
9.990398e+006	-3.532746e+001	1.560789e+002	-3.055162e+001	-2.425735e+001	-8.467906e+001	1.311149e+002	-3.232267e+001	1.433625e+002
9.990403e+006	-3.532768e+001	1.559994e+002	-3.055121e+001	-2.431960e+001	-9.344708e+001	3.521140e+001	-3.231587e+001	1.433744e+002
9.990408e+006	-3.534696e+001	1.560129e+002	-3.055280e+001	-2.417360e+001	-9.086305e+001	1.133506e+002	-3.231988e+001	1.433904e+002
9.990413e+006	-3.533711e+001	1.560403e+002	-3.055438e+001	-2.426043e+001	-9.413380e+001	1.326013e+001	-3.232105e+001	1.433699e+002
9.990417e+006	-3.532514e+001	1.560515e+002	-3.056148e+001	-2.424662e+001	-9.697771e+001	6.581998e+001	-3.231934e+001	1.432989e+002
9.990422e+006	-3.533116e+001	1.559702e+002	-3.056086e+001	-2.414026e+001	-1.123634e+002	1.186322e+002	-3.231974e+001	1.433645e+002
9.990427e+006	-3.532819e+001	1.559787e+002	-3.054844e+001	-2.435005e+001	-9.078293e+001	2.179218e+001	-3.231110e+001	1.433913e+002
9.990431e+006	-3.534062e+001	1.560087e+002	-3.056357e+001	-2.423394e+001	-1.026651e+002	1.102037e+002	-3.232136e+001	1.433132e+002
9.990436e+006	-3.531827e+001	1.560162e+002	-3.055269e+001	-2.418592e+001	-8.423264e+001	4.605407e+001	-3.232790e+001	1.432817e+002
9.990441e+006	-3.530715e+001	1.560528e+002	-3.055885e+001	-2.422196e+001	-9.103340e+001	1.624828e+002	-3.231499e+001	1.433777e+002
9.990445e+006	-3.532271e+001	1.560737e+002	-3.056027e+001	-2.433680e+001	-8.883933e+001	1.133583e+002	-3.231554e+001	1.434145e+002
9.990450e+006	-3.533972e+001	1.560876e+002	-3.055355e+001	-2.419140e+001	-8.695620e+001	6.582504e+001	-3.229899e+001	1.433403e+002
9.990455e+006	-3.532984e+001	1.561640e+002	-3.055358e+001	-2.424932e+001	-8.868741e+001	1.174932e+002	-3.232306e+001	1.434118e+002
9.990459e+006	-3.533263e+001	1.560615e+002	-3.055478e+001	-2.436740e+001	-9.248850e+001	8.044346e+001	-3.232361e+001	1.433734e+002
9.990464e+006	-3.532782e+001	1.560944e+002	-3.055881e+001	-2.427698e+001	-8.809003e+001	9.344226e+001	-3.231273e+001	1.433029e+002
9.990469e+006	-3.532647e+001	1.560690e+002	-3.055291e+001	-2.427367e+001	-8.835462e+001	1.036056e+002	-3.231428e+001	1.433577e+002
9.990473e+006	-3.532415e+001	1.560907e+002	-3.056056e+001	-2.418851e+001	-9.332866e+001	9.777292e+001	-3.232518e+001	1.433953e+002
9.990478e+006	-3.533736e+001	1.560676e+002	-3.055472e+001	-2.416545e+001	-9.842117e+001	1.286679e+002	-3.231842e+001	1.434219e+002
9.990483e+006	-3.532926e+001	1.561261e+002	-3.055443e+001	-2.421884e+001	-9.914026e+001	9.389276e+001	-3.232579e+001	1.433530e+002
9.990488e+006	-3.532781e+001	1.561590e+002	-3.056243e+001	-2.426366e+001	-9.471432e+001	3.088601e+001	-3.231947e+001	1.433148e+002
9.990492e+006	-3.533706e+001	1.559587e+002	-3.055292e+001	-2.417827e+001	-9.823311e+001	-5.392948e+001	-3.231914e+001	1.433634e+002
9.990497e+006	-3.531201e+001	1.560018e+002	-3.055937e+001	-2.428477e+001	-9.347630e+001	6.669702e+001	-3.230820e+001	1.433076e+002
9.990502e+006	-3.533103e+001	1.560570e+002	-3.055266e+001	-2.423524e+001	-1.035407e+002	1.607528e+002	-3.230623e+001	1.434052e+002
9.990506e+006	-3.532920e+001	1.560257e+002	-3.053289e+001	-2.420617e+001	-9.758375e+001	1.681332e+002	-3.231725e+001	1.433722e+002
9.990511e+006	-3.532498e+001	1.559924e+002	-3.056018e+001	-2.426652e+001	-9.835708e+001	-3.856317e+001	-3.231428e+001	1.433647e+002
9.990516e+006	-3.532770e+001	1.559822e+002	-3.055228e+001	-2.419491e+001	-9.212209e+001	1.470872e+002	-3.231048e+001	1.434089e+002
9.990520e+006	-3.532112e+001	1.561587e+002	-3.057157e+001	-2.423580e+001	-9.796703e+001	-3.782338e+001	-3.232432e+001	1.433580e+002
9.990525e+006	-3.533773e+001	1.560809e+002	-3.055811e+001	-2.428361e+001	-8.415320e+001	4.365967e+001	-3.232180e+001	1.433309e+002
9.990530e+006	-3.532859e+001	1.560183e+002	-3.056602e+001	-2.425186e+001	-9.443972e+001	5.510631e+001	-3.231864e+001	1.433159e+002
9.990534e+006	-3.532290e+001	1.560431e+002	-3.054535e+001	-2.430690e+001	-9.409368e+001	1.500859e+002	-3.231974e+001	1.434425e+002
9.990539e+006	-3.533727e+001	1.560120e+002	-3.055214e+001	-2.429404e+001	-1.045588e+002	-1.414277e+002	-3.231432e+001	1.433762e+002
9.990544e+006	-3.531372e+001	1.560245e+002	-3.055075e+001	-2.415905e+001	-9.376441e+001	1.059006e+002	-3.232237e+001	1.433359e+002
9.990548e+006	-3.533297e+001	1.560472e+002	-3.054843e+001	-2.421906e+001	-9.833335e+001	3.361432e+001	-3.230734e+001	1.433935e+002
9.990553e+006	-3.532735e+001	1.559911e+002	-3.055298e+001	-2.417583e+001	-9.799323e+001	3.686015e+001	-3.231963e+001	1.433827e+002
9.990558e+006	-3.532804e+001	1.561022e+002	-3.055679e+001	-2.428041e+001	-1.092645e+002	-4.078968e-001	-3.231106e+001	1.433832e+002
9.990563e+006	-3.533081e+001	1.560418e+002	-3.055257e+001	-2.418166e+001	-9.956194e+001	4.804686e+001	-3.231664e+001	1.434370e+002
9.990567e+006	-3.532785e+001	1.560132e+002	-3.054377e+001	-2.435355e+001	-9.162031e+001	5.168295e+001	-3.231229e+001	1.434278e+002
9.990572e+006	-3.532012e+001	1.560908e+002	-3.054231e+001	-2.418901e+001	-8.982235e+001	1.578963e+002	-3.231332e+001	1.434396e+002
9.990577e+006	-3.533584e+001	1.560353e+002	-3.053857e+001	-2.430017e+001	-9.148574e+001	8.016727e+001	-3.231050e+001	1.433819e+002
9.990581e+006	-3.532144e+001	1.559786e+002	-3.056107e+001	-2.433543e+001	-9.806460e+001	-3.242501e+000	-3.231737e+001	1.434116e+002
9.990586e+006	-3.532374e+001	1.561240e+002	-3.055387e+001	-2.427229e+001	-9.775943e+001	1.606062e+001	-3.231412e+001	1.434087e+002
9.990591e+006	-3.531383e+001	1.559548e+002	-3.054387e+001	-2.418054e+001	-9.649537e+001	-1.060053e+002	-3.231233e+001	1.434240e+002
9.990595e+006	-3.532775e+001	1.560005e+002	-3.056453e+001	-2.424813e+001	-9.307232e+001	6.719723e+001	-3.230776e+001	1.433387e+002
9.990600e+006	-3.532302e+001	1.559585e+002	-3.054620e+001	-2.413010e+001	-1.072138e+002	1.626977e+001	-3.231571e+001	1.433421e+002
9.990605e+006	-3.532137e+001	1.560869e+002	-3.054821e+001	-2.422035e+001	-8.651441e+001	7.989356e+001	-3.230920e+001	1.433548e+002
9.990609e+006	-3.534179e+001	1.560342e+002	-3.054114e+001	-2.418576e+001	-8.964268e+001	7.797699e+001	-3.231407e+001	1.434059e+002
9.990614e+006	-3.533446e+001	1.560566e+002	-3.055492e+001	-2.417898e+001	-9.869504e+001	2.264165e+001	-3.230883e+001	1.433781e+002
9.990619e+006	-3.532264e+001	1.560515e+002	-3.056260e+001	-2.430176e+001	-9.176019e+001	1.053737e+002	-3.232029e+001	1.433782e+002
9.990623e+006	-3.533024e+001	1.560710e+002	-3.054478e+001	-2.420503e+001	-8.985598e+001	1.253938e+001	-3.232337e+001	1.433355e+002
9.990628e+006	-3.533889e+001	1.560759e+002	-3.055782e+001	-2.423605e+001	-9.633493e+001	1.213462e+002	-3.231753e+001	1.434152e+002
9.990633e+006	-3.532241e+001	1.560388e+002	-3.054818e+001	-2.419673e+001	-9.158837e+001	1.098350e+002	-3.230747e+001	1.433824e+002
9.990638e+006	-3.532665e+001	1.559190e+002	-3.056477e+001	-2.425295e+001	-9.796115e+001	1.103882e+002	-3.230996e+001	1.433649e+002
9.990642e+006	-3.532001e+001	1.560491e+002	-3.054469e+001	-2.426935e+001	-1.041681e+002	-9.972306e+000	-3.233128e+001	1.433514e+002
9.990647e+006	-3.533881e+001	1.559706e+002	-3.054852e+001	-2.425301e+001	-9.312372e+001	6.325495e+001	-3.232469e+001	1.433546e+002
9.990652e+006	-3.531781e+001	1.561404e+002	-3.054935e+001	-2.424051e+001	-9.417856e+001	3.751820e+001	-3.231196e+001	1.434455e+002
9.990656e+006	-3.533757e+001	1.560390e+002	-3.055470e+001	-2.419900e+001	-1.007538e+002	8.685388e+001	-3.231067e+001	1.434791e+002
9.990661e+006	-3.533381e+001	1.560145e+002	-3.054626e+001	-2.426656e+001	-1.042625e+002	5.070446e+001	-3.232224e+001	1.433244e+002
9.990666e+006	-3.530828e+001	1.560795e+002	-3.054303e+001	-2.427554e+001	-8.904268e+001	1.299906e+002	-3.230698e+001	1.434146e+002
9.990670e+006	-3.531256e+001	1.560134e+002	-3.054846e+001	-2.425429e+001	-9.341727e+001	2.870261e+001	-3.230991e+001	1.433311e+002
9.990675e+006	-3.533212e+001	1.560360e+002	-3.056136e+001	-2.418962e+001	-9.223296e+001	1.087682e+002	-3.231290e+001	1.433148e+002
9.990680e+006	-3.532869e+001	1.560974e+002	-3.054996e+001	-2.421100e+001	-9.506253e+001	1.259470e+002	-3.230943e+001	1.434160e+002
9.990684e+006	-3.531549e+001	1.560036e+002	-3.055521e+001	-2.426430e+001	-9.243878e+001	9.108090e+001	-3.230689e+001	1.433866e+002
9.990689e+006	-3.531244e+001	1.561011e+002	-3.054977e+001	-2.426342e+001	-9.641262e+001	8.732306e+001	-3.230716e+001	1.433639e+002
9.990694e+006	-3.534485e+001	1.560372e+002	-3.055114e+001	-2.420361e+001	-1.113407e+002	1.525182e+002	-3.232621e+001	1.433343e+002
9.990698e+006	-3.532458e+001	1.560836e+002	-3.055537e+001	-2.421892e+001	-1.044970e+002	-1.247922e+002	-3.232356e+001	1.434033e+002
