!CETC41,AV3656A,ZGL00048,1.3.2
!Calibration ON (Full Solt 2-Port(Omit Isolation))
!Measurements: S11 S21 S12 S22
!2025-04-18 23:01
# Hz  S  dB  R 50.000
9.990000e+006	-3.548844e+001	1.573995e+002	-3.055034e+001	-2.574538e+001	-9.723204e+001	9.530089e+001	-3.195693e+001	1.447295e+002
9.990005e+006	-3.550061e+001	1.574062e+002	-3.054895e+001	-2.582804e+001	-9.360187e+001	1.128770e+002	-3.194729e+001	1.447992e+002
9.990009e+006	-3.551251e+001	1.574150e+002	-3.053866e+001	-2.580260e+001	-8.952029e+001	6.366929e+001	-3.195597e+001	1.447059e+002
9.990014e+006	-3.549779e+001	1.573752e+002	-3.054831e+001	-2.576377e+001	-9.149834e+001	1.431284e+002	-3.195193e+001	1.447175e+002
9.990019e+006	-3.550780e+001	1.573129e+002	-3.055815e+001	-2.577802e+001	-9.044981e+001	1.054680e+002	-3.196015e+001	1.446330e+002
9.990023e+006	-3.550132e+001	1.574359e+002	-3.054451e+001	-2.575056e+001	-8.735101e+001	1.069860e+002	-3.194633e+001	1.447083e+002
9.990028e+006	-3.549922e+001	1.573776e+002	-3.054293e+001	-2.579380e+001	-9.543486e+001	-1.298547e+001	-3.195995e+001	1.447019e+002
9.990033e+006	-3.549159e+001	1.574164e+002	-3.054379e+001	-2.579076e+001	-9.993518e+001	1.229617e+002	-3.195700e+001	1.446829e+002
9.990038e+006	-3.548422e+001	1.573639e+002	-3.054073e+001	-2.579866e+001	-8.925322e+001	1.421390e+002	-3.195156e+001	1.446529e+002
9.990042e+006	-3.549639e+001	1.573467e+002	-3.055870e+001	-2.575008e+001	-9.335577e+001	-9.477540e+001	-3.195559e+001	1.446380e+002
9.990047e+006	-3.548598e+001	1.574032e+002	-3.054355e+001	-2.581781e+001	-9.122615e+001	-2.824688e+001	-3.193742e+001	1.445994e+002
9.990052e+006	-3.550228e+001	1.573773e+002	-3.054944e+001	-2.580774e+001	-8.608865e+001	1.161956e+002	-3.196580e+001	1.447017e+002
9.990056e+006	-3.548666e+001	1.573909e+002	-3.054863e+001	-2.579677e+001	-8.683453e+001	1.577931e+002	-3.195721e+001	1.446152e+002
9.990061e+006	-3.549386e+001	1.574414e+002	-3.054695e+001	-2.581646e+001	-1.010394e+002	1.429683e+002	-3.194793e+001	1.447198e+002
9.990066e+006	-3.550043e+001	1.573424e+002	-3.055820e+001	-2.581422e+001	-9.182835e+001	9.113578e+001	-3.195578e+001	1.447145e+002
9.990070e+006	-3.549128e+001	1.574127e+002	-3.055770e+001	-2.571696e+001	-9.123154e+001	-1.467395e+002	-3.194775e+001	1.446784e+002
9.990075e+006	-3.550104e+001	1.573405e+002	-3.056128e+001	-2.563303e+001	-9.881829e+001	5.881193e+001	-3.194055e+001	1.446899e+002
9.990080e+006	-3.550411e+001	1.574547e+002	-3.054965e+001	-2.576916e+001	-9.814666e+001	-1.516841e+002	-3.194835e+001	1.447366e+002
9.990084e+006	-3.549434e+001	1.574167e+002	-3.055185e+001	-2.567737e+001	-9.623894e+001	-8.596131e+000	-3.195005e+001	1.445956e+002
9.990089e+006	-3.549836e+001	1.573489e+002	-3.054842e+001	-2.574289e+001	-8.901306e+001	7.453515e+001	-3.196606e+001	1.446530e+002
9.990094e+006	-3.549738e+001	1.573190e+002	-3.054426e+001	-2.553753e+001	-1.059282e+002	-1.540528e+002	-3.196093e+001	1.447140e+002
9.990098e+006	-3.549796e+001	1.573664e+002	-3.054818e+001	-2.566076e+001	-1.059288e+002	-7.078480e+001	-3.194497e+001	1.446626e+002
9.990103e+006	-3.549530e+001	1.573743e+002	-3.052655e+001	-2.565580e+001	-9.135755e+001	1.264315e+002	-3.194535e+001	1.447699e+002
9.990108e+006	-3.550705e+001	1.574030e+002	-3.052908e+001	-2.575801e+001	-9.851024e+001	-9.011139e+000	-3.195133e+001	1.446944e+002
9.990113e+006	-3.549752e+001	1.573839e+002	-3.054298e+001	-2.570055e+001	-1.003042e+002	1.249822e+002	-3.195243e+001	1.446560e+002
9.990117e+006	-3.549537e+001	1.573618e+002	-3.054877e+001	-2.578644e+001	-1.006856e+002	3.585957e+001	-3.195578e+001	1.446937e+002
9.990122e+006	-3.550436e+001	1.574334e+002	-3.054496e+001	-2.572815e+001	-9.828257e+001	7.940338e+001	-3.195147e+001	1.446509e+002
9.990127e+006	-3.551703e+001	1.573685e+002	-3.054682e+001	-2.565023e+001	-9.297291e+001	1.383438e+001	-3.196507e+001	1.447397e+002
9.990131e+006	-3.550752e+001	1.573435e+002	-3.055564e+001	-2.564896e+001	-8.679356e+001	8.210150e+001	-3.195591e+001	1.448186e+002
9.990136e+006	-3.550586e+001	1.573812e+002	-3.054207e+001	-2.568998e+001	-1.049466e+002	-1.622809e+002	-3.194509e+001	1.446580e+002
9.990141e+006	-3.549216e+001	1.574634e+002	-3.053501e+001	-2.574765e+001	-1.020460e+002	1.941987e+001	-3.195566e+001	1.446837e+002
9.990145e+006	-3.548812e+001	1.573650e+002	-3.054637e+001	-2.576105e+001	-9.337457e+001	1.741281e+002	-3.194772e+001	1.446595e+002
9.990150e+006	-3.550630e+001	1.573083e+002	-3.055513e+001	-2.570331e+001	-8.989374e+001	1.512458e+002	-3.195506e+001	1.446348e+002
9.990155e+006	-3.551375e+001	1.572683e+002	-3.055382e+001	-2.560684e+001	-1.014810e+002	1.645958e+002	-3.195960e+001	1.446850e+002
9.990159e+006	-3.550092e+001	1.573892e+002	-3.054942e+001	-2.568006e+001	-9.396233e+001	2.407221e+001	-3.194269e+001	1.447318e+002
9.990164e+006	-3.550813e+001	1.573052e+002	-3.055000e+001	-2.569258e+001	-9.103862e+001	9.913281e+001	-3.195259e+001	1.446757e+002
9.990169e+006	-3.548936e+001	1.573040e+002	-3.053883e+001	-2.571241e+001	-8.497008e+001	5.780089e+001	-3.194471e+001	1.447059e+002
9.990173e+006	-3.550239e+001	1.573947e+002	-3.053687e+001	-2.566960e+001	-9.327488e+001	8.527035e+001	-3.194570e+001	1.446992e+002
9.990178e+006	-3.550709e+001	1.573423e+002	-3.053922e+001	-2.567888e+001	-8.902205e+001	4.329613e+001	-3.195671e+001	1.447241e+002
9.990183e+006	-3.548192e+001	1.572735e+002	-3.054012e+001	-2.572638e+001	-9.716465e+001	1.093118e+002	-3.195411e+001	1.447196e+002
9.990188e+006	-3.551306e+001	1.573377e+002	-3.053358e+001	-2.570680e+001	-9.492529e+001	6.822955e+001	-3.195163e+001	1.447507e+002
9.990192e+006	-3.549636e+001	1.573577e+002	-3.053495e+001	-2.565365e+001	-9.005404e+001	7.855236e+001	-3.195877e+001	1.447159e+002
9.990197e+006	-3.548979e+001	1.574540e+002	-3.053930e+001	-2.566722e+001	-8.818278e+001	7.645650e+001	-3.195173e+001	1.446404e+002
9.990202e+006	-3.550496e+001	1.573814e+002	-3.054049e+001	-2.575977e+001	-8.856700e+001	-1.754171e+002	-3.193610e+001	1.446477e+002
9.990206e+006	-3.549958e+001	1.573747e+002	-3.052927e+001	-2.566948e+001	-1.005778e+002	4.834816e+001	-3.195679e+001	1.446449e+002
9.990211e+006	-3.550903e+001	1.573912e+002	-3.053140e+001	-2.572679e+001	-9.543080e+001	1.280011e+002	-3.194730e+001	1.447276e+002
9.990216e+006	-3.549930e+001	1.573310e+002	-3.054050e+001	-2.562946e+001	-9.186366e+001	4.514609e+001	-3.194912e+001	1.446876e+002
9.990220e+006	-3.550165e+001	1.573853e+002	-3.054536e+001	-2.571227e+001	-9.202754e+001	6.489925e+001	-3.194774e+001	1.446987e+002
9.990225e+006	-3.550029e+001	1.573979e+002	-3.054518e+001	-2.570239e+001	-9.229284e+001	2.986164e+001	-3.195364e+001	1.447296e+002
9.990230e+006	-3.551004e+001	1.573576e+002	-3.053859e+001	-2.571923e+001	-9.590479e+001	9.177279e+001	-3.194823e+001	1.446858e+002
9.990234e+006	-3.549729e+001	1.573451e+002	-3.054503e+001	-2.569327e+001	-9.088463e+001	1.073795e+002	-3.195077e+001	1.446811e+002
9.990239e+006	-3.550435e+001	1.573684e+002	-3.055507e+001	-2.572205e+001	-9.254092e+001	1.394129e+000	-3.195033e+001	1.446990e+002
9.990244e+006	-3.549813e+001	1.574200e+002	-3.053669e+001	-2.571899e+001	-9.830220e+001	-1.575782e+002	-3.194814e+001	1.447277e+002
9.990248e+006	-3.549427e+001	1.573688e+002	-3.054184e+001	-2.568633e+001	-9.911279e+001	1.261115e+000	-3.194680e+001	1.447432e+002
9.990253e+006	-3.549743e+001	1.572727e+002	-3.054578e+001	-2.570668e+001	-9.260270e+001	1.224266e+002	-3.195605e+001	1.446964e+002
9.990258e+006	-3.548885e+001	1.573854e+002	-3.053868e+001	-2.569427e+001	-9.737034e+001	4.010573e+001	-3.194510e+001	1.447161e+002
9.990263e+006	-3.550685e+001	1.574581e+002	-3.053406e+001	-2.571578e+001	-9.535865e+001	3.488772e+001	-3.194842e+001	1.447241e+002
9.990267e+006	-3.550269e+001	1.573530e+002	-3.052918e+001	-2.567221e+001	-9.639963e+001	8.885878e+001	-3.194592e+001	1.447609e+002
9.990272e+006	-3.550040e+001	1.574469e+002	-3.053360e+001	-2.566557e+001	-9.225979e+001	-1.475355e+002	-3.195247e+001	1.446068e+002
9.990277e+006	-3.550181e+001	1.574212e+002	-3.054421e+001	-2.568931e+001	-9.040674e+001	7.794390e+001	-3.195687e+001	1.447667e+002
9.990281e+006	-3.549115e+001	1.573816e+002	-3.054346e+001	-2.568049e+001	-8.870307e+001	1.090033e+002	-3.196236e+001	1.447542e+002
9.990286e+006	-3.551509e+001	1.574312e+002	-3.053399e+001	-2.569343e+001	-8.826526e+001	5.245433e+001	-3.194124e+001	1.447291e+002
9.990291e+006	-3.551091e+001	1.574102e+002	-3.054166e+001	-2.568913e+001	-8.738906e+001	1.450003e+002	-3.195835e+001	1.446641e+002
9.990295e+006	-3.551326e+001	1.573764e+002	-3.053350e+001	-2.565741e+001	-8.855836e+001	8.016606e+001	-3.195212e+001	1.447043e+002
9.990300e+006	-3.550170e+001	1.574278e+002	-3.053796e+001	-2.564736e+001	-8.692235e+001	1.021073e+002	-3.194170e+001	1.446673e+002
9.990305e+006	-3.550226e+001	1.572802e+002	-3.055480e+001	-2.574168e+001	-1.002128e+002	1.639975e+002	-3.193728e+001	1.446829e+002
9.990309e+006	-3.550619e+001	1.574294e+002	-3.053794e+001	-2.565696e+001	-9.132058e+001	1.219467e+001	-3.194037e+001	1.446240e+002
9.990314e+006	-3.548833e+001	1.574233e+002	-3.054254e+001	-2.566982e+001	-9.874038e+001	2.307923e+001	-3.194767e+001	1.447823e+002
9.990319e+006	-3.548706e+001	1.573951e+002	-3.052957e+001	-2.569948e+001	-1.008860e+002	1.129001e+002	-3.194544e+001	1.447440e+002
9.990323e+006	-3.550006e+001	1.574514e+002	-3.054203e+001	-2.566332e+001	-9.626944e+001	1.214796e+002	-3.195473e+001	1.447688e+002
9.990328e+006	-3.551064e+001	1.573713e+002	-3.054002e+001	-2.573183e+001	-1.008734e+002	1.785834e+002	-3.194735e+001	1.447388e+002
9.990333e+006	-3.548342e+001	1.574285e+002	-3.054000e+001	-2.575868e+001	-9.126984e+001	1.689588e+002	-3.195079e+001	1.446795e+002
9.990338e+006	-3.549659e+001	1.573632e+002	-3.054048e+001	-2.571392e+001	-1.007690e+002	5.411539e+001	-3.194550e+001	1.446869e+002
9.990342e+006	-3.549566e+001	1.574242e+002	-3.053192e+001	-2.576249e+001	-8.691782e+001	4.710331e+001	-3.194760e+001	1.446322e+002
9.990347e+006	-3.551295e+001	1.573754e+002	-3.052967e+001	-2.564894e+001	-9.050045e+001	1.644980e+002	-3.195493e+001	1.446921e+002
9.990352e+006	-3.551079e+001	1.574336e+002	-3.054136e+001	-2.571095e+001	-9.159251e+001	1.733250e+002	-3.195687e+001	1.447747e+002
9.990356e+006	-3.548882e+001	1.575053e+002	-3.053788e+001	-2.567319e+001	-9.224326e+001	1.658985e+002	-3.194247e+001	1.446318e+002
9.990361e+006	-3.550816e+001	1.574321e+002	-3.054180e+001	-2.565878e+001	-9.052174e+001	1.473926e+002	-3.194938e+001	1.447142e+002
9.990366e+006	-3.546716e+001	1.573949e+002	-3.054548e+001	-2.573056e+001	-9.355132e+001	1.217292e+002	-3.195416e+001	1.446925e+002
9.990370e+006	-3.550699e+001	1.573064e+002	-3.053543e+001	-2.564870e+001	-8.996094e+001	6.519346e+001	-3.195900e+001	1.446160e+002
9.990375e+006	-3.548721e+001	1.572732e+002	-3.054541e+001	-2.570054e+001	-8.867013e+001	1.514971e+002	-3.194439e+001	1.446596e+002
9.990380e+006	-3.550532e+001	1.574569e+002	-3.054179e+001	-2.572400e+001	-9.542005e+001	9.968398e+000	-3.195527e+001	1.447136e+002
9.990384e+006	-3.549948e+001	1.574092e+002	-3.053995e+001	-2.565556e+001	-9.090395e+001	7.611331e+001	-3.194428e+001	1.447485e+002
9.990389e+006	-3.548946e+001	1.573914e+002	-3.054017e+001	-2.568633e+001	-9.006463e+001	6.672625e+001	-3.194848e+001	1.446734e+002
9.990394e+006	-3.550847e+001	1.574092e+002	-3.054071e+001	-2.568378e+001	-9.980889e+001	7.881226e+001	-3.195135e+001	1.446577e+002
9.990398e+006	-3.551937e+001	1.574553e+002	-3.054033e+001	-2.570174e+001	-9.814181e+001	-9.687526e+001	-3.194754e+001	1.447373e+002
9.990403e+006	-3.549127e+001	1.574013e+002	-3.053195e+001	-2.565669e+001	-9.605555e+001	8.837494e+001	-3.195205e+001	1.447356e+002
9.990408e+006	-3.550459e+001	1.572956e+002	-3.053554e+001	-2.564790e+001	-9.337096e+001	1.303976e+002	-3.195287e+001	1.446466e+002
9.990413e+006	-3.550667e+001	1.573666e+002	-3.053896e+001	-2.568054e+001	-9.386417e+001	1.378462e+002	-3.194733e+001	1.447032e+002
9.990417e+006	-3.550660e+001	1.574846e+002	-3.053493e+001	-2.566873e+001	-9.637651e+001	-1.189859e+002	-3.196024e+001	1.447379e+002
9.990422e+006	-3.552196e+001	1.574393e+002	-3.053274e+001	-2.565147e+001	-8.636600e+001	1.571788e+002	-3.194644e+001	1.447211e+002
9.990427e+006	-3.550535e+001	1.574317e+002	-3.053349e+001	-2.574155e+001	-9.382803e+001	6.377103e+001	-3.194539e+001	1.447095e+002
9.990431e+006	-3.549708e+001	1.573659e+002	-3.053643e+001	-2.568951e+001	-9.735373e+001	1.046620e+002	-3.195034e+001	1.446219e+002
9.990436e+006	-3.549853e+001	1.572902e+002	-3.052482e+001	-2.568513e+001	-1.057783e+002	1.089468e+002	-3.195758e+001	1.447272e+002
9.990441e+006	-3.549687e+001	1.574344e+002	-3.052904e+001	-2.580227e+001	-8.931497e+001	8.241445e+001	-3.194477e+001	1.446809e+002
9.990445e+006	-3.549702e+001	1.574296e+002	-3.052544e+001	-2.566276e+001	-9.253539e+001	-1.783027e+002	-3.194995e+001	1.447079e+002
9.990450e+006	-3.550186e+001	1.575341e+002	-3.052984e+001	-2.569056e+001	-9.130412e+001	6.842872e+001	-3.194805e+001	1.446990e+002
9.990455e+006	-3.550449e+001	1.574134e+002	-3.053503e+001	-2.567527e+001	-8.999933e+001	8.100610e+001	-3.195180e+001	1.446714e+002
9.990459e+006	-3.549810e+001	1.573318e+002	-3.054114e+001	-2.576671e+001	-9.764030e+001	2.574485e+001	-3.195593e+001	1.446958e+002
9.990464e+006	-3.549955e+001	1.574058e+002	-3.054052e+001	-2.573971e+001	-1.032295e+002	1.351089e+002	-3.195271e+001	1.446843e+002
9.990469e+006	-3.550021e+001	1.573333e+002	-3.053543e+001	-2.571648e+001	-8.977821e+001	1.388517e+002	-3.195219e+001	1.446555e+002
9.990473e+006	-3.547933e+001	1.573763e+002	-3.053446e+001	-2.575151e+001	-8.934386e+001	1.547158e+002	-3.194967e+001	1.446160e+002
9.990478e+006	-3.550570e+001	1.573007e+002	-3.053543e+001	-2.567954e+001	-9.473134e+001	-1.615272e+002	-3.195833e+001	1.447504e+002
9.990483e+006	-3.550109e+001	1.574033e+002	-3.053073e+001	-2.573011e+001	-9.023737e+001	-1.072164e+002	-3.194724e+001	1.447020e+002
9.990488e+006	-3.549973e+001	1.573395e+002	-3.053503e+001	-2.571804e+001	-9.597930e+001	1.409360e+002	-3.194370e+001	1.447462e+002
9.990492e+006	-3.549970e+001	1.573703e+002	-3.053137e+001	-2.567643e+001	-9.382180e+001	1.895897e+001	-3.194779e+001	1.446461e+002
9.990497e+006	-3.549296e+001	1.573969e+002	-3.053503e+001	-2.569139e+001	-8.778248e+001	1.008215e+002	-3.194175e+001	1.446686e+002
9.990502e+006	-3.551511e+001	1.575062e+002	-3.052930e+001	-2.569374e+001	-9.208071e+001	1.703306e+002	-3.195066e+001	1.446721e+002
9.990506e+006	-3.551647e+001	1.573918e+002	-3.052700e+001	-2.568269e+001	-8.999741e+001	2.572930e+001	-3.196115e+001	1.447285e+002
9.990511e+006	-3.551687e+001	1.575030e+002	-3.054092e+001	-2.571773e+001	-1.133851e+002	9.458833e+001	-3.195097e+001	1.447328e+002
9.990516e+006	-3.548378e+001	1.574313e+002	-3.053588e+001	-2.564505e+001	-9.760503e+001	1.090205e+002	-3.195542e+001	1.447521e+002
9.990520e+006	-3.549491e+001	1.574151e+002	-3.052686e+001	-2.572873e+001	-9.824009e+001	-3.516917e+001	-3.194465e+001	1.446980e+002
9.990525e+006	-3.550149e+001	1.574038e+002	-3.053531e+001	-2.568324e+001	-1.014695e+002	9.648486e+001	-3.194356e+001	1.447858e+002
9.990530e+006	-3.548438e+001	1.573656e+002	-3.053344e+001	-2.565894e+001	-9.616504e+001	9.833026e+000	-3.195354e+001	1.446084e+002
9.990534e+006	-3.549221e+001	1.573320e+002	-3.053991e+001	-2.563088e+001	-9.113075e+001	4.206104e+001	-3.194971e+001	1.447399e+002
9.990539e+006	-3.549805e+001	1.574207e+002	-3.052852e+001	-2.569310e+001	-9.889994e+001	-8.705927e+000	-3.194488e+001	1.447203e+002
9.990544e+006	-3.549464e+001	1.573597e+002	-3.052886e+001	-2.571329e+001	-8.776381e+001	1.000704e+002	-3.195047e+001	1.446684e+002
9.990548e+006	-3.551853e+001	1.572765e+002	-3.054524e+001	-2.563130e+001	-9.171622e+001	1.226483e+002	-3.196737e+001	1.447003e+002
9.990553e+006	-3.551111e+001	1.573391e+002	-3.053711e+001	-2.571524e+001	-9.542057e+001	-1.591794e+001	-3.195115e+001	1.447576e+002
9.990558e+006	-3.550181e+001	1.574806e+002	-3.053655e+001	-2.570836e+001	-9.951064e+001	6.292938e+001	-3.194188e+001	1.447536e+002
9.990563e+006	-3.550064e+001	1.573524e+002	-3.054176e+001	-2.570971e+001	-9.518286e+001	-1.106205e+002	-3.194846e+001	1.446658e+002
9.990567e+006	-3.550425e+001	1.573524e+002	-3.052959e+001	-2.574350e+001	-9.662077e+001	1.430843e+002	-3.195956e+001	1.447174e+002
9.990572e+006	-3.548845e+001	1.573307e+002	-3.053116e+001	-2.567317e+001	-9.215784e+001	9.030233e+001	-3.195236e+001	1.446902e+002
9.990577e+006	-3.548660e+001	1.573299e+002	-3.053543e+001	-2.569545e+001	-8.689251e+001	5.537810e+001	-3.195334e+001	1.447170e+002
9.990581e+006	-3.551410e+001	1.574157e+002	-3.053363e+001	-2.577893e+001	-9.693452e+001	5.857803e+001	-3.194196e+001	1.447143e+002
9.990586e+006	-3.551568e+001	1.574072e+002	-3.054798e+001	-2.567208e+001	-9.109516e+001	-1.486947e+002	-3.194512e+001	1.446556e+002
9.990591e+006	-3.549566e+001	1.573664e+002	-3.053087e+001	-2.573351e+001	-9.607976e+001	-9.517701e+001	-3.193928e+001	1.447467e+002
9.990595e+006	-3.549791e+001	1.573943e+002	-3.053003e+001	-2.565277e+001	-9.419863e+001	-3.522040e+001	-3.194901e+001	1.446783e+002
9.990600e+006	-3.549762e+001	1.573129e+002	-3.053249e+001	-2.565920e+001	-9.726501e+001	1.118593e+002	-3.194428e+001	1.446710e+002
9.990605e+006	-3.550268e+001	1.574844e+002	-3.053101e+001	-2.563261e+001	-8.807840e+001	1.120930e+002	-3.194580e+001	1.446402e+002
9.990609e+006	-3.549778e+001	1.573767e+002	-3.053758e+001	-2.568160e+001	-9.503883e+001	1.574911e+002	-3.195472e+001	1.446505e+002
9.990614e+006	-3.550479e+001	1.573814e+002	-3.053661e+001	-2.568249e+001	-9.461323e+001	1.012703e+002	-3.194415e+001	1.447427e+002
9.990619e+006	-3.549319e+001	1.573741e+002	-3.053017e+001	-2.574701e+001	-9.125080e+001	1.357510e+002	-3.194988e+001	1.446103e+002
9.990623e+006	-3.551440e+001	1.573792e+002	-3.053374e+001	-2.564958e+001	-9.414984e+001	7.947492e+001	-3.195049e+001	1.447255e+002
9.990628e+006	-3.550906e+001	1.574724e+002	-3.054196e+001	-2.574071e+001	-9.017846e+001	1.497035e+002	-3.194926e+001	1.447278e+002
9.990633e+006	-3.550158e+001	1.574451e+002	-3.053621e+001	-2.565050e+001	-9.104190e+001	1.542964e+002	-3.194798e+001	1.446706e+002
9.990638e+006	-3.550526e+001	1.573533e+002	-3.054396e+001	-2.568591e+001	-8.991207e+001	-1.735645e+002	-3.194566e+001	1.447289e+002
9.990642e+006	-3.550635e+001	1.574155e+002	-3.052685e+001	-2.571236e+001	-9.392566e+001	1.081549e+002	-3.195368e+001	1.447554e+002
9.990647e+006	-3.548703e+001	1.574317e+002	-3.052561e+001	-2.571525e+001	-9.641645e+001	-6.280592e+001	-3.194873e+001	1.447298e+002
9.990652e+006	-3.551667e+001	1.574226e+002	-3.051995e+001	-2.562569e+001	-8.707961e+001	1.155365e+002	-3.194299e+001	1.446207e+002
9.990656e+006	-3.550107e+001	1.573812e+002	-3.054510e+001	-2.571742e+001	-9.234559e+001	5.719093e+001	-3.195585e+001	1.447056e+002
9.990661e+006	-3.550629e+001	1.573876e+002	-3.053523e+001	-2.560179e+001	-9.228652e+001	-1.172403e+002	-3.195130e+001	1.447113e+002
9.990666e+006	-3.550737e+001	1.573960e+002	-3.053983e+001	-2.572528e+001	-8.774246e+001	1.240022e+002	-3.196168e+001	1.446697e+002
9.990670e+006	-3.548616e+001	1.574405e+002	-3.053728e+001	-2.579902e+001	-9.600915e+001	-1.727617e+002	-3.195292e+001	1.447168e+002
9.990675e+006	-3.548895e+001	1.574156e+002	-3.051670e+001	-2.570732e+001	-9.179653e+001	8.978302e+001	-3.194347e+001	1.446207e+002
9.990680e+006	-3.550172e+001	1.574422e+002	-3.053097e+001	-2.564269e+001	-9.959864e+001	-1.047591e+002	-3.194839e+001	1.446981e+002
9.990684e+006	-3.550521e+001	1.573350e+002	-3.053794e+001	-2.571001e+001	-1.055243e+002	-1.526596e+002	-3.194750e+001	1.447537e+002
9.990689e+006	-3.548985e+001	1.575030e+002	-3.053088e+001	-2.568595e+001	-1.083032e+002	-7.452452e+001	-3.194536e+001	1.446360e+002
9.990694e+006	-3.551270e+001	1.574788e+002	-3.052757e+001	-2.571949e+001	-1.041166e+002	1.325228e+002	-3.195683e+001	1.447518e+002
9.990698e+006	-3.548416e+001	1.574834e+002	-3.052158e+001	-2.568956e+001	-9.178720e+001	1.430630e+002	-3.194085e+001	1.446823e+002
