!CETC41,AV3656A,ZGL00048,1.3.2
!Calibration ON (Full Solt 2-Port(Omit Isolation))
!Measurements: S11 S21 S12 S22
!2025-04-18 23:16
# Hz  S  dB  R 50.000
9.990000e+006	-3.552541e+001	1.574599e+002	-3.054870e+001	-2.603169e+001	-9.109286e+001	1.716676e+002	-3.187559e+001	1.443271e+002
9.990005e+006	-3.551093e+001	1.574542e+002	-3.055450e+001	-2.605681e+001	-8.659252e+001	1.122633e+002	-3.186033e+001	1.443648e+002
9.990009e+006	-3.552342e+001	1.574212e+002	-3.054122e+001	-2.606310e+001	-9.057688e+001	1.272458e+002	-3.186587e+001	1.443656e+002
9.990014e+006	-3.552312e+001	1.574809e+002	-3.055590e+001	-2.604391e+001	-9.269146e+001	1.140559e+002	-3.184983e+001	1.443213e+002
9.990019e+006	-3.551893e+001	1.573997e+002	-3.054100e+001	-2.601066e+001	-9.009464e+001	2.999408e+001	-3.184993e+001	1.443399e+002
9.990023e+006	-3.553537e+001	1.575004e+002	-3.054478e+001	-2.618580e+001	-9.752824e+001	5.107391e+001	-3.186412e+001	1.443079e+002
9.990028e+006	-3.552242e+001	1.574956e+002	-3.054975e+001	-2.601837e+001	-1.049029e+002	7.999361e+001	-3.185701e+001	1.442975e+002
9.990033e+006	-3.552363e+001	1.575309e+002	-3.055014e+001	-2.611991e+001	-8.976525e+001	1.153547e+002	-3.185471e+001	1.442363e+002
9.990038e+006	-3.553164e+001	1.574894e+002	-3.054395e+001	-2.606640e+001	-8.879793e+001	1.645553e+002	-3.185307e+001	1.442653e+002
9.990042e+006	-3.552328e+001	1.574315e+002	-3.054276e+001	-2.605296e+001	-9.288576e+001	-1.552538e+002	-3.185830e+001	1.443113e+002
9.990047e+006	-3.551024e+001	1.574536e+002	-3.055055e+001	-2.609523e+001	-9.285442e+001	3.046523e-001	-3.185761e+001	1.442452e+002
9.990052e+006	-3.550772e+001	1.575447e+002	-3.054713e+001	-2.616126e+001	-1.019700e+002	1.468568e+002	-3.186179e+001	1.442916e+002
9.990056e+006	-3.551477e+001	1.574311e+002	-3.054781e+001	-2.610373e+001	-1.024297e+002	1.647638e+000	-3.185062e+001	1.442918e+002
9.990061e+006	-3.551852e+001	1.574087e+002	-3.054857e+001	-2.604640e+001	-8.675038e+001	1.227852e+002	-3.184643e+001	1.443428e+002
9.990066e+006	-3.552673e+001	1.573812e+002	-3.054811e+001	-2.595650e+001	-9.018005e+001	-5.953218e+001	-3.186367e+001	1.442938e+002
9.990070e+006	-3.552235e+001	1.574775e+002	-3.054503e+001	-2.600665e+001	-8.979503e+001	9.075357e+001	-3.185902e+001	1.443438e+002
9.990075e+006	-3.550382e+001	1.574461e+002	-3.054500e+001	-2.596851e+001	-9.458413e+001	1.100509e+002	-3.185302e+001	1.442302e+002
9.990080e+006	-3.551970e+001	1.574306e+002	-3.053705e+001	-2.599927e+001	-1.004402e+002	-1.606263e+002	-3.186005e+001	1.443269e+002
9.990084e+006	-3.552972e+001	1.575052e+002	-3.053542e+001	-2.603909e+001	-8.827953e+001	-1.082664e+002	-3.187136e+001	1.443164e+002
9.990089e+006	-3.552220e+001	1.574195e+002	-3.054613e+001	-2.602351e+001	-9.397511e+001	-1.301579e+002	-3.185579e+001	1.442829e+002
9.990094e+006	-3.551394e+001	1.574378e+002	-3.054762e+001	-2.603360e+001	-1.079102e+002	1.594084e+002	-3.185483e+001	1.442896e+002
9.990098e+006	-3.551633e+001	1.573259e+002	-3.055156e+001	-2.605031e+001	-9.197735e+001	8.230118e+001	-3.184850e+001	1.443439e+002
9.990103e+006	-3.553947e+001	1.574573e+002	-3.054221e+001	-2.599399e+001	-1.015408e+002	-9.757720e+001	-3.185509e+001	1.442768e+002
9.990108e+006	-3.551189e+001	1.574320e+002	-3.054505e+001	-2.600752e+001	-9.119342e+001	1.359125e+002	-3.185746e+001	1.442979e+002
9.990113e+006	-3.551399e+001	1.575412e+002	-3.053559e+001	-2.606410e+001	-1.038825e+002	-6.221465e+001	-3.186292e+001	1.442818e+002
9.990117e+006	-3.551255e+001	1.574147e+002	-3.053083e+001	-2.602224e+001	-8.579883e+001	5.020048e+001	-3.186140e+001	1.443142e+002
9.990122e+006	-3.551885e+001	1.574124e+002	-3.054552e+001	-2.606491e+001	-9.709813e+001	-3.816725e+001	-3.185131e+001	1.443397e+002
9.990127e+006	-3.551999e+001	1.574895e+002	-3.054963e+001	-2.603502e+001	-9.855287e+001	-9.258442e+001	-3.185575e+001	1.442458e+002
9.990131e+006	-3.552165e+001	1.575079e+002	-3.055144e+001	-2.601865e+001	-9.251497e+001	1.200899e+002	-3.184274e+001	1.442827e+002
9.990136e+006	-3.551907e+001	1.574637e+002	-3.054181e+001	-2.603787e+001	-8.979951e+001	5.258407e+001	-3.185834e+001	1.443237e+002
9.990141e+006	-3.552650e+001	1.574606e+002	-3.054398e+001	-2.603867e+001	-8.655323e+001	3.377348e+001	-3.186740e+001	1.443438e+002
9.990145e+006	-3.551627e+001	1.575431e+002	-3.053517e+001	-2.597828e+001	-1.017231e+002	-2.649471e+001	-3.184970e+001	1.442452e+002
9.990150e+006	-3.550213e+001	1.574740e+002	-3.053673e+001	-2.598733e+001	-9.424037e+001	7.854178e+001	-3.185394e+001	1.442880e+002
9.990155e+006	-3.550808e+001	1.574601e+002	-3.055118e+001	-2.603258e+001	-9.411840e+001	-1.735772e+002	-3.186301e+001	1.443240e+002
9.990159e+006	-3.551864e+001	1.575153e+002	-3.053790e+001	-2.604901e+001	-1.008662e+002	-6.411843e+001	-3.185244e+001	1.443137e+002
9.990164e+006	-3.552640e+001	1.574893e+002	-3.054794e+001	-2.594507e+001	-9.847671e+001	-8.882913e+001	-3.185344e+001	1.442737e+002
9.990169e+006	-3.551916e+001	1.574746e+002	-3.053224e+001	-2.604900e+001	-9.150086e+001	8.000664e+001	-3.186509e+001	1.443118e+002
9.990173e+006	-3.552219e+001	1.574788e+002	-3.053579e+001	-2.603287e+001	-9.369457e+001	4.838081e+001	-3.185875e+001	1.443359e+002
9.990178e+006	-3.552501e+001	1.574584e+002	-3.053605e+001	-2.599039e+001	-9.369182e+001	-1.446527e+002	-3.184909e+001	1.443737e+002
9.990183e+006	-3.552987e+001	1.574942e+002	-3.053081e+001	-2.601994e+001	-9.092992e+001	8.224250e+001	-3.185822e+001	1.443695e+002
9.990188e+006	-3.551224e+001	1.574900e+002	-3.053644e+001	-2.609661e+001	-1.029483e+002	-1.699307e+002	-3.185255e+001	1.442911e+002
9.990192e+006	-3.550647e+001	1.574173e+002	-3.054769e+001	-2.605791e+001	-8.946897e+001	1.766478e+002	-3.186262e+001	1.442791e+002
9.990197e+006	-3.551814e+001	1.574316e+002	-3.054032e+001	-2.603898e+001	-9.542554e+001	8.092070e+000	-3.185812e+001	1.443098e+002
9.990202e+006	-3.551467e+001	1.575017e+002	-3.053737e+001	-2.604730e+001	-9.087406e+001	8.165191e+001	-3.185979e+001	1.442639e+002
9.990206e+006	-3.552368e+001	1.574355e+002	-3.053921e+001	-2.600514e+001	-8.654890e+001	1.386160e+002	-3.186777e+001	1.442967e+002
9.990211e+006	-3.552383e+001	1.574974e+002	-3.054003e+001	-2.604404e+001	-9.125986e+001	8.425795e+001	-3.185060e+001	1.443073e+002
9.990216e+006	-3.553026e+001	1.574807e+002	-3.053887e+001	-2.599838e+001	-8.376057e+001	1.140329e+002	-3.185794e+001	1.443400e+002
9.990220e+006	-3.553109e+001	1.574677e+002	-3.052953e+001	-2.604533e+001	-9.730146e+001	5.840720e+001	-3.185972e+001	1.443036e+002
9.990225e+006	-3.551561e+001	1.575135e+002	-3.052947e+001	-2.605440e+001	-1.044066e+002	1.398173e+002	-3.185814e+001	1.443121e+002
9.990230e+006	-3.552834e+001	1.574812e+002	-3.053906e+001	-2.602925e+001	-9.343635e+001	1.008976e+002	-3.185701e+001	1.442629e+002
9.990234e+006	-3.551978e+001	1.575475e+002	-3.054731e+001	-2.606317e+001	-9.377002e+001	-1.269665e+002	-3.185962e+001	1.443120e+002
9.990239e+006	-3.552605e+001	1.575586e+002	-3.053259e+001	-2.600955e+001	-1.027819e+002	9.879160e+001	-3.185650e+001	1.442920e+002
9.990244e+006	-3.552754e+001	1.574176e+002	-3.053334e+001	-2.604203e+001	-9.516949e+001	1.289210e+002	-3.185408e+001	1.442400e+002
9.990248e+006	-3.553231e+001	1.574648e+002	-3.052921e+001	-2.598871e+001	-9.438728e+001	1.242447e+002	-3.185372e+001	1.443310e+002
9.990253e+006	-3.552738e+001	1.574481e+002	-3.054387e+001	-2.604057e+001	-9.395263e+001	1.150471e+002	-3.185590e+001	1.442931e+002
9.990258e+006	-3.551215e+001	1.573918e+002	-3.054337e+001	-2.597294e+001	-8.988244e+001	-1.728126e+002	-3.184940e+001	1.443216e+002
9.990263e+006	-3.552930e+001	1.573198e+002	-3.053207e+001	-2.602801e+001	-8.885379e+001	3.235327e+001	-3.186434e+001	1.443257e+002
9.990267e+006	-3.551237e+001	1.575121e+002	-3.053586e+001	-2.605511e+001	-9.061146e+001	1.032314e+002	-3.184423e+001	1.442812e+002
9.990272e+006	-3.549914e+001	1.574440e+002	-3.054094e+001	-2.611494e+001	-9.017727e+001	1.521852e+002	-3.187162e+001	1.443134e+002
9.990277e+006	-3.551083e+001	1.574206e+002	-3.052940e+001	-2.605714e+001	-9.215559e+001	1.110873e+002	-3.185996e+001	1.442904e+002
9.990281e+006	-3.551820e+001	1.574103e+002	-3.052783e+001	-2.598435e+001	-8.521958e+001	1.413652e+002	-3.183703e+001	1.442897e+002
9.990286e+006	-3.551938e+001	1.574868e+002	-3.053208e+001	-2.601819e+001	-9.572946e+001	1.415157e+002	-3.185329e+001	1.442646e+002
9.990291e+006	-3.552131e+001	1.574366e+002	-3.054432e+001	-2.600424e+001	-1.000600e+002	-7.453609e+001	-3.185703e+001	1.442786e+002
9.990295e+006	-3.551651e+001	1.574280e+002	-3.053644e+001	-2.605279e+001	-9.220253e+001	-8.447856e+001	-3.185191e+001	1.442744e+002
9.990300e+006	-3.551939e+001	1.573871e+002	-3.053147e+001	-2.603931e+001	-9.542302e+001	-1.548199e+002	-3.185592e+001	1.442574e+002
9.990305e+006	-3.551846e+001	1.575121e+002	-3.054108e+001	-2.604284e+001	-8.852240e+001	7.733168e+001	-3.185873e+001	1.442901e+002
9.990309e+006	-3.551448e+001	1.573867e+002	-3.052737e+001	-2.607198e+001	-9.130524e+001	7.695753e+001	-3.186105e+001	1.442992e+002
9.990314e+006	-3.551826e+001	1.573565e+002	-3.053972e+001	-2.604472e+001	-9.030280e+001	-1.643364e+002	-3.185004e+001	1.442936e+002
9.990319e+006	-3.552440e+001	1.574729e+002	-3.053257e+001	-2.603154e+001	-9.102364e+001	1.259932e+002	-3.185938e+001	1.443053e+002
9.990323e+006	-3.552025e+001	1.575270e+002	-3.053233e+001	-2.596937e+001	-8.848185e+001	8.187531e+001	-3.186089e+001	1.442802e+002
9.990328e+006	-3.551994e+001	1.573939e+002	-3.053909e+001	-2.602618e+001	-9.560795e+001	5.419080e+000	-3.184960e+001	1.442532e+002
9.990333e+006	-3.552658e+001	1.574470e+002	-3.053992e+001	-2.602875e+001	-9.519134e+001	1.185816e+002	-3.185613e+001	1.442738e+002
9.990338e+006	-3.550210e+001	1.575322e+002	-3.052867e+001	-2.598716e+001	-9.434284e+001	9.894180e+001	-3.185354e+001	1.442471e+002
9.990342e+006	-3.552096e+001	1.574212e+002	-3.054225e+001	-2.607924e+001	-9.893087e+001	7.766125e+001	-3.185590e+001	1.442543e+002
9.990347e+006	-3.552916e+001	1.574558e+002	-3.053287e+001	-2.595828e+001	-8.818759e+001	1.505090e+002	-3.186364e+001	1.443091e+002
9.990352e+006	-3.549727e+001	1.574535e+002	-3.053280e+001	-2.601983e+001	-9.145553e+001	1.378871e+002	-3.184651e+001	1.443090e+002
9.990356e+006	-3.553207e+001	1.575013e+002	-3.052282e+001	-2.602294e+001	-8.952068e+001	-1.622643e+002	-3.184623e+001	1.443604e+002
9.990361e+006	-3.552142e+001	1.574495e+002	-3.053889e+001	-2.601302e+001	-9.446599e+001	-5.567998e+001	-3.185259e+001	1.442839e+002
9.990366e+006	-3.552046e+001	1.574648e+002	-3.053531e+001	-2.606831e+001	-9.549933e+001	5.858754e+001	-3.184386e+001	1.443465e+002
9.990370e+006	-3.552408e+001	1.574699e+002	-3.053023e+001	-2.604401e+001	-1.064118e+002	1.796882e+002	-3.185300e+001	1.443086e+002
9.990375e+006	-3.552077e+001	1.573954e+002	-3.053061e+001	-2.601330e+001	-9.694465e+001	1.167482e+002	-3.186099e+001	1.443306e+002
9.990380e+006	-3.551933e+001	1.574324e+002	-3.053088e+001	-2.598548e+001	-8.936425e+001	7.516068e+001	-3.186372e+001	1.443393e+002
9.990384e+006	-3.551030e+001	1.574018e+002	-3.054225e+001	-2.600126e+001	-9.783151e+001	1.278840e+002	-3.186736e+001	1.443082e+002
9.990389e+006	-3.550483e+001	1.574489e+002	-3.053601e+001	-2.600746e+001	-9.183130e+001	1.043734e+002	-3.185659e+001	1.443299e+002
9.990394e+006	-3.551729e+001	1.574662e+002	-3.053844e+001	-2.599479e+001	-9.347778e+001	1.659735e+002	-3.186959e+001	1.443003e+002
9.990398e+006	-3.550773e+001	1.574396e+002	-3.053676e+001	-2.604190e+001	-9.628428e+001	1.595558e+002	-3.185851e+001	1.443075e+002
9.990403e+006	-3.552589e+001	1.574031e+002	-3.052761e+001	-2.599791e+001	-9.665125e+001	1.354576e+002	-3.185220e+001	1.442882e+002
9.990408e+006	-3.550664e+001	1.573651e+002	-3.054021e+001	-2.600646e+001	-9.214587e+001	1.042519e+002	-3.186155e+001	1.442606e+002
9.990413e+006	-3.552153e+001	1.575001e+002	-3.052763e+001	-2.600073e+001	-9.094461e+001	-1.775785e+002	-3.185734e+001	1.442910e+002
9.990417e+006	-3.552103e+001	1.574820e+002	-3.053144e+001	-2.598403e+001	-9.000719e+001	8.980106e+001	-3.185726e+001	1.442772e+002
9.990422e+006	-3.551891e+001	1.574561e+002	-3.053043e+001	-2.601292e+001	-8.897128e+001	9.639157e+001	-3.186390e+001	1.442812e+002
9.990427e+006	-3.552381e+001	1.575229e+002	-3.053247e+001	-2.608273e+001	-8.916265e+001	7.305287e+001	-3.185607e+001	1.442346e+002
9.990431e+006	-3.551475e+001	1.574917e+002	-3.053087e+001	-2.606787e+001	-9.198601e+001	7.176242e+001	-3.186299e+001	1.442972e+002
9.990436e+006	-3.551399e+001	1.575353e+002	-3.054476e+001	-2.607426e+001	-9.250532e+001	1.665129e+002	-3.187280e+001	1.442723e+002
9.990441e+006	-3.551674e+001	1.575078e+002	-3.053940e+001	-2.603389e+001	-9.123096e+001	1.101127e+002	-3.186593e+001	1.442446e+002
9.990445e+006	-3.552531e+001	1.574356e+002	-3.052741e+001	-2.605487e+001	-8.815525e+001	1.398749e+002	-3.184691e+001	1.442812e+002
9.990450e+006	-3.552040e+001	1.574647e+002	-3.052808e+001	-2.599114e+001	-1.001381e+002	4.562022e+001	-3.185524e+001	1.443501e+002
9.990455e+006	-3.552542e+001	1.574128e+002	-3.053195e+001	-2.597596e+001	-1.023172e+002	-2.526918e+001	-3.185231e+001	1.443267e+002
9.990459e+006	-3.552906e+001	1.574239e+002	-3.053608e+001	-2.606313e+001	-9.336989e+001	-1.630055e+002	-3.186084e+001	1.442502e+002
9.990464e+006	-3.552288e+001	1.574910e+002	-3.053504e+001	-2.595532e+001	-9.265922e+001	-9.263494e+001	-3.186590e+001	1.443226e+002
9.990469e+006	-3.552169e+001	1.574246e+002	-3.053745e+001	-2.602709e+001	-8.776642e+001	-1.726633e+002	-3.185072e+001	1.443174e+002
9.990473e+006	-3.551235e+001	1.573990e+002	-3.053350e+001	-2.602202e+001	-9.746841e+001	1.265588e+002	-3.185473e+001	1.443111e+002
9.990478e+006	-3.552543e+001	1.574770e+002	-3.054104e+001	-2.595500e+001	-8.994476e+001	8.091141e+001	-3.185981e+001	1.443095e+002
9.990483e+006	-3.553119e+001	1.573837e+002	-3.053784e+001	-2.602343e+001	-8.703682e+001	1.566627e+002	-3.185612e+001	1.443034e+002
9.990488e+006	-3.550546e+001	1.573938e+002	-3.053614e+001	-2.600370e+001	-9.651200e+001	1.052352e+002	-3.187030e+001	1.442440e+002
9.990492e+006	-3.553266e+001	1.574941e+002	-3.052716e+001	-2.608007e+001	-9.253106e+001	1.437571e+002	-3.186162e+001	1.443225e+002
9.990497e+006	-3.552197e+001	1.574541e+002	-3.053689e+001	-2.604525e+001	-9.103193e+001	-2.658195e+001	-3.185001e+001	1.443302e+002
9.990502e+006	-3.551461e+001	1.574186e+002	-3.053144e+001	-2.600911e+001	-9.040001e+001	8.914276e+001	-3.184886e+001	1.443435e+002
9.990506e+006	-3.551228e+001	1.574575e+002	-3.053157e+001	-2.607893e+001	-1.032814e+002	9.406488e+001	-3.185875e+001	1.443042e+002
9.990511e+006	-3.552313e+001	1.575038e+002	-3.054144e+001	-2.600576e+001	-8.941811e+001	-1.620748e+002	-3.185682e+001	1.443003e+002
9.990516e+006	-3.551970e+001	1.574687e+002	-3.053701e+001	-2.614252e+001	-8.985432e+001	9.657064e+001	-3.184902e+001	1.442954e+002
9.990520e+006	-3.552221e+001	1.574733e+002	-3.051738e+001	-2.605435e+001	-8.740163e+001	8.542625e+001	-3.186109e+001	1.442241e+002
9.990525e+006	-3.552970e+001	1.574839e+002	-3.052729e+001	-2.600079e+001	-9.138745e+001	9.056900e+001	-3.186452e+001	1.442942e+002
9.990530e+006	-3.551860e+001	1.574414e+002	-3.052596e+001	-2.596606e+001	-9.298660e+001	1.763524e+002	-3.186216e+001	1.442603e+002
9.990534e+006	-3.553241e+001	1.574549e+002	-3.053056e+001	-2.600229e+001	-9.130966e+001	1.642379e+002	-3.185399e+001	1.443363e+002
9.990539e+006	-3.551901e+001	1.574900e+002	-3.052982e+001	-2.604050e+001	-1.021689e+002	7.950053e+001	-3.185613e+001	1.442735e+002
9.990544e+006	-3.551320e+001	1.573988e+002	-3.053036e+001	-2.600505e+001	-9.468340e+001	6.157554e+001	-3.185116e+001	1.442588e+002
9.990548e+006	-3.552194e+001	1.574482e+002	-3.053123e+001	-2.602131e+001	-9.103743e+001	1.014830e+002	-3.185500e+001	1.442997e+002
9.990553e+006	-3.551980e+001	1.574660e+002	-3.053004e+001	-2.604363e+001	-9.364769e+001	1.234802e+002	-3.185792e+001	1.443006e+002
9.990558e+006	-3.551983e+001	1.573733e+002	-3.053976e+001	-2.605938e+001	-9.624901e+001	-7.615411e+001	-3.185219e+001	1.442892e+002
9.990563e+006	-3.551847e+001	1.575342e+002	-3.053157e+001	-2.605773e+001	-9.430792e+001	5.326026e+001	-3.186510e+001	1.442482e+002
9.990567e+006	-3.552204e+001	1.573720e+002	-3.052484e+001	-2.607925e+001	-9.102470e+001	7.634622e+001	-3.184948e+001	1.442820e+002
9.990572e+006	-3.552258e+001	1.575433e+002	-3.053449e+001	-2.601157e+001	-9.035456e+001	6.520219e+001	-3.185884e+001	1.444104e+002
9.990577e+006	-3.552003e+001	1.574712e+002	-3.053381e+001	-2.599252e+001	-9.232878e+001	1.617775e+002	-3.185751e+001	1.443014e+002
9.990581e+006	-3.550400e+001	1.574788e+002	-3.054356e+001	-2.598068e+001	-8.672752e+001	1.187096e+002	-3.186138e+001	1.442709e+002
9.990586e+006	-3.552182e+001	1.574724e+002	-3.053582e+001	-2.605795e+001	-1.003263e+002	-7.885516e+001	-3.185108e+001	1.443682e+002
9.990591e+006	-3.551639e+001	1.574378e+002	-3.054082e+001	-2.607201e+001	-8.913112e+001	6.216406e+001	-3.184527e+001	1.443301e+002
9.990595e+006	-3.551429e+001	1.575526e+002	-3.053169e+001	-2.596044e+001	-1.022864e+002	-7.195997e+001	-3.187187e+001	1.443272e+002
9.990600e+006	-3.551732e+001	1.574820e+002	-3.053479e+001	-2.600831e+001	-9.407584e+001	-1.393991e+001	-3.185664e+001	1.442974e+002
9.990605e+006	-3.553736e+001	1.574483e+002	-3.053838e+001	-2.607618e+001	-9.173822e+001	9.443135e+000	-3.185025e+001	1.443324e+002
9.990609e+006	-3.552989e+001	1.574808e+002	-3.052294e+001	-2.603916e+001	-9.212759e+001	7.666372e+001	-3.184730e+001	1.443313e+002
9.990614e+006	-3.552439e+001	1.574455e+002	-3.053299e+001	-2.612474e+001	-8.741779e+001	5.182180e+001	-3.186269e+001	1.443111e+002
9.990619e+006	-3.551983e+001	1.574664e+002	-3.053243e+001	-2.595435e+001	-9.384792e+001	-2.840827e+001	-3.185068e+001	1.443251e+002
9.990623e+006	-3.552970e+001	1.573534e+002	-3.053407e+001	-2.598548e+001	-9.359192e+001	1.332478e+002	-3.185863e+001	1.442092e+002
9.990628e+006	-3.551750e+001	1.574400e+002	-3.053549e+001	-2.602059e+001	-9.428752e+001	7.833750e+001	-3.185979e+001	1.442732e+002
9.990633e+006	-3.550366e+001	1.573205e+002	-3.052033e+001	-2.597483e+001	-8.543071e+001	1.434739e+002	-3.185752e+001	1.443292e+002
9.990638e+006	-3.552662e+001	1.574809e+002	-3.053439e+001	-2.593990e+001	-9.822173e+001	1.151217e+002	-3.185259e+001	1.442492e+002
9.990642e+006	-3.551381e+001	1.574536e+002	-3.054037e+001	-2.603979e+001	-9.573504e+001	9.876691e+001	-3.184441e+001	1.443049e+002
9.990647e+006	-3.551610e+001	1.574344e+002	-3.054027e+001	-2.607864e+001	-9.509400e+001	1.033052e+002	-3.185326e+001	1.443186e+002
9.990652e+006	-3.552602e+001	1.574171e+002	-3.052743e+001	-2.608004e+001	-1.085147e+002	-9.333026e+001	-3.185364e+001	1.442841e+002
9.990656e+006	-3.552271e+001	1.574559e+002	-3.053016e+001	-2.587549e+001	-9.688401e+001	-1.412585e+002	-3.186387e+001	1.443112e+002
9.990661e+006	-3.553085e+001	1.573505e+002	-3.053257e+001	-2.607656e+001	-9.563624e+001	1.694303e+002	-3.186208e+001	1.443434e+002
9.990666e+006	-3.553232e+001	1.575353e+002	-3.053135e+001	-2.613397e+001	-9.419882e+001	1.344253e+002	-3.185595e+001	1.443568e+002
9.990670e+006	-3.552620e+001	1.574872e+002	-3.052023e+001	-2.590642e+001	-9.488332e+001	-1.496726e+002	-3.186418e+001	1.442500e+002
9.990675e+006	-3.552282e+001	1.574592e+002	-3.054448e+001	-2.607291e+001	-9.989864e+001	8.379459e+001	-3.186021e+001	1.442898e+002
9.990680e+006	-3.552823e+001	1.575117e+002	-3.053472e+001	-2.611114e+001	-9.522821e+001	1.081202e+002	-3.186190e+001	1.443151e+002
9.990684e+006	-3.553503e+001	1.575033e+002	-3.052969e+001	-2.590893e+001	-9.479356e+001	-1.207467e+002	-3.185561e+001	1.443195e+002
9.990689e+006	-3.551767e+001	1.574017e+002	-3.055133e+001	-2.606747e+001	-9.136593e+001	1.732726e+002	-3.185139e+001	1.443151e+002
9.990694e+006	-3.552228e+001	1.573839e+002	-3.053356e+001	-2.619686e+001	-9.288681e+001	1.531961e+002	-3.185818e+001	1.442646e+002
9.990698e+006	-3.551326e+001	1.574625e+002	-3.052256e+001	-2.615006e+001	-8.899744e+001	-1.124567e+001	-3.185773e+001	1.443401e+002
