!CETC41,AV3656A,ZGL00048,1.3.2
!Calibration ON (Full Solt 2-Port(Omit Isolation))
!Measurements: S11 S21 S12 S22
!2025-04-29 17:54
# Hz  S  dB  R 50.000
9.990000e+006	-4.306591e+001	-7.758267e+001	-3.068135e+001	-1.942295e+001	-8.745234e+001	1.074277e+002	-4.783827e+001	1.155321e+002
9.990005e+006	-4.304729e+001	-7.759485e+001	-3.067455e+001	-1.952852e+001	-9.328504e+001	-1.460819e+002	-4.768907e+001	1.157244e+002
9.990009e+006	-4.306578e+001	-7.761237e+001	-3.066884e+001	-1.952329e+001	-9.460158e+001	-1.665637e+002	-4.784921e+001	1.158747e+002
9.990014e+006	-4.306587e+001	-7.785382e+001	-3.066649e+001	-1.948046e+001	-8.936923e+001	1.503751e+002	-4.784386e+001	1.162644e+002
9.990019e+006	-4.307059e+001	-7.785349e+001	-3.066396e+001	-1.942340e+001	-9.373555e+001	-1.626926e+002	-4.781656e+001	1.158599e+002
9.990023e+006	-4.306969e+001	-7.780794e+001	-3.066070e+001	-1.944681e+001	-1.010780e+002	1.359634e+002	-4.796639e+001	1.161892e+002
9.990028e+006	-4.304804e+001	-7.767881e+001	-3.066782e+001	-1.936268e+001	-9.504281e+001	-4.921608e+000	-4.793044e+001	1.157651e+002
9.990033e+006	-4.304773e+001	-7.760765e+001	-3.066648e+001	-1.939311e+001	-1.106969e+002	-1.715868e+002	-4.788633e+001	1.157197e+002
9.990038e+006	-4.306705e+001	-7.753139e+001	-3.066878e+001	-1.946651e+001	-9.545002e+001	5.224041e+001	-4.787229e+001	1.153657e+002
9.990042e+006	-4.311585e+001	-7.774881e+001	-3.067237e+001	-1.945303e+001	-9.117937e+001	1.116490e+002	-4.782338e+001	1.157770e+002
9.990047e+006	-4.308354e+001	-7.751032e+001	-3.067531e+001	-1.947863e+001	-9.617263e+001	-9.741621e+001	-4.782634e+001	1.157525e+002
9.990052e+006	-4.309382e+001	-7.746856e+001	-3.067095e+001	-1.944577e+001	-9.379448e+001	4.864368e+001	-4.777214e+001	1.156959e+002
9.990056e+006	-4.304226e+001	-7.757758e+001	-3.066733e+001	-1.948707e+001	-1.044828e+002	-1.690056e+002	-4.788396e+001	1.153602e+002
9.990061e+006	-4.303928e+001	-7.739658e+001	-3.066547e+001	-1.945476e+001	-9.515814e+001	1.508645e+001	-4.780200e+001	1.157569e+002
9.990066e+006	-4.307285e+001	-7.766025e+001	-3.066873e+001	-1.948937e+001	-9.561156e+001	1.404008e+002	-4.774035e+001	1.156441e+002
9.990070e+006	-4.308155e+001	-7.763137e+001	-3.066344e+001	-1.950080e+001	-9.241234e+001	7.761528e+001	-4.781631e+001	1.153729e+002
9.990075e+006	-4.304314e+001	-7.764833e+001	-3.065848e+001	-1.951170e+001	-9.658684e+001	4.995437e+001	-4.778823e+001	1.158628e+002
9.990080e+006	-4.306027e+001	-7.756224e+001	-3.065728e+001	-1.954366e+001	-9.662693e+001	3.773607e+001	-4.775070e+001	1.156767e+002
9.990084e+006	-4.308479e+001	-7.770144e+001	-3.065852e+001	-1.952416e+001	-9.845152e+001	6.888243e+001	-4.785982e+001	1.154770e+002
9.990089e+006	-4.306857e+001	-7.754314e+001	-3.066115e+001	-1.960393e+001	-1.033382e+002	-9.690732e+001	-4.778475e+001	1.156205e+002
9.990094e+006	-4.305914e+001	-7.749010e+001	-3.067207e+001	-1.950968e+001	-1.085896e+002	-1.029428e+002	-4.782267e+001	1.158348e+002
9.990098e+006	-4.305653e+001	-7.731478e+001	-3.066505e+001	-1.954504e+001	-9.650841e+001	1.259588e+002	-4.790056e+001	1.157716e+002
9.990103e+006	-4.304797e+001	-7.746518e+001	-3.066158e+001	-1.958008e+001	-9.220715e+001	1.140593e+002	-4.784430e+001	1.150259e+002
9.990108e+006	-4.304023e+001	-7.750525e+001	-3.064699e+001	-1.958747e+001	-9.860070e+001	5.154355e+001	-4.784444e+001	1.156415e+002
9.990113e+006	-4.306814e+001	-7.775851e+001	-3.065555e+001	-1.956246e+001	-8.583661e+001	5.419529e+001	-4.782554e+001	1.160559e+002
9.990117e+006	-4.309018e+001	-7.763656e+001	-3.066102e+001	-1.959240e+001	-9.094878e+001	4.808426e+001	-4.789334e+001	1.157941e+002
9.990122e+006	-4.308033e+001	-7.737140e+001	-3.065804e+001	-1.960428e+001	-8.797094e+001	1.329722e+002	-4.791895e+001	1.159270e+002
9.990127e+006	-4.306615e+001	-7.779691e+001	-3.068330e+001	-1.952072e+001	-9.480634e+001	7.370534e+001	-4.787769e+001	1.158891e+002
9.990131e+006	-4.306365e+001	-7.722905e+001	-3.067075e+001	-1.963240e+001	-9.051277e+001	9.276982e+001	-4.784861e+001	1.160278e+002
9.990136e+006	-4.304515e+001	-7.759791e+001	-3.068508e+001	-1.950677e+001	-9.469415e+001	-1.186581e+002	-4.786154e+001	1.159340e+002
9.990141e+006	-4.309087e+001	-7.768836e+001	-3.068393e+001	-1.952917e+001	-9.103298e+001	1.289356e+002	-4.793447e+001	1.157774e+002
9.990145e+006	-4.306225e+001	-7.773998e+001	-3.068213e+001	-1.951422e+001	-9.221759e+001	1.529250e+002	-4.784495e+001	1.160660e+002
9.990150e+006	-4.306339e+001	-7.744803e+001	-3.068061e+001	-1.956297e+001	-9.538135e+001	1.592221e+002	-4.787792e+001	1.160327e+002
9.990155e+006	-4.302764e+001	-7.771585e+001	-3.069192e+001	-1.956867e+001	-9.867819e+001	3.529350e+001	-4.783510e+001	1.158250e+002
9.990159e+006	-4.308627e+001	-7.769564e+001	-3.067511e+001	-1.958216e+001	-8.840862e+001	1.165108e+002	-4.783607e+001	1.159005e+002
9.990164e+006	-4.305286e+001	-7.779542e+001	-3.067910e+001	-1.960200e+001	-9.919725e+001	8.191349e+001	-4.786387e+001	1.158615e+002
9.990169e+006	-4.311564e+001	-7.754239e+001	-3.069094e+001	-1.958472e+001	-8.906892e+001	1.329178e+002	-4.794305e+001	1.158238e+002
9.990173e+006	-4.306729e+001	-7.754385e+001	-3.068522e+001	-1.947760e+001	-9.725177e+001	6.136066e+001	-4.782993e+001	1.156841e+002
9.990178e+006	-4.306627e+001	-7.731387e+001	-3.067807e+001	-1.944709e+001	-8.977140e+001	8.909951e+001	-4.783456e+001	1.158379e+002
9.990183e+006	-4.308062e+001	-7.771423e+001	-3.067534e+001	-1.942180e+001	-9.345688e+001	1.059810e+002	-4.786767e+001	1.161857e+002
9.990188e+006	-4.310256e+001	-7.775671e+001	-3.067558e+001	-1.942752e+001	-9.085537e+001	4.340876e+001	-4.780259e+001	1.158292e+002
9.990192e+006	-4.304166e+001	-7.753873e+001	-3.066266e+001	-1.950239e+001	-9.092512e+001	6.420037e+001	-4.781915e+001	1.157497e+002
9.990197e+006	-4.307606e+001	-7.770774e+001	-3.066387e+001	-1.939869e+001	-8.941730e+001	4.041418e+001	-4.785620e+001	1.157536e+002
9.990202e+006	-4.307452e+001	-7.759732e+001	-3.066192e+001	-1.946025e+001	-1.033867e+002	1.581601e+002	-4.787339e+001	1.156819e+002
9.990206e+006	-4.308516e+001	-7.753133e+001	-3.066543e+001	-1.951949e+001	-9.128771e+001	1.606097e+001	-4.788400e+001	1.158356e+002
9.990211e+006	-4.310118e+001	-7.766472e+001	-3.066454e+001	-1.956426e+001	-1.165670e+002	-1.610046e+002	-4.785014e+001	1.152554e+002
9.990216e+006	-4.307825e+001	-7.762352e+001	-3.067678e+001	-1.939152e+001	-1.028232e+002	9.877459e+001	-4.788372e+001	1.160632e+002
9.990220e+006	-4.309293e+001	-7.766186e+001	-3.067399e+001	-1.953670e+001	-1.046119e+002	-1.715356e+002	-4.784072e+001	1.157403e+002
9.990225e+006	-4.304723e+001	-7.740938e+001	-3.066914e+001	-1.940722e+001	-8.989783e+001	1.308328e+002	-4.787596e+001	1.163210e+002
9.990230e+006	-4.308151e+001	-7.762664e+001	-3.066370e+001	-1.942863e+001	-9.593346e+001	1.569981e+002	-4.783473e+001	1.160153e+002
9.990234e+006	-4.307043e+001	-7.756292e+001	-3.066495e+001	-1.948059e+001	-9.500900e+001	-4.795938e+001	-4.789468e+001	1.160428e+002
9.990239e+006	-4.308385e+001	-7.762582e+001	-3.066339e+001	-1.953762e+001	-9.249242e+001	1.673111e+001	-4.781004e+001	1.151773e+002
9.990244e+006	-4.311419e+001	-7.772169e+001	-3.066783e+001	-1.950933e+001	-9.633273e+001	5.782178e+001	-4.790629e+001	1.159360e+002
9.990248e+006	-4.306749e+001	-7.739914e+001	-3.066385e+001	-1.941127e+001	-9.859683e+001	3.517193e+001	-4.782706e+001	1.156462e+002
9.990253e+006	-4.306317e+001	-7.765820e+001	-3.066817e+001	-1.946388e+001	-9.544001e+001	-1.091428e+001	-4.785368e+001	1.161774e+002
9.990258e+006	-4.304931e+001	-7.772291e+001	-3.066995e+001	-1.947494e+001	-9.742834e+001	1.953134e+001	-4.774880e+001	1.161388e+002
9.990263e+006	-4.304953e+001	-7.749280e+001	-3.066720e+001	-1.950693e+001	-1.021966e+002	-1.519018e+002	-4.784549e+001	1.162384e+002
9.990267e+006	-4.309838e+001	-7.750795e+001	-3.066746e+001	-1.948593e+001	-9.272573e+001	8.916507e+001	-4.784364e+001	1.156086e+002
9.990272e+006	-4.308887e+001	-7.760295e+001	-3.066528e+001	-1.946430e+001	-9.139499e+001	-1.721401e+002	-4.777103e+001	1.157036e+002
9.990277e+006	-4.309254e+001	-7.748105e+001	-3.066137e+001	-1.950386e+001	-9.804506e+001	1.087985e+002	-4.784207e+001	1.159712e+002
9.990281e+006	-4.309592e+001	-7.772020e+001	-3.066916e+001	-1.948902e+001	-8.507467e+001	1.663392e+002	-4.788237e+001	1.157441e+002
9.990286e+006	-4.307158e+001	-7.780323e+001	-3.066708e+001	-1.953473e+001	-9.307736e+001	9.074793e+001	-4.785240e+001	1.154937e+002
9.990291e+006	-4.311325e+001	-7.755635e+001	-3.065988e+001	-1.955519e+001	-9.133271e+001	3.897099e+001	-4.785553e+001	1.160119e+002
9.990295e+006	-4.307900e+001	-7.773730e+001	-3.066090e+001	-1.945688e+001	-9.180386e+001	1.233599e+002	-4.784492e+001	1.158475e+002
9.990300e+006	-4.302748e+001	-7.756902e+001	-3.066376e+001	-1.944246e+001	-8.891082e+001	1.419216e+002	-4.790188e+001	1.160988e+002
9.990305e+006	-4.305018e+001	-7.777306e+001	-3.067106e+001	-1.953497e+001	-8.933117e+001	1.543087e+002	-4.782257e+001	1.154509e+002
9.990309e+006	-4.310321e+001	-7.767864e+001	-3.066970e+001	-1.947729e+001	-9.158673e+001	5.683806e+001	-4.790236e+001	1.155180e+002
9.990314e+006	-4.307985e+001	-7.774389e+001	-3.066921e+001	-1.952251e+001	-9.171869e+001	1.153487e+002	-4.788770e+001	1.156463e+002
9.990319e+006	-4.305988e+001	-7.764509e+001	-3.065587e+001	-1.947771e+001	-9.794224e+001	-1.118192e+002	-4.787703e+001	1.158067e+002
9.990323e+006	-4.307330e+001	-7.739005e+001	-3.065960e+001	-1.948426e+001	-1.000441e+002	9.122810e+000	-4.786432e+001	1.157201e+002
9.990328e+006	-4.310782e+001	-7.727955e+001	-3.066351e+001	-1.950403e+001	-8.926059e+001	9.890103e+001	-4.787901e+001	1.156789e+002
9.990333e+006	-4.306187e+001	-7.751206e+001	-3.065886e+001	-1.949968e+001	-9.436928e+001	-1.678335e+002	-4.781644e+001	1.160412e+002
9.990338e+006	-4.310054e+001	-7.764334e+001	-3.066163e+001	-1.946496e+001	-9.017939e+001	1.297877e+002	-4.783284e+001	1.161650e+002
9.990342e+006	-4.306013e+001	-7.741980e+001	-3.066336e+001	-1.948727e+001	-1.039940e+002	2.712188e+001	-4.776197e+001	1.162638e+002
9.990347e+006	-4.307006e+001	-7.784504e+001	-3.066061e+001	-1.950092e+001	-8.964919e+001	1.080294e+002	-4.786892e+001	1.155124e+002
9.990352e+006	-4.308543e+001	-7.792156e+001	-3.067100e+001	-1.953373e+001	-9.886046e+001	1.743320e+002	-4.779280e+001	1.160908e+002
9.990356e+006	-4.310555e+001	-7.752973e+001	-3.066400e+001	-1.955403e+001	-9.293155e+001	1.504947e+002	-4.791055e+001	1.157803e+002
9.990361e+006	-4.308753e+001	-7.760126e+001	-3.066115e+001	-1.955873e+001	-9.361622e+001	1.088766e+002	-4.775780e+001	1.158797e+002
9.990366e+006	-4.305874e+001	-7.754853e+001	-3.065315e+001	-1.945967e+001	-9.733456e+001	1.580357e+002	-4.789358e+001	1.162455e+002
9.990370e+006	-4.305442e+001	-7.745326e+001	-3.066532e+001	-1.953024e+001	-9.272731e+001	1.516931e+002	-4.795059e+001	1.156044e+002
9.990375e+006	-4.308931e+001	-7.745144e+001	-3.066403e+001	-1.951078e+001	-9.715611e+001	1.684347e+002	-4.787291e+001	1.158447e+002
9.990380e+006	-4.308670e+001	-7.757197e+001	-3.066453e+001	-1.944362e+001	-9.234652e+001	1.051891e+002	-4.786404e+001	1.160455e+002
9.990384e+006	-4.311382e+001	-7.778782e+001	-3.066129e+001	-1.957371e+001	-9.857044e+001	4.508707e+001	-4.788341e+001	1.160470e+002
9.990389e+006	-4.308291e+001	-7.757973e+001	-3.065779e+001	-1.944291e+001	-9.267256e+001	9.542576e+001	-4.778974e+001	1.158642e+002
9.990394e+006	-4.309719e+001	-7.756272e+001	-3.066915e+001	-1.951002e+001	-9.353902e+001	1.056794e+002	-4.783280e+001	1.159125e+002
9.990398e+006	-4.308402e+001	-7.755730e+001	-3.065764e+001	-1.948990e+001	-9.559608e+001	1.294164e+002	-4.785657e+001	1.160443e+002
9.990403e+006	-4.305169e+001	-7.753543e+001	-3.065889e+001	-1.949765e+001	-9.272317e+001	1.482118e+002	-4.785177e+001	1.158057e+002
9.990408e+006	-4.309862e+001	-7.762218e+001	-3.066240e+001	-1.951546e+001	-9.659111e+001	1.013640e+002	-4.781490e+001	1.160967e+002
9.990413e+006	-4.309442e+001	-7.749647e+001	-3.066983e+001	-1.950936e+001	-1.011131e+002	-1.349425e+002	-4.775488e+001	1.158782e+002
9.990417e+006	-4.308682e+001	-7.766798e+001	-3.066117e+001	-1.951324e+001	-9.957957e+001	-1.392149e+002	-4.786115e+001	1.161523e+002
9.990422e+006	-4.307876e+001	-7.753037e+001	-3.065743e+001	-1.948394e+001	-9.023140e+001	7.596706e+001	-4.783568e+001	1.153562e+002
9.990427e+006	-4.309416e+001	-7.740302e+001	-3.066867e+001	-1.943229e+001	-8.867221e+001	4.706228e+001	-4.785012e+001	1.161363e+002
9.990431e+006	-4.306542e+001	-7.768754e+001	-3.066095e+001	-1.949083e+001	-1.004440e+002	1.485223e+002	-4.780557e+001	1.161239e+002
9.990436e+006	-4.308244e+001	-7.746462e+001	-3.065877e+001	-1.946069e+001	-9.583519e+001	-1.093465e+002	-4.794841e+001	1.159673e+002
9.990441e+006	-4.307318e+001	-7.760927e+001	-3.065938e+001	-1.950438e+001	-8.988033e+001	1.143193e+002	-4.789146e+001	1.154997e+002
9.990445e+006	-4.308522e+001	-7.749323e+001	-3.067383e+001	-1.951381e+001	-1.025807e+002	-2.957241e+001	-4.785768e+001	1.158706e+002
9.990450e+006	-4.310361e+001	-7.756939e+001	-3.066530e+001	-1.953185e+001	-9.564705e+001	6.257625e+001	-4.779251e+001	1.161038e+002
9.990455e+006	-4.310798e+001	-7.749346e+001	-3.066719e+001	-1.949142e+001	-8.812174e+001	1.269653e+002	-4.782496e+001	1.156431e+002
9.990459e+006	-4.309255e+001	-7.762141e+001	-3.065818e+001	-1.952842e+001	-9.586991e+001	-1.681085e+002	-4.783144e+001	1.152616e+002
9.990464e+006	-4.311794e+001	-7.768344e+001	-3.066431e+001	-1.946002e+001	-8.971686e+001	9.861431e+001	-4.777925e+001	1.159153e+002
9.990469e+006	-4.305863e+001	-7.756088e+001	-3.065997e+001	-1.950202e+001	-8.900973e+001	1.238221e+002	-4.787897e+001	1.155726e+002
9.990473e+006	-4.308045e+001	-7.744184e+001	-3.065673e+001	-1.947007e+001	-9.661776e+001	1.503620e+002	-4.787320e+001	1.155951e+002
9.990478e+006	-4.310291e+001	-7.748028e+001	-3.066430e+001	-1.951127e+001	-9.911599e+001	-1.661682e+002	-4.781680e+001	1.156309e+002
9.990483e+006	-4.308866e+001	-7.742713e+001	-3.066942e+001	-1.942899e+001	-9.876840e+001	-1.321222e+002	-4.778702e+001	1.156886e+002
9.990488e+006	-4.308582e+001	-7.762322e+001	-3.066445e+001	-1.946877e+001	-9.744047e+001	9.361194e+001	-4.787056e+001	1.156022e+002
9.990492e+006	-4.306093e+001	-7.763440e+001	-3.066652e+001	-1.950646e+001	-9.368933e+001	7.053076e+001	-4.788442e+001	1.163097e+002
9.990497e+006	-4.309954e+001	-7.766121e+001	-3.064970e+001	-1.948405e+001	-1.014817e+002	9.328202e+001	-4.782858e+001	1.158922e+002
9.990502e+006	-4.308181e+001	-7.769603e+001	-3.066535e+001	-1.949331e+001	-1.005190e+002	-1.782581e+002	-4.784130e+001	1.157918e+002
9.990506e+006	-4.311679e+001	-7.740435e+001	-3.066351e+001	-1.955391e+001	-8.913259e+001	6.755243e+001	-4.790001e+001	1.159548e+002
9.990511e+006	-4.307825e+001	-7.773076e+001	-3.066470e+001	-1.950707e+001	-8.957222e+001	7.651832e+001	-4.786668e+001	1.157734e+002
9.990516e+006	-4.308174e+001	-7.753618e+001	-3.066681e+001	-1.952655e+001	-9.634247e+001	-1.308966e+002	-4.782253e+001	1.159120e+002
9.990520e+006	-4.310731e+001	-7.727854e+001	-3.066007e+001	-1.948330e+001	-8.539714e+001	1.316607e+002	-4.778997e+001	1.161421e+002
9.990525e+006	-4.310677e+001	-7.761812e+001	-3.066595e+001	-1.949889e+001	-9.129656e+001	1.424659e+002	-4.785685e+001	1.157182e+002
9.990530e+006	-4.311235e+001	-7.749543e+001	-3.067042e+001	-1.943210e+001	-9.066593e+001	4.620910e+001	-4.778334e+001	1.157046e+002
9.990534e+006	-4.307915e+001	-7.763375e+001	-3.066443e+001	-1.951679e+001	-8.598924e+001	1.372088e+002	-4.786818e+001	1.153682e+002
9.990539e+006	-4.308826e+001	-7.755852e+001	-3.065939e+001	-1.949361e+001	-9.326049e+001	-4.786170e+001	-4.785523e+001	1.163157e+002
9.990544e+006	-4.312340e+001	-7.752484e+001	-3.066523e+001	-1.945268e+001	-9.100523e+001	1.010688e+002	-4.783495e+001	1.161903e+002
9.990548e+006	-4.308213e+001	-7.770583e+001	-3.066054e+001	-1.950667e+001	-9.151320e+001	-6.230541e+001	-4.787635e+001	1.158586e+002
9.990553e+006	-4.309786e+001	-7.744134e+001	-3.065747e+001	-1.943698e+001	-9.886815e+001	4.747589e+001	-4.784364e+001	1.161657e+002
9.990558e+006	-4.310057e+001	-7.736813e+001	-3.066489e+001	-1.948222e+001	-8.323703e+001	1.300987e+002	-4.786687e+001	1.155787e+002
9.990563e+006	-4.310121e+001	-7.741586e+001	-3.066485e+001	-1.944678e+001	-1.029933e+002	9.107091e+001	-4.781811e+001	1.156726e+002
9.990567e+006	-4.308481e+001	-7.762424e+001	-3.066737e+001	-1.947532e+001	-8.950597e+001	5.975731e+001	-4.772614e+001	1.163521e+002
9.990572e+006	-4.309428e+001	-7.758961e+001	-3.066692e+001	-1.953293e+001	-1.027783e+002	1.049252e+002	-4.781054e+001	1.161398e+002
9.990577e+006	-4.306722e+001	-7.756897e+001	-3.067337e+001	-1.947661e+001	-9.200338e+001	1.730703e+002	-4.777099e+001	1.157844e+002
9.990581e+006	-4.311400e+001	-7.767149e+001	-3.065712e+001	-1.947863e+001	-9.970714e+001	-1.128842e+002	-4.786353e+001	1.163183e+002
9.990586e+006	-4.310628e+001	-7.755037e+001	-3.066883e+001	-1.950039e+001	-9.482953e+001	1.632395e+002	-4.783441e+001	1.159965e+002
9.990591e+006	-4.307959e+001	-7.781154e+001	-3.065839e+001	-1.954628e+001	-9.686557e+001	-1.573585e+002	-4.777329e+001	1.157225e+002
9.990595e+006	-4.312400e+001	-7.762702e+001	-3.066086e+001	-1.948016e+001	-9.100122e+001	9.486425e+001	-4.784773e+001	1.155579e+002
9.990600e+006	-4.307537e+001	-7.753538e+001	-3.064976e+001	-1.946603e+001	-1.014380e+002	-1.218377e+002	-4.781972e+001	1.157642e+002
9.990605e+006	-4.311932e+001	-7.774387e+001	-3.066354e+001	-1.941329e+001	-9.161557e+001	4.644814e+001	-4.789913e+001	1.156755e+002
9.990609e+006	-4.309565e+001	-7.746451e+001	-3.065434e+001	-1.952061e+001	-9.297754e+001	1.279615e+002	-4.785743e+001	1.156667e+002
9.990614e+006	-4.312808e+001	-7.736168e+001	-3.065571e+001	-1.946953e+001	-9.026770e+001	-1.619924e+002	-4.781960e+001	1.159905e+002
9.990619e+006	-4.307756e+001	-7.757498e+001	-3.065770e+001	-1.946730e+001	-9.094872e+001	1.480226e+002	-4.777932e+001	1.158836e+002
9.990623e+006	-4.308197e+001	-7.740077e+001	-3.067983e+001	-1.947235e+001	-9.227166e+001	6.219208e+001	-4.787657e+001	1.155617e+002
9.990628e+006	-4.308962e+001	-7.761191e+001	-3.067120e+001	-1.956153e+001	-9.332924e+001	6.870757e+001	-4.788675e+001	1.159242e+002
9.990633e+006	-4.313398e+001	-7.766643e+001	-3.066323e+001	-1.947540e+001	-1.091247e+002	-7.207851e+001	-4.785764e+001	1.158221e+002
9.990638e+006	-4.312175e+001	-7.771720e+001	-3.066388e+001	-1.953214e+001	-9.316617e+001	3.747232e+001	-4.785785e+001	1.158903e+002
9.990642e+006	-4.313823e+001	-7.733933e+001	-3.065369e+001	-1.951136e+001	-1.009110e+002	1.357728e+002	-4.781238e+001	1.159992e+002
9.990647e+006	-4.310223e+001	-7.749566e+001	-3.065370e+001	-1.950624e+001	-9.609947e+001	2.729598e+001	-4.781569e+001	1.157679e+002
9.990652e+006	-4.308710e+001	-7.760737e+001	-3.066339e+001	-1.946245e+001	-9.952721e+001	7.687282e+001	-4.783956e+001	1.163680e+002
9.990656e+006	-4.308084e+001	-7.743264e+001	-3.066679e+001	-1.942797e+001	-9.313793e+001	8.138814e+001	-4.788321e+001	1.159185e+002
9.990661e+006	-4.310940e+001	-7.771457e+001	-3.066266e+001	-1.949321e+001	-9.538515e+001	8.732268e+001	-4.778079e+001	1.158684e+002
9.990666e+006	-4.312461e+001	-7.753371e+001	-3.065663e+001	-1.948119e+001	-9.389722e+001	1.810923e+001	-4.781799e+001	1.155650e+002
9.990670e+006	-4.310806e+001	-7.758431e+001	-3.065300e+001	-1.947263e+001	-9.872860e+001	1.473983e+002	-4.781670e+001	1.159359e+002
9.990675e+006	-4.312790e+001	-7.731207e+001	-3.065394e+001	-1.944153e+001	-9.237446e+001	5.516884e+001	-4.784614e+001	1.161456e+002
9.990680e+006	-4.310172e+001	-7.788372e+001	-3.066153e+001	-1.944923e+001	-9.058718e+001	1.617176e+002	-4.792665e+001	1.157321e+002
9.990684e+006	-4.310404e+001	-7.765122e+001	-3.065595e+001	-1.946106e+001	-9.851665e+001	1.616166e+002	-4.776406e+001	1.155287e+002
9.990689e+006	-4.308812e+001	-7.776839e+001	-3.065239e+001	-1.948609e+001	-9.075909e+001	9.376965e+001	-4.786624e+001	1.159259e+002
