!CETC41,AV3656A,ZGL00048,1.3.2
!Calibration ON (Full Solt 2-Port(Omit Isolation))
!Measurements: S11 S21 S12 S22
!2025-04-18 23:39
# Hz  S  dB  R 50.000
9.990000e+006	-3.558189e+001	1.573953e+002	-3.052925e+001	-2.670680e+001	-9.502834e+001	-1.277599e+001	-3.174052e+001	1.447944e+002
9.990005e+006	-3.559011e+001	1.574676e+002	-3.053470e+001	-2.669724e+001	-8.796849e+001	1.056708e+002	-3.174688e+001	1.447363e+002
9.990009e+006	-3.560373e+001	1.573233e+002	-3.053378e+001	-2.675041e+001	-9.731837e+001	5.430880e+001	-3.174801e+001	1.447617e+002
9.990014e+006	-3.558198e+001	1.572707e+002	-3.054120e+001	-2.672750e+001	-8.780385e+001	3.040370e+001	-3.175039e+001	1.447015e+002
9.990019e+006	-3.557968e+001	1.573629e+002	-3.053479e+001	-2.662917e+001	-8.844360e+001	5.638266e+001	-3.175332e+001	1.447669e+002
9.990023e+006	-3.557511e+001	1.573049e+002	-3.053753e+001	-2.675075e+001	-9.160307e+001	7.847677e+001	-3.173748e+001	1.447404e+002
9.990028e+006	-3.558720e+001	1.573549e+002	-3.054216e+001	-2.663260e+001	-9.165006e+001	-4.649900e+001	-3.174659e+001	1.447740e+002
9.990033e+006	-3.558682e+001	1.574297e+002	-3.053201e+001	-2.666111e+001	-1.197598e+002	9.717787e+001	-3.176088e+001	1.447938e+002
9.990038e+006	-3.556803e+001	1.573827e+002	-3.053251e+001	-2.671653e+001	-8.996007e+001	1.519139e+002	-3.174682e+001	1.447695e+002
9.990042e+006	-3.557031e+001	1.572840e+002	-3.053132e+001	-2.673861e+001	-9.293622e+001	-1.349809e+002	-3.174865e+001	1.447088e+002
9.990047e+006	-3.558106e+001	1.574403e+002	-3.053979e+001	-2.668719e+001	-8.848916e+001	1.698342e+002	-3.174665e+001	1.447423e+002
9.990052e+006	-3.558088e+001	1.573676e+002	-3.053376e+001	-2.677162e+001	-8.939971e+001	-2.881549e+001	-3.174400e+001	1.447773e+002
9.990056e+006	-3.557221e+001	1.572581e+002	-3.054367e+001	-2.673902e+001	-1.144582e+002	-3.005654e+001	-3.175056e+001	1.447299e+002
9.990061e+006	-3.557218e+001	1.572689e+002	-3.054029e+001	-2.671837e+001	-8.889512e+001	1.767031e+002	-3.173797e+001	1.447499e+002
9.990066e+006	-3.559586e+001	1.573615e+002	-3.054007e+001	-2.667626e+001	-9.063133e+001	1.278989e+002	-3.173843e+001	1.447852e+002
9.990070e+006	-3.557251e+001	1.572090e+002	-3.054488e+001	-2.662891e+001	-9.237394e+001	7.413993e+001	-3.174835e+001	1.447999e+002
9.990075e+006	-3.559245e+001	1.573226e+002	-3.053053e+001	-2.667849e+001	-8.918749e+001	6.736820e+001	-3.173880e+001	1.447125e+002
9.990080e+006	-3.559608e+001	1.573960e+002	-3.053807e+001	-2.662809e+001	-9.407216e+001	-1.571106e+002	-3.174003e+001	1.447874e+002
9.990084e+006	-3.559598e+001	1.573142e+002	-3.054348e+001	-2.670019e+001	-9.403666e+001	1.301453e+002	-3.174236e+001	1.447592e+002
9.990089e+006	-3.558581e+001	1.573112e+002	-3.054061e+001	-2.668820e+001	-1.062194e+002	8.532509e+001	-3.175274e+001	1.447173e+002
9.990094e+006	-3.558392e+001	1.572945e+002	-3.052234e+001	-2.673163e+001	-9.291353e+001	-1.588665e+002	-3.174426e+001	1.447559e+002
9.990098e+006	-3.558726e+001	1.574198e+002	-3.054019e+001	-2.668419e+001	-9.630929e+001	1.367041e+002	-3.173778e+001	1.448348e+002
9.990103e+006	-3.558195e+001	1.572830e+002	-3.054318e+001	-2.673630e+001	-1.024437e+002	-5.641669e+001	-3.174371e+001	1.447994e+002
9.990108e+006	-3.558846e+001	1.574621e+002	-3.052881e+001	-2.665152e+001	-1.079858e+002	-4.388736e+001	-3.175547e+001	1.447333e+002
9.990113e+006	-3.558530e+001	1.574265e+002	-3.054530e+001	-2.664190e+001	-1.039833e+002	1.282810e+002	-3.174471e+001	1.447556e+002
9.990117e+006	-3.559998e+001	1.573306e+002	-3.054803e+001	-2.673639e+001	-9.639204e+001	-1.352327e+002	-3.174167e+001	1.447901e+002
9.990122e+006	-3.558884e+001	1.573044e+002	-3.053550e+001	-2.673039e+001	-8.840527e+001	9.290116e+000	-3.174762e+001	1.447596e+002
9.990127e+006	-3.558453e+001	1.573067e+002	-3.053910e+001	-2.671508e+001	-9.358046e+001	5.069866e+001	-3.174826e+001	1.447193e+002
9.990131e+006	-3.558479e+001	1.573008e+002	-3.053628e+001	-2.670932e+001	-9.486430e+001	-1.643480e+001	-3.174634e+001	1.447847e+002
9.990136e+006	-3.557567e+001	1.573548e+002	-3.053049e+001	-2.670116e+001	-9.550817e+001	1.196577e+002	-3.175353e+001	1.448403e+002
9.990141e+006	-3.557484e+001	1.574276e+002	-3.053132e+001	-2.677636e+001	-9.324795e+001	-8.704242e+001	-3.175198e+001	1.447013e+002
9.990145e+006	-3.557614e+001	1.573249e+002	-3.054103e+001	-2.665007e+001	-9.494094e+001	1.349343e+002	-3.174587e+001	1.448023e+002
9.990150e+006	-3.557401e+001	1.573631e+002	-3.053629e+001	-2.669271e+001	-9.553265e+001	6.745626e+001	-3.175379e+001	1.446877e+002
9.990155e+006	-3.559871e+001	1.573188e+002	-3.052926e+001	-2.666255e+001	-9.830627e+001	1.616475e+002	-3.173612e+001	1.447765e+002
9.990159e+006	-3.557903e+001	1.573403e+002	-3.052984e+001	-2.664900e+001	-8.926514e+001	9.701050e+001	-3.173715e+001	1.447275e+002
9.990164e+006	-3.559880e+001	1.572447e+002	-3.054338e+001	-2.663831e+001	-9.240947e+001	2.664733e+001	-3.174923e+001	1.447347e+002
9.990169e+006	-3.556900e+001	1.572988e+002	-3.053442e+001	-2.661227e+001	-8.651466e+001	2.437476e+001	-3.174812e+001	1.448236e+002
9.990173e+006	-3.559394e+001	1.573581e+002	-3.052925e+001	-2.670679e+001	-9.462848e+001	-1.302038e+002	-3.173491e+001	1.447818e+002
9.990178e+006	-3.557219e+001	1.573206e+002	-3.053278e+001	-2.667069e+001	-8.690911e+001	8.344715e+001	-3.173048e+001	1.447589e+002
9.990183e+006	-3.557466e+001	1.574040e+002	-3.053073e+001	-2.672598e+001	-9.114250e+001	1.364642e+002	-3.174369e+001	1.447274e+002
9.990188e+006	-3.559283e+001	1.574302e+002	-3.053055e+001	-2.672573e+001	-9.662100e+001	2.165300e+001	-3.174347e+001	1.447139e+002
9.990192e+006	-3.558085e+001	1.573281e+002	-3.054270e+001	-2.667753e+001	-9.585707e+001	1.505633e+002	-3.174393e+001	1.447640e+002
9.990197e+006	-3.558917e+001	1.572727e+002	-3.053019e+001	-2.670069e+001	-8.621788e+001	2.144352e+001	-3.174225e+001	1.448017e+002
9.990202e+006	-3.556626e+001	1.573568e+002	-3.054034e+001	-2.670529e+001	-1.050998e+002	1.414083e+002	-3.174262e+001	1.448110e+002
9.990206e+006	-3.557572e+001	1.572965e+002	-3.053155e+001	-2.666618e+001	-9.252742e+001	5.258832e+001	-3.175394e+001	1.447155e+002
9.990211e+006	-3.557653e+001	1.573740e+002	-3.054003e+001	-2.667425e+001	-9.564862e+001	7.472990e+001	-3.174823e+001	1.447324e+002
9.990216e+006	-3.559730e+001	1.573116e+002	-3.052804e+001	-2.670552e+001	-9.672358e+001	-5.527417e+001	-3.174970e+001	1.448173e+002
9.990220e+006	-3.558692e+001	1.574057e+002	-3.054492e+001	-2.665208e+001	-9.149691e+001	1.416423e+002	-3.175017e+001	1.447209e+002
9.990225e+006	-3.558176e+001	1.573780e+002	-3.053230e+001	-2.671181e+001	-9.012336e+001	-1.093255e+002	-3.173989e+001	1.448088e+002
9.990230e+006	-3.558369e+001	1.573213e+002	-3.053952e+001	-2.668015e+001	-9.054365e+001	9.950704e+001	-3.174595e+001	1.447581e+002
9.990234e+006	-3.558354e+001	1.573828e+002	-3.053815e+001	-2.674220e+001	-9.153414e+001	3.756532e+001	-3.175604e+001	1.447791e+002
9.990239e+006	-3.558914e+001	1.573212e+002	-3.053764e+001	-2.678285e+001	-9.454765e+001	1.374180e+002	-3.173676e+001	1.448170e+002
9.990244e+006	-3.557668e+001	1.573933e+002	-3.053469e+001	-2.669663e+001	-9.018086e+001	1.348362e+002	-3.175576e+001	1.447707e+002
9.990248e+006	-3.558135e+001	1.572521e+002	-3.052440e+001	-2.669354e+001	-9.186979e+001	9.747989e+001	-3.174951e+001	1.447231e+002
9.990253e+006	-3.557637e+001	1.575174e+002	-3.053035e+001	-2.668707e+001	-8.602836e+001	1.561460e+002	-3.173795e+001	1.447691e+002
9.990258e+006	-3.559164e+001	1.573952e+002	-3.052431e+001	-2.672699e+001	-9.603006e+001	1.594082e+002	-3.173698e+001	1.446816e+002
9.990263e+006	-3.558145e+001	1.573485e+002	-3.053602e+001	-2.666456e+001	-9.107051e+001	1.293045e+002	-3.173586e+001	1.448289e+002
9.990267e+006	-3.557667e+001	1.573302e+002	-3.053552e+001	-2.667875e+001	-9.422803e+001	9.260809e+001	-3.174118e+001	1.447587e+002
9.990272e+006	-3.557163e+001	1.573684e+002	-3.052533e+001	-2.666738e+001	-8.709904e+001	1.073041e+002	-3.173184e+001	1.447052e+002
9.990277e+006	-3.557977e+001	1.573493e+002	-3.054499e+001	-2.674342e+001	-9.827472e+001	7.456281e+001	-3.173815e+001	1.446818e+002
9.990281e+006	-3.559424e+001	1.573526e+002	-3.054183e+001	-2.671987e+001	-9.788253e+001	-1.654408e+002	-3.173731e+001	1.447347e+002
9.990286e+006	-3.556383e+001	1.573252e+002	-3.052753e+001	-2.670574e+001	-9.082665e+001	-3.211590e+001	-3.174023e+001	1.447316e+002
9.990291e+006	-3.557649e+001	1.573359e+002	-3.053172e+001	-2.665073e+001	-9.634339e+001	-1.201329e+002	-3.173387e+001	1.447590e+002
9.990295e+006	-3.558699e+001	1.573884e+002	-3.054264e+001	-2.659479e+001	-9.506102e+001	1.343223e+002	-3.174944e+001	1.447179e+002
9.990300e+006	-3.559303e+001	1.573211e+002	-3.052962e+001	-2.674927e+001	-9.594497e+001	9.282369e+000	-3.175010e+001	1.447401e+002
9.990305e+006	-3.557565e+001	1.573103e+002	-3.052989e+001	-2.670945e+001	-9.797237e+001	8.248311e+001	-3.174224e+001	1.447814e+002
9.990309e+006	-3.558567e+001	1.573514e+002	-3.052442e+001	-2.673909e+001	-8.726976e+001	9.790423e+001	-3.173562e+001	1.447150e+002
9.990314e+006	-3.559130e+001	1.573483e+002	-3.053681e+001	-2.668473e+001	-9.030970e+001	9.045022e+001	-3.174392e+001	1.447302e+002
9.990319e+006	-3.559228e+001	1.573520e+002	-3.052232e+001	-2.671991e+001	-9.037919e+001	1.566947e+002	-3.174935e+001	1.448385e+002
9.990323e+006	-3.558256e+001	1.574356e+002	-3.054849e+001	-2.671887e+001	-9.677198e+001	-1.498957e+002	-3.174166e+001	1.447356e+002
9.990328e+006	-3.557748e+001	1.574181e+002	-3.053664e+001	-2.670705e+001	-9.149648e+001	5.537977e+001	-3.173955e+001	1.447125e+002
9.990333e+006	-3.560452e+001	1.573252e+002	-3.053405e+001	-2.665263e+001	-9.119909e+001	1.154106e+002	-3.173906e+001	1.447533e+002
9.990338e+006	-3.558583e+001	1.572765e+002	-3.052069e+001	-2.666444e+001	-8.722788e+001	-8.667382e+001	-3.175222e+001	1.448002e+002
9.990342e+006	-3.558533e+001	1.573634e+002	-3.053632e+001	-2.671860e+001	-9.054371e+001	9.963761e+001	-3.174682e+001	1.447167e+002
9.990347e+006	-3.559868e+001	1.573239e+002	-3.052611e+001	-2.667704e+001	-9.844268e+001	7.556454e+001	-3.175032e+001	1.447380e+002
9.990352e+006	-3.559450e+001	1.573921e+002	-3.053658e+001	-2.667921e+001	-1.062632e+002	8.362581e+001	-3.173324e+001	1.447622e+002
9.990356e+006	-3.558277e+001	1.573838e+002	-3.052528e+001	-2.670798e+001	-8.893226e+001	1.459854e+002	-3.172762e+001	1.447553e+002
9.990361e+006	-3.558365e+001	1.574086e+002	-3.052865e+001	-2.671989e+001	-1.128035e+002	-4.112570e+001	-3.175027e+001	1.447555e+002
9.990366e+006	-3.556411e+001	1.574240e+002	-3.052639e+001	-2.678139e+001	-8.989369e+001	-3.519366e+001	-3.174158e+001	1.447725e+002
9.990370e+006	-3.560101e+001	1.574519e+002	-3.053408e+001	-2.674295e+001	-9.921456e+001	-1.287546e+002	-3.174997e+001	1.447717e+002
9.990375e+006	-3.558001e+001	1.573802e+002	-3.052359e+001	-2.667348e+001	-1.031682e+002	-1.283435e+002	-3.173716e+001	1.447867e+002
9.990380e+006	-3.559255e+001	1.574406e+002	-3.053167e+001	-2.666667e+001	-9.912146e+001	-1.548071e+002	-3.174469e+001	1.448676e+002
9.990384e+006	-3.558232e+001	1.573823e+002	-3.053569e+001	-2.669185e+001	-8.904449e+001	1.450170e+002	-3.174055e+001	1.448004e+002
9.990389e+006	-3.559334e+001	1.573033e+002	-3.053611e+001	-2.670133e+001	-9.636591e+001	-1.676738e+002	-3.174924e+001	1.447980e+002
9.990394e+006	-3.558899e+001	1.573573e+002	-3.052456e+001	-2.673193e+001	-8.866058e+001	1.711997e+001	-3.174607e+001	1.447294e+002
9.990398e+006	-3.559235e+001	1.574085e+002	-3.053775e+001	-2.670458e+001	-9.821028e+001	2.857622e+001	-3.174596e+001	1.448285e+002
9.990403e+006	-3.557334e+001	1.573756e+002	-3.053541e+001	-2.674634e+001	-9.602789e+001	-1.521543e+002	-3.174509e+001	1.447544e+002
9.990408e+006	-3.558568e+001	1.573029e+002	-3.051671e+001	-2.670818e+001	-9.396442e+001	6.845537e+001	-3.174141e+001	1.447648e+002
9.990413e+006	-3.558061e+001	1.573439e+002	-3.054300e+001	-2.669417e+001	-9.362353e+001	9.316091e+001	-3.173717e+001	1.447530e+002
9.990417e+006	-3.558243e+001	1.573961e+002	-3.051813e+001	-2.666099e+001	-9.816107e+001	-1.078312e+002	-3.173593e+001	1.447675e+002
9.990422e+006	-3.560178e+001	1.573007e+002	-3.053257e+001	-2.665158e+001	-9.823861e+001	1.014498e+002	-3.174693e+001	1.448066e+002
9.990427e+006	-3.558563e+001	1.573106e+002	-3.053265e+001	-2.677077e+001	-1.012659e+002	-9.800111e+001	-3.175338e+001	1.448292e+002
9.990431e+006	-3.559107e+001	1.573764e+002	-3.052411e+001	-2.675955e+001	-9.185807e+001	1.558924e+002	-3.175059e+001	1.447695e+002
9.990436e+006	-3.557755e+001	1.573292e+002	-3.053934e+001	-2.659679e+001	-8.804932e+001	1.503461e+002	-3.174698e+001	1.447695e+002
9.990441e+006	-3.559709e+001	1.573236e+002	-3.052976e+001	-2.672785e+001	-9.249567e+001	7.198547e+001	-3.174075e+001	1.447764e+002
9.990445e+006	-3.557007e+001	1.573379e+002	-3.053927e+001	-2.672272e+001	-9.272656e+001	5.360331e+001	-3.174043e+001	1.447824e+002
9.990450e+006	-3.557185e+001	1.573336e+002	-3.052254e+001	-2.674068e+001	-9.011463e+001	1.136963e+002	-3.174167e+001	1.447738e+002
9.990455e+006	-3.558868e+001	1.573769e+002	-3.052218e+001	-2.668516e+001	-9.221358e+001	-1.516161e+002	-3.174525e+001	1.447711e+002
9.990459e+006	-3.558171e+001	1.574323e+002	-3.053878e+001	-2.668894e+001	-9.535923e+001	1.172613e+002	-3.173850e+001	1.447458e+002
9.990464e+006	-3.558542e+001	1.572568e+002	-3.052961e+001	-2.671946e+001	-9.225363e+001	1.547483e+002	-3.173958e+001	1.447727e+002
9.990469e+006	-3.558250e+001	1.573532e+002	-3.052287e+001	-2.665394e+001	-9.635117e+001	1.008685e+002	-3.174767e+001	1.447526e+002
9.990473e+006	-3.559129e+001	1.574072e+002	-3.051760e+001	-2.663996e+001	-1.030380e+002	6.659322e+000	-3.175012e+001	1.447395e+002
9.990478e+006	-3.558649e+001	1.574096e+002	-3.052416e+001	-2.672648e+001	-9.244441e+001	-1.713433e+002	-3.174388e+001	1.447187e+002
9.990483e+006	-3.557484e+001	1.573441e+002	-3.053330e+001	-2.674141e+001	-9.395698e+001	5.708319e+001	-3.173393e+001	1.447868e+002
9.990488e+006	-3.557632e+001	1.574095e+002	-3.052981e+001	-2.668564e+001	-9.486115e+001	1.399507e+002	-3.174730e+001	1.447582e+002
9.990492e+006	-3.558884e+001	1.573330e+002	-3.053077e+001	-2.673250e+001	-1.006602e+002	1.082658e+002	-3.174622e+001	1.447462e+002
9.990497e+006	-3.558826e+001	1.572959e+002	-3.052420e+001	-2.669370e+001	-9.623436e+001	2.503675e+001	-3.173906e+001	1.447037e+002
9.990502e+006	-3.558189e+001	1.573128e+002	-3.053100e+001	-2.668425e+001	-9.404322e+001	1.737009e+002	-3.175266e+001	1.447474e+002
9.990506e+006	-3.557694e+001	1.574188e+002	-3.052737e+001	-2.659754e+001	-8.853095e+001	1.653025e+002	-3.174703e+001	1.447563e+002
9.990511e+006	-3.558855e+001	1.573146e+002	-3.053805e+001	-2.672654e+001	-9.845812e+001	1.011805e+002	-3.174591e+001	1.448063e+002
9.990516e+006	-3.558439e+001	1.572897e+002	-3.052724e+001	-2.673642e+001	-1.005507e+002	5.605336e+001	-3.173938e+001	1.448226e+002
9.990520e+006	-3.560018e+001	1.574179e+002	-3.052975e+001	-2.672007e+001	-1.038722e+002	-1.542144e+002	-3.174870e+001	1.447260e+002
9.990525e+006	-3.557489e+001	1.573445e+002	-3.052788e+001	-2.669192e+001	-9.224965e+001	-8.389432e-002	-3.173810e+001	1.446956e+002
9.990530e+006	-3.557700e+001	1.574169e+002	-3.052745e+001	-2.661122e+001	-9.535544e+001	-1.462935e+001	-3.175384e+001	1.447829e+002
9.990534e+006	-3.558729e+001	1.573685e+002	-3.052982e+001	-2.665257e+001	-9.252393e+001	-1.246731e+002	-3.174573e+001	1.448018e+002
9.990539e+006	-3.557273e+001	1.574136e+002	-3.052943e+001	-2.675242e+001	-8.962430e+001	1.923375e+000	-3.174794e+001	1.447938e+002
9.990544e+006	-3.559490e+001	1.572827e+002	-3.051964e+001	-2.674592e+001	-8.862710e+001	-1.267951e+002	-3.173943e+001	1.447453e+002
9.990548e+006	-3.559173e+001	1.573834e+002	-3.052761e+001	-2.660349e+001	-1.093221e+002	-1.604092e+002	-3.174127e+001	1.447463e+002
9.990553e+006	-3.560121e+001	1.573499e+002	-3.053420e+001	-2.667885e+001	-9.668954e+001	-1.116429e+002	-3.172814e+001	1.446969e+002
9.990558e+006	-3.558305e+001	1.573208e+002	-3.053316e+001	-2.668751e+001	-9.012424e+001	7.447701e+001	-3.174729e+001	1.447629e+002
9.990563e+006	-3.558196e+001	1.573648e+002	-3.053323e+001	-2.679092e+001	-9.197396e+001	1.227890e+002	-3.174321e+001	1.447322e+002
9.990567e+006	-3.558181e+001	1.573988e+002	-3.051866e+001	-2.670824e+001	-1.030774e+002	1.514692e+002	-3.174603e+001	1.447779e+002
9.990572e+006	-3.557305e+001	1.573780e+002	-3.052226e+001	-2.665236e+001	-9.077298e+001	1.342754e+001	-3.174682e+001	1.447049e+002
9.990577e+006	-3.558024e+001	1.574539e+002	-3.052903e+001	-2.671516e+001	-9.548313e+001	9.683668e+001	-3.173697e+001	1.447581e+002
9.990581e+006	-3.560082e+001	1.573383e+002	-3.052366e+001	-2.672397e+001	-8.649474e+001	1.506452e+002	-3.174069e+001	1.448032e+002
9.990586e+006	-3.557735e+001	1.574383e+002	-3.052237e+001	-2.669086e+001	-9.466512e+001	-1.676281e+001	-3.175170e+001	1.447952e+002
9.990591e+006	-3.558118e+001	1.574049e+002	-3.052530e+001	-2.667279e+001	-9.739324e+001	1.290592e+002	-3.173873e+001	1.447477e+002
9.990595e+006	-3.558335e+001	1.573906e+002	-3.052059e+001	-2.667174e+001	-9.814256e+001	1.170905e+002	-3.173736e+001	1.447880e+002
9.990600e+006	-3.557990e+001	1.574264e+002	-3.053076e+001	-2.664099e+001	-9.629791e+001	1.202275e+002	-3.173629e+001	1.447476e+002
9.990605e+006	-3.558152e+001	1.573402e+002	-3.052840e+001	-2.663114e+001	-9.396485e+001	6.579375e+001	-3.173701e+001	1.447489e+002
9.990609e+006	-3.558953e+001	1.572872e+002	-3.053988e+001	-2.667386e+001	-1.059697e+002	-8.968734e+001	-3.174860e+001	1.447936e+002
9.990614e+006	-3.558860e+001	1.573634e+002	-3.051864e+001	-2.670758e+001	-9.633583e+001	1.096885e+002	-3.173742e+001	1.447088e+002
9.990619e+006	-3.558234e+001	1.573931e+002	-3.053241e+001	-2.664947e+001	-1.049966e+002	1.692479e+002	-3.174144e+001	1.447338e+002
9.990623e+006	-3.558427e+001	1.573204e+002	-3.053151e+001	-2.665902e+001	-9.128653e+001	1.171616e+001	-3.174031e+001	1.447339e+002
9.990628e+006	-3.557805e+001	1.574957e+002	-3.053761e+001	-2.671783e+001	-8.945035e+001	1.073100e+002	-3.174948e+001	1.447686e+002
9.990633e+006	-3.559464e+001	1.573942e+002	-3.052245e+001	-2.666063e+001	-9.066864e+001	1.789572e+002	-3.175379e+001	1.447973e+002
9.990638e+006	-3.557619e+001	1.573358e+002	-3.052516e+001	-2.656315e+001	-9.482898e+001	1.327513e+002	-3.175240e+001	1.448460e+002
9.990642e+006	-3.558634e+001	1.574494e+002	-3.052127e+001	-2.675099e+001	-9.556642e+001	9.638188e+001	-3.174558e+001	1.447929e+002
9.990647e+006	-3.558087e+001	1.573540e+002	-3.051762e+001	-2.675211e+001	-9.092009e+001	7.290112e+001	-3.174416e+001	1.448612e+002
9.990652e+006	-3.556792e+001	1.573210e+002	-3.051673e+001	-2.670046e+001	-8.880794e+001	4.578696e+001	-3.174701e+001	1.447262e+002
9.990656e+006	-3.558268e+001	1.573578e+002	-3.053193e+001	-2.662932e+001	-9.697193e+001	5.667805e+001	-3.174472e+001	1.447731e+002
9.990661e+006	-3.559409e+001	1.573130e+002	-3.052930e+001	-2.658822e+001	-9.358789e+001	1.299649e+002	-3.173951e+001	1.447919e+002
9.990666e+006	-3.558670e+001	1.573249e+002	-3.052733e+001	-2.678679e+001	-9.230429e+001	-1.426736e+001	-3.174269e+001	1.447212e+002
9.990670e+006	-3.557658e+001	1.573367e+002	-3.053620e+001	-2.676608e+001	-9.805184e+001	9.542149e+001	-3.172750e+001	1.447905e+002
9.990675e+006	-3.558450e+001	1.572995e+002	-3.053420e+001	-2.671680e+001	-8.895368e+001	1.592107e+002	-3.174070e+001	1.448118e+002
9.990680e+006	-3.558789e+001	1.573276e+002	-3.050637e+001	-2.666669e+001	-8.818940e+001	-1.677172e+002	-3.174450e+001	1.447753e+002
9.990684e+006	-3.557652e+001	1.573620e+002	-3.053149e+001	-2.658782e+001	-9.508837e+001	1.256145e+002	-3.173887e+001	1.447953e+002
9.990689e+006	-3.558584e+001	1.573581e+002	-3.052795e+001	-2.676665e+001	-9.241166e+001	-1.404244e+002	-3.174578e+001	1.447778e+002
9.990694e+006	-3.559139e+001	1.573347e+002	-3.050630e+001	-2.668325e+001	-9.961156e+001	3.692465e+001	-3.174023e+001	1.447616e+002
