!CETC41,AV3656A,ZGL00048,1.3.2
!Calibration ON (Full Solt 2-Port(Omit Isolation))
!Measurements: S11 S21 S12 S22
!2025-04-18 22:21
# Hz  S  dB  R 50.000
9.990000e+006	-3.536060e+001	1.564360e+002	-3.056410e+001	-2.477072e+001	-8.915212e+001	1.326966e+001	-3.218208e+001	1.442779e+002
9.990005e+006	-3.537358e+001	1.564266e+002	-3.055278e+001	-2.488715e+001	-8.977404e+001	9.433979e+001	-3.217772e+001	1.443022e+002
9.990009e+006	-3.536579e+001	1.563424e+002	-3.053513e+001	-2.488266e+001	-9.065417e+001	1.214906e+002	-3.218559e+001	1.442806e+002
9.990014e+006	-3.537228e+001	1.563076e+002	-3.053999e+001	-2.487816e+001	-9.335837e+001	-7.941672e+001	-3.218006e+001	1.442073e+002
9.990019e+006	-3.536222e+001	1.562411e+002	-3.054329e+001	-2.482614e+001	-9.043795e+001	8.865384e+001	-3.217842e+001	1.442069e+002
9.990023e+006	-3.536806e+001	1.562529e+002	-3.054250e+001	-2.475468e+001	-9.037439e+001	7.428118e+001	-3.216307e+001	1.441242e+002
9.990028e+006	-3.538820e+001	1.563305e+002	-3.054264e+001	-2.475596e+001	-9.497829e+001	1.410799e+002	-3.216755e+001	1.441739e+002
9.990033e+006	-3.537516e+001	1.563612e+002	-3.054462e+001	-2.476938e+001	-1.007638e+002	1.202694e+002	-3.215892e+001	1.442064e+002
9.990038e+006	-3.537175e+001	1.564121e+002	-3.054206e+001	-2.482602e+001	-1.031579e+002	-3.635786e+001	-3.216959e+001	1.442370e+002
9.990042e+006	-3.537010e+001	1.563700e+002	-3.054571e+001	-2.474000e+001	-1.023804e+002	4.580074e+001	-3.216707e+001	1.442466e+002
9.990047e+006	-3.537257e+001	1.563134e+002	-3.055038e+001	-2.479063e+001	-9.561655e+001	1.488009e+002	-3.216609e+001	1.442209e+002
9.990052e+006	-3.537609e+001	1.564282e+002	-3.055097e+001	-2.474826e+001	-9.961312e+001	1.385283e+002	-3.216602e+001	1.442130e+002
9.990056e+006	-3.537091e+001	1.564637e+002	-3.054436e+001	-2.474308e+001	-9.635449e+001	-1.351809e+002	-3.216810e+001	1.442144e+002
9.990061e+006	-3.537568e+001	1.564156e+002	-3.054881e+001	-2.476823e+001	-8.955490e+001	1.239135e+002	-3.217278e+001	1.443161e+002
9.990066e+006	-3.538018e+001	1.563141e+002	-3.054915e+001	-2.481969e+001	-9.149111e+001	1.373753e+002	-3.216290e+001	1.442801e+002
9.990070e+006	-3.536168e+001	1.563829e+002	-3.054464e+001	-2.474685e+001	-9.085881e+001	8.090174e+001	-3.216743e+001	1.442118e+002
9.990075e+006	-3.538087e+001	1.562598e+002	-3.055007e+001	-2.482394e+001	-8.939181e+001	1.376367e+002	-3.217330e+001	1.442696e+002
9.990080e+006	-3.537088e+001	1.563881e+002	-3.055400e+001	-2.484185e+001	-8.743010e+001	1.241987e+002	-3.217728e+001	1.442511e+002
9.990084e+006	-3.536986e+001	1.564124e+002	-3.055967e+001	-2.480194e+001	-9.290893e+001	7.420490e+001	-3.217323e+001	1.442666e+002
9.990089e+006	-3.538205e+001	1.565379e+002	-3.055528e+001	-2.488307e+001	-9.303913e+001	8.506615e+001	-3.217508e+001	1.443081e+002
9.990094e+006	-3.538061e+001	1.564660e+002	-3.056039e+001	-2.484616e+001	-9.364787e+001	1.369299e+002	-3.216378e+001	1.442977e+002
9.990098e+006	-3.537534e+001	1.564092e+002	-3.055061e+001	-2.493493e+001	-1.016219e+002	-4.782993e+001	-3.217940e+001	1.441794e+002
9.990103e+006	-3.537852e+001	1.564001e+002	-3.055926e+001	-2.484569e+001	-1.004064e+002	1.015892e+002	-3.218855e+001	1.442991e+002
9.990108e+006	-3.538171e+001	1.564520e+002	-3.055710e+001	-2.488054e+001	-9.190533e+001	8.203659e+001	-3.217035e+001	1.442680e+002
9.990113e+006	-3.537345e+001	1.564216e+002	-3.055150e+001	-2.488607e+001	-9.720659e+001	1.158666e+002	-3.217705e+001	1.442338e+002
9.990117e+006	-3.537655e+001	1.564226e+002	-3.055705e+001	-2.484670e+001	-9.239790e+001	2.919915e+001	-3.216965e+001	1.441791e+002
9.990122e+006	-3.537849e+001	1.563632e+002	-3.055846e+001	-2.481864e+001	-1.011731e+002	2.700256e+001	-3.218230e+001	1.442676e+002
9.990127e+006	-3.537031e+001	1.563897e+002	-3.057078e+001	-2.485229e+001	-8.731213e+001	6.376516e+001	-3.217684e+001	1.442436e+002
9.990131e+006	-3.537206e+001	1.563882e+002	-3.055998e+001	-2.481423e+001	-9.684418e+001	1.430239e+002	-3.216571e+001	1.442656e+002
9.990136e+006	-3.537462e+001	1.562180e+002	-3.056105e+001	-2.481856e+001	-1.021520e+002	2.361691e+001	-3.218151e+001	1.442847e+002
9.990141e+006	-3.538105e+001	1.562105e+002	-3.055762e+001	-2.477202e+001	-9.726068e+001	1.507366e+002	-3.218638e+001	1.442942e+002
9.990145e+006	-3.538342e+001	1.563827e+002	-3.055381e+001	-2.479364e+001	-9.472519e+001	1.631111e+002	-3.216652e+001	1.442639e+002
9.990150e+006	-3.538256e+001	1.564048e+002	-3.054753e+001	-2.483133e+001	-9.704893e+001	1.631826e+002	-3.217836e+001	1.443191e+002
9.990155e+006	-3.537597e+001	1.562937e+002	-3.054643e+001	-2.481056e+001	-9.294006e+001	6.581596e+001	-3.217533e+001	1.443093e+002
9.990159e+006	-3.537557e+001	1.563260e+002	-3.055592e+001	-2.482120e+001	-9.155837e+001	1.216259e+002	-3.217155e+001	1.442342e+002
9.990164e+006	-3.537240e+001	1.563108e+002	-3.054894e+001	-2.480494e+001	-8.424839e+001	6.350699e+001	-3.217050e+001	1.441357e+002
9.990169e+006	-3.538072e+001	1.563683e+002	-3.055448e+001	-2.483033e+001	-9.389671e+001	5.184191e+001	-3.217615e+001	1.442715e+002
9.990173e+006	-3.538079e+001	1.563540e+002	-3.054616e+001	-2.481383e+001	-9.237378e+001	-1.239931e+002	-3.217492e+001	1.442166e+002
9.990178e+006	-3.536979e+001	1.562867e+002	-3.056158e+001	-2.480918e+001	-9.659544e+001	3.334623e+001	-3.218358e+001	1.443036e+002
9.990183e+006	-3.538301e+001	1.563719e+002	-3.054620e+001	-2.481008e+001	-9.317944e+001	8.270301e+001	-3.217330e+001	1.442958e+002
9.990188e+006	-3.538587e+001	1.563723e+002	-3.056472e+001	-2.473515e+001	-9.461944e+001	-8.410776e+001	-3.218566e+001	1.442673e+002
9.990192e+006	-3.538580e+001	1.563820e+002	-3.056360e+001	-2.478086e+001	-9.292972e+001	6.933784e+001	-3.217558e+001	1.442615e+002
9.990197e+006	-3.538993e+001	1.564360e+002	-3.054841e+001	-2.470940e+001	-8.945843e+001	1.081846e+002	-3.217112e+001	1.441967e+002
9.990202e+006	-3.537826e+001	1.564197e+002	-3.055098e+001	-2.490003e+001	-9.388280e+001	1.192661e+002	-3.218690e+001	1.442276e+002
9.990206e+006	-3.536710e+001	1.563116e+002	-3.054930e+001	-2.476208e+001	-9.164693e+001	2.454764e+001	-3.218258e+001	1.442555e+002
9.990211e+006	-3.537174e+001	1.562095e+002	-3.055466e+001	-2.478740e+001	-9.747645e+001	3.084703e+001	-3.217093e+001	1.441720e+002
9.990216e+006	-3.537098e+001	1.563997e+002	-3.055725e+001	-2.476460e+001	-9.172667e+001	1.267395e+002	-3.216886e+001	1.442258e+002
9.990220e+006	-3.538115e+001	1.563614e+002	-3.055199e+001	-2.480943e+001	-9.553158e+001	-1.061399e+002	-3.217633e+001	1.442413e+002
9.990225e+006	-3.538178e+001	1.562714e+002	-3.055357e+001	-2.479052e+001	-1.009216e+002	1.268508e+002	-3.217504e+001	1.441925e+002
9.990230e+006	-3.539057e+001	1.562630e+002	-3.054465e+001	-2.478504e+001	-8.696184e+001	8.735397e+001	-3.217590e+001	1.442646e+002
9.990234e+006	-3.537455e+001	1.564012e+002	-3.055412e+001	-2.485893e+001	-8.798452e+001	6.963363e+001	-3.216338e+001	1.442599e+002
9.990239e+006	-3.536875e+001	1.563563e+002	-3.055733e+001	-2.480261e+001	-9.389129e+001	-6.294458e+001	-3.217291e+001	1.442575e+002
9.990244e+006	-3.538787e+001	1.563662e+002	-3.055530e+001	-2.480322e+001	-9.207756e+001	9.678200e+001	-3.216923e+001	1.442359e+002
9.990248e+006	-3.536749e+001	1.562998e+002	-3.055733e+001	-2.484226e+001	-9.017687e+001	1.642135e+002	-3.216226e+001	1.442113e+002
9.990253e+006	-3.538196e+001	1.564034e+002	-3.053692e+001	-2.478276e+001	-1.042297e+002	1.163640e+002	-3.217138e+001	1.442696e+002
9.990258e+006	-3.535707e+001	1.563824e+002	-3.054828e+001	-2.481607e+001	-9.260181e+001	3.599029e+001	-3.217863e+001	1.442198e+002
9.990263e+006	-3.537707e+001	1.563225e+002	-3.055171e+001	-2.477817e+001	-9.257626e+001	1.649454e+000	-3.216800e+001	1.442544e+002
9.990267e+006	-3.538202e+001	1.564066e+002	-3.055798e+001	-2.485673e+001	-1.116580e+002	1.260290e+002	-3.217228e+001	1.442527e+002
9.990272e+006	-3.537755e+001	1.562516e+002	-3.054658e+001	-2.477758e+001	-9.797473e+001	-1.219081e+001	-3.215721e+001	1.442224e+002
9.990277e+006	-3.538257e+001	1.563097e+002	-3.054594e+001	-2.480756e+001	-8.782601e+001	1.259811e+002	-3.217683e+001	1.442210e+002
9.990281e+006	-3.536443e+001	1.563864e+002	-3.055138e+001	-2.479474e+001	-9.894973e+001	9.951060e+001	-3.217668e+001	1.442828e+002
9.990286e+006	-3.538625e+001	1.563843e+002	-3.054225e+001	-2.485921e+001	-8.893350e+001	1.160578e+002	-3.218487e+001	1.442405e+002
9.990291e+006	-3.537008e+001	1.563511e+002	-3.054052e+001	-2.477266e+001	-9.479717e+001	9.475023e+001	-3.218788e+001	1.443158e+002
9.990295e+006	-3.538198e+001	1.563295e+002	-3.055000e+001	-2.475435e+001	-8.978264e+001	-1.269978e+002	-3.217488e+001	1.442654e+002
9.990300e+006	-3.537178e+001	1.563276e+002	-3.054712e+001	-2.478553e+001	-9.167700e+001	1.056199e+002	-3.217066e+001	1.442120e+002
9.990305e+006	-3.537484e+001	1.564464e+002	-3.055332e+001	-2.477905e+001	-8.773149e+001	-1.678428e+002	-3.217155e+001	1.442471e+002
9.990309e+006	-3.537485e+001	1.564331e+002	-3.054378e+001	-2.480863e+001	-8.969098e+001	7.501028e+001	-3.217418e+001	1.441936e+002
9.990314e+006	-3.537284e+001	1.563167e+002	-3.055151e+001	-2.475927e+001	-8.487993e+001	9.162294e+001	-3.215825e+001	1.442629e+002
9.990319e+006	-3.537310e+001	1.563388e+002	-3.054476e+001	-2.481399e+001	-9.439561e+001	-1.389767e+002	-3.217758e+001	1.442569e+002
9.990323e+006	-3.538230e+001	1.563760e+002	-3.053930e+001	-2.478311e+001	-9.178607e+001	1.397584e+002	-3.217547e+001	1.442471e+002
9.990328e+006	-3.538699e+001	1.564146e+002	-3.055272e+001	-2.474077e+001	-8.521461e+001	1.222412e+002	-3.218385e+001	1.442398e+002
9.990333e+006	-3.537284e+001	1.562955e+002	-3.054667e+001	-2.481997e+001	-9.983834e+001	-5.852244e+001	-3.217075e+001	1.442295e+002
9.990338e+006	-3.537266e+001	1.564140e+002	-3.055257e+001	-2.474689e+001	-9.536427e+001	4.562193e+001	-3.216955e+001	1.442047e+002
9.990342e+006	-3.538415e+001	1.564211e+002	-3.054429e+001	-2.486288e+001	-9.130228e+001	-8.176464e+001	-3.217877e+001	1.442878e+002
9.990347e+006	-3.536745e+001	1.563461e+002	-3.053591e+001	-2.479939e+001	-9.405760e+001	9.505808e+001	-3.217579e+001	1.442064e+002
9.990352e+006	-3.536954e+001	1.564201e+002	-3.055741e+001	-2.482493e+001	-1.031951e+002	-1.540898e+002	-3.216663e+001	1.442166e+002
9.990356e+006	-3.538508e+001	1.563761e+002	-3.054270e+001	-2.480668e+001	-9.582720e+001	1.505230e+002	-3.216577e+001	1.442961e+002
9.990361e+006	-3.537102e+001	1.564118e+002	-3.054931e+001	-2.479832e+001	-9.713516e+001	1.721405e+002	-3.217664e+001	1.442725e+002
9.990366e+006	-3.538627e+001	1.563747e+002	-3.053765e+001	-2.480212e+001	-9.131201e+001	1.092170e+002	-3.216953e+001	1.442318e+002
9.990370e+006	-3.537470e+001	1.563894e+002	-3.055111e+001	-2.482125e+001	-9.176734e+001	1.208761e+002	-3.217462e+001	1.442484e+002
9.990375e+006	-3.537338e+001	1.563640e+002	-3.054476e+001	-2.482453e+001	-1.047966e+002	1.633447e+002	-3.218390e+001	1.442215e+002
9.990380e+006	-3.537237e+001	1.563159e+002	-3.053974e+001	-2.480000e+001	-9.139461e+001	8.196869e+001	-3.216702e+001	1.443285e+002
9.990384e+006	-3.537833e+001	1.564147e+002	-3.054169e+001	-2.476834e+001	-9.609924e+001	1.058913e+002	-3.215359e+001	1.442428e+002
9.990389e+006	-3.537429e+001	1.564255e+002	-3.054967e+001	-2.482014e+001	-9.282030e+001	9.117478e+001	-3.216890e+001	1.443053e+002
9.990394e+006	-3.537771e+001	1.563699e+002	-3.055002e+001	-2.479975e+001	-9.347172e+001	1.458570e+002	-3.216159e+001	1.442940e+002
9.990398e+006	-3.537688e+001	1.563078e+002	-3.054867e+001	-2.476363e+001	-9.211805e+001	1.119984e+002	-3.216976e+001	1.442582e+002
9.990403e+006	-3.539072e+001	1.563576e+002	-3.053952e+001	-2.481305e+001	-9.076749e+001	9.818904e+001	-3.216299e+001	1.442515e+002
9.990408e+006	-3.538638e+001	1.563110e+002	-3.055526e+001	-2.479565e+001	-8.615987e+001	7.967166e+001	-3.216691e+001	1.442818e+002
9.990413e+006	-3.538275e+001	1.563515e+002	-3.053991e+001	-2.481984e+001	-9.369666e+001	1.108808e+002	-3.216988e+001	1.442450e+002
9.990417e+006	-3.537763e+001	1.564599e+002	-3.054082e+001	-2.474391e+001	-9.414468e+001	7.537112e+001	-3.217785e+001	1.443021e+002
9.990422e+006	-3.538158e+001	1.563437e+002	-3.053485e+001	-2.477343e+001	-8.646295e+001	6.594109e+001	-3.217812e+001	1.443221e+002
9.990427e+006	-3.536814e+001	1.563479e+002	-3.054048e+001	-2.475902e+001	-8.675595e+001	-7.681920e+000	-3.218215e+001	1.443169e+002
9.990431e+006	-3.539032e+001	1.563002e+002	-3.054860e+001	-2.480581e+001	-8.810803e+001	3.692933e+001	-3.216190e+001	1.442530e+002
9.990436e+006	-3.537811e+001	1.563824e+002	-3.054226e+001	-2.478048e+001	-9.716646e+001	1.156864e+002	-3.216014e+001	1.442413e+002
9.990441e+006	-3.538086e+001	1.563141e+002	-3.054600e+001	-2.477942e+001	-8.869286e+001	7.968673e+001	-3.217889e+001	1.442225e+002
9.990445e+006	-3.537922e+001	1.563429e+002	-3.055597e+001	-2.473053e+001	-9.403447e+001	-1.014539e+002	-3.217307e+001	1.442739e+002
9.990450e+006	-3.537220e+001	1.564168e+002	-3.055016e+001	-2.482925e+001	-9.314338e+001	1.593358e+002	-3.216543e+001	1.442513e+002
9.990455e+006	-3.537383e+001	1.563071e+002	-3.054108e+001	-2.483608e+001	-9.893726e+001	1.619330e+002	-3.217170e+001	1.442243e+002
9.990459e+006	-3.538377e+001	1.563223e+002	-3.054818e+001	-2.481541e+001	-1.105448e+002	8.393941e+001	-3.217003e+001	1.442825e+002
9.990464e+006	-3.537056e+001	1.563168e+002	-3.055114e+001	-2.475106e+001	-9.039396e+001	9.885438e+000	-3.216961e+001	1.442621e+002
9.990469e+006	-3.538273e+001	1.563788e+002	-3.054329e+001	-2.482542e+001	-9.114202e+001	-9.824703e+000	-3.216640e+001	1.443019e+002
9.990473e+006	-3.537468e+001	1.562998e+002	-3.054327e+001	-2.472514e+001	-9.094019e+001	1.068961e+002	-3.216266e+001	1.442466e+002
9.990478e+006	-3.537209e+001	1.563382e+002	-3.054531e+001	-2.480191e+001	-9.919691e+001	7.980856e+001	-3.217006e+001	1.442013e+002
9.990483e+006	-3.538778e+001	1.563220e+002	-3.054324e+001	-2.477564e+001	-9.218571e+001	2.488340e+001	-3.218764e+001	1.442316e+002
9.990488e+006	-3.536908e+001	1.564140e+002	-3.054356e+001	-2.481736e+001	-9.422790e+001	-8.548523e-001	-3.217026e+001	1.442264e+002
9.990492e+006	-3.536493e+001	1.564000e+002	-3.055432e+001	-2.473747e+001	-8.586022e+001	1.306764e+002	-3.216276e+001	1.442449e+002
9.990497e+006	-3.538360e+001	1.564048e+002	-3.054066e+001	-2.474321e+001	-8.960373e+001	1.083304e+002	-3.217104e+001	1.442853e+002
9.990502e+006	-3.537101e+001	1.564312e+002	-3.053628e+001	-2.480523e+001	-8.720550e+001	9.635682e+001	-3.217402e+001	1.442896e+002
9.990506e+006	-3.537196e+001	1.563792e+002	-3.054337e+001	-2.482776e+001	-9.289946e+001	2.733407e+001	-3.217041e+001	1.442565e+002
9.990511e+006	-3.537555e+001	1.562746e+002	-3.053466e+001	-2.477536e+001	-9.066584e+001	1.214686e+002	-3.216207e+001	1.442621e+002
9.990516e+006	-3.537739e+001	1.563472e+002	-3.053779e+001	-2.480029e+001	-8.882699e+001	5.609722e+001	-3.216572e+001	1.442328e+002
9.990520e+006	-3.536913e+001	1.563560e+002	-3.054642e+001	-2.469345e+001	-1.006580e+002	5.303572e+001	-3.216968e+001	1.441980e+002
9.990525e+006	-3.538079e+001	1.563905e+002	-3.053765e+001	-2.482626e+001	-8.872553e+001	1.402433e+002	-3.216987e+001	1.442261e+002
9.990530e+006	-3.538519e+001	1.564468e+002	-3.055119e+001	-2.482506e+001	-1.026415e+002	1.777269e+002	-3.217003e+001	1.442316e+002
9.990534e+006	-3.537014e+001	1.563962e+002	-3.053291e+001	-2.476896e+001	-8.830672e+001	9.617817e+001	-3.216262e+001	1.442244e+002
9.990539e+006	-3.536804e+001	1.563854e+002	-3.054152e+001	-2.481883e+001	-9.703357e+001	-5.473170e+001	-3.217090e+001	1.442395e+002
9.990544e+006	-3.537850e+001	1.563028e+002	-3.054244e+001	-2.478374e+001	-8.573480e+001	8.261925e+001	-3.217570e+001	1.442719e+002
9.990548e+006	-3.537616e+001	1.563266e+002	-3.054242e+001	-2.485197e+001	-9.325289e+001	8.144173e+001	-3.216347e+001	1.442353e+002
9.990553e+006	-3.538182e+001	1.563709e+002	-3.054762e+001	-2.472818e+001	-9.908339e+001	1.157129e+002	-3.216590e+001	1.442195e+002
9.990558e+006	-3.539437e+001	1.563741e+002	-3.054591e+001	-2.484983e+001	-9.587550e+001	1.614645e+002	-3.217074e+001	1.442522e+002
9.990563e+006	-3.537347e+001	1.563840e+002	-3.054387e+001	-2.483690e+001	-9.317136e+001	-3.344050e+001	-3.217157e+001	1.442781e+002
9.990567e+006	-3.536642e+001	1.562822e+002	-3.054910e+001	-2.479528e+001	-1.058353e+002	-1.323644e+002	-3.217613e+001	1.442105e+002
9.990572e+006	-3.538189e+001	1.564248e+002	-3.054015e+001	-2.480012e+001	-9.051728e+001	8.500062e+001	-3.217385e+001	1.442608e+002
9.990577e+006	-3.537452e+001	1.564168e+002	-3.054736e+001	-2.482067e+001	-9.058427e+001	9.276924e+001	-3.217673e+001	1.442236e+002
9.990581e+006	-3.536708e+001	1.563642e+002	-3.054285e+001	-2.480631e+001	-1.042077e+002	9.323540e+001	-3.217243e+001	1.442776e+002
9.990586e+006	-3.536420e+001	1.563476e+002	-3.054286e+001	-2.485436e+001	-9.231676e+001	1.798659e+002	-3.218083e+001	1.441964e+002
9.990591e+006	-3.539379e+001	1.563507e+002	-3.054273e+001	-2.482897e+001	-8.996123e+001	1.080307e+002	-3.218388e+001	1.442459e+002
9.990595e+006	-3.538498e+001	1.563849e+002	-3.054392e+001	-2.479027e+001	-9.026568e+001	3.449552e+001	-3.217481e+001	1.442206e+002
9.990600e+006	-3.538780e+001	1.563968e+002	-3.054818e+001	-2.483166e+001	-9.304642e+001	1.088329e+002	-3.218596e+001	1.442726e+002
9.990605e+006	-3.537553e+001	1.564226e+002	-3.054539e+001	-2.476269e+001	-9.275992e+001	1.501035e+002	-3.217057e+001	1.442899e+002
9.990609e+006	-3.536569e+001	1.564415e+002	-3.055172e+001	-2.478876e+001	-1.002466e+002	1.759898e+002	-3.217770e+001	1.442518e+002
9.990614e+006	-3.537715e+001	1.564580e+002	-3.055232e+001	-2.486392e+001	-8.865661e+001	1.292496e+002	-3.216550e+001	1.443081e+002
9.990619e+006	-3.538004e+001	1.565530e+002	-3.055145e+001	-2.479048e+001	-9.880965e+001	-9.445152e+001	-3.216723e+001	1.442080e+002
9.990623e+006	-3.538785e+001	1.565010e+002	-3.054422e+001	-2.481239e+001	-9.136950e+001	6.606284e+001	-3.217454e+001	1.442422e+002
9.990628e+006	-3.537545e+001	1.564169e+002	-3.054330e+001	-2.477257e+001	-9.080429e+001	-2.840070e+001	-3.216999e+001	1.442738e+002
9.990633e+006	-3.538646e+001	1.563479e+002	-3.053067e+001	-2.479524e+001	-8.789311e+001	3.867365e+001	-3.216934e+001	1.442719e+002
9.990638e+006	-3.538400e+001	1.563119e+002	-3.054648e+001	-2.476972e+001	-8.906393e+001	1.517623e+002	-3.217473e+001	1.441745e+002
9.990642e+006	-3.538146e+001	1.563544e+002	-3.054068e+001	-2.482164e+001	-1.021845e+002	1.621184e+002	-3.216972e+001	1.442234e+002
9.990647e+006	-3.537063e+001	1.562251e+002	-3.053650e+001	-2.475923e+001	-1.042119e+002	-1.569733e+002	-3.217831e+001	1.442084e+002
9.990652e+006	-3.538168e+001	1.563726e+002	-3.054591e+001	-2.481276e+001	-9.632357e+001	-1.675616e+002	-3.217291e+001	1.441902e+002
9.990656e+006	-3.537803e+001	1.563817e+002	-3.054318e+001	-2.486194e+001	-9.848723e+001	4.246732e+001	-3.217530e+001	1.442669e+002
9.990661e+006	-3.539493e+001	1.564274e+002	-3.054327e+001	-2.475976e+001	-1.057197e+002	5.583670e+001	-3.216934e+001	1.442006e+002
9.990666e+006	-3.536548e+001	1.563169e+002	-3.054602e+001	-2.476991e+001	-9.027392e+001	-7.854897e+001	-3.216632e+001	1.442818e+002
9.990670e+006	-3.537107e+001	1.564082e+002	-3.055247e+001	-2.477333e+001	-9.157380e+001	9.950402e+001	-3.217891e+001	1.443279e+002
9.990675e+006	-3.536760e+001	1.563884e+002	-3.053952e+001	-2.482772e+001	-9.521358e+001	8.657646e+001	-3.217006e+001	1.442882e+002
9.990680e+006	-3.537684e+001	1.562885e+002	-3.054449e+001	-2.487965e+001	-1.088844e+002	1.011792e+002	-3.217051e+001	1.442581e+002
9.990684e+006	-3.537848e+001	1.563958e+002	-3.054780e+001	-2.474052e+001	-9.318423e+001	1.343746e+002	-3.218093e+001	1.442381e+002
9.990689e+006	-3.537701e+001	1.563924e+002	-3.055666e+001	-2.483060e+001	-9.396220e+001	-1.657734e+002	-3.215937e+001	1.442362e+002
9.990694e+006	-3.538210e+001	1.563738e+002	-3.053637e+001	-2.474557e+001	-9.270874e+001	1.254205e+002	-3.218817e+001	1.442531e+002
9.990698e+006	-3.538521e+001	1.563645e+002	-3.055161e+001	-2.482874e+001	-8.772873e+001	6.646401e+001	-3.217234e+001	1.443110e+002
