# Hz S dB R 50.000
3.288594e+06	-4.362205e+01	-9.495478e+01	-3.059314e+01	-6.807209e+00	-9.159294e+01	4.250056e+00	-5.483261e+01	9.595710e+01
3.288625e+06	-4.361569e+01	-9.496285e+01	-3.059207e+01	-6.795711e+00	-9.282497e+01	1.058508e+01	-5.481907e+01	9.603503e+01
3.288656e+06	-4.360933e+01	-9.497090e+01	-3.059101e+01	-6.784215e+00	-9.409420e+01	1.904774e+01	-5.480554e+01	9.611272e+01
3.288688e+06	-4.360297e+01	-9.497894e+01	-3.058994e+01	-6.772723e+00	-9.528334e+01	3.031051e+01	-5.479202e+01	9.619017e+01
3.288719e+06	-4.359662e+01	-9.498697e+01	-3.058887e+01	-6.761233e+00	-9.616418e+01	4.466191e+01	-5.477850e+01	9.626738e+01
3.288750e+06	-4.359037e+01	-9.499473e+01	-3.058780e+01	-6.749879e+00	-9.645165e+01	6.102447e+01	-5.476502e+01	9.634424e+01
3.288782e+06	-4.359560e+01	-9.496978e+01	-3.058637e+01	-6.754947e+00	-9.643803e+01	6.421936e+01	-5.475645e+01	9.640731e+01
3.288813e+06	-4.360082e+01	-9.494480e+01	-3.058495e+01	-6.760014e+00	-9.639763e+01	6.739443e+01	-5.474787e+01	9.647027e+01
3.288844e+06	-4.360605e+01	-9.491978e+01	-3.058353e+01	-6.765079e+00	-9.633121e+01	7.053066e+01	-5.473929e+01	9.653310e+01
3.288875e+06	-4.361127e+01	-9.489474e+01	-3.058210e+01	-6.770142e+00	-9.623993e+01	7.361040e+01	-5.473071e+01	9.659581e+01
3.288906e+06	-4.361630e+01	-9.486975e+01	-3.058078e+01	-6.775104e+00	-9.617815e+01	7.679565e+01	-5.472246e+01	9.665461e+01
3.288938e+06	-4.360849e+01	-9.484965e+01	-3.058596e+01	-6.773909e+00	-9.952262e+01	9.808888e+01	-5.473497e+01	9.648078e+01
3.288969e+06	-4.360070e+01	-9.482959e+01	-3.059114e+01	-6.772712e+00	-1.011813e+02	1.383294e+02	-5.474742e+01	9.630645e+01
3.289000e+06	-4.359291e+01	-9.480956e+01	-3.059632e+01	-6.771515e+00	-9.870329e+01	1.743338e+02	-5.475981e+01	9.613162e+01
3.289032e+06	-4.358513e+01	-9.478957e+01	-3.060151e+01	-6.770315e+00	-9.541448e+01	-1.680500e+02	-5.477213e+01	9.595629e+01
3.289063e+06	-4.357735e+01	-9.476962e+01	-3.060670e+01	-6.769115e+00	-9.272350e+01	-1.593053e+02	-5.478439e+01	9.578047e+01
3.289094e+06	-4.358545e+01	-9.478055e+01	-3.060220e+01	-6.769031e+00	-9.926551e+01	-1.282439e+02	-5.478347e+01	9.593280e+01
3.289125e+06	-4.359368e+01	-9.479175e+01	-3.059763e+01	-6.768956e+00	-9.829472e+01	-4.694403e+01	-5.478238e+01	9.608775e+01
3.289156e+06	-4.360192e+01	-9.480297e+01	-3.059306e+01	-6.768882e+00	-9.200203e+01	-2.158106e+01	-5.478122e+01	9.624265e+01
3.289188e+06	-4.361017e+01	-9.481421e+01	-3.058849e+01	-6.768807e+00	-8.805169e+01	-1.401212e+01	-5.478000e+01	9.639751e+01
3.289219e+06	-4.361842e+01	-9.482547e+01	-3.058392e+01	-6.768733e+00	-8.529512e+01	-1.052318e+01	-5.477872e+01	9.655233e+01
3.289250e+06	-4.361822e+01	-9.482683e+01	-3.058393e+01	-6.780628e+00	-8.708290e+01	-1.648785e+01	-5.479373e+01	9.639026e+01
3.289282e+06	-4.361802e+01	-9.482819e+01	-3.058395e+01	-6.792523e+00	-8.914670e+01	-2.580531e+01	-5.480869e+01	9.622763e+01
3.289313e+06	-4.361782e+01	-9.482955e+01	-3.058396e+01	-6.804418e+00	-9.134750e+01	-4.114482e+01	-5.482361e+01	9.606444e+01
3.289344e+06	-4.361762e+01	-9.483091e+01	-3.058398e+01	-6.816313e+00	-9.295892e+01	-6.536836e+01	-5.483849e+01	9.590069e+01
3.289375e+06	-4.361740e+01	-9.483256e+01	-3.058400e+01	-6.828081e+00	-9.273052e+01	-9.376704e+01	-5.485296e+01	9.573875e+01
3.289406e+06	-4.361456e+01	-9.487048e+01	-3.058529e+01	-6.824076e+00	-9.327953e+01	-8.193149e+01	-5.482338e+01	9.587128e+01
3.289438e+06	-4.361172e+01	-9.490837e+01	-3.058658e+01	-6.820070e+00	-9.343719e+01	-6.907630e+01	-5.479385e+01	9.600290e+01
3.289469e+06	-4.360887e+01	-9.494623e+01	-3.058786e+01	-6.816063e+00	-9.316044e+01	-5.639909e+01	-5.476437e+01	9.613363e+01
3.289500e+06	-4.360602e+01	-9.498407e+01	-3.058915e+01	-6.812054e+00	-9.252277e+01	-4.500659e+01	-5.473495e+01	9.626348e+01
3.289532e+06	-4.360331e+01	-9.502063e+01	-3.059039e+01	-6.808052e+00	-9.169451e+01	-3.543758e+01	-5.470615e+01	9.638935e+01
3.289563e+06	-4.360880e+01	-9.498002e+01	-3.058861e+01	-6.804520e+00	-9.289045e+01	-2.525418e+01	-5.471240e+01	9.632361e+01
3.289594e+06	-4.361429e+01	-9.493935e+01	-3.058682e+01	-6.800990e+00	-9.386570e+01	-1.213320e+01	-5.471864e+01	9.625778e+01
3.289625e+06	-4.361978e+01	-9.489863e+01	-3.058503e+01	-6.797460e+00	-9.435569e+01	3.455006e+00	-5.472488e+01	9.619185e+01
3.289656e+06	-4.362527e+01	-9.485787e+01	-3.058325e+01	-6.793933e+00	-9.417299e+01	1.961966e+01	-5.473111e+01	9.612583e+01
3.289688e+06	-4.363076e+01	-9.481705e+01	-3.058146e+01	-6.790406e+00	-9.339238e+01	3.404826e+01	-5.473733e+01	9.605971e+01
3.289719e+06	-4.362296e+01	-9.482143e+01	-3.058411e+01	-6.795948e+00	-9.764341e+01	2.313778e+01	-5.476005e+01	9.624567e+01
3.289750e+06	-4.361507e+01	-9.482617e+01	-3.058678e+01	-6.801567e+00	-1.036148e+02	-1.557670e+01	-5.478287e+01	9.643465e+01
3.289782e+06	-4.360718e+01	-9.483091e+01	-3.058946e+01	-6.807189e+00	-1.011894e+02	-8.575779e+01	-5.480565e+01	9.662463e+01
3.289813e+06	-4.359930e+01	-9.483563e+01	-3.059214e+01	-6.812814e+00	-9.569160e+01	-1.079584e+02	-5.482840e+01	9.681560e+01
3.289844e+06	-4.359143e+01	-9.484035e+01	-3.059482e+01	-6.818443e+00	-9.204540e+01	-1.155357e+02	-5.485111e+01	9.700758e+01
3.289875e+06	-4.358619e+01	-9.483620e+01	-3.059526e+01	-6.812586e+00	-9.654825e+01	-1.113425e+02	-5.482692e+01	9.659067e+01
3.289906e+06	-4.358094e+01	-9.483205e+01	-3.059570e+01	-6.806728e+00	-1.057277e+02	-9.065245e+01	-5.480235e+01	9.617610e+01
3.289938e+06	-4.357571e+01	-9.482791e+01	-3.059614e+01	-6.800870e+00	-1.039328e+02	3.357894e+01	-5.477739e+01	9.576389e+01
3.289969e+06	-4.357047e+01	-9.482378e+01	-3.059658e+01	-6.795011e+00	-9.580935e+01	4.888151e+01	-5.475206e+01	9.535405e+01
3.290000e+06	-4.356531e+01	-9.481977e+01	-3.059702e+01	-6.789142e+00	-9.161948e+01	5.249070e+01	-5.472671e+01	9.495333e+01
3.290032e+06	-4.356939e+01	-9.483153e+01	-3.059698e+01	-6.782096e+00	-9.146901e+01	4.903599e+01	-5.474422e+01	9.538697e+01
3.290063e+06	-4.357347e+01	-9.484329e+01	-3.059694e+01	-6.775051e+00	-9.129122e+01	4.570954e+01	-5.476127e+01	9.582233e+01
3.290094e+06	-4.357756e+01	-9.485507e+01	-3.059689e+01	-6.768006e+00	-9.108954e+01	4.252544e+01	-5.477784e+01	9.625938e+01
3.290125e+06	-4.358164e+01	-9.486686e+01	-3.059685e+01	-6.760960e+00	-9.086746e+01	3.949310e+01	-5.479394e+01	9.669808e+01
3.290156e+06	-4.358565e+01	-9.487904e+01	-3.059679e+01	-6.754313e+00	-9.065428e+01	3.677784e+01	-5.480929e+01	9.713005e+01
3.290188e+06	-4.358526e+01	-9.491459e+01	-3.059571e+01	-6.772119e+00	-9.204885e+01	4.530020e+01	-5.480775e+01	9.704975e+01
3.290219e+06	-4.358486e+01	-9.495014e+01	-3.059463e+01	-6.789921e+00	-9.339269e+01	5.701972e+01	-5.480619e+01	9.696949e+01
3.290250e+06	-4.358445e+01	-9.498569e+01	-3.059354e+01	-6.807719e+00	-9.441264e+01	7.248484e+01	-5.480462e+01	9.688926e+01
3.290282e+06	-4.358404e+01	-9.502123e+01	-3.059245e+01	-6.825512e+00	-9.473156e+01	9.060985e+01	-5.480303e+01	9.680906e+01
3.290313e+06	-4.358363e+01	-9.505678e+01	-3.059137e+01	-6.843301e+00	-9.419116e+01	1.082633e+02	-5.480142e+01	9.672888e+01
3.290344e+06	-4.357994e+01	-9.499255e+01	-3.059285e+01	-6.858998e+00	-9.615563e+01	9.531081e+01	-5.481123e+01	9.650110e+01
3.290375e+06	-4.357622e+01	-9.492758e+01	-3.059435e+01	-6.874685e+00	-9.780460e+01	7.505567e+01	-5.482101e+01	9.627162e+01
3.290406e+06	-4.357249e+01	-9.486267e+01	-3.059584e+01	-6.890376e+00	-9.814480e+01	4.925137e+01	-5.483066e+01	9.604162e+01
3.290438e+06	-4.356874e+01	-9.479781e+01	-3.059734e+01	-6.906073e+00	-9.688513e+01	2.619889e+01	-5.484017e+01	9.581111e+01
3.290469e+06	-4.356499e+01	-9.473301e+01	-3.059884e+01	-6.921776e+00	-9.494133e+01	1.048732e+01	-5.484956e+01	9.558010e+01
3.290500e+06	-4.356828e+01	-9.475254e+01	-3.059545e+01	-6.901637e+00	-9.355176e+01	1.880210e+01	-5.484446e+01	9.578611e+01
3.290532e+06	-4.357158e+01	-9.477208e+01	-3.059206e+01	-6.881514e+00	-9.223760e+01	2.488282e+01	-5.483924e+01	9.599188e+01
3.290563e+06	-4.357488e+01	-9.479164e+01	-3.058868e+01	-6.861406e+00	-9.103227e+01	2.942873e+01	-5.483392e+01	9.619739e+01
3.290594e+06	-4.357817e+01	-9.481122e+01	-3.058529e+01	-6.841315e+00	-8.993688e+01	3.291529e+01	-5.482849e+01	9.640266e+01
3.290625e+06	-4.358153e+01	-9.483058e+01	-3.058193e+01	-6.821406e+00	-8.895549e+01	3.563489e+01	-5.482320e+01	9.660669e+01
3.290656e+06	-4.359273e+01	-9.482136e+01	-3.058251e+01	-6.822280e+00	-8.976699e+01	3.550535e+01	-5.484818e+01	9.669014e+01
3.290688e+06	-4.360394e+01	-9.481213e+01	-3.058309e+01	-6.823154e+00	-9.066214e+01	3.534770e+01	-5.487320e+01	9.677408e+01
3.290719e+06	-4.361517e+01	-9.480286e+01	-3.058367e+01	-6.824028e+00	-9.166016e+01	3.515164e+01	-5.489829e+01	9.685851e+01
3.290750e+06	-4.362641e+01	-9.479358e+01	-3.058424e+01	-6.824902e+00	-9.278778e+01	3.490123e+01	-5.492342e+01	9.694342e+01
3.290782e+06	-4.363728e+01	-9.478496e+01	-3.058481e+01	-6.825921e+00	-9.406203e+01	3.463165e+01	-5.494789e+01	9.702694e+01
3.290813e+06	-4.362508e+01	-9.481879e+01	-3.058467e+01	-6.835848e+00	-9.408794e+01	3.810028e+01	-5.492781e+01	9.699482e+01
3.290844e+06	-4.361289e+01	-9.485253e+01	-3.058453e+01	-6.845775e+00	-9.408194e+01	4.157687e+01	-5.490777e+01	9.696285e+01
3.290875e+06	-4.360071e+01	-9.488617e+01	-3.058438e+01	-6.855702e+00	-9.404415e+01	4.503595e+01	-5.488777e+01	9.693103e+01
3.290906e+06	-4.358855e+01	-9.491972e+01	-3.058424e+01	-6.865628e+00	-9.397540e+01	4.845282e+01	-5.486782e+01	9.689935e+01
3.290938e+06	-4.357640e+01	-9.495317e+01	-3.058410e+01	-6.875555e+00	-9.387713e+01	5.180454e+01	-5.484791e+01	9.686781e+01
3.290969e+06	-4.357966e+01	-9.494958e+01	-3.058497e+01	-6.851878e+00	-9.566508e+01	4.344201e+01	-5.485037e+01	9.691888e+01
3.291000e+06	-4.358306e+01	-9.494570e+01	-3.058584e+01	-6.827925e+00	-9.756745e+01	3.044210e+01	-5.485300e+01	9.697065e+01
3.291032e+06	-4.358645e+01	-9.494180e+01	-3.058671e+01	-6.803967e+00	-9.912974e+01	1.085673e+01	-5.485563e+01	9.702245e+01
3.291063e+06	-4.358984e+01	-9.493791e+01	-3.058758e+01	-6.780005e+00	-9.948360e+01	-1.384858e+01	-5.485825e+01	9.707429e+01
3.291094e+06	-4.359324e+01	-9.493401e+01	-3.058845e+01	-6.756038e+00	-9.834446e+01	-3.629521e+01	-5.486087e+01	9.712615e+01
3.291125e+06	-4.359461e+01	-9.493140e+01	-3.058842e+01	-6.776752e+00	-9.928556e+01	-1.504458e+01	-5.486567e+01	9.702001e+01
3.291156e+06	-4.359598e+01	-9.492878e+01	-3.058839e+01	-6.797466e+00	-9.892194e+01	7.746039e+00	-5.487045e+01	9.691375e+01
3.291188e+06	-4.359735e+01	-9.492616e+01	-3.058836e+01	-6.818180e+00	-9.751318e+01	2.615905e+01	-5.487519e+01	9.680737e+01
3.291219e+06	-4.359872e+01	-9.492355e+01	-3.058833e+01	-6.838893e+00	-9.576393e+01	3.884364e+01	-5.487991e+01	9.670088e+01
3.291250e+06	-4.360009e+01	-9.492123e+01	-3.058829e+01	-6.859348e+00	-9.408080e+01	4.729495e+01	-5.488456e+01	9.659326e+01
3.291282e+06	-4.360112e+01	-9.495686e+01	-3.058734e+01	-6.847756e+00	-9.412304e+01	4.914178e+01	-5.488376e+01	9.635983e+01
3.291313e+06	-4.360214e+01	-9.499248e+01	-3.058638e+01	-6.836166e+00	-9.415634e+01	5.100475e+01	-5.488280e+01	9.612644e+01
3.291344e+06	-4.360316e+01	-9.502812e+01	-3.058542e+01	-6.824578e+00	-9.418048e+01	5.288009e+01	-5.488171e+01	9.589310e+01
3.291375e+06	-4.360418e+01	-9.506377e+01	-3.058446e+01	-6.812993e+00	-9.419532e+01	5.476386e+01	-5.488047e+01	9.565983e+01
3.291406e+06	-4.360510e+01	-9.509782e+01	-3.058352e+01	-6.801454e+00	-9.425078e+01	5.661698e+01	-5.487949e+01	9.543417e+01
3.291438e+06	-4.359997e+01	-9.503349e+01	-3.058354e+01	-6.792576e+00	-9.814076e+01	5.614042e+01	-5.490303e+01	9.567264e+01
3.291469e+06	-4.359483e+01	-9.496923e+01	-3.058357e+01	-6.783698e+00	-1.053649e+02	5.442693e+01	-5.492648e+01	9.591242e+01
3.291500e+06	-4.358969e+01	-9.490505e+01	-3.058359e+01	-6.774820e+00	-1.157052e+02	-1.125172e+02	-5.494984e+01	9.615348e+01
3.291532e+06	-4.358454e+01	-9.484095e+01	-3.058362e+01	-6.765941e+00	-1.012915e+02	-1.206423e+02	-5.497311e+01	9.639585e+01
3.291563e+06	-4.357938e+01	-9.477692e+01	-3.058364e+01	-6.757063e+00	-9.612895e+01	-1.214926e+02	-5.499628e+01	9.663952e+01
3.291594e+06	-4.357661e+01	-9.482644e+01	-3.058304e+01	-6.767439e+00	-1.014207e+02	-1.489911e+02	-5.495021e+01	9.637390e+01
3.291625e+06	-4.357385e+01	-9.487684e+01	-3.058243e+01	-6.777968e+00	-1.020469e+02	1.436184e+02	-5.490364e+01	9.610704e+01
3.291656e+06	-4.357109e+01	-9.492720e+01	-3.058182e+01	-6.788496e+00	-9.660333e+01	1.116024e+02	-5.485713e+01	9.584302e+01
3.291688e+06	-4.356832e+01	-9.497754e+01	-3.058122e+01	-6.799023e+00	-9.267066e+01	1.012250e+02	-5.481069e+01	9.558181e+01
3.291719e+06	-4.356555e+01	-9.502784e+01	-3.058061e+01	-6.809548e+00	-8.987750e+01	9.646158e+01	-5.476432e+01	9.532338e+01
3.291750e+06	-4.356804e+01	-9.501813e+01	-3.058032e+01	-6.809556e+00	-9.244479e+01	9.455119e+01	-5.479425e+01	9.543849e+01
3.291782e+06	-4.357054e+01	-9.500841e+01	-3.058003e+01	-6.809563e+00	-9.607525e+01	9.064939e+01	-5.482425e+01	9.555439e+01
3.291813e+06	-4.357303e+01	-9.499869e+01	-3.057973e+01	-6.809571e+00	-1.021737e+02	7.861089e+01	-5.485432e+01	9.567110e+01
3.291844e+06	-4.357553e+01	-9.498896e+01	-3.057944e+01	-6.809578e+00	-1.096732e+02	-7.802280e+00	-5.488445e+01	9.578862e+01
3.291875e+06	-4.357799e+01	-9.497924e+01	-3.057915e+01	-6.809705e+00	-1.002055e+02	-5.973436e+01	-5.491451e+01	9.590694e+01
3.291906e+06	-4.357633e+01	-9.497072e+01	-3.057867e+01	-6.824614e+00	-1.053159e+02	-8.122059e+01	-5.492722e+01	9.602389e+01
3.291938e+06	-4.357467e+01	-9.496220e+01	-3.057820e+01	-6.839520e+00	-1.079900e+02	-1.450523e+02	-5.493992e+01	9.614119e+01
3.291969e+06	-4.357300e+01	-9.495368e+01	-3.057773e+01	-6.854425e+00	-1.026106e+02	1.738527e+02	-5.495259e+01	9.625882e+01
3.292000e+06	-4.357134e+01	-9.494516e+01	-3.057726e+01	-6.869329e+00	-9.835023e+01	1.613397e+02	-5.496525e+01	9.637680e+01
3.292032e+06	-4.356972e+01	-9.493664e+01	-3.057680e+01	-6.883658e+00	-9.545209e+01	1.558278e+02	-5.497780e+01	9.649423e+01
3.292063e+06	-4.357021e+01	-9.492755e+01	-3.057752e+01	-6.862790e+00	-9.780022e+01	1.418123e+02	-5.498478e+01	9.655674e+01
3.292094e+06	-4.357071e+01	-9.491845e+01	-3.057823e+01	-6.841919e+00	-9.979595e+01	1.182757e+02	-5.499176e+01	9.661935e+01
3.292125e+06	-4.357121e+01	-9.490936e+01	-3.057894e+01	-6.821044e+00	-9.993339e+01	8.757847e+01	-5.499873e+01	9.668206e+01
3.292156e+06	-4.357170e+01	-9.490026e+01	-3.057965e+01	-6.800166e+00	-9.806443e+01	6.285527e+01	-5.500569e+01	9.674487e+01
3.292188e+06	-4.357220e+01	-9.489116e+01	-3.058036e+01	-6.779284e+00	-9.570829e+01	4.795499e+01	-5.501265e+01	9.680779e+01
3.292219e+06	-4.357207e+01	-9.495358e+01	-3.058118e+01	-6.781887e+00	-1.013971e+02	4.317856e+01	-5.499328e+01	9.660515e+01
3.292250e+06	-4.357193e+01	-9.501656e+01	-3.058200e+01	-6.784679e+00	-1.166062e+02	-2.307038e+01	-5.497364e+01	9.640128e+01
3.292282e+06	-4.357178e+01	-9.507955e+01	-3.058282e+01	-6.787472e+00	-1.021498e+02	-1.165447e+02	-5.495392e+01	9.619834e+01
3.292313e+06	-4.357162e+01	-9.514253e+01	-3.058363e+01	-6.790266e+00	-9.604134e+01	-1.219115e+02	-5.493415e+01	9.599632e+01
3.292344e+06	-4.357145e+01	-9.520551e+01	-3.058445e+01	-6.793060e+00	-9.247382e+01	-1.236708e+02	-5.491431e+01	9.579522e+01
3.292375e+06	-4.357063e+01	-9.507957e+01	-3.058317e+01	-6.798392e+00	-9.711574e+01	-1.100605e+02	-5.492407e+01	9.594891e+01
3.292406e+06	-4.356977e+01	-9.495366e+01	-3.058189e+01	-6.803723e+00	-1.026777e+02	-6.043617e+01	-5.493378e+01	9.610295e+01
3.292438e+06	-4.356887e+01	-9.482777e+01	-3.058061e+01	-6.809052e+00	-9.839103e+01	1.484078e+00	-5.494343e+01	9.625733e+01
3.292469e+06	-4.356793e+01	-9.470191e+01	-3.057933e+01	-6.814380e+00	-9.330805e+01	1.894206e+01	-5.495304e+01	9.641205e+01
3.292500e+06	-4.356701e+01	-9.457720e+01	-3.057806e+01	-6.819661e+00	-8.994911e+01	2.544787e+01	-5.496258e+01	9.656486e+01
3.292532e+06	-4.357508e+01	-9.459262e+01	-3.057856e+01	-6.819352e+00	-9.160385e+01	3.301933e+01	-5.497184e+01	9.643801e+01
3.292563e+06	-4.358315e+01	-9.460807e+01	-3.057906e+01	-6.819043e+00	-9.336581e+01	4.427961e+01	-5.498106e+01	9.631089e+01
3.292594e+06	-4.359123e+01	-9.462355e+01	-3.057955e+01	-6.818735e+00	-9.494529e+01	6.095083e+01	-5.499025e+01	9.618350e+01
3.292625e+06	-4.359932e+01	-9.463905e+01	-3.058005e+01	-6.818426e+00	-9.568918e+01	8.296644e+01	-5.499941e+01	9.605584e+01
3.292656e+06	-4.360728e+01	-9.465478e+01	-3.058052e+01	-6.818037e+00	-9.513356e+01	1.051309e+02	-5.500816e+01	9.593384e+01
3.292688e+06	-4.360699e+01	-9.468217e+01	-3.057958e+01	-6.812710e+00	-9.650128e+01	1.106890e+02	-5.499396e+01	9.617601e+01
3.292719e+06	-4.360670e+01	-9.470957e+01	-3.057863e+01	-6.807385e+00	-9.798858e+01	1.184214e+02	-5.497962e+01	9.641738e+01
3.292750e+06	-4.360641e+01	-9.473696e+01	-3.057768e+01	-6.802061e+00	-9.950970e+01	1.293880e+02	-5.496515e+01	9.665795e+01
3.292782e+06	-4.360612e+01	-9.476435e+01	-3.057673e+01	-6.796738e+00	-1.008123e+02	1.446550e+02	-5.495055e+01	9.689772e+01
3.292813e+06	-4.360582e+01	-9.479174e+01	-3.057578e+01	-6.791417e+00	-1.014341e+02	1.638403e+02	-5.493583e+01	9.713668e+01
3.292844e+06	-4.361139e+01	-9.477838e+01	-3.057555e+01	-6.794726e+00	-9.841156e+01	1.297038e+02	-5.493207e+01	9.672683e+01
3.292875e+06	-4.361700e+01	-9.476468e+01	-3.057532e+01	-6.798105e+00	-9.503192e+01	1.139333e+02	-5.492794e+01	9.631211e+01
3.292906e+06	-4.362262e+01	-9.475096e+01	-3.057509e+01	-6.801484e+00	-9.235882e+01	1.061521e+02	-5.492337e+01	9.589781e+01
3.292938e+06	-4.362824e+01	-9.473722e+01	-3.057487e+01	-6.804863e+00	-9.024480e+01	1.016771e+02	-5.491834e+01	9.548397e+01
3.292969e+06	-4.363387e+01	-9.472346e+01	-3.057464e+01	-6.808241e+00	-8.851792e+01	9.880308e+01	-5.491286e+01	9.507063e+01
3.293000e+06	-4.362932e+01	-9.478558e+01	-3.057378e+01	-6.816841e+00	-9.138187e+01	9.466048e+01	-5.490678e+01	9.509240e+01
3.293032e+06	-4.362475e+01	-9.484763e+01	-3.057293e+01	-6.825440e+00	-9.551691e+01	8.535463e+01	-5.490070e+01	9.511414e+01
3.293063e+06	-4.362019e+01	-9.490962e+01	-3.057207e+01	-6.834036e+00	-1.017684e+02	5.303608e+01	-5.489463e+01	9.513585e+01
3.293094e+06	-4.361561e+01	-9.497154e+01	-3.057122e+01	-6.842631e+00	-1.007113e+02	-2.343114e+01	-5.488856e+01	9.515753e+01
3.293125e+06	-4.361110e+01	-9.503237e+01	-3.057039e+01	-6.851128e+00	-9.477942e+01	-4.896019e+01	-5.488261e+01	9.518077e+01
3.293156e+06	-4.361611e+01	-9.496646e+01	-3.057286e+01	-6.847607e+00	-9.498670e+01	-4.652148e+01	-5.489154e+01	9.540067e+01
3.293188e+06	-4.362111e+01	-9.490048e+01	-3.057534e+01	-6.844085e+00	-9.518216e+01	-4.396697e+01	-5.490035e+01	9.562102e+01
3.293219e+06	-4.362610e+01	-9.483442e+01	-3.057781e+01	-6.840560e+00	-9.536367e+01	-4.129906e+01	-5.490903e+01	9.584182e+01
3.293250e+06	-4.363109e+01	-9.476828e+01	-3.058028e+01	-6.837034e+00	-9.552904e+01	-3.852237e+01	-5.491760e+01	9.606305e+01
3.293282e+06	-4.363593e+01	-9.470292e+01	-3.058268e+01	-6.833527e+00	-9.569640e+01	-3.557373e+01	-5.492587e+01	9.628141e+01
3.293313e+06	-4.363306e+01	-9.469010e+01	-3.057996e+01	-6.831331e+00	-9.713440e+01	-2.688966e+01	-5.492366e+01	9.629662e+01
3.293344e+06	-4.363020e+01	-9.467729e+01	-3.057725e+01	-6.829137e+00	-9.852244e+01	-1.482331e+01	-5.492145e+01	9.631181e+01
3.293375e+06	-4.362733e+01	-9.466448e+01	-3.057454e+01	-6.826945e+00	-9.956185e+01	1.224926e+00	-5.491923e+01	9.632700e+01
3.293406e+06	-4.362446e+01	-9.465168e+01	-3.057182e+01	-6.824753e+00	-9.984160e+01	1.999596e+01	-5.491702e+01	9.634219e+01
3.293438e+06	-4.362159e+01	-9.463889e+01	-3.056911e+01	-6.822564e+00	-9.921456e+01	3.800547e+01	-5.491481e+01	9.635736e+01
3.293469e+06	-4.361175e+01	-9.470190e+01	-3.057076e+01	-6.835668e+00	-9.670266e+01	2.176049e+01	-5.489057e+01	9.617357e+01
3.293500e+06	-4.360185e+01	-9.476537e+01	-3.057244e+01	-6.848901e+00	-9.441924e+01	1.233330e+01	-5.486612e+01	9.598921e+01
3.293532e+06	-4.359195e+01	-9.482870e+01	-3.057413e+01	-6.862139e+00	-9.249546e+01	6.541677e+00	-5.484166e+01	9.580588e+01
3.293563e+06	-4.358206e+01	-9.489189e+01	-3.057581e+01	-6.875382e+00	-9.087229e+01	2.695408e+00	-5.481718e+01	9.562359e+01
3.293594e+06	-4.357216e+01	-9.495493e+01	-3.057749e+01	-6.888630e+00	-8.948159e+01	-2.217455e-02	-5.479268e+01	9.544232e+01
3.293625e+06	-4.358018e+01	-9.483339e+01	-3.057662e+01	-6.883484e+00	-9.156420e+01	-5.301037e+00	-5.480237e+01	9.569216e+01
