# Hz S dB R 50.000
3.288438e+06	-4.330527e+01	-9.222842e+01	-3.063470e+01	-7.298556e+00	-8.931207e+01	6.178944e+00	-5.375019e+01	1.154747e+02
3.288469e+06	-4.330900e+01	-9.223321e+01	-3.063405e+01	-7.300041e+00	-9.033860e+01	7.148310e+00	-5.375083e+01	1.153690e+02
3.288500e+06	-4.331274e+01	-9.223801e+01	-3.063340e+01	-7.301525e+00	-9.149925e+01	8.395293e+00	-5.375145e+01	1.152634e+02
3.288532e+06	-4.331647e+01	-9.224281e+01	-3.063275e+01	-7.303010e+00	-9.283288e+01	1.005718e+01	-5.375203e+01	1.151577e+02
3.288563e+06	-4.332021e+01	-9.224761e+01	-3.063210e+01	-7.304494e+00	-9.439685e+01	1.237745e+01	-5.375259e+01	1.150520e+02
3.288594e+06	-4.332397e+01	-9.225253e+01	-3.063147e+01	-7.305904e+00	-9.626629e+01	1.580371e+01	-5.375308e+01	1.149489e+02
3.288626e+06	-4.333056e+01	-9.227173e+01	-3.063231e+01	-7.298105e+00	-9.673516e+01	1.699338e+01	-5.374884e+01	1.151689e+02
3.288657e+06	-4.333715e+01	-9.229095e+01	-3.063315e+01	-7.290304e+00	-9.722636e+01	1.832212e+01	-5.374447e+01	1.153887e+02
3.288688e+06	-4.334374e+01	-9.231021e+01	-3.063398e+01	-7.282502e+00	-9.774145e+01	1.981410e+01	-5.373998e+01	1.156083e+02
3.288719e+06	-4.335033e+01	-9.232949e+01	-3.063482e+01	-7.274698e+00	-9.828194e+01	2.149893e+01	-5.373536e+01	1.158277e+02
3.288750e+06	-4.335685e+01	-9.234821e+01	-3.063564e+01	-7.267105e+00	-9.884941e+01	2.347870e+01	-5.373092e+01	1.160399e+02
3.288782e+06	-4.335790e+01	-9.233056e+01	-3.063509e+01	-7.272527e+00	-9.940825e+01	3.005507e+01	-5.374460e+01	1.158261e+02
3.288813e+06	-4.335896e+01	-9.231290e+01	-3.063454e+01	-7.277948e+00	-9.986786e+01	3.745389e+01	-5.375818e+01	1.156116e+02
3.288844e+06	-4.336002e+01	-9.229524e+01	-3.063398e+01	-7.283369e+00	-1.001859e+02	4.555012e+01	-5.377166e+01	1.153964e+02
3.288876e+06	-4.336107e+01	-9.227757e+01	-3.063343e+01	-7.288789e+00	-1.003264e+02	5.408845e+01	-5.378504e+01	1.151806e+02
3.288907e+06	-4.336195e+01	-9.226083e+01	-3.063289e+01	-7.294136e+00	-1.001617e+02	6.230930e+01	-5.379801e+01	1.149686e+02
3.288938e+06	-4.335567e+01	-9.228153e+01	-3.063272e+01	-7.296548e+00	-9.636791e+01	5.704540e+01	-5.379846e+01	1.149386e+02
3.288969e+06	-4.334939e+01	-9.230219e+01	-3.063256e+01	-7.298960e+00	-9.371054e+01	5.454346e+01	-5.379891e+01	1.149086e+02
3.289000e+06	-4.334311e+01	-9.232283e+01	-3.063239e+01	-7.301372e+00	-9.167092e+01	5.308688e+01	-5.379936e+01	1.148785e+02
3.289032e+06	-4.333684e+01	-9.234344e+01	-3.063223e+01	-7.303784e+00	-9.001730e+01	5.213486e+01	-5.379980e+01	1.148485e+02
3.289063e+06	-4.333057e+01	-9.236402e+01	-3.063206e+01	-7.306196e+00	-8.862727e+01	5.146427e+01	-5.380024e+01	1.148185e+02
3.289094e+06	-4.332307e+01	-9.237061e+01	-3.063505e+01	-7.310245e+00	-8.802662e+01	5.826579e+01	-5.379459e+01	1.149611e+02
3.289126e+06	-4.331558e+01	-9.237718e+01	-3.063805e+01	-7.314297e+00	-8.736574e+01	6.414436e+01	-5.378888e+01	1.151036e+02
3.289157e+06	-4.330809e+01	-9.238375e+01	-3.064104e+01	-7.318352e+00	-8.667871e+01	6.917556e+01	-5.378313e+01	1.152458e+02
3.289188e+06	-4.330061e+01	-9.239030e+01	-3.064404e+01	-7.322410e+00	-8.598899e+01	7.346778e+01	-5.377733e+01	1.153879e+02
3.289219e+06	-4.329325e+01	-9.239669e+01	-3.064700e+01	-7.326477e+00	-8.532539e+01	7.707102e+01	-5.377146e+01	1.155280e+02
3.289250e+06	-4.329899e+01	-9.238429e+01	-3.064553e+01	-7.331372e+00	-8.645238e+01	7.197235e+01	-5.376450e+01	1.154572e+02
3.289282e+06	-4.330475e+01	-9.237188e+01	-3.064405e+01	-7.336265e+00	-8.764350e+01	6.530784e+01	-5.375753e+01	1.153864e+02
3.289313e+06	-4.331050e+01	-9.235944e+01	-3.064258e+01	-7.341156e+00	-8.884312e+01	5.651699e+01	-5.375055e+01	1.153157e+02
3.289344e+06	-4.331626e+01	-9.234700e+01	-3.064111e+01	-7.346045e+00	-8.992398e+01	4.505526e+01	-5.374356e+01	1.152452e+02
3.289376e+06	-4.332184e+01	-9.233471e+01	-3.063963e+01	-7.350761e+00	-9.069619e+01	3.117786e+01	-5.373682e+01	1.151787e+02
3.289407e+06	-4.331632e+01	-9.233335e+01	-3.063784e+01	-7.344881e+00	-9.340708e+01	3.695924e+01	-5.374526e+01	1.153518e+02
3.289438e+06	-4.331079e+01	-9.233199e+01	-3.063605e+01	-7.339003e+00	-9.707864e+01	4.908374e+01	-5.375363e+01	1.155254e+02
3.289469e+06	-4.330527e+01	-9.233063e+01	-3.063426e+01	-7.333128e+00	-1.015064e+02	8.133665e+01	-5.376193e+01	1.156992e+02
3.289500e+06	-4.329976e+01	-9.232928e+01	-3.063247e+01	-7.327255e+00	-1.009379e+02	1.376616e+02	-5.377015e+01	1.158734e+02
3.289532e+06	-4.329438e+01	-9.232821e+01	-3.063075e+01	-7.321270e+00	-9.661376e+01	1.652044e+02	-5.377766e+01	1.160386e+02
3.289563e+06	-4.329434e+01	-9.233843e+01	-3.063209e+01	-7.310581e+00	-9.882183e+01	1.742106e+02	-5.375900e+01	1.158262e+02
3.289594e+06	-4.329429e+01	-9.234865e+01	-3.063343e+01	-7.299889e+00	-1.012747e+02	-1.702610e+02	-5.374027e+01	1.156148e+02
3.289626e+06	-4.329425e+01	-9.235887e+01	-3.063477e+01	-7.289194e+00	-1.031623e+02	-1.440765e+02	-5.372145e+01	1.154042e+02
3.289657e+06	-4.329420e+01	-9.236909e+01	-3.063610e+01	-7.278496e+00	-1.028136e+02	-1.122874e+02	-5.370256e+01	1.151946e+02
3.289688e+06	-4.329416e+01	-9.237931e+01	-3.063744e+01	-7.267794e+00	-1.006213e+02	-8.913472e+01	-5.368360e+01	1.149859e+02
3.289719e+06	-4.330033e+01	-9.237465e+01	-3.063440e+01	-7.282254e+00	-1.023961e+02	-8.455771e+01	-5.368485e+01	1.152040e+02
3.289750e+06	-4.330650e+01	-9.236997e+01	-3.063136e+01	-7.296703e+00	-1.045171e+02	-7.737903e+01	-5.368598e+01	1.154222e+02
3.289782e+06	-4.331267e+01	-9.236530e+01	-3.062832e+01	-7.311143e+00	-1.070092e+02	-6.510789e+01	-5.368699e+01	1.156404e+02
3.289813e+06	-4.331885e+01	-9.236061e+01	-3.062528e+01	-7.325572e+00	-1.094689e+02	-4.303019e+01	-5.368786e+01	1.158586e+02
3.289844e+06	-4.332504e+01	-9.235610e+01	-3.062229e+01	-7.339830e+00	-1.101949e+02	-1.091956e+01	-5.368843e+01	1.160732e+02
3.289876e+06	-4.333143e+01	-9.237361e+01	-3.062484e+01	-7.334133e+00	-1.048041e+02	-5.173617e+01	-5.366605e+01	1.158301e+02
3.289907e+06	-4.333783e+01	-9.239116e+01	-3.062738e+01	-7.328433e+00	-1.005527e+02	-6.417456e+01	-5.364357e+01	1.155881e+02
3.289938e+06	-4.334422e+01	-9.240872e+01	-3.062993e+01	-7.322729e+00	-9.758285e+01	-6.955634e+01	-5.362099e+01	1.153474e+02
3.289969e+06	-4.335063e+01	-9.242631e+01	-3.063247e+01	-7.317021e+00	-9.534124e+01	-7.250692e+01	-5.359832e+01	1.151080e+02
3.290000e+06	-4.335689e+01	-9.244225e+01	-3.063497e+01	-7.311442e+00	-9.364300e+01	-7.438756e+01	-5.357629e+01	1.148764e+02
3.290032e+06	-4.335466e+01	-9.235455e+01	-3.063444e+01	-7.313940e+00	-9.942620e+01	-8.063083e+01	-5.359916e+01	1.150547e+02
3.290063e+06	-4.335241e+01	-9.226689e+01	-3.063391e+01	-7.316438e+00	-1.125176e+02	-1.534424e+02	-5.362201e+01	1.152339e+02
3.290094e+06	-4.335014e+01	-9.217928e+01	-3.063337e+01	-7.318936e+00	-9.972069e+01	1.253371e+02	-5.364483e+01	1.154140e+02
3.290126e+06	-4.334785e+01	-9.209172e+01	-3.063284e+01	-7.321433e+00	-9.379603e+01	1.187623e+02	-5.366763e+01	1.155951e+02
3.290157e+06	-4.334559e+01	-9.200874e+01	-3.063233e+01	-7.323699e+00	-9.038607e+01	1.163793e+02	-5.368963e+01	1.157714e+02
3.290188e+06	-4.334545e+01	-9.211046e+01	-3.063285e+01	-7.316575e+00	-9.187713e+01	1.061182e+02	-5.368043e+01	1.157182e+02
3.290219e+06	-4.334529e+01	-9.221217e+01	-3.063336e+01	-7.309450e+00	-9.320557e+01	9.185095e+01	-5.367124e+01	1.156652e+02
3.290250e+06	-4.334509e+01	-9.231388e+01	-3.063388e+01	-7.302324e+00	-9.395989e+01	7.359712e+01	-5.366205e+01	1.156122e+02
3.290282e+06	-4.334488e+01	-9.241558e+01	-3.063439e+01	-7.295197e+00	-9.376322e+01	5.408556e+01	-5.365286e+01	1.155593e+02
3.290313e+06	-4.334463e+01	-9.251728e+01	-3.063491e+01	-7.288069e+00	-9.272574e+01	3.724211e+01	-5.364367e+01	1.155066e+02
3.290344e+06	-4.333859e+01	-9.249631e+01	-3.063467e+01	-7.300668e+00	-9.040946e+01	3.603856e+01	-5.364881e+01	1.155915e+02
3.290376e+06	-4.333256e+01	-9.247536e+01	-3.063443e+01	-7.313266e+00	-8.858070e+01	3.529178e+01	-5.365393e+01	1.156765e+02
3.290407e+06	-4.332653e+01	-9.245445e+01	-3.063419e+01	-7.325863e+00	-8.706996e+01	3.478337e+01	-5.365904e+01	1.157616e+02
3.290438e+06	-4.332050e+01	-9.243356e+01	-3.063395e+01	-7.338460e+00	-8.578304e+01	3.441497e+01	-5.366413e+01	1.158469e+02
3.290469e+06	-4.331447e+01	-9.241255e+01	-3.063370e+01	-7.350863e+00	-8.468871e+01	3.412165e+01	-5.366909e+01	1.159312e+02
3.290500e+06	-4.330813e+01	-9.237210e+01	-3.063243e+01	-7.339418e+00	-8.730618e+01	3.139962e+01	-5.366091e+01	1.158896e+02
3.290532e+06	-4.330179e+01	-9.233172e+01	-3.063116e+01	-7.327976e+00	-9.100779e+01	2.575824e+01	-5.365273e+01	1.158482e+02
3.290563e+06	-4.329545e+01	-9.229140e+01	-3.062990e+01	-7.316537e+00	-9.704093e+01	8.210074e+00	-5.364455e+01	1.158068e+02
3.290594e+06	-4.328911e+01	-9.225113e+01	-3.062863e+01	-7.305102e+00	-1.013258e+02	-7.328363e+01	-5.363637e+01	1.157656e+02
3.290626e+06	-4.328294e+01	-9.221294e+01	-3.062741e+01	-7.293922e+00	-9.390713e+01	-1.157172e+02	-5.362849e+01	1.157213e+02
3.290657e+06	-4.328720e+01	-9.229845e+01	-3.062934e+01	-7.298213e+00	-9.812346e+01	-1.194765e+02	-5.363824e+01	1.154903e+02
3.290688e+06	-4.329144e+01	-9.238405e+01	-3.063127e+01	-7.302506e+00	-1.062282e+02	-1.351916e+02	-5.364787e+01	1.152587e+02
3.290719e+06	-4.329567e+01	-9.246974e+01	-3.063320e+01	-7.306801e+00	-1.079398e+02	1.018002e+02	-5.365736e+01	1.150266e+02
3.290750e+06	-4.329988e+01	-9.255550e+01	-3.063513e+01	-7.311097e+00	-9.883529e+01	8.082161e+01	-5.366672e+01	1.147941e+02
3.290782e+06	-4.330402e+01	-9.263813e+01	-3.063695e+01	-7.315173e+00	-9.443845e+01	7.646782e+01	-5.367645e+01	1.145686e+02
3.290813e+06	-4.330592e+01	-9.258993e+01	-3.063431e+01	-7.310169e+00	-9.485983e+01	7.100690e+01	-5.370634e+01	1.146522e+02
3.290844e+06	-4.330782e+01	-9.254171e+01	-3.063167e+01	-7.305168e+00	-9.521200e+01	6.503555e+01	-5.373632e+01	1.147364e+02
3.290876e+06	-4.330971e+01	-9.249346e+01	-3.062904e+01	-7.300170e+00	-9.547354e+01	5.862527e+01	-5.376639e+01	1.148212e+02
3.290907e+06	-4.331160e+01	-9.244520e+01	-3.062640e+01	-7.295175e+00	-9.562569e+01	5.190087e+01	-5.379653e+01	1.149066e+02
3.290938e+06	-4.331348e+01	-9.239691e+01	-3.062377e+01	-7.290183e+00	-9.565633e+01	4.503278e+01	-5.382677e+01	1.149926e+02
3.290969e+06	-4.332783e+01	-9.237152e+01	-3.062752e+01	-7.285203e+00	-9.548604e+01	3.178279e+01	-5.376850e+01	1.151537e+02
3.291000e+06	-4.334220e+01	-9.234604e+01	-3.063127e+01	-7.280218e+00	-9.490323e+01	1.965078e+01	-5.371056e+01	1.153127e+02
3.291032e+06	-4.335659e+01	-9.232047e+01	-3.063502e+01	-7.275230e+00	-9.404837e+01	9.391380e+00	-5.365293e+01	1.154696e+02
3.291063e+06	-4.337100e+01	-9.229483e+01	-3.063877e+01	-7.270236e+00	-9.306468e+01	1.104578e+00	-5.359562e+01	1.156244e+02
3.291094e+06	-4.338521e+01	-9.226943e+01	-3.064248e+01	-7.265272e+00	-9.207317e+01	-5.453332e+00	-5.353938e+01	1.157760e+02
3.291126e+06	-4.337179e+01	-9.228576e+01	-3.064002e+01	-7.264436e+00	-9.402262e+01	-9.963601e+00	-5.357737e+01	1.157808e+02
3.291157e+06	-4.335839e+01	-9.230204e+01	-3.063755e+01	-7.263600e+00	-9.642160e+01	-1.741780e+01	-5.361552e+01	1.157856e+02
3.291188e+06	-4.334502e+01	-9.231826e+01	-3.063509e+01	-7.262764e+00	-9.934979e+01	-3.127826e+01	-5.365385e+01	1.157905e+02
3.291219e+06	-4.333166e+01	-9.233444e+01	-3.063263e+01	-7.261929e+00	-1.021724e+02	-5.895380e+01	-5.369234e+01	1.157953e+02
3.291250e+06	-4.331863e+01	-9.235099e+01	-3.063021e+01	-7.261187e+00	-1.023122e+02	-9.843801e+01	-5.373014e+01	1.157953e+02
3.291282e+06	-4.332480e+01	-9.239346e+01	-3.063028e+01	-7.266135e+00	-1.092372e+02	1.478549e+02	-5.371482e+01	1.154877e+02
3.291313e+06	-4.333098e+01	-9.243599e+01	-3.063036e+01	-7.271084e+00	-9.826967e+01	1.127629e+02	-5.369927e+01	1.151812e+02
3.291344e+06	-4.333715e+01	-9.247858e+01	-3.063043e+01	-7.276032e+00	-9.328086e+01	1.075088e+02	-5.368351e+01	1.148758e+02
3.291376e+06	-4.334333e+01	-9.252123e+01	-3.063050e+01	-7.280980e+00	-9.011226e+01	1.054571e+02	-5.366753e+01	1.145715e+02
3.291407e+06	-4.334945e+01	-9.256148e+01	-3.063058e+01	-7.285859e+00	-8.787261e+01	1.043522e+02	-5.365175e+01	1.142795e+02
3.291438e+06	-4.335382e+01	-9.250146e+01	-3.063113e+01	-7.287884e+00	-8.934129e+01	1.026351e+02	-5.365241e+01	1.144423e+02
3.291469e+06	-4.335818e+01	-9.244138e+01	-3.063168e+01	-7.289910e+00	-9.109603e+01	1.001460e+02	-5.365301e+01	1.146051e+02
3.291500e+06	-4.336254e+01	-9.238123e+01	-3.063223e+01	-7.291937e+00	-9.326420e+01	9.623413e+01	-5.365353e+01	1.147679e+02
3.291532e+06	-4.336688e+01	-9.232103e+01	-3.063277e+01	-7.293963e+00	-9.606030e+01	8.929466e+01	-5.365399e+01	1.149307e+02
3.291563e+06	-4.337122e+01	-9.226077e+01	-3.063332e+01	-7.295990e+00	-9.977516e+01	7.448104e+01	-5.365437e+01	1.150936e+02
3.291594e+06	-4.336494e+01	-9.231700e+01	-3.063181e+01	-7.287128e+00	-9.445978e+01	7.161027e+01	-5.366011e+01	1.150529e+02
3.291626e+06	-4.335866e+01	-9.237315e+01	-3.063030e+01	-7.278270e+00	-9.118079e+01	7.054336e+01	-5.366585e+01	1.150122e+02
3.291657e+06	-4.335237e+01	-9.242922e+01	-3.062879e+01	-7.269414e+00	-8.880483e+01	6.998700e+01	-5.367158e+01	1.149714e+02
3.291688e+06	-4.334608e+01	-9.248521e+01	-3.062729e+01	-7.260562e+00	-8.694076e+01	6.964553e+01	-5.367732e+01	1.149306e+02
3.291719e+06	-4.333981e+01	-9.254048e+01	-3.062581e+01	-7.251966e+00	-8.543326e+01	6.941785e+01	-5.368310e+01	1.148897e+02
3.291750e+06	-4.333724e+01	-9.251672e+01	-3.062851e+01	-7.274802e+00	-8.759003e+01	6.968809e+01	-5.369396e+01	1.148534e+02
3.291782e+06	-4.333466e+01	-9.249298e+01	-3.063121e+01	-7.297653e+00	-9.046529e+01	7.017044e+01	-5.370484e+01	1.148169e+02
3.291813e+06	-4.333209e+01	-9.246925e+01	-3.063390e+01	-7.320519e+00	-9.479059e+01	7.127555e+01	-5.371572e+01	1.147804e+02
3.291844e+06	-4.332951e+01	-9.244553e+01	-3.063660e+01	-7.343398e+00	-1.037531e+02	7.638464e+01	-5.372662e+01	1.147438e+02
3.291876e+06	-4.332695e+01	-9.242205e+01	-3.063919e+01	-7.365828e+00	-1.057426e+02	-1.212873e+02	-5.373712e+01	1.147080e+02
3.291907e+06	-4.332514e+01	-9.241197e+01	-3.063560e+01	-7.359772e+00	-1.167892e+02	-9.363772e+01	-5.372300e+01	1.147239e+02
3.291938e+06	-4.332333e+01	-9.240190e+01	-3.063200e+01	-7.353721e+00	-1.106765e+02	3.137946e+01	-5.370889e+01	1.147398e+02
3.291969e+06	-4.332152e+01	-9.239183e+01	-3.062841e+01	-7.347675e+00	-1.033684e+02	4.143928e+01	-5.369481e+01	1.147556e+02
3.292000e+06	-4.331971e+01	-9.238177e+01	-3.062481e+01	-7.341633e+00	-9.941012e+01	4.417582e+01	-5.368075e+01	1.147714e+02
3.292032e+06	-4.331813e+01	-9.237297e+01	-3.062138e+01	-7.335221e+00	-9.683167e+01	4.524104e+01	-5.366773e+01	1.147912e+02
3.292063e+06	-4.332596e+01	-9.241536e+01	-3.062439e+01	-7.313502e+00	-1.009355e+02	3.293075e+01	-5.369621e+01	1.149777e+02
3.292094e+06	-4.333380e+01	-9.245783e+01	-3.062741e+01	-7.291769e+00	-1.061015e+02	-5.374767e+00	-5.372469e+01	1.151655e+02
3.292126e+06	-4.334164e+01	-9.250038e+01	-3.063042e+01	-7.270020e+00	-1.040711e+02	-6.816625e+01	-5.375316e+01	1.153546e+02
3.292157e+06	-4.334949e+01	-9.254301e+01	-3.063343e+01	-7.248256e+00	-9.904842e+01	-9.142212e+01	-5.378164e+01	1.155449e+02
3.292188e+06	-4.335733e+01	-9.258571e+01	-3.063644e+01	-7.226477e+00	-9.552009e+01	-9.990566e+01	-5.381011e+01	1.157364e+02
3.292219e+06	-4.335024e+01	-9.253056e+01	-3.063246e+01	-7.259432e+00	-1.023235e+02	-6.949267e+01	-5.377925e+01	1.156720e+02
3.292250e+06	-4.334314e+01	-9.247551e+01	-3.062848e+01	-7.292356e+00	-1.013886e+02	1.470762e+01	-5.374850e+01	1.156081e+02
3.292282e+06	-4.333604e+01	-9.242054e+01	-3.062450e+01	-7.325250e+00	-9.491145e+01	3.978283e+01	-5.371784e+01	1.155446e+02
3.292313e+06	-4.332894e+01	-9.236566e+01	-3.062051e+01	-7.358115e+00	-9.092112e+01	4.707897e+01	-5.368727e+01	1.154815e+02
3.292344e+06	-4.332191e+01	-9.231149e+01	-3.061656e+01	-7.390523e+00	-8.818444e+01	5.045315e+01	-5.365679e+01	1.154190e+02
3.292376e+06	-4.332469e+01	-9.233372e+01	-3.061715e+01	-7.370140e+00	-9.026013e+01	5.858597e+01	-5.362453e+01	1.153725e+02
3.292407e+06	-4.332747e+01	-9.235596e+01	-3.061773e+01	-7.349755e+00	-9.259547e+01	7.218214e+01	-5.359237e+01	1.153263e+02
3.292438e+06	-4.333025e+01	-9.237822e+01	-3.061830e+01	-7.329367e+00	-9.463757e+01	9.508185e+01	-5.356033e+01	1.152804e+02
3.292469e+06	-4.333303e+01	-9.240049e+01	-3.061888e+01	-7.308976e+00	-9.491106e+01	1.256124e+02	-5.352841e+01	1.152349e+02
3.292500e+06	-4.333576e+01	-9.242345e+01	-3.061945e+01	-7.289140e+00	-9.317993e+01	1.503250e+02	-5.349715e+01	1.151936e+02
3.292532e+06	-4.333536e+01	-9.248780e+01	-3.061945e+01	-7.303550e+00	-9.418719e+01	1.341355e+02	-5.350010e+01	1.153916e+02
3.292563e+06	-4.333495e+01	-9.255215e+01	-3.061945e+01	-7.317961e+00	-9.442218e+01	1.153707e+02	-5.350295e+01	1.155897e+02
3.292594e+06	-4.333452e+01	-9.261649e+01	-3.061945e+01	-7.332372e+00	-9.376135e+01	9.753470e+01	-5.350569e+01	1.157880e+02
3.292626e+06	-4.333409e+01	-9.268083e+01	-3.061945e+01	-7.346782e+00	-9.252266e+01	8.328616e+01	-5.350833e+01	1.159864e+02
3.292657e+06	-4.333351e+01	-9.274132e+01	-3.061951e+01	-7.360394e+00	-9.120052e+01	7.320536e+01	-5.351171e+01	1.161762e+02
3.292688e+06	-4.332749e+01	-9.264594e+01	-3.062210e+01	-7.341507e+00	-9.492297e+01	8.198851e+01	-5.354909e+01	1.160146e+02
3.292719e+06	-4.332145e+01	-9.255069e+01	-3.062469e+01	-7.322609e+00	-1.003263e+02	1.078775e+02	-5.358656e+01	1.158516e+02
3.292750e+06	-4.331540e+01	-9.245557e+01	-3.062728e+01	-7.303700e+00	-1.014805e+02	1.761484e+02	-5.362412e+01	1.156872e+02
3.292782e+06	-4.330932e+01	-9.236059e+01	-3.062987e+01	-7.284779e+00	-9.590171e+01	-1.499227e+02	-5.366178e+01	1.155213e+02
3.292813e+06	-4.330323e+01	-9.226574e+01	-3.063246e+01	-7.265847e+00	-9.186927e+01	-1.392857e+02	-5.369952e+01	1.153540e+02
3.292844e+06	-4.331028e+01	-9.229682e+01	-3.062859e+01	-7.290761e+00	-9.418124e+01	-1.283954e+02	-5.366426e+01	1.155043e+02
3.292876e+06	-4.331734e+01	-9.232796e+01	-3.062473e+01	-7.315652e+00	-9.656888e+01	-1.094573e+02	-5.362909e+01	1.156534e+02
3.292907e+06	-4.332439e+01	-9.235915e+01	-3.062086e+01	-7.340521e+00	-9.780461e+01	-7.994917e+01	-5.359400e+01	1.158013e+02
3.292938e+06	-4.333145e+01	-9.239038e+01	-3.061700e+01	-7.365368e+00	-9.661278e+01	-5.027663e+01	-5.355900e+01	1.159479e+02
3.292969e+06	-4.333852e+01	-9.242148e+01	-3.061318e+01	-7.389887e+00	-9.425248e+01	-3.116006e+01	-5.352462e+01	1.160909e+02
3.293000e+06	-4.334647e+01	-9.242867e+01	-3.061523e+01	-7.376341e+00	-9.424443e+01	-2.142816e+01	-5.355765e+01	1.159137e+02
3.293032e+06	-4.335442e+01	-9.243587e+01	-3.061728e+01	-7.362788e+00	-9.399399e+01	-1.198428e+01	-5.359072e+01	1.157351e+02
3.293063e+06	-4.336238e+01	-9.244309e+01	-3.061933e+01	-7.349230e+00	-9.353950e+01	-3.282541e+00	-5.362384e+01	1.155552e+02
3.293094e+06	-4.337035e+01	-9.245032e+01	-3.062138e+01	-7.335664e+00	-9.293911e+01	4.417616e+00	-5.365699e+01	1.153739e+02
3.293126e+06	-4.337812e+01	-9.245760e+01	-3.062339e+01	-7.322346e+00	-9.230987e+01	1.108878e+01	-5.368953e+01	1.151955e+02
3.293157e+06	-4.337299e+01	-9.246719e+01	-3.062252e+01	-7.324597e+00	-9.573160e+01	2.384191e+01	-5.368231e+01	1.152845e+02
3.293188e+06	-4.336787e+01	-9.247676e+01	-3.062166e+01	-7.326848e+00	-9.956364e+01	5.442924e+01	-5.367508e+01	1.153733e+02
3.293219e+06	-4.336274e+01	-9.248632e+01	-3.062080e+01	-7.329098e+00	-9.929560e+01	1.045138e+02	-5.366782e+01	1.154620e+02
3.293250e+06	-4.335762e+01	-9.249587e+01	-3.061994e+01	-7.331348e+00	-9.540125e+01	1.328716e+02	-5.366056e+01	1.155505e+02
3.293282e+06	-4.335258e+01	-9.250491e+01	-3.061907e+01	-7.333339e+00	-9.219724e+01	1.447758e+02	-5.365369e+01	1.156397e+02
3.293313e+06	-4.335041e+01	-9.249350e+01	-3.061783e+01	-7.324843e+00	-9.559453e+01	1.564246e+02	-5.366358e+01	1.157608e+02
3.293344e+06	-4.334824e+01	-9.248209e+01	-3.061659e+01	-7.316350e+00	-9.964369e+01	-1.751597e+02	-5.367344e+01	1.158821e+02
3.293376e+06	-4.334607e+01	-9.247069e+01	-3.061534e+01	-7.307859e+00	-9.994455e+01	-1.234195e+02	-5.368328e+01	1.160037e+02
3.293407e+06	-4.334391e+01	-9.245930e+01	-3.061410e+01	-7.299371e+00	-9.595212e+01	-9.253281e+01	-5.369309e+01	1.161256e+02
3.293438e+06	-4.334174e+01	-9.244791e+01	-3.061286e+01	-7.290885e+00	-9.246711e+01	-7.999771e+01	-5.370287e+01	1.162478e+02
3.293469e+06	-4.334397e+01	-9.249423e+01	-3.061395e+01	-7.291218e+00	-9.500824e+01	-6.567775e+01	-5.366711e+01	1.161130e+02
