# Hz S dB R 50.000
3.288594e+06	-4.318249e+01	-1.017414e+02	-3.062120e+01	-6.286869e+00	-8.788286e+01	5.833317e+01	-5.599659e+01	8.704602e+01
3.288625e+06	-4.318069e+01	-1.017698e+02	-3.062078e+01	-6.281958e+00	-9.024053e+01	5.593818e+01	-5.600860e+01	8.717122e+01
3.288656e+06	-4.317889e+01	-1.017983e+02	-3.062036e+01	-6.277047e+00	-9.344500e+01	5.139101e+01	-5.602059e+01	8.729677e+01
3.288688e+06	-4.317708e+01	-1.018267e+02	-3.061994e+01	-6.272136e+00	-9.832724e+01	3.978738e+01	-5.603255e+01	8.742266e+01
3.288719e+06	-4.317527e+01	-1.018551e+02	-3.061953e+01	-6.267226e+00	-1.052359e+02	-1.162932e+01	-5.604449e+01	8.754890e+01
3.288750e+06	-4.317343e+01	-1.018825e+02	-3.061911e+01	-6.262279e+00	-1.000151e+02	-8.176366e+01	-5.605644e+01	8.767779e+01
3.288782e+06	-4.316758e+01	-1.017825e+02	-3.061914e+01	-6.252617e+00	-1.018084e+02	-8.537004e+01	-5.607411e+01	8.809328e+01
3.288813e+06	-4.316170e+01	-1.016826e+02	-3.061918e+01	-6.242955e+00	-1.040002e+02	-9.108171e+01	-5.609135e+01	8.851044e+01
3.288844e+06	-4.315581e+01	-1.015828e+02	-3.061921e+01	-6.233293e+00	-1.067259e+02	-1.011782e+02	-5.610816e+01	8.892924e+01
3.288875e+06	-4.314989e+01	-1.014832e+02	-3.061925e+01	-6.223631e+00	-1.098828e+02	-1.213653e+02	-5.612454e+01	8.934965e+01
3.288906e+06	-4.314416e+01	-1.013851e+02	-3.061930e+01	-6.214037e+00	-1.120012e+02	-1.609825e+02	-5.614014e+01	8.975807e+01
3.288938e+06	-4.315195e+01	-1.013708e+02	-3.062086e+01	-6.208582e+00	-1.006009e+02	8.305598e+01	-5.613422e+01	8.933393e+01
3.288969e+06	-4.315974e+01	-1.013566e+02	-3.062241e+01	-6.203126e+00	-9.402678e+01	7.653756e+01	-5.612783e+01	8.891040e+01
3.289000e+06	-4.316754e+01	-1.013423e+02	-3.062397e+01	-6.197668e+00	-9.030559e+01	7.454905e+01	-5.612096e+01	8.848751e+01
3.289032e+06	-4.317535e+01	-1.013280e+02	-3.062552e+01	-6.192208e+00	-8.770508e+01	7.358882e+01	-5.611364e+01	8.806531e+01
3.289063e+06	-4.318316e+01	-1.013136e+02	-3.062708e+01	-6.186746e+00	-8.570526e+01	7.302344e+01	-5.610584e+01	8.764385e+01
3.289094e+06	-4.318643e+01	-1.013683e+02	-3.062602e+01	-6.210809e+00	-8.706377e+01	7.023746e+01	-5.611005e+01	8.801762e+01
3.289125e+06	-4.318965e+01	-1.014237e+02	-3.062493e+01	-6.235105e+00	-8.867417e+01	6.628160e+01	-5.611398e+01	8.839815e+01
3.289156e+06	-4.319287e+01	-1.014790e+02	-3.062385e+01	-6.259394e+00	-9.057482e+01	6.034927e+01	-5.611753e+01	8.877901e+01
3.289188e+06	-4.319608e+01	-1.015344e+02	-3.062276e+01	-6.283678e+00	-9.281306e+01	5.076809e+01	-5.612069e+01	8.916017e+01
3.289219e+06	-4.319929e+01	-1.015899e+02	-3.062167e+01	-6.307955e+00	-9.524877e+01	3.420441e+01	-5.612347e+01	8.954159e+01
3.289250e+06	-4.320219e+01	-1.015865e+02	-3.062001e+01	-6.298832e+00	-9.601285e+01	1.155439e+01	-5.611301e+01	8.933281e+01
3.289282e+06	-4.320510e+01	-1.015831e+02	-3.061835e+01	-6.289713e+00	-9.536296e+01	-1.141238e+01	-5.610244e+01	8.912454e+01
3.289313e+06	-4.320801e+01	-1.015798e+02	-3.061669e+01	-6.280597e+00	-9.376850e+01	-2.895090e+01	-5.609178e+01	8.891678e+01
3.289344e+06	-4.321091e+01	-1.015764e+02	-3.061503e+01	-6.271485e+00	-9.195494e+01	-4.069540e+01	-5.608101e+01	8.870953e+01
3.289375e+06	-4.321370e+01	-1.015730e+02	-3.061338e+01	-6.262448e+00	-9.028857e+01	-4.839403e+01	-5.607010e+01	8.850476e+01
3.289406e+06	-4.320082e+01	-1.015683e+02	-3.061360e+01	-6.262378e+00	-9.390246e+01	-3.820164e+01	-5.605337e+01	8.854330e+01
3.289438e+06	-4.318796e+01	-1.015637e+02	-3.061382e+01	-6.262307e+00	-9.871775e+01	-1.036177e+01	-5.603668e+01	8.858170e+01
3.289469e+06	-4.317512e+01	-1.015591e+02	-3.061404e+01	-6.262237e+00	-9.930697e+01	5.010271e+01	-5.602001e+01	8.861995e+01
3.289500e+06	-4.316230e+01	-1.015545e+02	-3.061426e+01	-6.262166e+00	-9.448531e+01	8.241060e+01	-5.600337e+01	8.865805e+01
3.289532e+06	-4.314984e+01	-1.015501e+02	-3.061445e+01	-6.261986e+00	-9.075313e+01	9.374378e+01	-5.598716e+01	8.869263e+01
3.289563e+06	-4.315876e+01	-1.015581e+02	-3.061308e+01	-6.255042e+00	-9.068116e+01	9.392370e+01	-5.599611e+01	8.851959e+01
3.289594e+06	-4.316768e+01	-1.015662e+02	-3.061171e+01	-6.248101e+00	-9.060969e+01	9.410066e+01	-5.600498e+01	8.834619e+01
3.289625e+06	-4.317661e+01	-1.015742e+02	-3.061034e+01	-6.241162e+00	-9.053872e+01	9.427475e+01	-5.601379e+01	8.817244e+01
3.289656e+06	-4.318555e+01	-1.015823e+02	-3.060897e+01	-6.234225e+00	-9.046825e+01	9.444602e+01	-5.602252e+01	8.799833e+01
3.289688e+06	-4.319450e+01	-1.015903e+02	-3.060760e+01	-6.227290e+00	-9.039827e+01	9.461455e+01	-5.603118e+01	8.782388e+01
3.289719e+06	-4.318749e+01	-1.015744e+02	-3.060927e+01	-6.236242e+00	-9.035783e+01	8.633300e+01	-5.602655e+01	8.809322e+01
3.289750e+06	-4.318036e+01	-1.015584e+02	-3.061096e+01	-6.245326e+00	-9.014059e+01	7.822806e+01	-5.602161e+01	8.836584e+01
3.289782e+06	-4.317324e+01	-1.015423e+02	-3.061265e+01	-6.254413e+00	-8.977039e+01	7.065637e+01	-5.601648e+01	8.863814e+01
3.289813e+06	-4.316612e+01	-1.015263e+02	-3.061434e+01	-6.263504e+00	-8.928360e+01	6.379965e+01	-5.601116e+01	8.891012e+01
3.289844e+06	-4.315901e+01	-1.015103e+02	-3.061603e+01	-6.272598e+00	-8.871826e+01	5.772830e+01	-5.600565e+01	8.918176e+01
3.289875e+06	-4.316568e+01	-1.014849e+02	-3.061452e+01	-6.261361e+00	-8.960060e+01	5.948962e+01	-5.603139e+01	8.914608e+01
3.289906e+06	-4.317235e+01	-1.014594e+02	-3.061301e+01	-6.250128e+00	-9.057143e+01	6.167001e+01	-5.605720e+01	8.911018e+01
3.289938e+06	-4.317903e+01	-1.014339e+02	-3.061150e+01	-6.238899e+00	-9.164653e+01	6.442991e+01	-5.608309e+01	8.907407e+01
3.289969e+06	-4.318571e+01	-1.014083e+02	-3.061000e+01	-6.227674e+00	-9.284361e+01	6.801598e+01	-5.610905e+01	8.903775e+01
3.290000e+06	-4.319228e+01	-1.013839e+02	-3.060851e+01	-6.216506e+00	-9.417480e+01	7.272265e+01	-5.613464e+01	8.899865e+01
3.290032e+06	-4.318431e+01	-1.015074e+02	-3.060959e+01	-6.211861e+00	-9.503522e+01	6.563933e+01	-5.610517e+01	8.864305e+01
3.290063e+06	-4.317631e+01	-1.016307e+02	-3.061067e+01	-6.207216e+00	-9.581166e+01	5.707703e+01	-5.607548e+01	8.828986e+01
3.290094e+06	-4.316827e+01	-1.017538e+02	-3.061175e+01	-6.202569e+00	-9.641408e+01	4.702752e+01	-5.604556e+01	8.793910e+01
3.290125e+06	-4.316021e+01	-1.018766e+02	-3.061283e+01	-6.197921e+00	-9.674188e+01	3.582810e+01	-5.601542e+01	8.759075e+01
3.290156e+06	-4.315227e+01	-1.019959e+02	-3.061391e+01	-6.193519e+00	-9.675610e+01	2.403799e+01	-5.598642e+01	8.725748e+01
3.290188e+06	-4.315415e+01	-1.019065e+02	-3.061488e+01	-6.204328e+00	-9.769664e+01	-1.990401e+00	-5.604060e+01	8.770732e+01
3.290219e+06	-4.315600e+01	-1.018172e+02	-3.061585e+01	-6.215139e+00	-9.677491e+01	-2.807947e+01	-5.609457e+01	8.816280e+01
3.290250e+06	-4.315784e+01	-1.017278e+02	-3.061682e+01	-6.225953e+00	-9.479378e+01	-4.643021e+01	-5.614832e+01	8.862396e+01
3.290282e+06	-4.315965e+01	-1.016383e+02	-3.061779e+01	-6.236770e+00	-9.272173e+01	-5.781714e+01	-5.620184e+01	8.909085e+01
3.290313e+06	-4.316145e+01	-1.015488e+02	-3.061876e+01	-6.247588e+00	-9.087046e+01	-6.503698e+01	-5.625510e+01	8.956352e+01
3.290344e+06	-4.316357e+01	-1.015644e+02	-3.061658e+01	-6.252481e+00	-9.084185e+01	-6.048960e+01	-5.622599e+01	8.911493e+01
3.290375e+06	-4.316569e+01	-1.015808e+02	-3.061438e+01	-6.257323e+00	-9.077110e+01	-5.590411e+01	-5.619578e+01	8.866202e+01
3.290406e+06	-4.316781e+01	-1.015972e+02	-3.061218e+01	-6.262163e+00	-9.064699e+01	-5.142057e+01	-5.616513e+01	8.821227e+01
3.290438e+06	-4.316994e+01	-1.016136e+02	-3.060997e+01	-6.267000e+00	-9.047397e+01	-4.708811e+01	-5.613407e+01	8.776571e+01
3.290469e+06	-4.317206e+01	-1.016300e+02	-3.060777e+01	-6.271835e+00	-9.025778e+01	-4.294583e+01	-5.610259e+01	8.732235e+01
3.290500e+06	-4.317556e+01	-1.016156e+02	-3.060729e+01	-6.269967e+00	-9.564506e+01	-2.973821e+01	-5.609199e+01	8.748478e+01
3.290532e+06	-4.317906e+01	-1.016012e+02	-3.060681e+01	-6.268100e+00	-1.022903e+02	3.618576e+01	-5.608134e+01	8.764681e+01
3.290563e+06	-4.318256e+01	-1.015868e+02	-3.060633e+01	-6.266233e+00	-9.520453e+01	9.639604e+01	-5.607063e+01	8.780844e+01
3.290594e+06	-4.318606e+01	-1.015723e+02	-3.060585e+01	-6.264366e+00	-8.999752e+01	1.085635e+02	-5.605986e+01	8.796967e+01
3.290625e+06	-4.318958e+01	-1.015580e+02	-3.060538e+01	-6.262480e+00	-8.669763e+01	1.130558e+02	-5.604915e+01	8.812853e+01
3.290656e+06	-4.319436e+01	-1.015591e+02	-3.060631e+01	-6.258264e+00	-8.822021e+01	1.122552e+02	-5.605152e+01	8.804212e+01
3.290688e+06	-4.319914e+01	-1.015602e+02	-3.060724e+01	-6.254046e+00	-9.006454e+01	1.110753e+02	-5.605388e+01	8.795566e+01
3.290719e+06	-4.320392e+01	-1.015614e+02	-3.060818e+01	-6.249828e+00	-9.240127e+01	1.091658e+02	-5.605621e+01	8.786916e+01
3.290750e+06	-4.320871e+01	-1.015625e+02	-3.060911e+01	-6.245609e+00	-9.558149e+01	1.055602e+02	-5.605853e+01	8.778261e+01
3.290782e+06	-4.321336e+01	-1.015633e+02	-3.061002e+01	-6.241496e+00	-1.004353e+02	9.648790e+01	-5.606101e+01	8.770002e+01
3.290813e+06	-4.320955e+01	-1.015431e+02	-3.060921e+01	-6.244015e+00	-1.034213e+02	8.407499e+01	-5.607488e+01	8.786389e+01
3.290844e+06	-4.320575e+01	-1.015230e+02	-3.060840e+01	-6.246533e+00	-1.066120e+02	5.811723e+01	-5.608869e+01	8.802829e+01
3.290875e+06	-4.320195e+01	-1.015029e+02	-3.060760e+01	-6.249050e+00	-1.071088e+02	1.611136e+01	-5.610246e+01	8.819322e+01
3.290906e+06	-4.319814e+01	-1.014828e+02	-3.060679e+01	-6.251567e+00	-1.041555e+02	-1.417702e+01	-5.611618e+01	8.835866e+01
3.290938e+06	-4.319434e+01	-1.014628e+02	-3.060599e+01	-6.254084e+00	-1.010418e+02	-2.870380e+01	-5.612984e+01	8.852463e+01
3.290969e+06	-4.319211e+01	-1.014734e+02	-3.060698e+01	-6.259066e+00	-9.641540e+01	-3.615404e+01	-5.612541e+01	8.866031e+01
3.291000e+06	-4.318990e+01	-1.014843e+02	-3.060799e+01	-6.264070e+00	-9.335937e+01	-3.922289e+01	-5.612079e+01	8.879560e+01
3.291032e+06	-4.318769e+01	-1.014952e+02	-3.060899e+01	-6.269075e+00	-9.109280e+01	-4.088515e+01	-5.611613e+01	8.893075e+01
3.291063e+06	-4.318547e+01	-1.015060e+02	-3.061000e+01	-6.274081e+00	-8.929324e+01	-4.192592e+01	-5.611142e+01	8.906575e+01
3.291094e+06	-4.318326e+01	-1.015169e+02	-3.061101e+01	-6.279088e+00	-8.780163e+01	-4.263842e+01	-5.610666e+01	8.920060e+01
3.291125e+06	-4.318141e+01	-1.015226e+02	-3.060954e+01	-6.292354e+00	-8.934470e+01	-4.804433e+01	-5.611158e+01	8.904064e+01
3.291156e+06	-4.317956e+01	-1.015283e+02	-3.060808e+01	-6.305615e+00	-9.108250e+01	-5.594464e+01	-5.611643e+01	8.888050e+01
3.291188e+06	-4.317771e+01	-1.015340e+02	-3.060661e+01	-6.318872e+00	-9.293701e+01	-6.794131e+01	-5.612121e+01	8.872019e+01
3.291219e+06	-4.317586e+01	-1.015397e+02	-3.060515e+01	-6.332125e+00	-9.455622e+01	-8.600419e+01	-5.612593e+01	8.855970e+01
3.291250e+06	-4.317406e+01	-1.015452e+02	-3.060370e+01	-6.345224e+00	-9.517585e+01	-1.094533e+02	-5.613051e+01	8.839956e+01
3.291282e+06	-4.317777e+01	-1.015313e+02	-3.060516e+01	-6.339854e+00	-9.679995e+01	-1.138850e+02	-5.612547e+01	8.830472e+01
3.291313e+06	-4.318147e+01	-1.015175e+02	-3.060661e+01	-6.334483e+00	-9.870112e+01	-1.205434e+02	-5.612042e+01	8.820998e+01
3.291344e+06	-4.318518e+01	-1.015036e+02	-3.060806e+01	-6.329110e+00	-1.008901e+02	-1.312446e+02	-5.611534e+01	8.811536e+01
3.291375e+06	-4.318889e+01	-1.014897e+02	-3.060952e+01	-6.323735e+00	-1.031201e+02	-1.492339e+02	-5.611024e+01	8.802085e+01
3.291406e+06	-4.319237e+01	-1.014762e+02	-3.061093e+01	-6.318055e+00	-1.044528e+02	-1.765022e+02	-5.610494e+01	8.792463e+01
3.291438e+06	-4.318149e+01	-1.014893e+02	-3.060974e+01	-6.293717e+00	-1.110166e+02	1.250090e+02	-5.608869e+01	8.771661e+01
3.291469e+06	-4.317063e+01	-1.015023e+02	-3.060855e+01	-6.269385e+00	-1.049081e+02	6.105785e+01	-5.607235e+01	8.750937e+01
3.291500e+06	-4.315978e+01	-1.015152e+02	-3.060735e+01	-6.245061e+00	-9.962466e+01	4.705105e+01	-5.605593e+01	8.730291e+01
3.291532e+06	-4.314895e+01	-1.015282e+02	-3.060616e+01	-6.220743e+00	-9.623246e+01	4.193661e+01	-5.603942e+01	8.709723e+01
3.291563e+06	-4.313813e+01	-1.015411e+02	-3.060496e+01	-6.196431e+00	-9.377259e+01	3.933185e+01	-5.602284e+01	8.689234e+01
3.291594e+06	-4.314969e+01	-1.015754e+02	-3.060514e+01	-6.202121e+00	-9.815449e+01	6.365075e+01	-5.605338e+01	8.697403e+01
3.291625e+06	-4.316144e+01	-1.016099e+02	-3.060533e+01	-6.208053e+00	-9.964631e+01	1.185818e+02	-5.608439e+01	8.705863e+01
3.291656e+06	-4.317320e+01	-1.016445e+02	-3.060553e+01	-6.213986e+00	-9.536338e+01	1.549896e+02	-5.611548e+01	8.714384e+01
3.291688e+06	-4.318498e+01	-1.016792e+02	-3.060572e+01	-6.219918e+00	-9.154882e+01	1.685017e+02	-5.614668e+01	8.722966e+01
3.291719e+06	-4.319677e+01	-1.017140e+02	-3.060591e+01	-6.225851e+00	-8.874179e+01	1.747603e+02	-5.617796e+01	8.731610e+01
3.291750e+06	-4.320093e+01	-1.016481e+02	-3.060592e+01	-6.225939e+00	-9.110625e+01	1.693697e+02	-5.614806e+01	8.759834e+01
3.291782e+06	-4.320509e+01	-1.015821e+02	-3.060592e+01	-6.226028e+00	-9.415698e+01	1.592770e+02	-5.611805e+01	8.787863e+01
3.291813e+06	-4.320923e+01	-1.015161e+02	-3.060593e+01	-6.226116e+00	-9.788941e+01	1.367795e+02	-5.608795e+01	8.815699e+01
3.291844e+06	-4.321337e+01	-1.014499e+02	-3.060593e+01	-6.226204e+00	-9.954921e+01	9.139151e+01	-5.605774e+01	8.843343e+01
3.291875e+06	-4.321739e+01	-1.013849e+02	-3.060594e+01	-6.226444e+00	-9.645400e+01	5.458499e+01	-5.602786e+01	8.870501e+01
3.291906e+06	-4.320801e+01	-1.014605e+02	-3.060612e+01	-6.245492e+00	-9.898606e+01	2.906789e+01	-5.605033e+01	8.861159e+01
3.291938e+06	-4.319863e+01	-1.015359e+02	-3.060629e+01	-6.264541e+00	-9.916392e+01	-6.983258e+00	-5.607284e+01	8.851768e+01
3.291969e+06	-4.318925e+01	-1.016111e+02	-3.060646e+01	-6.283591e+00	-9.675611e+01	-3.406455e+01	-5.609538e+01	8.842329e+01
3.292000e+06	-4.317986e+01	-1.016862e+02	-3.060663e+01	-6.302641e+00	-9.402562e+01	-4.865833e+01	-5.611795e+01	8.832840e+01
3.292032e+06	-4.317063e+01	-1.017592e+02	-3.060681e+01	-6.321289e+00	-9.177751e+01	-5.677330e+01	-5.614055e+01	8.823743e+01
3.292063e+06	-4.317135e+01	-1.017163e+02	-3.060712e+01	-6.315179e+00	-9.452702e+01	-6.691087e+01	-5.616246e+01	8.841796e+01
3.292094e+06	-4.317206e+01	-1.016734e+02	-3.060743e+01	-6.309069e+00	-9.771818e+01	-8.732480e+01	-5.618434e+01	8.859940e+01
3.292125e+06	-4.317276e+01	-1.016304e+02	-3.060775e+01	-6.302959e+00	-9.944506e+01	-1.252359e+02	-5.620619e+01	8.878176e+01
3.292156e+06	-4.317346e+01	-1.015875e+02	-3.060806e+01	-6.296847e+00	-9.730117e+01	-1.610839e+02	-5.622800e+01	8.896503e+01
3.292188e+06	-4.317415e+01	-1.015445e+02	-3.060838e+01	-6.290736e+00	-9.412626e+01	-1.795932e+02	-5.624978e+01	8.914923e+01
3.292219e+06	-4.317581e+01	-1.015682e+02	-3.060627e+01	-6.287374e+00	-9.863906e+01	-1.606741e+02	-5.624411e+01	8.891612e+01
3.292250e+06	-4.317747e+01	-1.015923e+02	-3.060415e+01	-6.284037e+00	-1.019380e+02	-1.066043e+02	-5.623807e+01	8.867997e+01
3.292282e+06	-4.317913e+01	-1.016165e+02	-3.060203e+01	-6.280700e+00	-9.761499e+01	-6.057638e+01	-5.623190e+01	8.844414e+01
3.292313e+06	-4.318078e+01	-1.016407e+02	-3.059990e+01	-6.277366e+00	-9.333166e+01	-4.507926e+01	-5.622558e+01	8.820866e+01
3.292344e+06	-4.318244e+01	-1.016649e+02	-3.059778e+01	-6.274033e+00	-9.028041e+01	-3.848490e+01	-5.621912e+01	8.797352e+01
3.292375e+06	-4.319053e+01	-1.016556e+02	-3.059955e+01	-6.283025e+00	-9.149026e+01	-3.703924e+01	-5.619424e+01	8.796504e+01
3.292406e+06	-4.319863e+01	-1.016462e+02	-3.060132e+01	-6.292020e+00	-9.288755e+01	-3.508733e+01	-5.616943e+01	8.795660e+01
3.292438e+06	-4.320674e+01	-1.016369e+02	-3.060309e+01	-6.301019e+00	-9.453620e+01	-3.231501e+01	-5.614470e+01	8.794822e+01
3.292469e+06	-4.321485e+01	-1.016275e+02	-3.060486e+01	-6.310022e+00	-9.653375e+01	-2.809439e+01	-5.612003e+01	8.793988e+01
3.292500e+06	-4.322286e+01	-1.016183e+02	-3.060664e+01	-6.318892e+00	-9.897006e+01	-2.111100e+01	-5.609564e+01	8.793160e+01
3.292532e+06	-4.321712e+01	-1.016306e+02	-3.060887e+01	-6.310858e+00	-9.555956e+01	-2.365253e+01	-5.609632e+01	8.792533e+01
3.292563e+06	-4.321138e+01	-1.016429e+02	-3.061110e+01	-6.302821e+00	-9.311042e+01	-2.494675e+01	-5.609700e+01	8.791907e+01
3.292594e+06	-4.320565e+01	-1.016552e+02	-3.061333e+01	-6.294779e+00	-9.119998e+01	-2.573019e+01	-5.609768e+01	8.791280e+01
3.292625e+06	-4.319992e+01	-1.016674e+02	-3.061556e+01	-6.286733e+00	-8.963401e+01	-2.625521e+01	-5.609837e+01	8.790653e+01
3.292656e+06	-4.319432e+01	-1.016797e+02	-3.061770e+01	-6.278812e+00	-8.835013e+01	-2.670769e+01	-5.609979e+01	8.789937e+01
3.292688e+06	-4.319705e+01	-1.016908e+02	-3.061413e+01	-6.278830e+00	-8.988709e+01	-3.280492e+01	-5.614671e+01	8.783745e+01
3.292719e+06	-4.319978e+01	-1.017018e+02	-3.061056e+01	-6.278848e+00	-9.157904e+01	-4.166608e+01	-5.619387e+01	8.777484e+01
3.292750e+06	-4.320250e+01	-1.017129e+02	-3.060700e+01	-6.278865e+00	-9.329153e+01	-5.484303e+01	-5.624128e+01	8.771156e+01
3.292782e+06	-4.320523e+01	-1.017240e+02	-3.060343e+01	-6.278883e+00	-9.459983e+01	-7.367372e+01	-5.628894e+01	8.764757e+01
3.292813e+06	-4.320796e+01	-1.017351e+02	-3.059987e+01	-6.278901e+00	-9.482167e+01	-9.631433e+01	-5.633685e+01	8.758288e+01
3.292844e+06	-4.319284e+01	-1.017400e+02	-3.059924e+01	-6.285542e+00	-9.806115e+01	-7.606546e+01	-5.631273e+01	8.763640e+01
3.292875e+06	-4.317760e+01	-1.017448e+02	-3.059864e+01	-6.292236e+00	-9.982950e+01	-3.726832e+01	-5.628809e+01	8.769057e+01
3.292906e+06	-4.316239e+01	-1.017496e+02	-3.059803e+01	-6.298928e+00	-9.757334e+01	-9.446288e-01	-5.626352e+01	8.774444e+01
3.292938e+06	-4.314720e+01	-1.017544e+02	-3.059743e+01	-6.305620e+00	-9.433195e+01	1.738940e+01	-5.623900e+01	8.779800e+01
3.292969e+06	-4.313204e+01	-1.017592e+02	-3.059682e+01	-6.312311e+00	-9.163746e+01	2.652779e+01	-5.621455e+01	8.785126e+01
3.293000e+06	-4.314129e+01	-1.017230e+02	-3.059801e+01	-6.306538e+00	-9.315537e+01	3.354881e+01	-5.620599e+01	8.791578e+01
3.293032e+06	-4.315054e+01	-1.016868e+02	-3.059920e+01	-6.300764e+00	-9.476514e+01	4.364005e+01	-5.619742e+01	8.798017e+01
3.293063e+06	-4.315980e+01	-1.016505e+02	-3.060038e+01	-6.294988e+00	-9.626049e+01	5.814792e+01	-5.618885e+01	8.804443e+01
3.293094e+06	-4.316907e+01	-1.016141e+02	-3.060157e+01	-6.289210e+00	-9.716991e+01	7.744229e+01	-5.618028e+01	8.810857e+01
3.293125e+06	-4.317823e+01	-1.015778e+02	-3.060275e+01	-6.283516e+00	-9.700452e+01	9.848030e+01	-5.617163e+01	8.817113e+01
3.293156e+06	-4.317315e+01	-1.015700e+02	-3.060279e+01	-6.288424e+00	-9.702730e+01	1.141187e+02	-5.615390e+01	8.805341e+01
3.293188e+06	-4.316806e+01	-1.015623e+02	-3.060283e+01	-6.293332e+00	-9.644603e+01	1.287607e+02	-5.613617e+01	8.793617e+01
3.293219e+06	-4.316299e+01	-1.015545e+02	-3.060286e+01	-6.298240e+00	-9.545908e+01	1.409430e+02	-5.611844e+01	8.781941e+01
3.293250e+06	-4.315791e+01	-1.015467e+02	-3.060290e+01	-6.303148e+00	-9.429714e+01	1.504270e+02	-5.610071e+01	8.770313e+01
3.293282e+06	-4.315295e+01	-1.015391e+02	-3.060295e+01	-6.307821e+00	-9.315733e+01	1.574351e+02	-5.608307e+01	8.759213e+01
3.293313e+06	-4.315499e+01	-1.015403e+02	-3.060348e+01	-6.298001e+00	-9.494681e+01	1.485290e+02	-5.607059e+01	8.777712e+01
3.293344e+06	-4.315702e+01	-1.015414e+02	-3.060401e+01	-6.288180e+00	-9.679076e+01	1.349242e+02	-5.605803e+01	8.796157e+01
3.293375e+06	-4.315906e+01	-1.015425e+02	-3.060454e+01	-6.278358e+00	-9.820721e+01	1.149025e+02	-5.604540e+01	8.814548e+01
3.293406e+06	-4.316110e+01	-1.015437e+02	-3.060507e+01	-6.268534e+00	-9.837685e+01	9.063682e+01	-5.603270e+01	8.832887e+01
3.293438e+06	-4.316313e+01	-1.015448e+02	-3.060560e+01	-6.258710e+00	-9.716679e+01	6.925540e+01	-5.601993e+01	8.851171e+01
3.293469e+06	-4.316803e+01	-1.015133e+02	-3.060404e+01	-6.258085e+00	-1.013534e+02	7.513383e+01	-5.603318e+01	8.854099e+01
3.293500e+06	-4.317294e+01	-1.014816e+02	-3.060247e+01	-6.257534e+00	-1.089099e+02	9.930621e+01	-5.604666e+01	8.856913e+01
3.293532e+06	-4.317786e+01	-1.014498e+02	-3.060090e+01	-6.256984e+00	-1.089677e+02	-1.603974e+02	-5.606015e+01	8.859735e+01
3.293563e+06	-4.318277e+01	-1.014180e+02	-3.059933e+01	-6.256434e+00	-1.013838e+02	-1.359625e+02	-5.607367e+01	8.862566e+01
3.293594e+06	-4.318769e+01	-1.013861e+02	-3.059776e+01	-6.255884e+00	-9.714561e+01	-1.298744e+02	-5.608720e+01	8.865406e+01
