# Hz S dB R 50.000
3.288438e+06	-4.338598e+01	-9.204403e+01	-3.063605e+01	-7.278576e+00	-9.266987e+01	9.034391e+01	-5.378545e+01	1.121530e+02
3.288469e+06	-4.339102e+01	-9.205389e+01	-3.063721e+01	-7.264524e+00	-9.382773e+01	9.534021e+01	-5.381021e+01	1.120955e+02
3.288500e+06	-4.339607e+01	-9.206377e+01	-3.063837e+01	-7.250467e+00	-9.506263e+01	1.019273e+02	-5.383503e+01	1.120376e+02
3.288532e+06	-4.340112e+01	-9.207366e+01	-3.063952e+01	-7.236408e+00	-9.632229e+01	1.107210e+02	-5.385992e+01	1.119795e+02
3.288563e+06	-4.340618e+01	-9.208356e+01	-3.064068e+01	-7.222344e+00	-9.747672e+01	1.223666e+02	-5.388486e+01	1.119210e+02
3.288594e+06	-4.341113e+01	-9.209323e+01	-3.064181e+01	-7.208356e+00	-9.830503e+01	1.369333e+02	-5.390964e+01	1.118616e+02
3.288626e+06	-4.340344e+01	-9.207297e+01	-3.063944e+01	-7.204252e+00	-1.017846e+02	1.434504e+02	-5.390575e+01	1.117332e+02
3.288657e+06	-4.339575e+01	-9.205275e+01	-3.063707e+01	-7.200151e+00	-1.070730e+02	1.615971e+02	-5.390181e+01	1.116049e+02
3.288688e+06	-4.338808e+01	-9.203257e+01	-3.063471e+01	-7.196051e+00	-1.111414e+02	-1.322535e+02	-5.389783e+01	1.114768e+02
3.288719e+06	-4.338040e+01	-9.201242e+01	-3.063234e+01	-7.191954e+00	-1.051556e+02	-8.507792e+01	-5.389381e+01	1.113488e+02
3.288750e+06	-4.337289e+01	-9.199357e+01	-3.063003e+01	-7.188095e+00	-1.005310e+02	-7.268771e+01	-5.388972e+01	1.112249e+02
3.288782e+06	-4.337503e+01	-9.205215e+01	-3.063145e+01	-7.198702e+00	-9.661994e+01	-7.296554e+01	-5.388352e+01	1.113474e+02
3.288813e+06	-4.337715e+01	-9.211076e+01	-3.063287e+01	-7.209313e+00	-9.393283e+01	-7.309551e+01	-5.387729e+01	1.114697e+02
3.288844e+06	-4.337927e+01	-9.216940e+01	-3.063429e+01	-7.219927e+00	-9.188353e+01	-7.317086e+01	-5.387103e+01	1.115918e+02
3.288876e+06	-4.338137e+01	-9.222807e+01	-3.063571e+01	-7.230545e+00	-9.022662e+01	-7.322003e+01	-5.386472e+01	1.117138e+02
3.288907e+06	-4.338320e+01	-9.228495e+01	-3.063708e+01	-7.240893e+00	-8.893646e+01	-7.338832e+01	-5.385873e+01	1.118320e+02
3.288938e+06	-4.337405e+01	-9.226803e+01	-3.063666e+01	-7.240127e+00	-9.240269e+01	-8.183165e+01	-5.386674e+01	1.118028e+02
3.288969e+06	-4.336490e+01	-9.225113e+01	-3.063624e+01	-7.239361e+00	-9.729351e+01	-1.044319e+02	-5.387475e+01	1.117735e+02
3.289000e+06	-4.335577e+01	-9.223428e+01	-3.063583e+01	-7.238595e+00	-9.951990e+01	-1.651273e+02	-5.388276e+01	1.117442e+02
3.289032e+06	-4.334664e+01	-9.221746e+01	-3.063541e+01	-7.237830e+00	-9.455078e+01	1.553854e+02	-5.389078e+01	1.117148e+02
3.289063e+06	-4.333752e+01	-9.220067e+01	-3.063499e+01	-7.237064e+00	-9.044078e+01	1.424658e+02	-5.389881e+01	1.116854e+02
3.289094e+06	-4.334643e+01	-9.226730e+01	-3.063582e+01	-7.230776e+00	-9.149049e+01	1.500909e+02	-5.390066e+01	1.116983e+02
3.289126e+06	-4.335533e+01	-9.233407e+01	-3.063666e+01	-7.224486e+00	-9.246232e+01	1.597311e+02	-5.390250e+01	1.117113e+02
3.289157e+06	-4.336423e+01	-9.240097e+01	-3.063749e+01	-7.218195e+00	-9.321738e+01	1.715194e+02	-5.390435e+01	1.117243e+02
3.289188e+06	-4.337313e+01	-9.246801e+01	-3.063832e+01	-7.211903e+00	-9.358595e+01	-1.750358e+02	-5.390619e+01	1.117372e+02
3.289219e+06	-4.338192e+01	-9.253394e+01	-3.063914e+01	-7.205690e+00	-9.349663e+01	-1.613143e+02	-5.390817e+01	1.117511e+02
3.289250e+06	-4.337749e+01	-9.244513e+01	-3.063799e+01	-7.209417e+00	-9.940542e+01	-1.619743e+02	-5.392755e+01	1.118782e+02
3.289282e+06	-4.337304e+01	-9.235641e+01	-3.063684e+01	-7.213144e+00	-1.286929e+02	1.565309e+02	-5.394692e+01	1.120059e+02
3.289313e+06	-4.336857e+01	-9.226779e+01	-3.063568e+01	-7.216869e+00	-9.985398e+01	2.077106e+01	-5.396629e+01	1.121341e+02
3.289344e+06	-4.336408e+01	-9.217925e+01	-3.063453e+01	-7.220594e+00	-9.372097e+01	2.005790e+01	-5.398566e+01	1.122629e+02
3.289376e+06	-4.335972e+01	-9.209332e+01	-3.063341e+01	-7.224252e+00	-9.023970e+01	1.983786e+01	-5.400449e+01	1.123885e+02
3.289407e+06	-4.336449e+01	-9.216236e+01	-3.063398e+01	-7.223856e+00	-9.244716e+01	2.073612e+01	-5.399017e+01	1.122814e+02
3.289438e+06	-4.336926e+01	-9.223147e+01	-3.063455e+01	-7.223460e+00	-9.540870e+01	2.236502e+01	-5.397584e+01	1.121746e+02
3.289469e+06	-4.337401e+01	-9.230065e+01	-3.063513e+01	-7.223064e+00	-9.990937e+01	2.621336e+01	-5.396150e+01	1.120682e+02
3.289500e+06	-4.337876e+01	-9.236991e+01	-3.063570e+01	-7.222668e+00	-1.091823e+02	4.534376e+01	-5.394716e+01	1.119621e+02
3.289532e+06	-4.338333e+01	-9.243716e+01	-3.063625e+01	-7.222710e+00	-1.082144e+02	1.715214e+02	-5.393306e+01	1.118603e+02
3.289563e+06	-4.338143e+01	-9.241966e+01	-3.063576e+01	-7.240578e+00	-1.070394e+02	3.359843e+01	-5.392877e+01	1.119169e+02
3.289594e+06	-4.337952e+01	-9.240216e+01	-3.063526e+01	-7.258445e+00	-9.837281e+01	2.113520e+01	-5.392448e+01	1.119736e+02
3.289626e+06	-4.337761e+01	-9.238468e+01	-3.063477e+01	-7.276309e+00	-9.406578e+01	1.835747e+01	-5.392018e+01	1.120301e+02
3.289657e+06	-4.337571e+01	-9.236720e+01	-3.063428e+01	-7.294172e+00	-9.119309e+01	1.714250e+01	-5.391587e+01	1.120866e+02
3.289688e+06	-4.337380e+01	-9.234973e+01	-3.063378e+01	-7.312032e+00	-8.903632e+01	1.646162e+01	-5.391156e+01	1.121431e+02
3.289719e+06	-4.337835e+01	-9.230890e+01	-3.063482e+01	-7.294917e+00	-8.914966e+01	2.517844e+01	-5.393154e+01	1.120715e+02
3.289750e+06	-4.338290e+01	-9.226803e+01	-3.063586e+01	-7.277799e+00	-8.906062e+01	3.391987e+01	-5.395155e+01	1.119997e+02
3.289782e+06	-4.338745e+01	-9.222712e+01	-3.063690e+01	-7.260676e+00	-8.878104e+01	4.229543e+01	-5.397159e+01	1.119275e+02
3.289813e+06	-4.339200e+01	-9.218616e+01	-3.063794e+01	-7.243549e+00	-8.834482e+01	5.000423e+01	-5.399166e+01	1.118549e+02
3.289844e+06	-4.339649e+01	-9.214598e+01	-3.063897e+01	-7.226586e+00	-8.780978e+01	5.679326e+01	-5.401173e+01	1.117846e+02
3.289876e+06	-4.339344e+01	-9.220753e+01	-3.063837e+01	-7.230490e+00	-8.900691e+01	5.141781e+01	-5.402659e+01	1.120337e+02
3.289907e+06	-4.339038e+01	-9.226903e+01	-3.063778e+01	-7.234394e+00	-9.027674e+01	4.426868e+01	-5.404132e+01	1.122837e+02
3.289938e+06	-4.338731e+01	-9.233049e+01	-3.063718e+01	-7.238297e+00	-9.154975e+01	3.466801e+01	-5.405590e+01	1.125346e+02
3.289969e+06	-4.338424e+01	-9.239190e+01	-3.063659e+01	-7.242199e+00	-9.266182e+01	2.198941e+01	-5.407034e+01	1.127862e+02
3.290000e+06	-4.338113e+01	-9.245205e+01	-3.063604e+01	-7.245798e+00	-9.333047e+01	6.538753e+00	-5.408329e+01	1.130335e+02
3.290032e+06	-4.337690e+01	-9.243709e+01	-3.063843e+01	-7.230760e+00	-9.334921e+01	1.614333e+00	-5.401385e+01	1.129614e+02
3.290063e+06	-4.337266e+01	-9.242214e+01	-3.064082e+01	-7.215712e+00	-9.330393e+01	-3.295026e+00	-5.394495e+01	1.128904e+02
3.290094e+06	-4.336843e+01	-9.240720e+01	-3.064321e+01	-7.200657e+00	-9.319658e+01	-8.118666e+00	-5.387658e+01	1.128206e+02
3.290126e+06	-4.336420e+01	-9.239228e+01	-3.064560e+01	-7.185593e+00	-9.303164e+01	-1.279311e+01	-5.380873e+01	1.127518e+02
3.290157e+06	-4.336019e+01	-9.237819e+01	-3.064789e+01	-7.171239e+00	-9.286548e+01	-1.670188e+01	-5.374406e+01	1.126813e+02
3.290188e+06	-4.336514e+01	-9.239757e+01	-3.064635e+01	-7.186076e+00	-9.420358e+01	6.386625e+00	-5.378811e+01	1.124983e+02
3.290219e+06	-4.337008e+01	-9.241697e+01	-3.064480e+01	-7.200909e+00	-9.391626e+01	3.265539e+01	-5.383230e+01	1.123133e+02
3.290250e+06	-4.337503e+01	-9.243639e+01	-3.064326e+01	-7.215735e+00	-9.225557e+01	5.336712e+01	-5.387662e+01	1.121265e+02
3.290282e+06	-4.337999e+01	-9.245583e+01	-3.064172e+01	-7.230557e+00	-9.023650e+01	6.675424e+01	-5.392108e+01	1.119378e+02
3.290313e+06	-4.338494e+01	-9.247529e+01	-3.064017e+01	-7.245373e+00	-8.835005e+01	7.524691e+01	-5.396567e+01	1.117471e+02
3.290344e+06	-4.338720e+01	-9.248413e+01	-3.063955e+01	-7.240233e+00	-9.045405e+01	7.652915e+01	-5.391718e+01	1.119014e+02
3.290376e+06	-4.338946e+01	-9.249298e+01	-3.063893e+01	-7.235094e+00	-9.322588e+01	7.877735e+01	-5.386890e+01	1.120540e+02
3.290407e+06	-4.339172e+01	-9.250183e+01	-3.063831e+01	-7.229955e+00	-9.727402e+01	8.371203e+01	-5.382082e+01	1.122050e+02
3.290438e+06	-4.339398e+01	-9.251068e+01	-3.063769e+01	-7.224817e+00	-1.045161e+02	1.021080e+02	-5.377295e+01	1.123542e+02
3.290469e+06	-4.339623e+01	-9.251949e+01	-3.063709e+01	-7.219807e+00	-1.071993e+02	-1.537788e+02	-5.372597e+01	1.124990e+02
3.290500e+06	-4.339748e+01	-9.252188e+01	-3.063777e+01	-7.230590e+00	-1.066257e+02	-5.061305e+01	-5.376442e+01	1.122818e+02
3.290532e+06	-4.339873e+01	-9.252426e+01	-3.063846e+01	-7.241374e+00	-9.904482e+01	-2.822910e+01	-5.380292e+01	1.120627e+02
3.290563e+06	-4.339998e+01	-9.252665e+01	-3.063914e+01	-7.252160e+00	-9.484640e+01	-2.259836e+01	-5.384146e+01	1.118416e+02
3.290594e+06	-4.340123e+01	-9.252904e+01	-3.063983e+01	-7.262948e+00	-9.200118e+01	-2.009904e+01	-5.388005e+01	1.116185e+02
3.290626e+06	-4.340240e+01	-9.253015e+01	-3.064050e+01	-7.273345e+00	-8.988763e+01	-1.870430e+01	-5.391806e+01	1.113977e+02
3.290657e+06	-4.339842e+01	-9.245298e+01	-3.064062e+01	-7.259587e+00	-9.006576e+01	-1.832610e+01	-5.391868e+01	1.114371e+02
3.290688e+06	-4.339442e+01	-9.237588e+01	-3.064074e+01	-7.245828e+00	-9.024721e+01	-1.793191e+01	-5.391929e+01	1.114764e+02
3.290719e+06	-4.339041e+01	-9.229885e+01	-3.064086e+01	-7.232069e+00	-9.043209e+01	-1.752074e+01	-5.391990e+01	1.115157e+02
3.290750e+06	-4.338639e+01	-9.222189e+01	-3.064098e+01	-7.218310e+00	-9.062052e+01	-1.709151e+01	-5.392051e+01	1.115551e+02
3.290782e+06	-4.338254e+01	-9.214819e+01	-3.064111e+01	-7.205275e+00	-9.084187e+01	-1.641657e+01	-5.392138e+01	1.115958e+02
3.290813e+06	-4.338610e+01	-9.220406e+01	-3.064194e+01	-7.221752e+00	-9.220167e+01	-4.717662e+00	-5.393311e+01	1.116903e+02
3.290844e+06	-4.338966e+01	-9.225998e+01	-3.064276e+01	-7.238232e+00	-9.324219e+01	1.078664e+01	-5.394483e+01	1.117851e+02
3.290876e+06	-4.339321e+01	-9.231594e+01	-3.064358e+01	-7.254715e+00	-9.357725e+01	2.903769e+01	-5.395654e+01	1.118801e+02
3.290907e+06	-4.339675e+01	-9.237195e+01	-3.064441e+01	-7.271201e+00	-9.303868e+01	4.685173e+01	-5.396824e+01	1.119754e+02
3.290938e+06	-4.340029e+01	-9.242800e+01	-3.064523e+01	-7.287690e+00	-9.188553e+01	6.143504e+01	-5.397994e+01	1.120710e+02
3.290969e+06	-4.340090e+01	-9.248350e+01	-3.064333e+01	-7.279780e+00	-9.422006e+01	5.158849e+01	-5.393168e+01	1.122534e+02
3.291000e+06	-4.340150e+01	-9.253901e+01	-3.064142e+01	-7.271873e+00	-9.677353e+01	3.411843e+01	-5.388360e+01	1.124338e+02
3.291032e+06	-4.340210e+01	-9.259453e+01	-3.063952e+01	-7.263970e+00	-9.844305e+01	4.898066e+00	-5.383569e+01	1.126123e+02
3.291063e+06	-4.340269e+01	-9.265005e+01	-3.063762e+01	-7.256070e+00	-9.751606e+01	-2.722485e+01	-5.378797e+01	1.127887e+02
3.291094e+06	-4.340323e+01	-9.270462e+01	-3.063570e+01	-7.248167e+00	-9.507495e+01	-4.810277e+01	-5.374086e+01	1.129613e+02
3.291126e+06	-4.339989e+01	-9.263977e+01	-3.063239e+01	-7.239409e+00	-9.501051e+01	-3.646450e+01	-5.374718e+01	1.128830e+02
3.291157e+06	-4.339654e+01	-9.257497e+01	-3.062907e+01	-7.230658e+00	-9.461055e+01	-2.543994e+01	-5.375349e+01	1.128046e+02
3.291188e+06	-4.339318e+01	-9.251022e+01	-3.062575e+01	-7.221913e+00	-9.395651e+01	-1.568832e+01	-5.375979e+01	1.127261e+02
3.291219e+06	-4.338981e+01	-9.244552e+01	-3.062244e+01	-7.213176e+00	-9.315050e+01	-7.456984e+00	-5.376608e+01	1.126475e+02
3.291250e+06	-4.338652e+01	-9.238211e+01	-3.061922e+01	-7.204577e+00	-9.233752e+01	-7.468679e-01	-5.377258e+01	1.125704e+02
3.291282e+06	-4.338811e+01	-9.239432e+01	-3.062190e+01	-7.204128e+00	-9.581793e+01	2.173580e+00	-5.379303e+01	1.125954e+02
3.291313e+06	-4.338971e+01	-9.240654e+01	-3.062459e+01	-7.203680e+00	-1.015864e+02	1.067125e+01	-5.381353e+01	1.126204e+02
3.291344e+06	-4.339131e+01	-9.241876e+01	-3.062727e+01	-7.203231e+00	-1.121128e+02	8.537012e+01	-5.383408e+01	1.126456e+02
3.291376e+06	-4.339291e+01	-9.243099e+01	-3.062995e+01	-7.202782e+00	-1.014154e+02	1.564097e+02	-5.385467e+01	1.126710e+02
3.291407e+06	-4.339453e+01	-9.244249e+01	-3.063258e+01	-7.202319e+00	-9.586312e+01	1.647955e+02	-5.387488e+01	1.126930e+02
3.291438e+06	-4.339682e+01	-9.242435e+01	-3.063280e+01	-7.201339e+00	-9.725060e+01	1.769839e+02	-5.387736e+01	1.125751e+02
3.291469e+06	-4.339912e+01	-9.240620e+01	-3.063303e+01	-7.200359e+00	-9.827777e+01	-1.668281e+02	-5.387980e+01	1.124573e+02
3.291500e+06	-4.340142e+01	-9.238804e+01	-3.063326e+01	-7.199378e+00	-9.853178e+01	-1.479776e+02	-5.388220e+01	1.123393e+02
3.291532e+06	-4.340372e+01	-9.236987e+01	-3.063349e+01	-7.198398e+00	-9.787808e+01	-1.300046e+02	-5.388457e+01	1.122213e+02
3.291563e+06	-4.340602e+01	-9.235169e+01	-3.063372e+01	-7.197417e+00	-9.663535e+01	-1.156427e+02	-5.388690e+01	1.121032e+02
3.291594e+06	-4.341071e+01	-9.237576e+01	-3.063321e+01	-7.213690e+00	-9.907536e+01	-1.332550e+02	-5.392921e+01	1.121940e+02
3.291626e+06	-4.341540e+01	-9.239987e+01	-3.063270e+01	-7.229962e+00	-1.005946e+02	-1.617642e+02	-5.397171e+01	1.122857e+02
3.291657e+06	-4.342009e+01	-9.242399e+01	-3.063219e+01	-7.246232e+00	-9.968842e+01	1.674248e+02	-5.401439e+01	1.123783e+02
3.291688e+06	-4.342478e+01	-9.244814e+01	-3.063168e+01	-7.262499e+00	-9.734180e+01	1.468020e+02	-5.405726e+01	1.124718e+02
3.291719e+06	-4.342926e+01	-9.247205e+01	-3.063116e+01	-7.278567e+00	-9.502259e+01	1.350263e+02	-5.409950e+01	1.125645e+02
3.291750e+06	-4.340770e+01	-9.246202e+01	-3.062973e+01	-7.270005e+00	-1.001672e+02	1.266143e+02	-5.403958e+01	1.124377e+02
3.291782e+06	-4.338620e+01	-9.245205e+01	-3.062831e+01	-7.261447e+00	-1.095744e+02	7.523652e+01	-5.398004e+01	1.123127e+02
3.291813e+06	-4.336476e+01	-9.244212e+01	-3.062688e+01	-7.252892e+00	-1.022911e+02	-1.088668e+01	-5.392085e+01	1.121893e+02
3.291844e+06	-4.334336e+01	-9.243224e+01	-3.062545e+01	-7.244339e+00	-9.619520e+01	-2.323295e+01	-5.386203e+01	1.120676e+02
3.291876e+06	-4.332256e+01	-9.242255e+01	-3.062403e+01	-7.235834e+00	-9.264944e+01	-2.707656e+01	-5.380490e+01	1.119540e+02
3.291907e+06	-4.333513e+01	-9.242113e+01	-3.062280e+01	-7.230080e+00	-9.549744e+01	-1.710878e+01	-5.382994e+01	1.122339e+02
3.291938e+06	-4.334772e+01	-9.241970e+01	-3.062157e+01	-7.224328e+00	-9.888584e+01	3.678398e+00	-5.385483e+01	1.125155e+02
3.291969e+06	-4.336032e+01	-9.241827e+01	-3.062035e+01	-7.218578e+00	-1.007036e+02	4.393882e+01	-5.387959e+01	1.127987e+02
3.292000e+06	-4.337294e+01	-9.241683e+01	-3.061912e+01	-7.212829e+00	-9.825650e+01	8.088707e+01	-5.390421e+01	1.130836e+02
3.292032e+06	-4.338520e+01	-9.241504e+01	-3.061796e+01	-7.207349e+00	-9.498552e+01	9.876291e+01	-5.392807e+01	1.133558e+02
3.292063e+06	-4.338190e+01	-9.239886e+01	-3.061942e+01	-7.212731e+00	-9.469057e+01	1.061360e+02	-5.392717e+01	1.130533e+02
3.292094e+06	-4.337860e+01	-9.238270e+01	-3.062089e+01	-7.218115e+00	-9.427720e+01	1.129289e+02	-5.392604e+01	1.127508e+02
3.292126e+06	-4.337530e+01	-9.236655e+01	-3.062236e+01	-7.223500e+00	-9.377772e+01	1.190414e+02	-5.392466e+01	1.124484e+02
3.292157e+06	-4.337200e+01	-9.235041e+01	-3.062383e+01	-7.228888e+00	-9.322256e+01	1.244527e+02	-5.392303e+01	1.121462e+02
3.292188e+06	-4.336870e+01	-9.233428e+01	-3.062530e+01	-7.234277e+00	-9.263683e+01	1.291964e+02	-5.392117e+01	1.118440e+02
3.292219e+06	-4.337665e+01	-9.235521e+01	-3.062756e+01	-7.225295e+00	-9.231653e+01	1.227823e+02	-5.388292e+01	1.120195e+02
3.292250e+06	-4.338460e+01	-9.237619e+01	-3.062983e+01	-7.216309e+00	-9.191110e+01	1.168842e+02	-5.384475e+01	1.121934e+02
3.292282e+06	-4.339256e+01	-9.239720e+01	-3.063209e+01	-7.207317e+00	-9.144421e+01	1.115514e+02	-5.380668e+01	1.123659e+02
3.292313e+06	-4.340052e+01	-9.241825e+01	-3.063435e+01	-7.198322e+00	-9.093726e+01	1.067856e+02	-5.376869e+01	1.125368e+02
3.292344e+06	-4.340842e+01	-9.243899e+01	-3.063660e+01	-7.189414e+00	-9.040628e+01	1.025152e+02	-5.373134e+01	1.127031e+02
3.292376e+06	-4.340677e+01	-9.241657e+01	-3.063630e+01	-7.192050e+00	-8.961057e+01	9.410892e+01	-5.376315e+01	1.124728e+02
3.292407e+06	-4.340513e+01	-9.239416e+01	-3.063600e+01	-7.194685e+00	-8.874003e+01	8.717797e+01	-5.379493e+01	1.122408e+02
3.292438e+06	-4.340349e+01	-9.237176e+01	-3.063570e+01	-7.197321e+00	-8.785417e+01	8.152055e+01	-5.382668e+01	1.120071e+02
3.292469e+06	-4.340184e+01	-9.234937e+01	-3.063540e+01	-7.199956e+00	-8.698731e+01	7.689942e+01	-5.385840e+01	1.117717e+02
3.292500e+06	-4.340003e+01	-9.232776e+01	-3.063508e+01	-7.202765e+00	-8.619784e+01	7.317598e+01	-5.389002e+01	1.115395e+02
3.292532e+06	-4.338812e+01	-9.235392e+01	-3.063387e+01	-7.216246e+00	-8.816249e+01	7.480756e+01	-5.391786e+01	1.116095e+02
3.292563e+06	-4.337623e+01	-9.238002e+01	-3.063266e+01	-7.229724e+00	-9.068970e+01	7.754477e+01	-5.394576e+01	1.116800e+02
3.292594e+06	-4.336436e+01	-9.240604e+01	-3.063145e+01	-7.243198e+00	-9.420864e+01	8.304166e+01	-5.397375e+01	1.117509e+02
3.292626e+06	-4.335249e+01	-9.243199e+01	-3.063024e+01	-7.256669e+00	-9.976693e+01	9.884812e+01	-5.400181e+01	1.118222e+02
3.292657e+06	-4.334110e+01	-9.245589e+01	-3.062904e+01	-7.269615e+00	-1.052122e+02	1.671121e+02	-5.402872e+01	1.118949e+02
3.292688e+06	-4.334819e+01	-9.239925e+01	-3.062816e+01	-7.261427e+00	-1.088339e+02	1.272854e+02	-5.400596e+01	1.120013e+02
3.292719e+06	-4.335528e+01	-9.234253e+01	-3.062728e+01	-7.253240e+00	-1.066824e+02	7.794491e+01	-5.398322e+01	1.121071e+02
3.292750e+06	-4.336236e+01	-9.228570e+01	-3.062639e+01	-7.245055e+00	-1.025748e+02	5.628939e+01	-5.396051e+01	1.122124e+02
3.292782e+06	-4.336944e+01	-9.222879e+01	-3.062551e+01	-7.236872e+00	-9.941187e+01	4.709513e+01	-5.393784e+01	1.123172e+02
3.292813e+06	-4.337652e+01	-9.217178e+01	-3.062463e+01	-7.228690e+00	-9.700817e+01	4.226640e+01	-5.391519e+01	1.124214e+02
3.292844e+06	-4.338543e+01	-9.220787e+01	-3.062698e+01	-7.236327e+00	-1.015472e+02	1.777306e+01	-5.391390e+01	1.125275e+02
3.292876e+06	-4.339434e+01	-9.224403e+01	-3.062934e+01	-7.243968e+00	-1.030629e+02	-3.857707e+01	-5.391259e+01	1.126336e+02
3.292907e+06	-4.340326e+01	-9.228026e+01	-3.063169e+01	-7.251613e+00	-9.862462e+01	-7.506096e+01	-5.391124e+01	1.127397e+02
3.292938e+06	-4.341219e+01	-9.231657e+01	-3.063404e+01	-7.259262e+00	-9.476762e+01	-8.828748e+01	-5.390986e+01	1.128457e+02
3.292969e+06	-4.342102e+01	-9.235280e+01	-3.063636e+01	-7.266661e+00	-9.198764e+01	-9.428618e+01	-5.390873e+01	1.129504e+02
3.293000e+06	-4.341774e+01	-9.237044e+01	-3.063363e+01	-7.242550e+00	-9.470378e+01	-8.466843e+01	-5.394170e+01	1.128826e+02
3.293032e+06	-4.341445e+01	-9.238806e+01	-3.063090e+01	-7.218454e+00	-9.791497e+01	-6.536448e+01	-5.397478e+01	1.128143e+02
3.293063e+06	-4.341116e+01	-9.240567e+01	-3.062817e+01	-7.194373e+00	-9.991499e+01	-2.832734e+01	-5.400797e+01	1.127456e+02
3.293094e+06	-4.340787e+01	-9.242327e+01	-3.062544e+01	-7.170307e+00	-9.796938e+01	8.982005e+00	-5.404127e+01	1.126762e+02
3.293126e+06	-4.340473e+01	-9.244127e+01	-3.062280e+01	-7.146552e+00	-9.484689e+01	2.851653e+01	-5.407372e+01	1.126084e+02
3.293157e+06	-4.341045e+01	-9.248537e+01	-3.062583e+01	-7.141008e+00	-9.763050e+01	4.575637e+01	-5.404621e+01	1.126647e+02
3.293188e+06	-4.341616e+01	-9.252952e+01	-3.062887e+01	-7.135460e+00	-9.960442e+01	7.658843e+01	-5.401877e+01	1.127206e+02
3.293219e+06	-4.342187e+01	-9.257372e+01	-3.063191e+01	-7.129908e+00	-9.858577e+01	1.114857e+02	-5.399142e+01	1.127762e+02
3.293250e+06	-4.342758e+01	-9.261799e+01	-3.063494e+01	-7.124352e+00	-9.585980e+01	1.333090e+02	-5.396414e+01	1.128314e+02
3.293282e+06	-4.343261e+01	-9.266109e+01	-3.063784e+01	-7.119428e+00	-9.328499e+01	1.448167e+02	-5.393681e+01	1.128824e+02
3.293313e+06	-4.340996e+01	-9.265455e+01	-3.063494e+01	-7.140342e+00	-9.211412e+01	1.485115e+02	-5.390421e+01	1.127739e+02
3.293344e+06	-4.338737e+01	-9.264803e+01	-3.063203e+01	-7.161243e+00	-9.105769e+01	1.513697e+02	-5.387170e+01	1.126663e+02
3.293376e+06	-4.336484e+01	-9.264156e+01	-3.062913e+01	-7.182129e+00	-9.010055e+01	1.536362e+02	-5.383928e+01	1.125595e+02
3.293407e+06	-4.334236e+01	-9.263511e+01	-3.062622e+01	-7.203002e+00	-8.922853e+01	1.554721e+02	-5.380695e+01	1.124535e+02
3.293438e+06	-4.331995e+01	-9.262870e+01	-3.062332e+01	-7.223860e+00	-8.842940e+01	1.569866e+02	-5.377471e+01	1.123482e+02
3.293469e+06	-4.333578e+01	-9.263939e+01	-3.062277e+01	-7.228394e+00	-9.019653e+01	1.619008e+02	-5.378923e+01	1.124549e+02
