# Hz S dB R 50.000
3.288594e+06	-4.398398e+01	-9.492516e+01	-3.057886e+01	-7.136039e+00	-1.032913e+02	-7.873172e+01	-5.352291e+01	1.068630e+02
3.288625e+06	-4.399030e+01	-9.490955e+01	-3.057936e+01	-7.142918e+00	-1.019111e+02	-4.651705e+01	-5.353193e+01	1.069212e+02
3.288656e+06	-4.399662e+01	-9.489392e+01	-3.057987e+01	-7.149798e+00	-9.926121e+01	-2.693261e+01	-5.354095e+01	1.069795e+02
3.288688e+06	-4.400295e+01	-9.487827e+01	-3.058037e+01	-7.156679e+00	-9.679236e+01	-1.621696e+01	-5.354997e+01	1.070379e+02
3.288719e+06	-4.400928e+01	-9.486259e+01	-3.058087e+01	-7.163561e+00	-9.472807e+01	-9.882458e+00	-5.355899e+01	1.070965e+02
3.288750e+06	-4.401558e+01	-9.484703e+01	-3.058140e+01	-7.170508e+00	-9.301848e+01	-5.720755e+00	-5.356793e+01	1.071550e+02
3.288782e+06	-4.401639e+01	-9.484774e+01	-3.058508e+01	-7.185527e+00	-9.294838e+01	6.483160e+00	-5.356614e+01	1.071863e+02
3.288813e+06	-4.401719e+01	-9.484845e+01	-3.058876e+01	-7.200559e+00	-9.251157e+01	1.798549e+01	-5.356436e+01	1.072177e+02
3.288844e+06	-4.401800e+01	-9.484916e+01	-3.059244e+01	-7.215603e+00	-9.180421e+01	2.805234e+01	-5.356257e+01	1.072490e+02
3.288875e+06	-4.401881e+01	-9.484987e+01	-3.059613e+01	-7.230660e+00	-9.094310e+01	3.644281e+01	-5.356078e+01	1.072804e+02
3.288906e+06	-4.401955e+01	-9.485092e+01	-3.059967e+01	-7.245344e+00	-9.007732e+01	4.326115e+01	-5.355889e+01	1.073133e+02
3.288938e+06	-4.401558e+01	-9.487254e+01	-3.059461e+01	-7.236313e+00	-9.304384e+01	5.135140e+01	-5.355055e+01	1.074429e+02
3.288969e+06	-4.401162e+01	-9.489414e+01	-3.058955e+01	-7.227293e+00	-9.694210e+01	6.942235e+01	-5.354218e+01	1.075723e+02
3.289000e+06	-4.400766e+01	-9.491573e+01	-3.058449e+01	-7.218283e+00	-9.997813e+01	1.129896e+02	-5.353377e+01	1.077014e+02
3.289032e+06	-4.400370e+01	-9.493729e+01	-3.057943e+01	-7.209283e+00	-9.718840e+01	1.581455e+02	-5.352532e+01	1.078303e+02
3.289063e+06	-4.399974e+01	-9.495884e+01	-3.057438e+01	-7.200294e+00	-9.324353e+01	1.772043e+02	-5.351684e+01	1.079590e+02
3.289094e+06	-4.399549e+01	-9.493176e+01	-3.057726e+01	-7.192669e+00	-9.840863e+01	-1.677030e+02	-5.349736e+01	1.079272e+02
3.289125e+06	-4.399123e+01	-9.490433e+01	-3.058020e+01	-7.185050e+00	-1.039146e+02	-1.043140e+02	-5.347783e+01	1.078943e+02
3.289156e+06	-4.398698e+01	-9.487691e+01	-3.058315e+01	-7.177425e+00	-9.770732e+01	-4.875420e+01	-5.345835e+01	1.078615e+02
3.289188e+06	-4.398272e+01	-9.484953e+01	-3.058609e+01	-7.169796e+00	-9.274848e+01	-3.557294e+01	-5.343890e+01	1.078289e+02
3.289219e+06	-4.397847e+01	-9.482217e+01	-3.058904e+01	-7.162161e+00	-8.948772e+01	-3.049476e+01	-5.341950e+01	1.077964e+02
3.289250e+06	-4.398158e+01	-9.489111e+01	-3.058826e+01	-7.157891e+00	-9.011943e+01	-3.367569e+01	-5.343457e+01	1.076683e+02
3.289282e+06	-4.398467e+01	-9.496010e+01	-3.058749e+01	-7.153622e+00	-9.076717e+01	-3.736210e+01	-5.344963e+01	1.075398e+02
3.289313e+06	-4.398776e+01	-9.502914e+01	-3.058671e+01	-7.149353e+00	-9.142187e+01	-4.164592e+01	-5.346466e+01	1.074108e+02
3.289344e+06	-4.399083e+01	-9.509823e+01	-3.058593e+01	-7.145086e+00	-9.206880e+01	-4.662391e+01	-5.347968e+01	1.072813e+02
3.289375e+06	-4.399391e+01	-9.516627e+01	-3.058515e+01	-7.140846e+00	-9.270436e+01	-5.224949e+01	-5.349500e+01	1.071527e+02
3.289406e+06	-4.399828e+01	-9.509898e+01	-3.058328e+01	-7.140018e+00	-9.594643e+01	-3.655155e+01	-5.354995e+01	1.071764e+02
3.289438e+06	-4.400265e+01	-9.503163e+01	-3.058141e+01	-7.139191e+00	-9.881572e+01	-3.402725e+00	-5.360526e+01	1.072005e+02
3.289469e+06	-4.400701e+01	-9.496420e+01	-3.057955e+01	-7.138363e+00	-9.775668e+01	3.893696e+01	-5.366091e+01	1.072248e+02
3.289500e+06	-4.401136e+01	-9.489671e+01	-3.057768e+01	-7.137536e+00	-9.439944e+01	6.283302e+01	-5.371693e+01	1.072495e+02
3.289532e+06	-4.401566e+01	-9.483078e+01	-3.057587e+01	-7.136461e+00	-9.149825e+01	7.388108e+01	-5.377160e+01	1.072763e+02
3.289563e+06	-4.401738e+01	-9.486509e+01	-3.057722e+01	-7.120061e+00	-9.251362e+01	6.598534e+01	-5.372159e+01	1.074149e+02
3.289594e+06	-4.401910e+01	-9.489942e+01	-3.057856e+01	-7.103657e+00	-9.342884e+01	5.610662e+01	-5.367182e+01	1.075519e+02
3.289625e+06	-4.402082e+01	-9.493376e+01	-3.057990e+01	-7.087247e+00	-9.410407e+01	4.421638e+01	-5.362229e+01	1.076874e+02
3.289656e+06	-4.402253e+01	-9.496812e+01	-3.058125e+01	-7.070832e+00	-9.438381e+01	3.092033e+01	-5.357298e+01	1.078213e+02
3.289688e+06	-4.402425e+01	-9.500248e+01	-3.058259e+01	-7.054412e+00	-9.418709e+01	1.749420e+01	-5.352391e+01	1.079537e+02
3.289719e+06	-4.401463e+01	-9.501159e+01	-3.058335e+01	-7.079162e+00	-9.473135e+01	1.362197e+01	-5.352101e+01	1.077876e+02
3.289750e+06	-4.400494e+01	-9.502046e+01	-3.058411e+01	-7.104248e+00	-9.527466e+01	9.314015e+00	-5.351841e+01	1.076191e+02
3.289782e+06	-4.399526e+01	-9.502932e+01	-3.058486e+01	-7.129338e+00	-9.579493e+01	4.443615e+00	-5.351573e+01	1.074507e+02
3.289813e+06	-4.398558e+01	-9.503816e+01	-3.058561e+01	-7.154432e+00	-9.627337e+01	-1.021965e+00	-5.351298e+01	1.072824e+02
3.289844e+06	-4.397592e+01	-9.504698e+01	-3.058636e+01	-7.179531e+00	-9.668694e+01	-7.080775e+00	-5.351016e+01	1.071142e+02
3.289875e+06	-4.397721e+01	-9.503845e+01	-3.058644e+01	-7.176209e+00	-9.689907e+01	-1.877929e+01	-5.348241e+01	1.071254e+02
3.289906e+06	-4.397850e+01	-9.502992e+01	-3.058652e+01	-7.172888e+00	-9.674418e+01	-3.055625e+01	-5.345474e+01	1.071365e+02
3.289938e+06	-4.397979e+01	-9.502139e+01	-3.058661e+01	-7.169566e+00	-9.625831e+01	-4.148498e+01	-5.342717e+01	1.071475e+02
3.289969e+06	-4.398108e+01	-9.501286e+01	-3.058669e+01	-7.166244e+00	-9.553816e+01	-5.098277e+01	-5.339967e+01	1.071585e+02
3.290000e+06	-4.398238e+01	-9.500412e+01	-3.058676e+01	-7.162941e+00	-9.472270e+01	-5.879640e+01	-5.337296e+01	1.071711e+02
3.290032e+06	-4.398534e+01	-9.497092e+01	-3.058550e+01	-7.161975e+00	-9.880188e+01	-4.954825e+01	-5.343157e+01	1.073994e+02
3.290063e+06	-4.398829e+01	-9.493769e+01	-3.058424e+01	-7.161009e+00	-1.049345e+02	-1.816517e+01	-5.349044e+01	1.076307e+02
3.290094e+06	-4.399124e+01	-9.490443e+01	-3.058297e+01	-7.160043e+00	-1.041928e+02	5.745829e+01	-5.354957e+01	1.078653e+02
3.290125e+06	-4.399418e+01	-9.487116e+01	-3.058171e+01	-7.159078e+00	-9.824766e+01	8.411091e+01	-5.360896e+01	1.081030e+02
3.290156e+06	-4.399706e+01	-9.483822e+01	-3.058048e+01	-7.158310e+00	-9.445321e+01	9.210541e+01	-5.366740e+01	1.083347e+02
3.290188e+06	-4.399597e+01	-9.482757e+01	-3.058121e+01	-7.169682e+00	-9.756185e+01	7.104797e+01	-5.365237e+01	1.079901e+02
3.290219e+06	-4.399488e+01	-9.481693e+01	-3.058194e+01	-7.181055e+00	-9.907011e+01	3.335907e+01	-5.363705e+01	1.076467e+02
3.290250e+06	-4.399379e+01	-9.480628e+01	-3.058266e+01	-7.192430e+00	-9.689632e+01	-1.132060e+00	-5.362145e+01	1.073046e+02
3.290282e+06	-4.399270e+01	-9.479564e+01	-3.058339e+01	-7.203808e+00	-9.380151e+01	-1.911569e+01	-5.360557e+01	1.069637e+02
3.290313e+06	-4.399161e+01	-9.478501e+01	-3.058411e+01	-7.215187e+00	-9.118610e+01	-2.832194e+01	-5.358941e+01	1.066240e+02
3.290344e+06	-4.398957e+01	-9.482598e+01	-3.058365e+01	-7.208954e+00	-9.244711e+01	-2.657999e+01	-5.358453e+01	1.069156e+02
3.290375e+06	-4.398752e+01	-9.486735e+01	-3.058317e+01	-7.202579e+00	-9.394757e+01	-2.408601e+01	-5.357950e+01	1.072120e+02
3.290406e+06	-4.398546e+01	-9.490870e+01	-3.058270e+01	-7.196205e+00	-9.573290e+01	-2.044403e+01	-5.357425e+01	1.075080e+02
3.290438e+06	-4.398340e+01	-9.495004e+01	-3.058222e+01	-7.189832e+00	-9.791098e+01	-1.469034e+01	-5.356878e+01	1.078036e+02
3.290469e+06	-4.398134e+01	-9.499135e+01	-3.058175e+01	-7.183459e+00	-1.006103e+02	-4.566437e+00	-5.356307e+01	1.080989e+02
3.290500e+06	-4.398575e+01	-9.500311e+01	-3.058238e+01	-7.200652e+00	-9.954054e+01	3.842332e+01	-5.356950e+01	1.081047e+02
3.290532e+06	-4.399015e+01	-9.501488e+01	-3.058300e+01	-7.217848e+00	-9.612655e+01	6.243505e+01	-5.357593e+01	1.081105e+02
3.290563e+06	-4.399456e+01	-9.502666e+01	-3.058363e+01	-7.235047e+00	-9.313958e+01	7.366483e+01	-5.358236e+01	1.081163e+02
3.290594e+06	-4.399897e+01	-9.503846e+01	-3.058425e+01	-7.252247e+00	-9.078187e+01	7.970652e+01	-5.358881e+01	1.081221e+02
3.290625e+06	-4.400334e+01	-9.504991e+01	-3.058485e+01	-7.269215e+00	-8.890930e+01	8.338452e+01	-5.359513e+01	1.081270e+02
3.290656e+06	-4.400245e+01	-9.501788e+01	-3.058246e+01	-7.256982e+00	-9.083883e+01	8.425050e+01	-5.358692e+01	1.080201e+02
3.290688e+06	-4.400155e+01	-9.498585e+01	-3.058006e+01	-7.244756e+00	-9.331880e+01	8.568933e+01	-5.357868e+01	1.079133e+02
3.290719e+06	-4.400065e+01	-9.495383e+01	-3.057767e+01	-7.232537e+00	-9.678690e+01	8.854395e+01	-5.357042e+01	1.078068e+02
3.290750e+06	-4.399975e+01	-9.492182e+01	-3.057528e+01	-7.220325e+00	-1.025261e+02	9.680894e+01	-5.356213e+01	1.077004e+02
3.290782e+06	-4.399878e+01	-9.489102e+01	-3.057293e+01	-7.208349e+00	-1.130456e+02	1.666178e+02	-5.355413e+01	1.075959e+02
3.290813e+06	-4.399400e+01	-9.493489e+01	-3.057330e+01	-7.210567e+00	-1.052006e+02	1.564974e+02	-5.356464e+01	1.075920e+02
3.290844e+06	-4.398920e+01	-9.497871e+01	-3.057367e+01	-7.212785e+00	-1.011040e+02	1.539506e+02	-5.357516e+01	1.075880e+02
3.290875e+06	-4.398441e+01	-9.502249e+01	-3.057405e+01	-7.215003e+00	-9.832586e+01	1.527967e+02	-5.358569e+01	1.075840e+02
3.290906e+06	-4.397962e+01	-9.506621e+01	-3.057442e+01	-7.217222e+00	-9.622267e+01	1.521390e+02	-5.359624e+01	1.075800e+02
3.290938e+06	-4.397482e+01	-9.510989e+01	-3.057480e+01	-7.219440e+00	-9.453017e+01	1.517141e+02	-5.360680e+01	1.075759e+02
3.290969e+06	-4.398402e+01	-9.505081e+01	-3.057582e+01	-7.214192e+00	-9.932387e+01	1.468538e+02	-5.358711e+01	1.075528e+02
3.291000e+06	-4.399334e+01	-9.499077e+01	-3.057685e+01	-7.208883e+00	-1.097655e+02	1.172565e+02	-5.356723e+01	1.075297e+02
3.291032e+06	-4.400266e+01	-9.493061e+01	-3.057789e+01	-7.203572e+00	-1.043272e+02	-1.265778e+00	-5.354739e+01	1.075067e+02
3.291063e+06	-4.401198e+01	-9.487031e+01	-3.057892e+01	-7.198260e+00	-9.707865e+01	-1.303220e+01	-5.352760e+01	1.074837e+02
3.291094e+06	-4.402130e+01	-9.480989e+01	-3.057995e+01	-7.192947e+00	-9.311912e+01	-1.624890e+01	-5.350785e+01	1.074609e+02
3.291125e+06	-4.401835e+01	-9.482834e+01	-3.057931e+01	-7.185368e+00	-9.533970e+01	-1.632394e+01	-5.352709e+01	1.074021e+02
3.291156e+06	-4.401540e+01	-9.484679e+01	-3.057868e+01	-7.177789e+00	-9.833049e+01	-1.646067e+01	-5.354637e+01	1.073431e+02
3.291188e+06	-4.401245e+01	-9.486522e+01	-3.057804e+01	-7.170212e+00	-1.029286e+02	-1.678825e+01	-5.356568e+01	1.072837e+02
3.291219e+06	-4.400950e+01	-9.488363e+01	-3.057740e+01	-7.162636e+00	-1.133194e+02	-1.862831e+01	-5.358502e+01	1.072242e+02
3.291250e+06	-4.400656e+01	-9.490202e+01	-3.057677e+01	-7.155192e+00	-1.112643e+02	1.652543e+02	-5.360412e+01	1.071644e+02
3.291282e+06	-4.400507e+01	-9.491841e+01	-3.057722e+01	-7.163913e+00	-1.040622e+02	3.579027e+01	-5.358964e+01	1.071195e+02
3.291313e+06	-4.400358e+01	-9.493479e+01	-3.057767e+01	-7.172636e+00	-9.681946e+01	2.737486e+01	-5.357518e+01	1.070747e+02
3.291344e+06	-4.400209e+01	-9.495116e+01	-3.057812e+01	-7.181359e+00	-9.289267e+01	2.505664e+01	-5.356073e+01	1.070300e+02
3.291375e+06	-4.400061e+01	-9.496753e+01	-3.057857e+01	-7.190083e+00	-9.019342e+01	2.397580e+01	-5.354631e+01	1.069855e+02
3.291406e+06	-4.399916e+01	-9.498391e+01	-3.057900e+01	-7.198585e+00	-8.818300e+01	2.328719e+01	-5.353206e+01	1.069427e+02
3.291438e+06	-4.400039e+01	-9.500133e+01	-3.057845e+01	-7.193324e+00	-8.934842e+01	1.815845e+01	-5.352796e+01	1.069961e+02
3.291469e+06	-4.400163e+01	-9.501875e+01	-3.057789e+01	-7.188063e+00	-9.058768e+01	1.138710e+01	-5.352384e+01	1.070495e+02
3.291500e+06	-4.400286e+01	-9.503617e+01	-3.057734e+01	-7.182804e+00	-9.184293e+01	2.346589e+00	-5.351973e+01	1.071029e+02
3.291532e+06	-4.400409e+01	-9.505360e+01	-3.057679e+01	-7.177544e+00	-9.297447e+01	-9.589865e+00	-5.351560e+01	1.071562e+02
3.291563e+06	-4.400532e+01	-9.507104e+01	-3.057623e+01	-7.172286e+00	-9.373373e+01	-2.448949e+01	-5.351147e+01	1.072095e+02
3.291594e+06	-4.400339e+01	-9.502539e+01	-3.057350e+01	-7.186860e+00	-9.426731e+01	-2.892767e+01	-5.354455e+01	1.072798e+02
3.291625e+06	-4.400142e+01	-9.497925e+01	-3.057074e+01	-7.201585e+00	-9.477642e+01	-3.382523e+01	-5.357804e+01	1.073507e+02
3.291656e+06	-4.399945e+01	-9.493314e+01	-3.056798e+01	-7.216300e+00	-9.524172e+01	-3.930590e+01	-5.361165e+01	1.074222e+02
3.291688e+06	-4.399748e+01	-9.488704e+01	-3.056523e+01	-7.231006e+00	-9.564054e+01	-4.536190e+01	-5.364537e+01	1.074943e+02
3.291719e+06	-4.399550e+01	-9.484097e+01	-3.056247e+01	-7.245703e+00	-9.594821e+01	-5.193325e+01	-5.367921e+01	1.075669e+02
3.291750e+06	-4.399540e+01	-9.483606e+01	-3.056529e+01	-7.241290e+00	-9.801167e+01	-2.929920e+01	-5.363831e+01	1.077033e+02
3.291782e+06	-4.399529e+01	-9.483114e+01	-3.056812e+01	-7.236873e+00	-9.834425e+01	1.171092e+00	-5.359756e+01	1.078384e+02
3.291813e+06	-4.399519e+01	-9.482623e+01	-3.057095e+01	-7.232454e+00	-9.659071e+01	2.667451e+01	-5.355695e+01	1.079723e+02
3.291844e+06	-4.399508e+01	-9.482131e+01	-3.057377e+01	-7.228032e+00	-9.424163e+01	4.224819e+01	-5.351648e+01	1.081049e+02
3.291875e+06	-4.399494e+01	-9.481664e+01	-3.057659e+01	-7.223629e+00	-9.211140e+01	5.132867e+01	-5.347682e+01	1.082337e+02
3.291906e+06	-4.398968e+01	-9.484100e+01	-3.057730e+01	-7.221858e+00	-9.306099e+01	4.275587e+01	-5.351927e+01	1.080328e+02
3.291938e+06	-4.398442e+01	-9.486533e+01	-3.057801e+01	-7.220086e+00	-9.385898e+01	3.225282e+01	-5.356182e+01	1.078300e+02
3.291969e+06	-4.397916e+01	-9.488963e+01	-3.057872e+01	-7.218314e+00	-9.436373e+01	2.002587e+01	-5.360447e+01	1.076251e+02
3.292000e+06	-4.397391e+01	-9.491390e+01	-3.057943e+01	-7.216542e+00	-9.445112e+01	6.921490e+00	-5.364721e+01	1.074183e+02
3.292032e+06	-4.396891e+01	-9.493685e+01	-3.058014e+01	-7.214646e+00	-9.413998e+01	-5.542479e+00	-5.368938e+01	1.072109e+02
3.292063e+06	-4.397961e+01	-9.487978e+01	-3.058075e+01	-7.205177e+00	-9.662959e+01	-1.957987e+00	-5.369029e+01	1.071012e+02
3.292094e+06	-4.399032e+01	-9.482257e+01	-3.058136e+01	-7.195706e+00	-1.000329e+02	5.119727e+00	-5.369116e+01	1.069915e+02
3.292125e+06	-4.400103e+01	-9.476522e+01	-3.058197e+01	-7.186234e+00	-1.050381e+02	2.404931e+01	-5.369200e+01	1.068817e+02
3.292156e+06	-4.401174e+01	-9.470773e+01	-3.058258e+01	-7.176761e+00	-1.086671e+02	8.528350e+01	-5.369281e+01	1.067719e+02
3.292188e+06	-4.402246e+01	-9.465009e+01	-3.058319e+01	-7.167286e+00	-1.033741e+02	1.316498e+02	-5.369358e+01	1.066621e+02
3.292219e+06	-4.402106e+01	-9.468307e+01	-3.058268e+01	-7.172509e+00	-1.029918e+02	8.546813e+01	-5.367011e+01	1.067861e+02
3.292250e+06	-4.401955e+01	-9.471677e+01	-3.058216e+01	-7.177850e+00	-9.940255e+01	5.781402e+01	-5.364645e+01	1.069113e+02
3.292282e+06	-4.401803e+01	-9.475046e+01	-3.058164e+01	-7.183190e+00	-9.619315e+01	4.556378e+01	-5.362283e+01	1.070359e+02
3.292313e+06	-4.401652e+01	-9.478414e+01	-3.058113e+01	-7.188530e+00	-9.369821e+01	3.924704e+01	-5.359922e+01	1.071598e+02
3.292344e+06	-4.401500e+01	-9.481780e+01	-3.058061e+01	-7.193869e+00	-9.171193e+01	3.548117e+01	-5.357564e+01	1.072830e+02
3.292375e+06	-4.400888e+01	-9.487975e+01	-3.057745e+01	-7.199993e+00	-9.317500e+01	5.104857e+01	-5.359729e+01	1.075335e+02
3.292406e+06	-4.400275e+01	-9.494162e+01	-3.057428e+01	-7.206113e+00	-9.393016e+01	7.131929e+01	-5.361884e+01	1.077853e+02
3.292438e+06	-4.399661e+01	-9.500340e+01	-3.057112e+01	-7.212229e+00	-9.352879e+01	9.247226e+01	-5.364026e+01	1.080383e+02
3.292469e+06	-4.399047e+01	-9.506509e+01	-3.056796e+01	-7.218340e+00	-9.222641e+01	1.097249e+02	-5.366157e+01	1.082925e+02
3.292500e+06	-4.398436e+01	-9.512524e+01	-3.056485e+01	-7.224331e+00	-9.063269e+01	1.219273e+02	-5.368249e+01	1.085448e+02
3.292532e+06	-4.398345e+01	-9.500582e+01	-3.056688e+01	-7.215929e+00	-9.266986e+01	1.306792e+02	-5.366939e+01	1.083998e+02
3.292563e+06	-4.398249e+01	-9.488643e+01	-3.056892e+01	-7.207524e+00	-9.488761e+01	1.450582e+02	-5.365626e+01	1.082552e+02
3.292594e+06	-4.398150e+01	-9.476706e+01	-3.057096e+01	-7.199115e+00	-9.666203e+01	1.682137e+02	-5.364309e+01	1.081110e+02
3.292625e+06	-4.398047e+01	-9.464772e+01	-3.057300e+01	-7.190701e+00	-9.669104e+01	-1.628414e+02	-5.362989e+01	1.079673e+02
3.292656e+06	-4.397955e+01	-9.453113e+01	-3.057500e+01	-7.182499e+00	-9.499707e+01	-1.396851e+02	-5.361676e+01	1.078250e+02
3.292688e+06	-4.398788e+01	-9.458158e+01	-3.057464e+01	-7.187528e+00	-9.609978e+01	-1.359390e+02	-5.360986e+01	1.077436e+02
3.292719e+06	-4.399621e+01	-9.463214e+01	-3.057427e+01	-7.192555e+00	-9.730711e+01	-1.310490e+02	-5.360295e+01	1.076623e+02
3.292750e+06	-4.400453e+01	-9.468279e+01	-3.057390e+01	-7.197583e+00	-9.861057e+01	-1.245138e+02	-5.359603e+01	1.075812e+02
3.292782e+06	-4.401286e+01	-9.473354e+01	-3.057353e+01	-7.202609e+00	-9.996194e+01	-1.156259e+02	-5.358910e+01	1.075002e+02
3.292813e+06	-4.402119e+01	-9.478438e+01	-3.057316e+01	-7.207636e+00	-1.012242e+02	-1.035770e+02	-5.358216e+01	1.074193e+02
3.292844e+06	-4.402000e+01	-9.475329e+01	-3.057220e+01	-7.207445e+00	-1.005554e+02	-1.159614e+02	-5.356736e+01	1.073343e+02
3.292875e+06	-4.401873e+01	-9.472154e+01	-3.057123e+01	-7.207211e+00	-9.960101e+01	-1.263740e+02	-5.355251e+01	1.072495e+02
3.292906e+06	-4.401745e+01	-9.468980e+01	-3.057026e+01	-7.206978e+00	-9.853582e+01	-1.346094e+02	-5.353767e+01	1.071650e+02
3.292938e+06	-4.401617e+01	-9.465807e+01	-3.056930e+01	-7.206745e+00	-9.746156e+01	-1.410381e+02	-5.352283e+01	1.070808e+02
3.292969e+06	-4.401489e+01	-9.462635e+01	-3.056833e+01	-7.206512e+00	-9.642889e+01	-1.460781e+02	-5.350800e+01	1.069969e+02
3.293000e+06	-4.401606e+01	-9.471697e+01	-3.056896e+01	-7.212863e+00	-1.016516e+02	-1.458380e+02	-5.351612e+01	1.071866e+02
3.293032e+06	-4.401721e+01	-9.480761e+01	-3.056960e+01	-7.219214e+00	-1.167549e+02	-1.433448e+02	-5.352414e+01	1.073767e+02
3.293063e+06	-4.401833e+01	-9.489827e+01	-3.057023e+01	-7.225566e+00	-1.054058e+02	3.281227e+01	-5.353208e+01	1.075671e+02
3.293094e+06	-4.401944e+01	-9.498896e+01	-3.057086e+01	-7.231920e+00	-9.828454e+01	3.327022e+01	-5.353993e+01	1.077579e+02
3.293125e+06	-4.402049e+01	-9.507838e+01	-3.057150e+01	-7.238066e+00	-9.445929e+01	3.342683e+01	-5.354744e+01	1.079464e+02
3.293156e+06	-4.401737e+01	-9.500901e+01	-3.057300e+01	-7.218425e+00	-9.573714e+01	3.747874e+01	-5.352430e+01	1.078033e+02
3.293188e+06	-4.401425e+01	-9.493969e+01	-3.057449e+01	-7.198777e+00	-9.716549e+01	4.301586e+01	-5.350117e+01	1.076609e+02
3.293219e+06	-4.401111e+01	-9.487042e+01	-3.057598e+01	-7.179123e+00	-9.873647e+01	5.084885e+01	-5.347804e+01	1.075194e+02
3.293250e+06	-4.400796e+01	-9.480120e+01	-3.057747e+01	-7.159461e+00	-1.003636e+02	6.220757e+01	-5.345493e+01	1.073785e+02
3.293282e+06	-4.400492e+01	-9.473318e+01	-3.057891e+01	-7.140384e+00	-1.017310e+02	7.751991e+01	-5.343288e+01	1.072441e+02
3.293313e+06	-4.400902e+01	-9.473555e+01	-3.057688e+01	-7.157614e+00	-9.969434e+01	4.710191e+01	-5.347609e+01	1.074564e+02
3.293344e+06	-4.401312e+01	-9.473793e+01	-3.057486e+01	-7.174835e+00	-9.691315e+01	3.019907e+01	-5.351939e+01	1.076709e+02
3.293375e+06	-4.401722e+01	-9.474031e+01	-3.057284e+01	-7.192049e+00	-9.448645e+01	2.101343e+01	-5.356279e+01	1.078875e+02
3.293406e+06	-4.402133e+01	-9.474270e+01	-3.057081e+01	-7.209255e+00	-9.248422e+01	1.551209e+01	-5.360628e+01	1.081062e+02
3.293438e+06	-4.402544e+01	-9.474508e+01	-3.056879e+01	-7.226452e+00	-9.081470e+01	1.191046e+01	-5.364986e+01	1.083272e+02
3.293469e+06	-4.402338e+01	-9.480021e+01	-3.057042e+01	-7.223977e+00	-9.248857e+01	8.810829e+00	-5.362935e+01	1.081700e+02
3.293500e+06	-4.402126e+01	-9.485573e+01	-3.057209e+01	-7.221342e+00	-9.455221e+01	4.032853e+00	-5.360830e+01	1.080105e+02
3.293532e+06	-4.401913e+01	-9.491123e+01	-3.057375e+01	-7.218706e+00	-9.712350e+01	-4.132181e+00	-5.358724e+01	1.078517e+02
3.293563e+06	-4.401700e+01	-9.496670e+01	-3.057541e+01	-7.216069e+00	-1.002734e+02	-2.006001e+01	-5.356616e+01	1.076937e+02
3.293594e+06	-4.401486e+01	-9.502214e+01	-3.057708e+01	-7.213431e+00	-1.029695e+02	-5.260281e+01	-5.354507e+01	1.075365e+02
