# Hz S dB R 50.000
3.288438e+06	-4.309039e+01	-9.393723e+01	-3.063782e+01	-6.981099e+00	-9.192598e+01	-9.834585e+00	-5.716721e+01	7.124658e+01
3.288469e+06	-4.309487e+01	-9.392457e+01	-3.063818e+01	-6.994957e+00	-9.599416e+01	8.519204e+00	-5.715950e+01	7.136101e+01
3.288500e+06	-4.309935e+01	-9.391189e+01	-3.063854e+01	-7.008816e+00	-9.911767e+01	5.462874e+01	-5.715177e+01	7.147524e+01
3.288532e+06	-4.310384e+01	-9.389920e+01	-3.063890e+01	-7.022676e+00	-9.593792e+01	1.003552e+02	-5.714401e+01	7.158927e+01
3.288563e+06	-4.310833e+01	-9.388649e+01	-3.063926e+01	-7.036537e+00	-9.188184e+01	1.184908e+02	-5.713622e+01	7.170309e+01
3.288594e+06	-4.311269e+01	-9.387426e+01	-3.063960e+01	-7.050091e+00	-8.888315e+01	1.264181e+02	-5.712892e+01	7.181530e+01
3.288626e+06	-4.310175e+01	-9.392170e+01	-3.063798e+01	-7.025324e+00	-9.045982e+01	1.355946e+02	-5.718478e+01	7.175222e+01
3.288657e+06	-4.309082e+01	-9.396903e+01	-3.063635e+01	-7.000567e+00	-9.199075e+01	1.487785e+02	-5.724100e+01	7.168831e+01
3.288688e+06	-4.307990e+01	-9.401623e+01	-3.063473e+01	-6.975819e+00	-9.308424e+01	1.667492e+02	-5.729757e+01	7.162358e+01
3.288719e+06	-4.306898e+01	-9.406332e+01	-3.063310e+01	-6.951080e+00	-9.321203e+01	-1.724505e+02	-5.735450e+01	7.155799e+01
3.288750e+06	-4.305827e+01	-9.410989e+01	-3.063152e+01	-6.927171e+00	-9.236452e+01	-1.537891e+02	-5.741077e+01	7.148816e+01
3.288782e+06	-4.305934e+01	-9.413186e+01	-3.063287e+01	-6.953753e+00	-9.615811e+01	-1.529431e+02	-5.740359e+01	7.121069e+01
3.288813e+06	-4.306040e+01	-9.415383e+01	-3.063422e+01	-6.980342e+00	-1.030348e+02	-1.500519e+02	-5.739621e+01	7.093368e+01
3.288844e+06	-4.306147e+01	-9.417581e+01	-3.063556e+01	-7.006940e+00	-1.156986e+02	1.367330e+00	-5.738864e+01	7.065715e+01
3.288876e+06	-4.306253e+01	-9.419780e+01	-3.063691e+01	-7.033546e+00	-9.995125e+01	2.096648e+01	-5.738088e+01	7.038111e+01
3.288907e+06	-4.306380e+01	-9.421853e+01	-3.063825e+01	-7.059733e+00	-9.477331e+01	2.269928e+01	-5.737219e+01	7.011860e+01
3.288938e+06	-4.307331e+01	-9.418807e+01	-3.063971e+01	-7.068519e+00	-9.746771e+01	2.596578e+01	-5.733370e+01	7.038526e+01
3.288969e+06	-4.308284e+01	-9.415755e+01	-3.064116e+01	-7.077308e+00	-1.013005e+02	3.290432e+01	-5.729521e+01	7.064957e+01
3.289000e+06	-4.309237e+01	-9.412696e+01	-3.064261e+01	-7.086101e+00	-1.074291e+02	5.525799e+01	-5.725670e+01	7.091155e+01
3.289032e+06	-4.310191e+01	-9.409630e+01	-3.064406e+01	-7.094896e+00	-1.095807e+02	1.358831e+02	-5.721818e+01	7.117122e+01
3.289063e+06	-4.311146e+01	-9.406558e+01	-3.064551e+01	-7.103694e+00	-1.027624e+02	1.710904e+02	-5.717965e+01	7.142859e+01
3.289094e+06	-4.311370e+01	-9.409475e+01	-3.064466e+01	-7.081329e+00	-1.065730e+02	1.439336e+02	-5.719256e+01	7.147222e+01
3.289126e+06	-4.311594e+01	-9.412394e+01	-3.064381e+01	-7.058969e+00	-1.071003e+02	9.516241e+01	-5.720549e+01	7.151597e+01
3.289157e+06	-4.311818e+01	-9.415314e+01	-3.064295e+01	-7.036613e+00	-1.034308e+02	6.357557e+01	-5.721843e+01	7.155986e+01
3.289188e+06	-4.312042e+01	-9.418236e+01	-3.064210e+01	-7.014261e+00	-1.000139e+02	5.018115e+01	-5.723138e+01	7.160387e+01
3.289219e+06	-4.312257e+01	-9.421101e+01	-3.064123e+01	-6.992172e+00	-9.742259e+01	4.373963e+01	-5.724449e+01	7.164546e+01
3.289250e+06	-4.311394e+01	-9.416675e+01	-3.063860e+01	-7.002023e+00	-9.864081e+01	6.670261e+01	-5.727389e+01	7.136778e+01
3.289282e+06	-4.310532e+01	-9.412259e+01	-3.063597e+01	-7.011868e+00	-9.828157e+01	9.221400e+01	-5.730319e+01	7.108821e+01
3.289313e+06	-4.309670e+01	-9.407851e+01	-3.063334e+01	-7.021707e+00	-9.664735e+01	1.122352e+02	-5.733238e+01	7.080676e+01
3.289344e+06	-4.308809e+01	-9.403452e+01	-3.063071e+01	-7.031540e+00	-9.468088e+01	1.253075e+02	-5.736145e+01	7.052342e+01
3.289376e+06	-4.307970e+01	-9.399225e+01	-3.062814e+01	-7.041074e+00	-9.292113e+01	1.334139e+02	-5.738943e+01	7.024636e+01
3.289407e+06	-4.308514e+01	-9.405067e+01	-3.062911e+01	-7.032588e+00	-9.702154e+01	1.157440e+02	-5.735708e+01	7.047105e+01
3.289438e+06	-4.309058e+01	-9.410916e+01	-3.063009e+01	-7.024099e+00	-1.003947e+02	6.988744e+01	-5.732471e+01	7.069407e+01
3.289469e+06	-4.309602e+01	-9.416772e+01	-3.063107e+01	-7.015609e+00	-9.724242e+01	2.248887e+01	-5.729233e+01	7.091544e+01
3.289500e+06	-4.310145e+01	-9.422635e+01	-3.063205e+01	-7.007116e+00	-9.309200e+01	3.974954e+00	-5.725994e+01	7.113516e+01
3.289532e+06	-4.310667e+01	-9.428161e+01	-3.063302e+01	-6.998534e+00	-9.007688e+01	-3.749797e+00	-5.722795e+01	7.135354e+01
3.289563e+06	-4.310355e+01	-9.419649e+01	-3.063402e+01	-6.986361e+00	-9.011147e+01	-3.912643e-01	-5.721217e+01	7.158210e+01
3.289594e+06	-4.310042e+01	-9.411143e+01	-3.063502e+01	-6.974186e+00	-9.011610e+01	2.982484e+00	-5.719628e+01	7.180984e+01
3.289626e+06	-4.309727e+01	-9.402644e+01	-3.063602e+01	-6.962007e+00	-9.009069e+01	6.348161e+00	-5.718028e+01	7.203674e+01
3.289657e+06	-4.309411e+01	-9.394150e+01	-3.063701e+01	-6.949826e+00	-9.003574e+01	9.682808e+00	-5.716417e+01	7.226281e+01
3.289688e+06	-4.309092e+01	-9.385663e+01	-3.063801e+01	-6.937642e+00	-8.995238e+01	1.296472e+01	-5.714796e+01	7.248803e+01
3.289719e+06	-4.309058e+01	-9.386100e+01	-3.063757e+01	-6.955879e+00	-9.098547e+01	5.717922e+00	-5.713338e+01	7.197550e+01
3.289750e+06	-4.309024e+01	-9.386536e+01	-3.063714e+01	-6.974114e+00	-9.195817e+01	-3.425786e+00	-5.711813e+01	7.146472e+01
3.289782e+06	-4.308990e+01	-9.386973e+01	-3.063670e+01	-6.992348e+00	-9.274704e+01	-1.464951e+01	-5.710222e+01	7.095578e+01
3.289813e+06	-4.308957e+01	-9.387409e+01	-3.063626e+01	-7.010579e+00	-9.319178e+01	-2.761379e+01	-5.708566e+01	7.044873e+01
3.289844e+06	-4.308915e+01	-9.387821e+01	-3.063578e+01	-7.028685e+00	-9.318992e+01	-4.105131e+01	-5.706880e+01	6.994921e+01
3.289876e+06	-4.307927e+01	-9.385255e+01	-3.063095e+01	-7.031430e+00	-9.552582e+01	-2.811569e+01	-5.709340e+01	7.014138e+01
3.289907e+06	-4.306940e+01	-9.382695e+01	-3.062612e+01	-7.034172e+00	-9.766599e+01	-6.105189e+00	-5.711798e+01	7.033464e+01
3.289938e+06	-4.305954e+01	-9.380140e+01	-3.062130e+01	-7.036910e+00	-9.816112e+01	2.440012e+01	-5.714253e+01	7.052900e+01
3.289969e+06	-4.304969e+01	-9.377591e+01	-3.061647e+01	-7.039646e+00	-9.648124e+01	5.068877e+01	-5.716705e+01	7.072445e+01
3.290000e+06	-4.304020e+01	-9.375113e+01	-3.061182e+01	-7.042301e+00	-9.418860e+01	6.659476e+01	-5.719204e+01	7.092217e+01
3.290032e+06	-4.305296e+01	-9.376622e+01	-3.061726e+01	-7.040152e+00	-9.664421e+01	6.312736e+01	-5.724866e+01	7.119360e+01
3.290063e+06	-4.306573e+01	-9.378136e+01	-3.062271e+01	-7.038000e+00	-9.998826e+01	5.635509e+01	-5.730544e+01	7.146859e+01
3.290094e+06	-4.307852e+01	-9.379653e+01	-3.062816e+01	-7.035845e+00	-1.049053e+02	3.858201e+01	-5.736240e+01	7.174721e+01
3.290126e+06	-4.309132e+01	-9.381176e+01	-3.063361e+01	-7.033688e+00	-1.089591e+02	-2.044618e+01	-5.741952e+01	7.202951e+01
3.290157e+06	-4.310379e+01	-9.382703e+01	-3.063892e+01	-7.031721e+00	-1.041050e+02	-6.808210e+01	-5.747502e+01	7.230965e+01
3.290188e+06	-4.310185e+01	-9.384265e+01	-3.063819e+01	-7.037617e+00	-1.060353e+02	-4.414549e-01	-5.745814e+01	7.235116e+01
3.290219e+06	-4.309990e+01	-9.385825e+01	-3.063747e+01	-7.043511e+00	-1.004013e+02	3.669884e+01	-5.744127e+01	7.239252e+01
3.290250e+06	-4.309796e+01	-9.387385e+01	-3.063674e+01	-7.049404e+00	-9.624090e+01	4.797287e+01	-5.742444e+01	7.243371e+01
3.290282e+06	-4.309602e+01	-9.388944e+01	-3.063601e+01	-7.055297e+00	-9.333203e+01	5.294285e+01	-5.740764e+01	7.247474e+01
3.290313e+06	-4.309407e+01	-9.390503e+01	-3.063528e+01	-7.061188e+00	-9.112853e+01	5.569936e+01	-5.739086e+01	7.251562e+01
3.290344e+06	-4.309602e+01	-9.397003e+01	-3.063412e+01	-7.048634e+00	-9.425985e+01	5.173357e+01	-5.729950e+01	7.227348e+01
3.290376e+06	-4.309796e+01	-9.403506e+01	-3.063295e+01	-7.036084e+00	-9.902201e+01	4.185233e+01	-5.720894e+01	7.203637e+01
3.290407e+06	-4.309990e+01	-9.410011e+01	-3.063179e+01	-7.023537e+00	-1.065808e+02	-3.292846e+00	-5.711917e+01	7.180412e+01
3.290438e+06	-4.310182e+01	-9.416520e+01	-3.063063e+01	-7.010993e+00	-1.018615e+02	-8.271453e+01	-5.703018e+01	7.157660e+01
3.290469e+06	-4.310369e+01	-9.422916e+01	-3.062949e+01	-6.998537e+00	-9.598868e+01	-9.937175e+01	-5.694291e+01	7.135775e+01
3.290500e+06	-4.310110e+01	-9.414995e+01	-3.063142e+01	-6.996524e+00	-9.784265e+01	-9.066223e+01	-5.697403e+01	7.164608e+01
3.290532e+06	-4.309850e+01	-9.407080e+01	-3.063336e+01	-6.994511e+00	-9.979553e+01	-7.708741e+01	-5.700503e+01	7.193647e+01
3.290563e+06	-4.309588e+01	-9.399169e+01	-3.063530e+01	-6.992496e+00	-1.013492e+02	-5.651109e+01	-5.703592e+01	7.222895e+01
3.290594e+06	-4.309325e+01	-9.391263e+01	-3.063723e+01	-6.990481e+00	-1.015638e+02	-3.099220e+01	-5.706670e+01	7.252350e+01
3.290626e+06	-4.309065e+01	-9.383444e+01	-3.063914e+01	-6.988670e+00	-1.003447e+02	-9.115484e+00	-5.709714e+01	7.280733e+01
3.290657e+06	-4.309110e+01	-9.380691e+01	-3.063892e+01	-6.999471e+00	-1.046756e+02	-2.535187e+01	-5.711429e+01	7.230250e+01
3.290688e+06	-4.309156e+01	-9.377937e+01	-3.063870e+01	-7.010272e+00	-1.087911e+02	-7.302915e+01	-5.713080e+01	7.179571e+01
3.290719e+06	-4.309201e+01	-9.375183e+01	-3.063848e+01	-7.021072e+00	-1.052616e+02	-1.253047e+02	-5.714665e+01	7.128703e+01
3.290750e+06	-4.309246e+01	-9.372429e+01	-3.063826e+01	-7.031872e+00	-1.007692e+02	-1.436110e+02	-5.716184e+01	7.077653e+01
3.290782e+06	-4.309271e+01	-9.369975e+01	-3.063800e+01	-7.042343e+00	-9.771090e+01	-1.507446e+02	-5.717544e+01	7.027776e+01
3.290813e+06	-4.308493e+01	-9.379702e+01	-3.063643e+01	-7.039485e+00	-1.017582e+02	-1.384383e+02	-5.715083e+01	7.032638e+01
3.290844e+06	-4.307712e+01	-9.389412e+01	-3.063485e+01	-7.036629e+00	-1.068212e+02	-1.009656e+02	-5.712629e+01	7.037472e+01
3.290876e+06	-4.306930e+01	-9.399104e+01	-3.063327e+01	-7.033773e+00	-1.049968e+02	-3.892330e+01	-5.710181e+01	7.042279e+01
3.290907e+06	-4.306146e+01	-9.408779e+01	-3.063170e+01	-7.030918e+00	-1.000316e+02	-1.508057e+01	-5.707739e+01	7.047059e+01
3.290938e+06	-4.305360e+01	-9.418437e+01	-3.063012e+01	-7.028064e+00	-9.650383e+01	-6.334960e+00	-5.705304e+01	7.051812e+01
3.290969e+06	-4.305463e+01	-9.414469e+01	-3.062910e+01	-7.022580e+00	-9.325115e+01	9.364356e-01	-5.706344e+01	7.061556e+01
3.291000e+06	-4.305566e+01	-9.410500e+01	-3.062809e+01	-7.017098e+00	-9.083472e+01	4.714860e+00	-5.707382e+01	7.071323e+01
3.291032e+06	-4.305668e+01	-9.406531e+01	-3.062707e+01	-7.011617e+00	-8.892783e+01	7.010724e+00	-5.708420e+01	7.081114e+01
3.291063e+06	-4.305769e+01	-9.402560e+01	-3.062606e+01	-7.006138e+00	-8.735734e+01	8.548925e+00	-5.709456e+01	7.090927e+01
3.291094e+06	-4.305878e+01	-9.398589e+01	-3.062506e+01	-7.000645e+00	-8.604959e+01	9.559298e+00	-5.710483e+01	7.100854e+01
3.291126e+06	-4.306847e+01	-9.394651e+01	-3.062629e+01	-6.993385e+00	-8.804662e+01	-3.650809e+00	-5.710580e+01	7.121825e+01
3.291157e+06	-4.307818e+01	-9.390704e+01	-3.062753e+01	-6.986123e+00	-8.970219e+01	-2.401486e+01	-5.710666e+01	7.142802e+01
3.291188e+06	-4.308789e+01	-9.386748e+01	-3.062876e+01	-6.978860e+00	-9.003316e+01	-4.995343e+01	-5.710740e+01	7.163782e+01
3.291219e+06	-4.309760e+01	-9.382784e+01	-3.063000e+01	-6.971594e+00	-8.875425e+01	-7.304385e+01	-5.710803e+01	7.184765e+01
3.291250e+06	-4.310716e+01	-9.379021e+01	-3.063117e+01	-6.964469e+00	-8.686100e+01	-8.841259e+01	-5.710914e+01	7.204796e+01
3.291282e+06	-4.310661e+01	-9.388228e+01	-3.062875e+01	-6.966131e+00	-8.897069e+01	-7.958674e+01	-5.714702e+01	7.165906e+01
3.291313e+06	-4.310604e+01	-9.397434e+01	-3.062632e+01	-6.967793e+00	-9.129084e+01	-6.478296e+01	-5.718467e+01	7.126677e+01
3.291344e+06	-4.310545e+01	-9.406638e+01	-3.062390e+01	-6.969454e+00	-9.312977e+01	-4.042474e+01	-5.722207e+01	7.087108e+01
3.291376e+06	-4.310483e+01	-9.415841e+01	-3.062147e+01	-6.971114e+00	-9.302666e+01	-1.018117e+01	-5.725921e+01	7.047198e+01
3.291407e+06	-4.310391e+01	-9.424689e+01	-3.061912e+01	-6.972959e+00	-9.118586e+01	1.279262e+01	-5.729435e+01	7.008739e+01
3.291438e+06	-4.309135e+01	-9.419162e+01	-3.061974e+01	-6.982381e+00	-9.302686e+01	9.894528e+00	-5.725868e+01	7.042900e+01
3.291469e+06	-4.307880e+01	-9.413651e+01	-3.062036e+01	-6.991805e+00	-9.531920e+01	5.227130e+00	-5.722285e+01	7.076782e+01
3.291500e+06	-4.306626e+01	-9.408156e+01	-3.062097e+01	-7.001229e+00	-9.829103e+01	-3.351670e+00	-5.718687e+01	7.110384e+01
3.291532e+06	-4.305373e+01	-9.402677e+01	-3.062159e+01	-7.010656e+00	-1.021261e+02	-2.241454e+01	-5.715075e+01	7.143708e+01
3.291563e+06	-4.304121e+01	-9.397213e+01	-3.062220e+01	-7.020083e+00	-1.048096e+02	-6.618372e+01	-5.711448e+01	7.176756e+01
3.291594e+06	-4.304933e+01	-9.401141e+01	-3.062201e+01	-7.018309e+00	-1.017151e+02	-5.063645e+01	-5.714209e+01	7.171737e+01
3.291626e+06	-4.305746e+01	-9.405076e+01	-3.062182e+01	-7.016535e+00	-9.918235e+01	-4.257556e+01	-5.716978e+01	7.166686e+01
3.291657e+06	-4.306559e+01	-9.409018e+01	-3.062164e+01	-7.014762e+00	-9.714290e+01	-3.782401e+01	-5.719756e+01	7.161602e+01
3.291688e+06	-4.307373e+01	-9.412968e+01	-3.062145e+01	-7.012988e+00	-9.546025e+01	-3.473055e+01	-5.722541e+01	7.156486e+01
3.291719e+06	-4.308183e+01	-9.416828e+01	-3.062128e+01	-7.011341e+00	-9.406590e+01	-3.242569e+01	-5.725291e+01	7.151283e+01
3.291750e+06	-4.308589e+01	-9.408720e+01	-3.062323e+01	-7.025343e+00	-9.598162e+01	-7.114768e+00	-5.722496e+01	7.139489e+01
3.291782e+06	-4.308994e+01	-9.400603e+01	-3.062518e+01	-7.039352e+00	-9.578584e+01	2.429477e+01	-5.719706e+01	7.127770e+01
3.291813e+06	-4.309396e+01	-9.392480e+01	-3.062714e+01	-7.053367e+00	-9.369565e+01	4.790785e+01	-5.716921e+01	7.116126e+01
3.291844e+06	-4.309798e+01	-9.384348e+01	-3.062909e+01	-7.067388e+00	-9.129820e+01	6.173167e+01	-5.714142e+01	7.104556e+01
3.291876e+06	-4.310180e+01	-9.376466e+01	-3.063101e+01	-7.081038e+00	-8.925657e+01	6.986954e+01	-5.711416e+01	7.093021e+01
3.291907e+06	-4.309465e+01	-9.384353e+01	-3.063090e+01	-7.071495e+00	-9.260658e+01	7.656984e+01	-5.711601e+01	7.079085e+01
3.291938e+06	-4.308749e+01	-9.392227e+01	-3.063078e+01	-7.061952e+00	-9.754940e+01	9.421528e+01	-5.711781e+01	7.065144e+01
3.291969e+06	-4.308032e+01	-9.400087e+01	-3.063067e+01	-7.052410e+00	-1.016729e+02	1.536302e+02	-5.711956e+01	7.051196e+01
3.292000e+06	-4.307314e+01	-9.407935e+01	-3.063056e+01	-7.042867e+00	-9.647140e+01	-1.568706e+02	-5.712126e+01	7.037243e+01
3.292032e+06	-4.306620e+01	-9.415592e+01	-3.063046e+01	-7.033499e+00	-9.208260e+01	-1.432705e+02	-5.712202e+01	7.023362e+01
3.292063e+06	-4.306960e+01	-9.416014e+01	-3.063094e+01	-7.031209e+00	-9.662811e+01	-1.784715e+02	-5.708665e+01	7.012653e+01
3.292094e+06	-4.307300e+01	-9.416437e+01	-3.063141e+01	-7.028919e+00	-9.538304e+01	1.240798e+02	-5.705139e+01	7.002031e+01
3.292126e+06	-4.307640e+01	-9.416859e+01	-3.063189e+01	-7.026629e+00	-9.078016e+01	9.861757e+01	-5.701624e+01	6.991494e+01
3.292157e+06	-4.307980e+01	-9.417283e+01	-3.063236e+01	-7.024339e+00	-8.731543e+01	8.883990e+01	-5.698120e+01	6.981043e+01
3.292188e+06	-4.308320e+01	-9.417706e+01	-3.063284e+01	-7.022048e+00	-8.475050e+01	8.397398e+01	-5.694628e+01	6.970675e+01
3.292219e+06	-4.308452e+01	-9.416257e+01	-3.063128e+01	-7.028814e+00	-8.717766e+01	7.552527e+01	-5.702405e+01	7.001847e+01
3.292250e+06	-4.308584e+01	-9.414808e+01	-3.062971e+01	-7.035578e+00	-9.004640e+01	5.984161e+01	-5.710226e+01	7.033583e+01
3.292282e+06	-4.308716e+01	-9.413359e+01	-3.062815e+01	-7.042339e+00	-9.242970e+01	3.018055e+01	-5.718090e+01	7.065898e+01
3.292313e+06	-4.308848e+01	-9.411909e+01	-3.062659e+01	-7.049098e+00	-9.179320e+01	-7.055741e+00	-5.725998e+01	7.098804e+01
3.292344e+06	-4.308980e+01	-9.410478e+01	-3.062504e+01	-7.055658e+00	-8.903159e+01	-3.102162e+01	-5.733870e+01	7.132084e+01
3.292376e+06	-4.309046e+01	-9.411447e+01	-3.062559e+01	-7.037901e+00	-9.056747e+01	-3.879189e+01	-5.732032e+01	7.136754e+01
3.292407e+06	-4.309112e+01	-9.412417e+01	-3.062614e+01	-7.020142e+00	-9.215138e+01	-4.995655e+01	-5.730197e+01	7.141403e+01
3.292438e+06	-4.309178e+01	-9.413387e+01	-3.062669e+01	-7.002381e+00	-9.351350e+01	-6.572881e+01	-5.728366e+01	7.146033e+01
3.292469e+06	-4.309244e+01	-9.414356e+01	-3.062724e+01	-6.984617e+00	-9.414119e+01	-8.571495e+01	-5.726538e+01	7.150644e+01
3.292500e+06	-4.309306e+01	-9.415264e+01	-3.062776e+01	-6.967482e+00	-9.370643e+01	-1.058225e+02	-5.724694e+01	7.155017e+01
3.292532e+06	-4.309111e+01	-9.412311e+01	-3.062646e+01	-6.989090e+00	-9.513814e+01	-1.091930e+02	-5.721690e+01	7.145955e+01
3.292563e+06	-4.308917e+01	-9.409359e+01	-3.062515e+01	-7.010691e+00	-9.680106e+01	-1.140090e+02	-5.718695e+01	7.136956e+01
3.292594e+06	-4.308722e+01	-9.406408e+01	-3.062385e+01	-7.032286e+00	-9.874188e+01	-1.213126e+02	-5.715707e+01	7.128018e+01
3.292626e+06	-4.308527e+01	-9.403459e+01	-3.062254e+01	-7.053874e+00	-1.009422e+02	-1.331294e+02	-5.712728e+01	7.119142e+01
3.292657e+06	-4.308340e+01	-9.400546e+01	-3.062127e+01	-7.074592e+00	-1.030048e+02	-1.525718e+02	-5.709921e+01	7.110873e+01
3.292688e+06	-4.308512e+01	-9.399033e+01	-3.062121e+01	-7.060189e+00	-1.026207e+02	-1.679987e+02	-5.713799e+01	7.124950e+01
3.292719e+06	-4.308683e+01	-9.397520e+01	-3.062115e+01	-7.045786e+00	-1.017349e+02	1.787144e+02	-5.717690e+01	7.139153e+01
3.292750e+06	-4.308854e+01	-9.396006e+01	-3.062109e+01	-7.031384e+00	-1.005954e+02	1.682266e+02	-5.721592e+01	7.153484e+01
3.292782e+06	-4.309026e+01	-9.394492e+01	-3.062102e+01	-7.016981e+00	-9.939094e+01	1.602380e+02	-5.725507e+01	7.167945e+01
3.292813e+06	-4.309197e+01	-9.392977e+01	-3.062096e+01	-7.002579e+00	-9.821980e+01	1.541694e+02	-5.729434e+01	7.182537e+01
3.292844e+06	-4.308897e+01	-9.389468e+01	-3.062267e+01	-6.998992e+00	-1.037706e+02	1.723850e+02	-5.730170e+01	7.179703e+01
3.292876e+06	-4.308597e+01	-9.385962e+01	-3.062439e+01	-6.995404e+00	-1.078501e+02	-1.162968e+02	-5.730907e+01	7.176864e+01
3.292907e+06	-4.308296e+01	-9.382458e+01	-3.062610e+01	-6.991815e+00	-1.013093e+02	-7.077160e+01	-5.731644e+01	7.174020e+01
3.292938e+06	-4.307996e+01	-9.378956e+01	-3.062782e+01	-6.988224e+00	-9.668224e+01	-5.939484e+01	-5.732382e+01	7.171172e+01
3.292969e+06	-4.307702e+01	-9.375533e+01	-3.062948e+01	-6.984560e+00	-9.360649e+01	-5.475422e+01	-5.733088e+01	7.168362e+01
3.293000e+06	-4.308332e+01	-9.381599e+01	-3.062444e+01	-6.972037e+00	-9.426901e+01	-5.211826e+01	-5.729819e+01	7.170993e+01
3.293032e+06	-4.308962e+01	-9.387673e+01	-3.061941e+01	-6.959529e+00	-9.496294e+01	-4.903637e+01	-5.726563e+01	7.173604e+01
3.293063e+06	-4.309592e+01	-9.393756e+01	-3.061438e+01	-6.947036e+00	-9.568489e+01	-4.540817e+01	-5.723319e+01	7.176196e+01
3.293094e+06	-4.310221e+01	-9.399848e+01	-3.060935e+01	-6.934556e+00	-9.642722e+01	-4.111258e+01	-5.720086e+01	7.178768e+01
3.293126e+06	-4.310833e+01	-9.405718e+01	-3.060446e+01	-6.922487e+00	-9.715955e+01	-3.611450e+01	-5.716902e+01	7.181209e+01
3.293157e+06	-4.310484e+01	-9.397390e+01	-3.060784e+01	-6.934735e+00	-9.691756e+01	-3.701796e+01	-5.715966e+01	7.176688e+01
3.293188e+06	-4.310134e+01	-9.389070e+01	-3.061121e+01	-6.946994e+00	-9.668013e+01	-3.787290e+01	-5.715031e+01	7.172177e+01
3.293219e+06	-4.309781e+01	-9.380756e+01	-3.061458e+01	-6.959261e+00	-9.644724e+01	-3.868278e+01	-5.714096e+01	7.167675e+01
3.293250e+06	-4.309427e+01	-9.372448e+01	-3.061796e+01	-6.971538e+00	-9.621883e+01	-3.945077e+01	-5.713162e+01	7.163184e+01
3.293282e+06	-4.309077e+01	-9.364463e+01	-3.062126e+01	-6.983466e+00	-9.599880e+01	-3.976257e+01	-5.712354e+01	7.159044e+01
3.293313e+06	-4.308956e+01	-9.369304e+01	-3.062184e+01	-6.980784e+00	-9.558595e+01	-2.365539e+01	-5.716683e+01	7.168872e+01
3.293344e+06	-4.308835e+01	-9.374144e+01	-3.062241e+01	-6.978102e+00	-9.463521e+01	-9.938324e+00	-5.721032e+01	7.178799e+01
3.293376e+06	-4.308713e+01	-9.378983e+01	-3.062299e+01	-6.975420e+00	-9.342826e+01	7.209684e-01	-5.725400e+01	7.188826e+01
3.293407e+06	-4.308591e+01	-9.383820e+01	-3.062356e+01	-6.972738e+00	-9.216901e+01	8.725282e+00	-5.729787e+01	7.198954e+01
3.293438e+06	-4.308468e+01	-9.388656e+01	-3.062414e+01	-6.970055e+00	-9.095723e+01	1.473919e+01	-5.734194e+01	7.209186e+01
