# Hz S dB R 50.000
3.288594e+06	-4.293787e+01	-9.862029e+01	-3.064417e+01	-6.491869e+00	-9.561793e+01	-7.619129e+01	-4.820473e+01	1.979673e+01
3.288625e+06	-4.294238e+01	-9.857073e+01	-3.064543e+01	-6.486858e+00	-9.934442e+01	-6.687642e+01	-4.820192e+01	1.976449e+01
3.288656e+06	-4.294689e+01	-9.852112e+01	-3.064669e+01	-6.481846e+00	-1.046239e+02	-3.971519e+01	-4.819910e+01	1.973227e+01
3.288688e+06	-4.295139e+01	-9.847146e+01	-3.064796e+01	-6.476832e+00	-1.053977e+02	2.669450e+01	-4.819628e+01	1.970007e+01
3.288719e+06	-4.295589e+01	-9.842175e+01	-3.064922e+01	-6.471817e+00	-1.000256e+02	5.936068e+01	-4.819346e+01	1.966789e+01
3.288750e+06	-4.296035e+01	-9.837255e+01	-3.065047e+01	-6.466910e+00	-9.612446e+01	6.989892e+01	-4.819079e+01	1.963582e+01
3.288782e+06	-4.296051e+01	-9.839441e+01	-3.065100e+01	-6.475563e+00	-9.742988e+01	6.153551e+01	-4.820648e+01	1.961436e+01
3.288813e+06	-4.296066e+01	-9.841627e+01	-3.065153e+01	-6.484216e+00	-9.867122e+01	5.029024e+01	-4.822219e+01	1.959281e+01
3.288844e+06	-4.296082e+01	-9.843813e+01	-3.065206e+01	-6.492870e+00	-9.961363e+01	3.576827e+01	-4.823794e+01	1.957120e+01
3.288875e+06	-4.296097e+01	-9.845999e+01	-3.065258e+01	-6.501526e+00	-9.994580e+01	1.888735e+01	-4.825371e+01	1.954950e+01
3.288906e+06	-4.296125e+01	-9.848180e+01	-3.065307e+01	-6.510132e+00	-9.958211e+01	2.710273e+00	-4.826917e+01	1.952831e+01
3.288938e+06	-4.296910e+01	-9.850087e+01	-3.065104e+01	-6.515612e+00	-1.024987e+02	2.712135e+01	-4.826334e+01	1.954300e+01
3.288969e+06	-4.297697e+01	-9.851997e+01	-3.064901e+01	-6.521089e+00	-1.031464e+02	6.565411e+01	-4.825751e+01	1.955767e+01
3.289000e+06	-4.298484e+01	-9.853911e+01	-3.064699e+01	-6.526563e+00	-1.006190e+02	9.576911e+01	-4.825168e+01	1.957232e+01
3.289032e+06	-4.299271e+01	-9.855828e+01	-3.064496e+01	-6.532036e+00	-9.766924e+01	1.112588e+02	-4.824586e+01	1.958695e+01
3.289063e+06	-4.300060e+01	-9.857749e+01	-3.064294e+01	-6.537505e+00	-9.520856e+01	1.194947e+02	-4.824005e+01	1.960156e+01
3.289094e+06	-4.299536e+01	-9.858289e+01	-3.064563e+01	-6.521263e+00	-9.733365e+01	1.089463e+02	-4.822985e+01	1.964279e+01
3.289125e+06	-4.299003e+01	-9.858818e+01	-3.064835e+01	-6.504836e+00	-9.952444e+01	9.116794e+01	-4.821962e+01	1.968413e+01
3.289156e+06	-4.298470e+01	-9.859346e+01	-3.065108e+01	-6.488398e+00	-1.007487e+02	6.426970e+01	-4.820940e+01	1.972538e+01
3.289188e+06	-4.297937e+01	-9.859874e+01	-3.065381e+01	-6.471950e+00	-9.989062e+01	3.611281e+01	-4.819919e+01	1.976653e+01
3.289219e+06	-4.297404e+01	-9.860401e+01	-3.065654e+01	-6.455492e+00	-9.777991e+01	1.652360e+01	-4.818898e+01	1.980758e+01
3.289250e+06	-4.297601e+01	-9.858495e+01	-3.065344e+01	-6.469279e+00	-9.589663e+01	1.128508e+01	-4.819763e+01	1.962374e+01
3.289282e+06	-4.297797e+01	-9.856589e+01	-3.065034e+01	-6.483057e+00	-9.430909e+01	7.774864e+00	-4.820620e+01	1.943953e+01
3.289313e+06	-4.297994e+01	-9.854682e+01	-3.064724e+01	-6.496824e+00	-9.294747e+01	5.276002e+00	-4.821469e+01	1.925495e+01
3.289344e+06	-4.298190e+01	-9.852774e+01	-3.064414e+01	-6.510582e+00	-9.175991e+01	3.412963e+00	-4.822310e+01	1.907002e+01
3.289375e+06	-4.298386e+01	-9.850862e+01	-3.064108e+01	-6.524098e+00	-9.073152e+01	2.068110e+00	-4.823133e+01	1.888698e+01
3.289406e+06	-4.298491e+01	-9.848665e+01	-3.064232e+01	-6.508810e+00	-9.253673e+01	1.522744e+01	-4.822764e+01	1.898215e+01
3.289438e+06	-4.298596e+01	-9.846467e+01	-3.064357e+01	-6.493517e+00	-9.395948e+01	3.450409e+01	-4.822393e+01	1.907724e+01
3.289469e+06	-4.298701e+01	-9.844268e+01	-3.064481e+01	-6.478220e+00	-9.422872e+01	5.815285e+01	-4.822020e+01	1.917224e+01
3.289500e+06	-4.298806e+01	-9.842069e+01	-3.064606e+01	-6.462919e+00	-9.314132e+01	7.956472e+01	-4.821645e+01	1.926717e+01
3.289532e+06	-4.298899e+01	-9.839897e+01	-3.064728e+01	-6.447967e+00	-9.143269e+01	9.454968e+01	-4.821273e+01	1.936028e+01
3.289563e+06	-4.298299e+01	-9.839473e+01	-3.064738e+01	-6.454775e+00	-9.150716e+01	8.806722e+01	-4.821303e+01	1.934717e+01
3.289594e+06	-4.297699e+01	-9.839050e+01	-3.064749e+01	-6.461582e+00	-9.146977e+01	8.155691e+01	-4.821332e+01	1.933407e+01
3.289625e+06	-4.297099e+01	-9.838628e+01	-3.064759e+01	-6.468390e+00	-9.132334e+01	7.518351e+01	-4.821361e+01	1.932096e+01
3.289656e+06	-4.296500e+01	-9.838206e+01	-3.064769e+01	-6.475198e+00	-9.107838e+01	6.909200e+01	-4.821391e+01	1.930785e+01
3.289688e+06	-4.295901e+01	-9.837784e+01	-3.064779e+01	-6.482007e+00	-9.075080e+01	6.339041e+01	-4.821420e+01	1.929474e+01
3.289719e+06	-4.296026e+01	-9.835794e+01	-3.064575e+01	-6.493815e+00	-9.262073e+01	7.782996e+01	-4.822905e+01	1.939607e+01
3.289750e+06	-4.296158e+01	-9.833790e+01	-3.064369e+01	-6.505658e+00	-9.396778e+01	9.925317e+01	-4.824401e+01	1.949867e+01
3.289782e+06	-4.296289e+01	-9.831786e+01	-3.064163e+01	-6.517496e+00	-9.390158e+01	1.242956e+02	-4.825898e+01	1.960163e+01
3.289813e+06	-4.296420e+01	-9.829781e+01	-3.063958e+01	-6.529328e+00	-9.247640e+01	1.451814e+02	-4.827394e+01	1.970494e+01
3.289844e+06	-4.296551e+01	-9.827775e+01	-3.063752e+01	-6.541154e+00	-9.057699e+01	1.592528e+02	-4.828890e+01	1.980861e+01
3.289875e+06	-4.296322e+01	-9.831241e+01	-3.064080e+01	-6.525920e+00	-9.202402e+01	1.761495e+02	-4.827496e+01	1.974602e+01
3.289906e+06	-4.296092e+01	-9.834706e+01	-3.064408e+01	-6.510674e+00	-9.260747e+01	-1.623080e+02	-4.826103e+01	1.968363e+01
3.289938e+06	-4.295862e+01	-9.838169e+01	-3.064737e+01	-6.495417e+00	-9.194533e+01	-1.409695e+02	-4.824712e+01	1.962145e+01
3.289969e+06	-4.295632e+01	-9.841630e+01	-3.065065e+01	-6.480148e+00	-9.046464e+01	-1.244510e+02	-4.823321e+01	1.955946e+01
3.290000e+06	-4.295403e+01	-9.845074e+01	-3.065389e+01	-6.465063e+00	-8.879127e+01	-1.131657e+02	-4.821956e+01	1.949851e+01
3.290032e+06	-4.295456e+01	-9.846722e+01	-3.065152e+01	-6.474134e+00	-8.980545e+01	-1.156163e+02	-4.823577e+01	1.954179e+01
3.290063e+06	-4.295509e+01	-9.848370e+01	-3.064915e+01	-6.483199e+00	-9.093070e+01	-1.187520e+02	-4.825200e+01	1.958524e+01
3.290094e+06	-4.295562e+01	-9.850019e+01	-3.064678e+01	-6.492261e+00	-9.218404e+01	-1.228769e+02	-4.826826e+01	1.962884e+01
3.290125e+06	-4.295614e+01	-9.851668e+01	-3.064441e+01	-6.501317e+00	-9.357698e+01	-1.284751e+02	-4.828454e+01	1.967262e+01
3.290156e+06	-4.295671e+01	-9.853354e+01	-3.064209e+01	-6.510152e+00	-9.508237e+01	-1.362747e+02	-4.830032e+01	1.971576e+01
3.290188e+06	-4.295994e+01	-9.857386e+01	-3.064294e+01	-6.505706e+00	-9.571744e+01	-1.435538e+02	-4.828333e+01	1.971035e+01
3.290219e+06	-4.296317e+01	-9.861420e+01	-3.064379e+01	-6.501260e+00	-9.622975e+01	-1.518677e+02	-4.826638e+01	1.970495e+01
3.290250e+06	-4.296639e+01	-9.865457e+01	-3.064463e+01	-6.496813e+00	-9.656003e+01	-1.610355e+02	-4.824946e+01	1.969957e+01
3.290282e+06	-4.296962e+01	-9.869497e+01	-3.064548e+01	-6.492365e+00	-9.666080e+01	-1.706740e+02	-4.823258e+01	1.969422e+01
3.290313e+06	-4.297283e+01	-9.873541e+01	-3.064632e+01	-6.487916e+00	-9.651592e+01	1.797368e+02	-4.821572e+01	1.968888e+01
3.290344e+06	-4.296884e+01	-9.871442e+01	-3.064696e+01	-6.481891e+00	-1.015982e+02	-1.749214e+02	-4.821905e+01	1.975052e+01
3.290375e+06	-4.296478e+01	-9.869297e+01	-3.064759e+01	-6.475853e+00	-1.130463e+02	-1.352488e+02	-4.822254e+01	1.981276e+01
3.290406e+06	-4.296073e+01	-9.867153e+01	-3.064822e+01	-6.469814e+00	-1.049472e+02	-2.508946e+01	-4.822601e+01	1.987504e+01
3.290438e+06	-4.295667e+01	-9.865011e+01	-3.064885e+01	-6.463774e+00	-9.822858e+01	-1.527410e+01	-4.822947e+01	1.993737e+01
3.290469e+06	-4.295262e+01	-9.862871e+01	-3.064948e+01	-6.457733e+00	-9.443672e+01	-1.236043e+01	-4.823293e+01	1.999975e+01
3.290500e+06	-4.294912e+01	-9.859337e+01	-3.064793e+01	-6.457868e+00	-9.660416e+01	1.094644e+01	-4.823510e+01	2.003492e+01
3.290532e+06	-4.294562e+01	-9.855805e+01	-3.064639e+01	-6.458002e+00	-9.690818e+01	4.267423e+01	-4.823727e+01	2.007011e+01
3.290563e+06	-4.294212e+01	-9.852277e+01	-3.064485e+01	-6.458136e+00	-9.500740e+01	6.862346e+01	-4.823943e+01	2.010531e+01
3.290594e+06	-4.293862e+01	-9.848751e+01	-3.064330e+01	-6.458271e+00	-9.256281e+01	8.400994e+01	-4.824160e+01	2.014053e+01
3.290625e+06	-4.293520e+01	-9.845267e+01	-3.064176e+01	-6.458526e+00	-9.039651e+01	9.278848e+01	-4.824382e+01	2.017389e+01
3.290656e+06	-4.294321e+01	-9.846670e+01	-3.064062e+01	-6.473832e+00	-9.225450e+01	7.549646e+01	-4.825401e+01	1.997362e+01
3.290688e+06	-4.295123e+01	-9.848076e+01	-3.063947e+01	-6.489134e+00	-9.320314e+01	5.125257e+01	-4.826411e+01	1.977287e+01
3.290719e+06	-4.295925e+01	-9.849484e+01	-3.063833e+01	-6.504431e+00	-9.249907e+01	2.626967e+01	-4.827411e+01	1.957167e+01
3.290750e+06	-4.296727e+01	-9.850895e+01	-3.063719e+01	-6.519725e+00	-9.071820e+01	7.772021e+00	-4.828401e+01	1.937000e+01
3.290782e+06	-4.297529e+01	-9.852186e+01	-3.063609e+01	-6.534758e+00	-8.880314e+01	-3.876974e+00	-4.829355e+01	1.917252e+01
3.290813e+06	-4.298209e+01	-9.845910e+01	-3.063794e+01	-6.534023e+00	-9.030949e+01	2.867382e+00	-4.828637e+01	1.926066e+01
3.290844e+06	-4.298889e+01	-9.839625e+01	-3.063978e+01	-6.533287e+00	-9.192075e+01	1.254762e+01	-4.827918e+01	1.934866e+01
3.290875e+06	-4.299568e+01	-9.833330e+01	-3.064163e+01	-6.532551e+00	-9.345455e+01	2.652373e+01	-4.827197e+01	1.943651e+01
3.290906e+06	-4.300246e+01	-9.827024e+01	-3.064348e+01	-6.531815e+00	-9.446557e+01	4.541266e+01	-4.826475e+01	1.952422e+01
3.290938e+06	-4.300925e+01	-9.820710e+01	-3.064533e+01	-6.531078e+00	-9.442086e+01	6.662528e+01	-4.825752e+01	1.961178e+01
3.290969e+06	-4.300335e+01	-9.823288e+01	-3.064248e+01	-6.519723e+00	-9.435405e+01	3.920672e+01	-4.825625e+01	1.968355e+01
3.291000e+06	-4.299735e+01	-9.825934e+01	-3.063960e+01	-6.508290e+00	-9.267722e+01	1.674278e+01	-4.825501e+01	1.975517e+01
3.291032e+06	-4.299136e+01	-9.828576e+01	-3.063673e+01	-6.496864e+00	-9.054955e+01	2.467666e+00	-4.825376e+01	1.982677e+01
3.291063e+06	-4.298537e+01	-9.831215e+01	-3.063385e+01	-6.485446e+00	-8.856738e+01	-6.369403e+00	-4.825250e+01	1.989835e+01
3.291094e+06	-4.297938e+01	-9.833850e+01	-3.063097e+01	-6.474036e+00	-8.684279e+01	-1.212350e+01	-4.825122e+01	1.996991e+01
3.291125e+06	-4.297508e+01	-9.839694e+01	-3.063459e+01	-6.471366e+00	-8.786831e+01	-4.762009e+00	-4.824069e+01	1.983430e+01
3.291156e+06	-4.297078e+01	-9.845533e+01	-3.063821e+01	-6.468694e+00	-8.882566e+01	4.502184e+00	-4.823012e+01	1.969902e+01
3.291188e+06	-4.296647e+01	-9.851365e+01	-3.064184e+01	-6.466020e+00	-8.958914e+01	1.582055e+01	-4.821952e+01	1.956406e+01
3.291219e+06	-4.296215e+01	-9.857192e+01	-3.064546e+01	-6.463343e+00	-9.000052e+01	2.880496e+01	-4.820889e+01	1.942944e+01
3.291250e+06	-4.295794e+01	-9.862943e+01	-3.064904e+01	-6.460799e+00	-8.996135e+01	4.229264e+01	-4.819841e+01	1.929645e+01
3.291282e+06	-4.296843e+01	-9.860001e+01	-3.064702e+01	-6.474974e+00	-9.163883e+01	5.065902e+01	-4.821213e+01	1.932534e+01
3.291313e+06	-4.297893e+01	-9.857051e+01	-3.064500e+01	-6.489141e+00	-9.337193e+01	6.310251e+01	-4.822587e+01	1.935433e+01
3.291344e+06	-4.298944e+01	-9.854095e+01	-3.064297e+01	-6.503302e+00	-9.478765e+01	8.113936e+01	-4.823963e+01	1.938341e+01
3.291375e+06	-4.299996e+01	-9.851131e+01	-3.064095e+01	-6.517457e+00	-9.520366e+01	1.036168e+02	-4.825340e+01	1.941258e+01
3.291406e+06	-4.301025e+01	-9.848248e+01	-3.063895e+01	-6.531502e+00	-9.436868e+01	1.245009e+02	-4.826695e+01	1.944225e+01
3.291438e+06	-4.300618e+01	-9.850791e+01	-3.063856e+01	-6.539246e+00	-9.551671e+01	1.188954e+02	-4.826485e+01	1.949741e+01
3.291469e+06	-4.300211e+01	-9.853331e+01	-3.063817e+01	-6.546988e+00	-9.671322e+01	1.115444e+02	-4.826275e+01	1.955254e+01
3.291500e+06	-4.299803e+01	-9.855869e+01	-3.063778e+01	-6.554731e+00	-9.788138e+01	1.018739e+02	-4.826064e+01	1.960765e+01
3.291532e+06	-4.299396e+01	-9.858405e+01	-3.063739e+01	-6.562472e+00	-9.886222e+01	8.945044e+01	-4.825852e+01	1.966273e+01
3.291563e+06	-4.298988e+01	-9.860939e+01	-3.063700e+01	-6.570213e+00	-9.941710e+01	7.457357e+01	-4.825640e+01	1.971778e+01
3.291594e+06	-4.298625e+01	-9.858019e+01	-3.063844e+01	-6.554843e+00	-9.949320e+01	1.018917e+02	-4.823821e+01	1.964015e+01
3.291625e+06	-4.298263e+01	-9.855057e+01	-3.063989e+01	-6.539280e+00	-9.790258e+01	1.248561e+02	-4.821992e+01	1.956177e+01
3.291656e+06	-4.297900e+01	-9.852098e+01	-3.064134e+01	-6.523713e+00	-9.578967e+01	1.396132e+02	-4.820165e+01	1.948373e+01
3.291688e+06	-4.297538e+01	-9.849141e+01	-3.064279e+01	-6.508141e+00	-9.379777e+01	1.487499e+02	-4.818340e+01	1.940601e+01
3.291719e+06	-4.297175e+01	-9.846187e+01	-3.064424e+01	-6.492563e+00	-9.205948e+01	1.546821e+02	-4.816517e+01	1.932862e+01
3.291750e+06	-4.296998e+01	-9.847683e+01	-3.064301e+01	-6.499789e+00	-9.342227e+01	1.520524e+02	-4.819066e+01	1.948843e+01
3.291782e+06	-4.296821e+01	-9.849179e+01	-3.064179e+01	-6.507013e+00	-9.500845e+01	1.483583e+02	-4.821616e+01	1.964917e+01
3.291813e+06	-4.296644e+01	-9.850674e+01	-3.064056e+01	-6.514236e+00	-9.688325e+01	1.428512e+02	-4.824166e+01	1.981086e+01
3.291844e+06	-4.296468e+01	-9.852168e+01	-3.063934e+01	-6.521456e+00	-9.910806e+01	1.340008e+02	-4.826717e+01	1.997351e+01
3.291875e+06	-4.296291e+01	-9.853645e+01	-3.063812e+01	-6.528710e+00	-1.015790e+02	1.188628e+02	-4.829224e+01	2.013512e+01
3.291906e+06	-4.296216e+01	-9.852985e+01	-3.063872e+01	-6.540459e+00	-1.009084e+02	1.262398e+02	-4.826263e+01	2.005015e+01
3.291938e+06	-4.296141e+01	-9.852326e+01	-3.063931e+01	-6.552210e+00	-1.001721e+02	1.325089e+02	-4.823311e+01	1.996576e+01
3.291969e+06	-4.296066e+01	-9.851667e+01	-3.063990e+01	-6.563962e+00	-9.941239e+01	1.377829e+02	-4.820366e+01	1.988194e+01
3.292000e+06	-4.295991e+01	-9.851008e+01	-3.064050e+01	-6.575716e+00	-9.865687e+01	1.422109e+02	-4.817430e+01	1.979869e+01
3.292032e+06	-4.295908e+01	-9.850319e+01	-3.064107e+01	-6.587092e+00	-9.798316e+01	1.456923e+02	-4.814573e+01	1.971610e+01
3.292063e+06	-4.295354e+01	-9.847738e+01	-3.064072e+01	-6.575119e+00	-1.014251e+02	1.274239e+02	-4.816166e+01	1.964059e+01
3.292094e+06	-4.294800e+01	-9.845162e+01	-3.064037e+01	-6.563146e+00	-1.039156e+02	8.906328e+01	-4.817761e+01	1.956480e+01
3.292125e+06	-4.294246e+01	-9.842588e+01	-3.064002e+01	-6.551175e+00	-1.018842e+02	4.819684e+01	-4.819357e+01	1.948873e+01
3.292156e+06	-4.293693e+01	-9.840018e+01	-3.063967e+01	-6.539204e+00	-9.839674e+01	2.791723e+01	-4.820954e+01	1.941238e+01
3.292188e+06	-4.293139e+01	-9.837451e+01	-3.063932e+01	-6.527235e+00	-9.552611e+01	1.832146e+01	-4.822552e+01	1.933574e+01
3.292219e+06	-4.293928e+01	-9.839565e+01	-3.064059e+01	-6.537285e+00	-9.677481e+01	3.787172e+01	-4.822101e+01	1.935478e+01
3.292250e+06	-4.294729e+01	-9.841722e+01	-3.064187e+01	-6.547516e+00	-9.686422e+01	6.116864e+01	-4.821634e+01	1.937456e+01
3.292282e+06	-4.295530e+01	-9.843883e+01	-3.064314e+01	-6.557749e+00	-9.569509e+01	8.161106e+01	-4.821167e+01	1.939433e+01
3.292313e+06	-4.296332e+01	-9.846047e+01	-3.064442e+01	-6.567986e+00	-9.396932e+01	9.610465e+01	-4.820701e+01	1.941407e+01
3.292344e+06	-4.297134e+01	-9.848216e+01	-3.064570e+01	-6.578226e+00	-9.221648e+01	1.057576e+02	-4.820234e+01	1.943379e+01
3.292375e+06	-4.298332e+01	-9.846635e+01	-3.064407e+01	-6.570543e+00	-9.319790e+01	1.125375e+02	-4.822134e+01	1.946307e+01
3.292406e+06	-4.299532e+01	-9.845050e+01	-3.064244e+01	-6.562863e+00	-9.413247e+01	1.210017e+02	-4.824038e+01	1.949248e+01
3.292438e+06	-4.300733e+01	-9.843461e+01	-3.064081e+01	-6.555186e+00	-9.491964e+01	1.313401e+02	-4.825946e+01	1.952202e+01
3.292469e+06	-4.301936e+01	-9.841867e+01	-3.063919e+01	-6.547512e+00	-9.542388e+01	1.433587e+02	-4.827858e+01	1.955169e+01
3.292500e+06	-4.303119e+01	-9.840267e+01	-3.063758e+01	-6.539899e+00	-9.556783e+01	1.561006e+02	-4.829744e+01	1.958171e+01
3.292532e+06	-4.301650e+01	-9.838348e+01	-3.063932e+01	-6.539531e+00	-1.031817e+02	1.391734e+02	-4.827983e+01	1.963895e+01
3.292563e+06	-4.300182e+01	-9.836437e+01	-3.064105e+01	-6.539163e+00	-1.055586e+02	2.606103e+01	-4.826224e+01	1.969596e+01
3.292594e+06	-4.298717e+01	-9.834531e+01	-3.064279e+01	-6.538795e+00	-9.664155e+01	3.921556e-01	-4.824468e+01	1.975274e+01
3.292625e+06	-4.297255e+01	-9.832632e+01	-3.064452e+01	-6.538427e+00	-9.211319e+01	-4.893858e+00	-4.822715e+01	1.980930e+01
3.292656e+06	-4.295815e+01	-9.830768e+01	-3.064620e+01	-6.538073e+00	-8.918913e+01	-7.065432e+00	-4.821019e+01	1.986382e+01
3.292688e+06	-4.295632e+01	-9.830636e+01	-3.064447e+01	-6.538612e+00	-9.045750e+01	-5.142852e+00	-4.822718e+01	1.980772e+01
3.292719e+06	-4.295450e+01	-9.830504e+01	-3.064273e+01	-6.539152e+00	-9.192738e+01	-2.507318e+00	-4.824420e+01	1.975140e+01
3.292750e+06	-4.295267e+01	-9.830372e+01	-3.064099e+01	-6.539691e+00	-9.366512e+01	1.307001e+00	-4.826124e+01	1.969486e+01
3.292782e+06	-4.295084e+01	-9.830241e+01	-3.063926e+01	-6.540230e+00	-9.576287e+01	7.245112e+00	-4.827831e+01	1.963810e+01
3.292813e+06	-4.294901e+01	-9.830109e+01	-3.063752e+01	-6.540769e+00	-9.831522e+01	1.742311e+01	-4.829540e+01	1.958111e+01
3.292844e+06	-4.295528e+01	-9.833243e+01	-3.063768e+01	-6.546485e+00	-9.895843e+01	1.332736e+01	-4.829424e+01	1.959945e+01
3.292875e+06	-4.296162e+01	-9.836408e+01	-3.063785e+01	-6.552242e+00	-9.957383e+01	8.438848e+00	-4.829292e+01	1.961839e+01
3.292906e+06	-4.296796e+01	-9.839577e+01	-3.063801e+01	-6.558000e+00	-1.001579e+02	2.824268e+00	-4.829160e+01	1.963732e+01
3.292938e+06	-4.297430e+01	-9.842751e+01	-3.063818e+01	-6.563759e+00	-1.006823e+02	-3.557540e+00	-4.829029e+01	1.965626e+01
3.292969e+06	-4.298064e+01	-9.845930e+01	-3.063835e+01	-6.569517e+00	-1.011123e+02	-1.068421e+01	-4.828897e+01	1.967518e+01
3.293000e+06	-4.297523e+01	-9.843650e+01	-3.063845e+01	-6.562555e+00	-9.950986e+01	4.138524e+01	-4.828629e+01	1.957764e+01
3.293032e+06	-4.296983e+01	-9.841372e+01	-3.063855e+01	-6.555592e+00	-9.528256e+01	6.515985e+01	-4.828359e+01	1.948016e+01
3.293063e+06	-4.296443e+01	-9.839098e+01	-3.063865e+01	-6.548630e+00	-9.200323e+01	7.494028e+01	-4.828086e+01	1.938274e+01
3.293094e+06	-4.295903e+01	-9.836826e+01	-3.063875e+01	-6.541667e+00	-8.952925e+01	7.996530e+01	-4.827811e+01	1.928538e+01
3.293125e+06	-4.295371e+01	-9.834578e+01	-3.063885e+01	-6.534682e+00	-8.760932e+01	8.296138e+01	-4.827527e+01	1.918991e+01
3.293156e+06	-4.295859e+01	-9.834939e+01	-3.063859e+01	-6.524939e+00	-9.081110e+01	8.299585e+01	-4.826394e+01	1.932072e+01
3.293188e+06	-4.296347e+01	-9.835301e+01	-3.063833e+01	-6.515196e+00	-9.593678e+01	8.308577e+01	-4.825258e+01	1.945118e+01
3.293219e+06	-4.296836e+01	-9.835663e+01	-3.063807e+01	-6.505454e+00	-1.100993e+02	8.391420e+01	-4.824119e+01	1.958131e+01
3.293250e+06	-4.297325e+01	-9.836026e+01	-3.063781e+01	-6.495712e+00	-1.002528e+02	-9.744751e+01	-4.822977e+01	1.971109e+01
3.293282e+06	-4.297806e+01	-9.836344e+01	-3.063755e+01	-6.486215e+00	-9.301946e+01	-9.699611e+01	-4.821868e+01	1.983949e+01
3.293313e+06	-4.297798e+01	-9.833934e+01	-3.063760e+01	-6.491721e+00	-9.287917e+01	-8.053034e+01	-4.822955e+01	1.990313e+01
3.293344e+06	-4.297791e+01	-9.831523e+01	-3.063764e+01	-6.497227e+00	-9.211016e+01	-6.574076e+01	-4.824042e+01	1.996693e+01
3.293375e+06	-4.297783e+01	-9.829112e+01	-3.063769e+01	-6.502733e+00	-9.097765e+01	-5.390656e+01	-4.825130e+01	2.003089e+01
3.293406e+06	-4.297775e+01	-9.826702e+01	-3.063773e+01	-6.508239e+00	-8.972591e+01	-4.494036e+01	-4.826217e+01	2.009501e+01
3.293438e+06	-4.297767e+01	-9.824291e+01	-3.063778e+01	-6.513745e+00	-8.849149e+01	-3.821799e+01	-4.827305e+01	2.015930e+01
3.293469e+06	-4.297517e+01	-9.830541e+01	-3.063669e+01	-6.527747e+00	-9.041161e+01	-5.190961e+01	-4.826517e+01	2.007959e+01
3.293500e+06	-4.297263e+01	-9.836856e+01	-3.063559e+01	-6.541813e+00	-9.192384e+01	-7.275292e+01	-4.825713e+01	1.999887e+01
3.293532e+06	-4.297009e+01	-9.843168e+01	-3.063450e+01	-6.555876e+00	-9.206793e+01	-9.825632e+01	-4.824908e+01	1.991829e+01
3.293563e+06	-4.296753e+01	-9.849476e+01	-3.063340e+01	-6.569936e+00	-9.072263e+01	-1.202778e+02	-4.824102e+01	1.983787e+01
3.293594e+06	-4.296497e+01	-9.855781e+01	-3.063230e+01	-6.583992e+00	-8.879832e+01	-1.351897e+02	-4.823295e+01	1.975760e+01
3.293625e+06	-4.296547e+01	-9.853104e+01	-3.063280e+01	-6.573410e+00	-9.030548e+01	-1.516272e+02	-4.823207e+01	1.982039e+01
