# Hz S dB R 50.000
3.627969e+06	-4.389971e+01	-9.534712e+01	-3.079830e+01	-7.479493e+00	-1.053688e+02	8.044934e+01	-5.459262e+01	9.012613e+01
3.628000e+06	-4.389665e+01	-9.533342e+01	-3.079854e+01	-7.465178e+00	-1.038737e+02	4.862178e+01	-5.460258e+01	8.991889e+01
3.628032e+06	-4.389359e+01	-9.531972e+01	-3.079878e+01	-7.450862e+00	-1.012076e+02	2.955777e+01	-5.461243e+01	8.971118e+01
3.628063e+06	-4.389053e+01	-9.530604e+01	-3.079902e+01	-7.436545e+00	-9.875273e+01	1.912190e+01	-5.462218e+01	8.950301e+01
3.628094e+06	-4.388747e+01	-9.529237e+01	-3.079926e+01	-7.422228e+00	-9.670372e+01	1.293064e+01	-5.463182e+01	8.929436e+01
3.628125e+06	-4.388436e+01	-9.527872e+01	-3.079949e+01	-7.408077e+00	-9.501367e+01	8.965803e+00	-5.464154e+01	8.908780e+01
3.628156e+06	-4.387570e+01	-9.526689e+01	-3.079814e+01	-7.414756e+00	-9.612349e+01	1.182429e+01	-5.467324e+01	8.919672e+01
3.628188e+06	-4.386704e+01	-9.525510e+01	-3.079679e+01	-7.421433e+00	-9.736338e+01	1.557187e+01	-5.470503e+01	8.930644e+01
3.628219e+06	-4.385840e+01	-9.524332e+01	-3.079544e+01	-7.428108e+00	-9.875084e+01	2.064617e+01	-5.473690e+01	8.941696e+01
3.628250e+06	-4.384976e+01	-9.523157e+01	-3.079410e+01	-7.434780e+00	-1.002876e+02	2.776050e+01	-5.476885e+01	8.952831e+01
3.628282e+06	-4.384142e+01	-9.522135e+01	-3.079280e+01	-7.441456e+00	-1.019063e+02	3.761951e+01	-5.479998e+01	8.963857e+01
3.628313e+06	-4.385073e+01	-9.530394e+01	-3.079471e+01	-7.448456e+00	-1.026131e+02	2.275071e+01	-5.477480e+01	8.963209e+01
3.628344e+06	-4.386004e+01	-9.538670e+01	-3.079663e+01	-7.455460e+00	-1.026879e+02	6.444662e+00	-5.474969e+01	8.962565e+01
3.628375e+06	-4.386934e+01	-9.546964e+01	-3.079854e+01	-7.462466e+00	-1.020996e+02	-8.901503e+00	-5.472466e+01	8.961925e+01
3.628406e+06	-4.387863e+01	-9.555276e+01	-3.080045e+01	-7.469476e+00	-1.010665e+02	-2.158618e+01	-5.469970e+01	8.961289e+01
3.628438e+06	-4.388792e+01	-9.563606e+01	-3.080236e+01	-7.476489e+00	-9.984920e+01	-3.134298e+01	-5.467481e+01	8.960656e+01
3.628469e+06	-4.388533e+01	-9.562130e+01	-3.080083e+01	-7.462615e+00	-1.021700e+02	-3.536440e+01	-5.471496e+01	8.977146e+01
3.628500e+06	-4.388265e+01	-9.560576e+01	-3.079926e+01	-7.448578e+00	-1.052830e+02	-4.283921e+01	-5.475576e+01	8.993930e+01
3.628532e+06	-4.387997e+01	-9.559023e+01	-3.079769e+01	-7.434547e+00	-1.095733e+02	-6.060183e+01	-5.479667e+01	9.010872e+01
3.628563e+06	-4.387729e+01	-9.557471e+01	-3.079613e+01	-7.420520e+00	-1.131093e+02	-1.092912e+02	-5.483770e+01	9.027975e+01
3.628594e+06	-4.387461e+01	-9.555920e+01	-3.079456e+01	-7.406498e+00	-1.095109e+02	-1.575163e+02	-5.487885e+01	9.045241e+01
3.628625e+06	-4.388026e+01	-9.548912e+01	-3.079396e+01	-7.414133e+00	-1.073912e+02	-1.737697e+02	-5.484798e+01	9.054207e+01
3.628656e+06	-4.388591e+01	-9.541896e+01	-3.079335e+01	-7.421768e+00	-1.053358e+02	1.762638e+02	-5.481719e+01	9.063110e+01
3.628688e+06	-4.389154e+01	-9.534870e+01	-3.079275e+01	-7.429401e+00	-1.035361e+02	1.698887e+02	-5.478650e+01	9.071950e+01
3.628719e+06	-4.389717e+01	-9.527835e+01	-3.079215e+01	-7.437033e+00	-1.019844e+02	1.655592e+02	-5.475589e+01	9.080727e+01
3.628750e+06	-4.390269e+01	-9.520892e+01	-3.079157e+01	-7.444545e+00	-1.006636e+02	1.622906e+02	-5.472586e+01	9.089146e+01
3.628782e+06	-4.389605e+01	-9.526485e+01	-3.079410e+01	-7.437347e+00	-1.017687e+02	1.341287e+02	-5.475667e+01	9.060492e+01
3.628813e+06	-4.388941e+01	-9.532071e+01	-3.079664e+01	-7.430144e+00	-1.006803e+02	1.059077e+02	-5.478737e+01	9.031636e+01
3.628844e+06	-4.388276e+01	-9.537647e+01	-3.079917e+01	-7.422938e+00	-9.845598e+01	8.706750e+01	-5.481796e+01	9.002575e+01
3.628875e+06	-4.387611e+01	-9.543215e+01	-3.080171e+01	-7.415727e+00	-9.623200e+01	7.591007e+01	-5.484843e+01	8.973309e+01
3.628906e+06	-4.386967e+01	-9.548617e+01	-3.080419e+01	-7.408582e+00	-9.437278e+01	6.906306e+01	-5.487772e+01	8.944476e+01
3.628938e+06	-4.387595e+01	-9.544303e+01	-3.080372e+01	-7.405789e+00	-9.795550e+01	6.430149e+01	-5.484245e+01	8.954820e+01
3.628969e+06	-4.388223e+01	-9.539982e+01	-3.080325e+01	-7.402996e+00	-1.037989e+02	5.007735e+01	-5.480730e+01	8.965081e+01
3.629000e+06	-4.388851e+01	-9.535655e+01	-3.080278e+01	-7.400203e+00	-1.099618e+02	-2.813689e+01	-5.477225e+01	8.975259e+01
3.629032e+06	-4.389479e+01	-9.531322e+01	-3.080231e+01	-7.397411e+00	-1.018513e+02	-7.960699e+01	-5.473732e+01	8.985356e+01
3.629063e+06	-4.390107e+01	-9.526983e+01	-3.080184e+01	-7.394618e+00	-9.683369e+01	-8.954415e+01	-5.470251e+01	8.995371e+01
3.629094e+06	-4.389595e+01	-9.526221e+01	-3.080266e+01	-7.402417e+00	-1.012301e+02	-1.074185e+02	-5.467631e+01	8.989219e+01
3.629125e+06	-4.389074e+01	-9.525488e+01	-3.080348e+01	-7.410302e+00	-1.048702e+02	-1.588058e+02	-5.465024e+01	8.982974e+01
3.629156e+06	-4.388553e+01	-9.524757e+01	-3.080430e+01	-7.418189e+00	-1.008623e+02	1.526920e+02	-5.462425e+01	8.976766e+01
3.629188e+06	-4.388032e+01	-9.524026e+01	-3.080513e+01	-7.426078e+00	-9.650599e+01	1.360774e+02	-5.459832e+01	8.970595e+01
3.629219e+06	-4.387512e+01	-9.523296e+01	-3.080595e+01	-7.433968e+00	-9.339803e+01	1.291233e+02	-5.457246e+01	8.964461e+01
3.629250e+06	-4.388012e+01	-9.524491e+01	-3.080607e+01	-7.439580e+00	-9.764369e+01	1.473126e+02	-5.458187e+01	8.967506e+01
3.629282e+06	-4.388512e+01	-9.525688e+01	-3.080619e+01	-7.445193e+00	-1.009925e+02	-1.642408e+02	-5.459128e+01	8.970557e+01
3.629313e+06	-4.389012e+01	-9.526886e+01	-3.080632e+01	-7.450806e+00	-9.745004e+01	-1.172001e+02	-5.460071e+01	8.973615e+01
3.629344e+06	-4.389512e+01	-9.528085e+01	-3.080644e+01	-7.456419e+00	-9.325152e+01	-9.973234e+01	-5.461014e+01	8.976679e+01
3.629375e+06	-4.390005e+01	-9.529237e+01	-3.080656e+01	-7.461885e+00	-9.022196e+01	-9.233902e+01	-5.461958e+01	8.979723e+01
3.629406e+06	-4.389561e+01	-9.524397e+01	-3.080686e+01	-7.449178e+00	-9.285603e+01	-9.829155e+01	-5.462977e+01	8.979289e+01
3.629438e+06	-4.389116e+01	-9.519563e+01	-3.080715e+01	-7.436470e+00	-9.636093e+01	-1.104289e+02	-5.463996e+01	8.978854e+01
3.629469e+06	-4.388671e+01	-9.514733e+01	-3.080745e+01	-7.423761e+00	-1.004862e+02	-1.408346e+02	-5.465017e+01	8.978418e+01
3.629500e+06	-4.388225e+01	-9.509908e+01	-3.080774e+01	-7.411051e+00	-1.003229e+02	1.661650e+02	-5.466039e+01	8.977981e+01
3.629532e+06	-4.387784e+01	-9.505232e+01	-3.080803e+01	-7.398558e+00	-9.628369e+01	1.371930e+02	-5.467010e+01	8.977923e+01
3.629563e+06	-4.387675e+01	-9.509443e+01	-3.080808e+01	-7.399452e+00	-9.961926e+01	1.211027e+02	-5.464753e+01	9.001176e+01
3.629594e+06	-4.387565e+01	-9.513653e+01	-3.080814e+01	-7.400345e+00	-1.025190e+02	8.647946e+01	-5.462487e+01	9.024309e+01
3.629625e+06	-4.387455e+01	-9.517862e+01	-3.080819e+01	-7.401238e+00	-1.012043e+02	4.348555e+01	-5.460213e+01	9.047321e+01
3.629656e+06	-4.387345e+01	-9.522070e+01	-3.080825e+01	-7.402132e+00	-9.773281e+01	2.034244e+01	-5.457932e+01	9.070212e+01
3.629688e+06	-4.387234e+01	-9.526276e+01	-3.080830e+01	-7.403025e+00	-9.475893e+01	9.556730e+00	-5.455642e+01	9.092983e+01
3.629719e+06	-4.387323e+01	-9.524662e+01	-3.080548e+01	-7.393657e+00	-9.628430e+01	9.931528e+00	-5.457923e+01	9.077672e+01
3.629750e+06	-4.387414e+01	-9.523001e+01	-3.080263e+01	-7.384212e+00	-9.818295e+01	1.058434e+01	-5.460239e+01	9.061971e+01
3.629782e+06	-4.387504e+01	-9.521339e+01	-3.079979e+01	-7.374774e+00	-1.006137e+02	1.165903e+01	-5.462556e+01	9.046186e+01
3.629813e+06	-4.387595e+01	-9.519677e+01	-3.079694e+01	-7.365342e+00	-1.039924e+02	1.375710e+01	-5.464872e+01	9.030317e+01
3.629844e+06	-4.387685e+01	-9.518014e+01	-3.079410e+01	-7.355916e+00	-1.095350e+02	1.962588e+01	-5.467187e+01	9.014363e+01
3.629875e+06	-4.388018e+01	-9.516579e+01	-3.079390e+01	-7.349103e+00	-1.041802e+02	3.793622e+01	-5.467054e+01	9.017250e+01
3.629906e+06	-4.388351e+01	-9.515144e+01	-3.079369e+01	-7.342291e+00	-1.006750e+02	4.444069e+01	-5.466921e+01	9.020136e+01
3.629938e+06	-4.388684e+01	-9.513707e+01	-3.079349e+01	-7.335479e+00	-9.814265e+01	4.768133e+01	-5.466788e+01	9.023022e+01
3.629969e+06	-4.389017e+01	-9.512269e+01	-3.079328e+01	-7.328667e+00	-9.617116e+01	4.961015e+01	-5.466655e+01	9.025906e+01
3.630000e+06	-4.389349e+01	-9.510879e+01	-3.079309e+01	-7.322064e+00	-9.457990e+01	5.092401e+01	-5.466486e+01	9.028679e+01
3.630032e+06	-4.389631e+01	-9.515476e+01	-3.079490e+01	-7.341307e+00	-9.560264e+01	5.735488e+01	-5.462035e+01	9.017731e+01
3.630063e+06	-4.389913e+01	-9.520075e+01	-3.079670e+01	-7.360557e+00	-9.660438e+01	6.548392e+01	-5.457604e+01	9.006893e+01
3.630094e+06	-4.390194e+01	-9.524678e+01	-3.079850e+01	-7.379816e+00	-9.748982e+01	7.560440e+01	-5.453192e+01	8.996166e+01
3.630125e+06	-4.390474e+01	-9.529284e+01	-3.080030e+01	-7.399083e+00	-9.811563e+01	8.767475e+01	-5.448800e+01	8.985547e+01
3.630156e+06	-4.390741e+01	-9.533843e+01	-3.080203e+01	-7.417860e+00	-9.834718e+01	1.003286e+02	-5.444520e+01	8.975504e+01
3.630188e+06	-4.390196e+01	-9.535351e+01	-3.079980e+01	-7.406039e+00	-9.811343e+01	7.160589e+01	-5.446038e+01	8.994387e+01
3.630219e+06	-4.389650e+01	-9.536858e+01	-3.079756e+01	-7.394225e+00	-9.625824e+01	4.940585e+01	-5.447548e+01	9.013336e+01
3.630250e+06	-4.389105e+01	-9.538363e+01	-3.079533e+01	-7.382417e+00	-9.405424e+01	3.570910e+01	-5.449052e+01	9.032351e+01
3.630282e+06	-4.388561e+01	-9.539865e+01	-3.079309e+01	-7.370614e+00	-9.204929e+01	2.732267e+01	-5.450549e+01	9.051432e+01
3.630313e+06	-4.388016e+01	-9.541366e+01	-3.079086e+01	-7.358818e+00	-9.032124e+01	2.187728e+01	-5.452038e+01	9.070579e+01
3.630344e+06	-4.388026e+01	-9.541283e+01	-3.079211e+01	-7.352898e+00	-9.201156e+01	2.211959e+01	-5.451484e+01	9.067167e+01
3.630375e+06	-4.388040e+01	-9.541187e+01	-3.079340e+01	-7.347023e+00	-9.415110e+01	2.255563e+01	-5.450914e+01	9.063578e+01
3.630406e+06	-4.388054e+01	-9.541091e+01	-3.079468e+01	-7.341146e+00	-9.699494e+01	2.332957e+01	-5.450344e+01	9.059994e+01
3.630438e+06	-4.388068e+01	-9.540995e+01	-3.079597e+01	-7.335268e+00	-1.012451e+02	2.508128e+01	-5.449774e+01	9.056415e+01
3.630469e+06	-4.388082e+01	-9.540899e+01	-3.079725e+01	-7.329388e+00	-1.098131e+02	3.276558e+01	-5.449204e+01	9.052840e+01
3.630500e+06	-4.388400e+01	-9.533474e+01	-3.079826e+01	-7.350133e+00	-1.052956e+02	6.122795e+00	-5.452513e+01	9.041158e+01
3.630532e+06	-4.388716e+01	-9.526043e+01	-3.079927e+01	-7.370882e+00	-1.018164e+02	-4.164830e+00	-5.455830e+01	9.029386e+01
3.630563e+06	-4.389031e+01	-9.518607e+01	-3.080028e+01	-7.391637e+00	-9.923453e+01	-9.264001e+00	-5.459157e+01	9.017524e+01
3.630594e+06	-4.389344e+01	-9.511165e+01	-3.080129e+01	-7.412396e+00	-9.721465e+01	-1.226342e+01	-5.462492e+01	9.005570e+01
3.630625e+06	-4.389659e+01	-9.503819e+01	-3.080228e+01	-7.432958e+00	-9.558578e+01	-1.418832e+01	-5.465779e+01	8.993811e+01
3.630656e+06	-4.390273e+01	-9.509000e+01	-3.080155e+01	-7.428402e+00	-9.686214e+01	-1.023336e+01	-5.461887e+01	9.017486e+01
3.630688e+06	-4.390887e+01	-9.514189e+01	-3.080081e+01	-7.423846e+00	-9.829178e+01	-4.829041e+00	-5.457998e+01	9.040950e+01
3.630719e+06	-4.391500e+01	-9.519384e+01	-3.080008e+01	-7.419292e+00	-9.987103e+01	2.823991e+00	-5.454112e+01	9.064204e+01
3.630750e+06	-4.392113e+01	-9.524587e+01	-3.079934e+01	-7.414738e+00	-1.015224e+02	1.396206e+01	-5.450229e+01	9.087251e+01
3.630782e+06	-4.392698e+01	-9.529688e+01	-3.079861e+01	-7.410353e+00	-1.030206e+02	2.968821e+01	-5.446441e+01	9.109384e+01
3.630813e+06	-4.391587e+01	-9.528059e+01	-3.079799e+01	-7.416266e+00	-1.088106e+02	2.960123e+01	-5.448257e+01	9.087716e+01
3.630844e+06	-4.390478e+01	-9.526435e+01	-3.079738e+01	-7.422179e+00	-1.344110e+02	2.637128e+01	-5.450063e+01	9.065958e+01
3.630875e+06	-4.389370e+01	-9.524814e+01	-3.079676e+01	-7.428091e+00	-1.097719e+02	-1.500203e+02	-5.451861e+01	9.044109e+01
3.630906e+06	-4.388263e+01	-9.523198e+01	-3.079614e+01	-7.434002e+00	-1.035008e+02	-1.501230e+02	-5.453650e+01	9.022169e+01
3.630938e+06	-4.387158e+01	-9.521586e+01	-3.079552e+01	-7.439913e+00	-9.989712e+01	-1.501559e+02	-5.455430e+01	9.000140e+01
3.630969e+06	-4.386862e+01	-9.526380e+01	-3.079485e+01	-7.435439e+00	-9.773360e+01	-1.686750e+02	-5.459537e+01	9.023867e+01
3.631000e+06	-4.386572e+01	-9.531222e+01	-3.079418e+01	-7.430883e+00	-9.555200e+01	-1.799008e+02	-5.463667e+01	9.048192e+01
3.631032e+06	-4.386281e+01	-9.536061e+01	-3.079351e+01	-7.426327e+00	-9.364007e+01	1.731195e+02	-5.467801e+01	9.072750e+01
3.631063e+06	-4.385991e+01	-9.540897e+01	-3.079284e+01	-7.421771e+00	-9.200256e+01	1.684876e+02	-5.471939e+01	9.097543e+01
3.631094e+06	-4.385699e+01	-9.545729e+01	-3.079217e+01	-7.417217e+00	-9.059126e+01	1.652286e+02	-5.476080e+01	9.122574e+01
3.631125e+06	-4.385837e+01	-9.545410e+01	-3.079441e+01	-7.419865e+00	-9.140603e+01	1.589060e+02	-5.472814e+01	9.101625e+01
3.631156e+06	-4.385974e+01	-9.545091e+01	-3.079665e+01	-7.422515e+00	-9.216475e+01	1.513210e+02	-5.469549e+01	9.080833e+01
3.631188e+06	-4.386112e+01	-9.544771e+01	-3.079889e+01	-7.425165e+00	-9.279978e+01	1.424058e+02	-5.466285e+01	9.060197e+01
3.631219e+06	-4.386249e+01	-9.544452e+01	-3.080113e+01	-7.427818e+00	-9.322829e+01	1.323179e+02	-5.463023e+01	9.039715e+01
3.631250e+06	-4.386397e+01	-9.544101e+01	-3.080334e+01	-7.430363e+00	-9.337595e+01	1.216501e+02	-5.459794e+01	9.019578e+01
3.631282e+06	-4.387727e+01	-9.539854e+01	-3.080260e+01	-7.419477e+00	-9.324112e+01	1.258055e+02	-5.460675e+01	9.023179e+01
3.631313e+06	-4.389059e+01	-9.535594e+01	-3.080185e+01	-7.408593e+00	-9.306497e+01	1.298145e+02	-5.461557e+01	9.026787e+01
3.631344e+06	-4.390393e+01	-9.531320e+01	-3.080111e+01	-7.397711e+00	-9.285246e+01	1.336478e+02	-5.462439e+01	9.030403e+01
3.631375e+06	-4.391728e+01	-9.527034e+01	-3.080036e+01	-7.386830e+00	-9.260903e+01	1.372848e+02	-5.463322e+01	9.034026e+01
3.631406e+06	-4.393020e+01	-9.522913e+01	-3.079962e+01	-7.376451e+00	-9.236781e+01	1.403130e+02	-5.464191e+01	9.037642e+01
3.631438e+06	-4.391587e+01	-9.529781e+01	-3.079890e+01	-7.396736e+00	-9.312741e+01	1.158435e+02	-5.464222e+01	9.040424e+01
3.631469e+06	-4.390154e+01	-9.536627e+01	-3.079818e+01	-7.417018e+00	-9.227208e+01	9.165951e+01	-5.464252e+01	9.043205e+01
3.631500e+06	-4.388723e+01	-9.543450e+01	-3.079746e+01	-7.437297e+00	-9.046941e+01	7.410157e+01	-5.464282e+01	9.045987e+01
3.631532e+06	-4.387293e+01	-9.550251e+01	-3.079674e+01	-7.457573e+00	-8.853429e+01	6.278822e+01	-5.464311e+01	9.048769e+01
3.631563e+06	-4.385864e+01	-9.557029e+01	-3.079602e+01	-7.477845e+00	-8.676898e+01	5.542717e+01	-5.464341e+01	9.051551e+01
3.631594e+06	-4.386248e+01	-9.555019e+01	-3.079456e+01	-7.469568e+00	-8.903271e+01	6.078484e+01	-5.463397e+01	9.055163e+01
3.631625e+06	-4.386646e+01	-9.552936e+01	-3.079310e+01	-7.461063e+00	-9.195345e+01	7.073319e+01	-5.462446e+01	9.058774e+01
3.631656e+06	-4.387044e+01	-9.550852e+01	-3.079164e+01	-7.452561e+00	-9.547438e+01	9.199826e+01	-5.461496e+01	9.062377e+01
3.631688e+06	-4.387442e+01	-9.548765e+01	-3.079018e+01	-7.444062e+00	-9.728791e+01	1.340862e+02	-5.460546e+01	9.065973e+01
3.631719e+06	-4.387840e+01	-9.546677e+01	-3.078872e+01	-7.435566e+00	-9.459143e+01	1.713499e+02	-5.459597e+01	9.069560e+01
3.631750e+06	-4.387908e+01	-9.552739e+01	-3.078988e+01	-7.428571e+00	-9.702893e+01	1.683551e+02	-5.458519e+01	9.069387e+01
3.631782e+06	-4.387975e+01	-9.558802e+01	-3.079104e+01	-7.421574e+00	-1.003613e+02	1.625287e+02	-5.457443e+01	9.069215e+01
3.631813e+06	-4.388041e+01	-9.564867e+01	-3.079219e+01	-7.414576e+00	-1.053956e+02	1.471027e+02	-5.456368e+01	9.069043e+01
3.631844e+06	-4.388106e+01	-9.570932e+01	-3.079335e+01	-7.407575e+00	-1.105762e+02	8.753702e+01	-5.455294e+01	9.068871e+01
3.631875e+06	-4.388163e+01	-9.576850e+01	-3.079452e+01	-7.400571e+00	-1.050471e+02	3.253258e+01	-5.454258e+01	9.068628e+01
3.631906e+06	-4.387459e+01	-9.564544e+01	-3.079671e+01	-7.393316e+00	-1.050742e+02	5.673958e+01	-5.457724e+01	9.059528e+01
3.631938e+06	-4.386752e+01	-9.552257e+01	-3.079890e+01	-7.386058e+00	-1.037819e+02	7.749961e+01	-5.461202e+01	9.050355e+01
3.631969e+06	-4.386041e+01	-9.539990e+01	-3.080109e+01	-7.378796e+00	-1.019651e+02	9.184723e+01	-5.464692e+01	9.041108e+01
3.632000e+06	-4.385326e+01	-9.527744e+01	-3.080328e+01	-7.371531e+00	-1.001630e+02	1.012497e+02	-5.468194e+01	9.031786e+01
3.632032e+06	-4.384620e+01	-9.515820e+01	-3.080539e+01	-7.364528e+00	-9.849890e+01	1.072785e+02	-5.471612e+01	9.022977e+01
3.632063e+06	-4.384631e+01	-9.522483e+01	-3.080211e+01	-7.373878e+00	-9.509834e+01	9.847007e+01	-5.469197e+01	9.050263e+01
3.632094e+06	-4.384641e+01	-9.529146e+01	-3.079884e+01	-7.383221e+00	-9.258253e+01	9.402576e+01	-5.466770e+01	9.077398e+01
3.632125e+06	-4.384650e+01	-9.535809e+01	-3.079556e+01	-7.392558e+00	-9.060923e+01	9.137684e+01	-5.464329e+01	9.104381e+01
3.632156e+06	-4.384658e+01	-9.542473e+01	-3.079229e+01	-7.401887e+00	-8.899209e+01	8.962515e+01	-5.461876e+01	9.131212e+01
3.632188e+06	-4.384664e+01	-9.549137e+01	-3.078902e+01	-7.411209e+00	-8.762436e+01	8.838298e+01	-5.459412e+01	9.157892e+01
3.632219e+06	-4.385245e+01	-9.544810e+01	-3.078947e+01	-7.405744e+00	-8.838961e+01	9.107198e+01	-5.462004e+01	9.117313e+01
3.632250e+06	-4.385830e+01	-9.540389e+01	-3.078996e+01	-7.400159e+00	-8.922240e+01	9.434485e+01	-5.464600e+01	9.075945e+01
3.632282e+06	-4.386415e+01	-9.535962e+01	-3.079044e+01	-7.394573e+00	-9.010519e+01	9.833348e+01	-5.467158e+01	9.034331e+01
3.632313e+06	-4.386999e+01	-9.531529e+01	-3.079093e+01	-7.388986e+00	-9.102995e+01	1.032469e+02	-5.469678e+01	8.992473e+01
3.632344e+06	-4.387584e+01	-9.527090e+01	-3.079141e+01	-7.383399e+00	-9.197583e+01	1.093451e+02	-5.472158e+01	8.950373e+01
3.632375e+06	-4.388160e+01	-9.528306e+01	-3.079180e+01	-7.388313e+00	-9.289025e+01	1.036132e+02	-5.471710e+01	8.960902e+01
3.632406e+06	-4.388737e+01	-9.529523e+01	-3.079218e+01	-7.393227e+00	-9.379197e+01	9.654215e+01	-5.471259e+01	8.971421e+01
3.632438e+06	-4.389314e+01	-9.530742e+01	-3.079257e+01	-7.398141e+00	-9.461728e+01	8.790483e+01	-5.470805e+01	8.981929e+01
3.632469e+06	-4.389891e+01	-9.531963e+01	-3.079296e+01	-7.403056e+00	-9.526995e+01	7.764942e+01	-5.470348e+01	8.992425e+01
3.632500e+06	-4.390459e+01	-9.533155e+01	-3.079333e+01	-7.407868e+00	-9.561641e+01	6.608941e+01	-5.469886e+01	9.002741e+01
3.632532e+06	-4.389893e+01	-9.530672e+01	-3.079182e+01	-7.399834e+00	-9.335171e+01	5.585305e+01	-5.469013e+01	8.992026e+01
3.632563e+06	-4.389327e+01	-9.528191e+01	-3.079030e+01	-7.391804e+00	-9.141835e+01	4.956085e+01	-5.468138e+01	8.981333e+01
3.632594e+06	-4.388762e+01	-9.525714e+01	-3.078879e+01	-7.383776e+00	-8.978012e+01	4.539472e+01	-5.467261e+01	8.970661e+01
3.632625e+06	-4.388196e+01	-9.523240e+01	-3.078728e+01	-7.375751e+00	-8.837481e+01	4.246138e+01	-5.466381e+01	8.960011e+01
3.632656e+06	-4.387648e+01	-9.520865e+01	-3.078581e+01	-7.368095e+00	-8.720439e+01	4.027932e+01	-5.465527e+01	8.950146e+01
3.632688e+06	-4.388132e+01	-9.524379e+01	-3.078737e+01	-7.383001e+00	-8.972284e+01	3.646460e+01	-5.466340e+01	8.987278e+01
3.632719e+06	-4.388616e+01	-9.527896e+01	-3.078892e+01	-7.397912e+00	-9.316891e+01	2.886764e+01	-5.467118e+01	9.024479e+01
3.632750e+06	-4.389101e+01	-9.531417e+01	-3.079047e+01	-7.412828e+00	-9.818026e+01	8.377999e+00	-5.467859e+01	9.061744e+01
3.632782e+06	-4.389585e+01	-9.534943e+01	-3.079202e+01	-7.427749e+00	-1.012016e+02	-5.357605e+01	-5.468564e+01	9.099072e+01
3.632813e+06	-4.390069e+01	-9.538472e+01	-3.079357e+01	-7.442676e+00	-9.596157e+01	-9.670328e+01	-5.469233e+01	9.136459e+01
3.632844e+06	-4.389574e+01	-9.533602e+01	-3.079050e+01	-7.435820e+00	-9.960669e+01	-9.510829e+01	-5.467278e+01	9.103215e+01
3.632875e+06	-4.389071e+01	-9.528670e+01	-3.078740e+01	-7.428794e+00	-1.061627e+02	-8.931145e+01	-5.465276e+01	9.069556e+01
3.632906e+06	-4.388568e+01	-9.523743e+01	-3.078429e+01	-7.421772e+00	-1.184042e+02	2.911420e+01	-5.463249e+01	9.036052e+01
3.632938e+06	-4.388064e+01	-9.518823e+01	-3.078119e+01	-7.414756e+00	-1.038483e+02	7.146935e+01	-5.461198e+01	9.002706e+01
3.632969e+06	-4.387560e+01	-9.513908e+01	-3.077809e+01	-7.407745e+00	-9.843025e+01	7.534404e+01	-5.459122e+01	8.969517e+01
3.633000e+06	-4.388108e+01	-9.516548e+01	-3.077921e+01	-7.393973e+00	-9.888041e+01	1.037380e+02	-5.462293e+01	8.988951e+01
