# Hz S dB R 50.000
3.626406e+06	-4.465660e+01	-9.575059e+01	-3.076744e+01	-7.769113e+00	-9.609114e+01	1.652413e+02	-5.316080e+01	1.069674e+02
3.626437e+06	-4.465573e+01	-9.573786e+01	-3.076820e+01	-7.781739e+00	-9.896849e+01	1.539287e+02	-5.314659e+01	1.070818e+02
3.626468e+06	-4.465487e+01	-9.572513e+01	-3.076895e+01	-7.794367e+00	-1.021832e+02	1.306274e+02	-5.313237e+01	1.071958e+02
3.626500e+06	-4.465400e+01	-9.571241e+01	-3.076971e+01	-7.806998e+00	-1.032779e+02	9.011105e+01	-5.311814e+01	1.073095e+02
3.626531e+06	-4.465313e+01	-9.569969e+01	-3.077047e+01	-7.819631e+00	-1.006360e+02	5.717783e+01	-5.310390e+01	1.074228e+02
3.626562e+06	-4.465226e+01	-9.568697e+01	-3.077122e+01	-7.832266e+00	-9.748153e+01	4.098095e+01	-5.308964e+01	1.075357e+02
3.626594e+06	-4.465459e+01	-9.571576e+01	-3.077177e+01	-7.828372e+00	-9.574653e+01	2.592973e+01	-5.312746e+01	1.074816e+02
3.626625e+06	-4.465700e+01	-9.574559e+01	-3.077231e+01	-7.824072e+00	-9.397686e+01	1.578885e+01	-5.316672e+01	1.074228e+02
3.626656e+06	-4.465940e+01	-9.577544e+01	-3.077285e+01	-7.819771e+00	-9.235242e+01	8.947651e+00	-5.320615e+01	1.073636e+02
3.626687e+06	-4.466180e+01	-9.580531e+01	-3.077339e+01	-7.815469e+00	-9.091021e+01	4.147272e+00	-5.324575e+01	1.073037e+02
3.626718e+06	-4.466420e+01	-9.583519e+01	-3.077393e+01	-7.811167e+00	-8.963506e+01	6.383708e-01	-5.328552e+01	1.072434e+02
3.626750e+06	-4.464968e+01	-9.584007e+01	-3.077542e+01	-7.811664e+00	-9.043248e+01	4.984678e+00	-5.327862e+01	1.072536e+02
3.626781e+06	-4.463491e+01	-9.584453e+01	-3.077693e+01	-7.812239e+00	-9.127893e+01	1.039597e+01	-5.327097e+01	1.072649e+02
3.626812e+06	-4.462016e+01	-9.584897e+01	-3.077844e+01	-7.812814e+00	-9.211221e+01	1.696641e+01	-5.326332e+01	1.072762e+02
3.626844e+06	-4.460544e+01	-9.585339e+01	-3.077995e+01	-7.813390e+00	-9.288143e+01	2.487588e+01	-5.325568e+01	1.072875e+02
3.626875e+06	-4.459075e+01	-9.585780e+01	-3.078146e+01	-7.813965e+00	-9.351151e+01	3.417930e+01	-5.324804e+01	1.072988e+02
3.626906e+06	-4.458575e+01	-9.585360e+01	-3.078103e+01	-7.824850e+00	-9.606436e+01	2.747556e+01	-5.325186e+01	1.072239e+02
3.626937e+06	-4.458084e+01	-9.584933e+01	-3.078059e+01	-7.835817e+00	-9.935576e+01	1.398769e+01	-5.325576e+01	1.071483e+02
3.626968e+06	-4.457593e+01	-9.584507e+01	-3.078014e+01	-7.846782e+00	-1.028047e+02	-1.646195e+01	-5.325965e+01	1.070726e+02
3.627000e+06	-4.457102e+01	-9.584081e+01	-3.077970e+01	-7.857747e+00	-1.024571e+02	-6.286854e+01	-5.326352e+01	1.069968e+02
3.627031e+06	-4.456611e+01	-9.583655e+01	-3.077925e+01	-7.868710e+00	-9.889089e+01	-9.035424e+01	-5.326738e+01	1.069210e+02
3.627062e+06	-4.458178e+01	-9.580770e+01	-3.078064e+01	-7.860012e+00	-9.950459e+01	-5.960093e+01	-5.327867e+01	1.069841e+02
3.627094e+06	-4.459748e+01	-9.577874e+01	-3.078202e+01	-7.851312e+00	-9.785329e+01	-3.261535e+01	-5.328996e+01	1.070474e+02
3.627125e+06	-4.461321e+01	-9.574968e+01	-3.078341e+01	-7.842608e+00	-9.545690e+01	-1.607205e+01	-5.330126e+01	1.071109e+02
3.627156e+06	-4.462896e+01	-9.572052e+01	-3.078480e+01	-7.833902e+00	-9.324014e+01	-6.434579e+00	-5.331256e+01	1.071745e+02
3.627187e+06	-4.464474e+01	-9.569124e+01	-3.078619e+01	-7.825193e+00	-9.135093e+01	-4.448657e-01	-5.332387e+01	1.072383e+02
3.627218e+06	-4.464974e+01	-9.571765e+01	-3.078539e+01	-7.832970e+00	-9.291592e+01	-5.492017e+00	-5.333074e+01	1.072080e+02
3.627250e+06	-4.465446e+01	-9.574546e+01	-3.078454e+01	-7.841150e+00	-9.480526e+01	-1.341639e+01	-5.333750e+01	1.071753e+02
3.627281e+06	-4.465919e+01	-9.577330e+01	-3.078369e+01	-7.849329e+00	-9.687754e+01	-2.598094e+01	-5.334426e+01	1.071426e+02
3.627312e+06	-4.466392e+01	-9.580116e+01	-3.078284e+01	-7.857506e+00	-9.871303e+01	-4.592698e+01	-5.335103e+01	1.071098e+02
3.627344e+06	-4.466865e+01	-9.582906e+01	-3.078199e+01	-7.865682e+00	-9.926248e+01	-7.260171e+01	-5.335780e+01	1.070770e+02
3.627375e+06	-4.465908e+01	-9.578524e+01	-3.078425e+01	-7.854044e+00	-9.881599e+01	-4.804910e+01	-5.334368e+01	1.071549e+02
3.627406e+06	-4.464928e+01	-9.574035e+01	-3.078656e+01	-7.842077e+00	-9.715003e+01	-2.835982e+01	-5.332923e+01	1.072342e+02
3.627437e+06	-4.463949e+01	-9.569557e+01	-3.078887e+01	-7.830104e+00	-9.518394e+01	-1.554618e+01	-5.331479e+01	1.073133e+02
3.627468e+06	-4.462970e+01	-9.565088e+01	-3.079118e+01	-7.818124e+00	-9.334955e+01	-7.313957e+00	-5.330035e+01	1.073922e+02
3.627500e+06	-4.461992e+01	-9.560630e+01	-3.079349e+01	-7.806138e+00	-9.173473e+01	-1.790205e+00	-5.328593e+01	1.074708e+02
3.627531e+06	-4.462000e+01	-9.562532e+01	-3.079181e+01	-7.812563e+00	-9.180133e+01	1.082537e+01	-5.326617e+01	1.075004e+02
3.627562e+06	-4.462016e+01	-9.564485e+01	-3.079009e+01	-7.819134e+00	-9.146786e+01	2.313500e+01	-5.324641e+01	1.075294e+02
3.627594e+06	-4.462032e+01	-9.566439e+01	-3.078837e+01	-7.825703e+00	-9.080369e+01	3.409139e+01	-5.322669e+01	1.075583e+02
3.627625e+06	-4.462048e+01	-9.568392e+01	-3.078666e+01	-7.832269e+00	-8.993941e+01	4.326311e+01	-5.320701e+01	1.075871e+02
3.627656e+06	-4.462064e+01	-9.570346e+01	-3.078494e+01	-7.838832e+00	-8.898878e+01	5.069445e+01	-5.318738e+01	1.076158e+02
3.627687e+06	-4.462634e+01	-9.568716e+01	-3.078642e+01	-7.840201e+00	-9.062993e+01	5.591206e+01	-5.318047e+01	1.075718e+02
3.627718e+06	-4.463205e+01	-9.567083e+01	-3.078790e+01	-7.841571e+00	-9.251869e+01	6.375945e+01	-5.317356e+01	1.075278e+02
3.627750e+06	-4.463776e+01	-9.565449e+01	-3.078938e+01	-7.842941e+00	-9.459653e+01	7.620802e+01	-5.316665e+01	1.074839e+02
3.627781e+06	-4.464347e+01	-9.563812e+01	-3.079086e+01	-7.844312e+00	-9.645420e+01	9.603109e+01	-5.315974e+01	1.074401e+02
3.627812e+06	-4.464918e+01	-9.562173e+01	-3.079234e+01	-7.845683e+00	-9.704165e+01	1.227345e+02	-5.315284e+01	1.073963e+02
3.627844e+06	-4.464263e+01	-9.562911e+01	-3.079347e+01	-7.837187e+00	-9.843733e+01	1.053008e+02	-5.316543e+01	1.072207e+02
3.627875e+06	-4.463577e+01	-9.563706e+01	-3.079459e+01	-7.828446e+00	-9.882941e+01	8.226041e+01	-5.317844e+01	1.070413e+02
3.627906e+06	-4.462893e+01	-9.564499e+01	-3.079571e+01	-7.819702e+00	-9.788261e+01	6.071948e+01	-5.319139e+01	1.068614e+02
3.627937e+06	-4.462209e+01	-9.565291e+01	-3.079683e+01	-7.810957e+00	-9.621612e+01	4.495002e+01	-5.320427e+01	1.066809e+02
3.627968e+06	-4.461525e+01	-9.566082e+01	-3.079795e+01	-7.802209e+00	-9.444392e+01	3.441008e+01	-5.321708e+01	1.064999e+02
3.628000e+06	-4.461232e+01	-9.566953e+01	-3.079641e+01	-7.820635e+00	-9.484122e+01	2.278377e+01	-5.321418e+01	1.065484e+02
3.628031e+06	-4.460945e+01	-9.567824e+01	-3.079483e+01	-7.839497e+00	-9.489824e+01	1.042786e+01	-5.321102e+01	1.066005e+02
3.628062e+06	-4.460659e+01	-9.568694e+01	-3.079324e+01	-7.858351e+00	-9.456348e+01	-1.533354e+00	-5.320785e+01	1.066527e+02
3.628094e+06	-4.460373e+01	-9.569564e+01	-3.079166e+01	-7.877199e+00	-9.391662e+01	-1.220046e+01	-5.320468e+01	1.067047e+02
3.628125e+06	-4.460086e+01	-9.570433e+01	-3.079007e+01	-7.896039e+00	-9.307856e+01	-2.117613e+01	-5.320151e+01	1.067568e+02
3.628156e+06	-4.460548e+01	-9.567600e+01	-3.079074e+01	-7.896073e+00	-9.547172e+01	-6.509746e+00	-5.321066e+01	1.069012e+02
3.628187e+06	-4.461016e+01	-9.564735e+01	-3.079142e+01	-7.895956e+00	-9.743270e+01	1.854739e+01	-5.321987e+01	1.070467e+02
3.628218e+06	-4.461483e+01	-9.561866e+01	-3.079211e+01	-7.895838e+00	-9.730689e+01	5.009185e+01	-5.322903e+01	1.071926e+02
3.628250e+06	-4.461951e+01	-9.558995e+01	-3.079279e+01	-7.895721e+00	-9.523451e+01	7.405732e+01	-5.323814e+01	1.073387e+02
3.628281e+06	-4.462419e+01	-9.556120e+01	-3.079348e+01	-7.895603e+00	-9.282596e+01	8.809036e+01	-5.324721e+01	1.074851e+02
3.628312e+06	-4.462291e+01	-9.555501e+01	-3.079483e+01	-7.890077e+00	-9.445412e+01	7.773409e+01	-5.324990e+01	1.075018e+02
3.628344e+06	-4.462162e+01	-9.554882e+01	-3.079619e+01	-7.884550e+00	-9.594908e+01	6.280909e+01	-5.325259e+01	1.075185e+02
3.628375e+06	-4.462034e+01	-9.554263e+01	-3.079754e+01	-7.879021e+00	-9.681128e+01	4.306300e+01	-5.325528e+01	1.075352e+02
3.628406e+06	-4.461905e+01	-9.553644e+01	-3.079889e+01	-7.873490e+00	-9.655034e+01	2.183575e+01	-5.325797e+01	1.075519e+02
3.628437e+06	-4.461777e+01	-9.553026e+01	-3.080025e+01	-7.867958e+00	-9.533334e+01	4.052481e+00	-5.326066e+01	1.075686e+02
3.628468e+06	-4.461405e+01	-9.550583e+01	-3.079717e+01	-7.877522e+00	-9.335168e+01	2.778768e+01	-5.324672e+01	1.074982e+02
3.628500e+06	-4.461027e+01	-9.548097e+01	-3.079398e+01	-7.887450e+00	-9.093984e+01	4.246164e+01	-5.323239e+01	1.074259e+02
3.628531e+06	-4.460649e+01	-9.545613e+01	-3.079080e+01	-7.897371e+00	-8.878470e+01	5.107309e+01	-5.321807e+01	1.073539e+02
3.628562e+06	-4.460271e+01	-9.543131e+01	-3.078761e+01	-7.907284e+00	-8.695788e+01	5.650551e+01	-5.320376e+01	1.072820e+02
3.628594e+06	-4.459893e+01	-9.540652e+01	-3.078443e+01	-7.917191e+00	-8.540488e+01	6.018383e+01	-5.318946e+01	1.072104e+02
3.628625e+06	-4.461838e+01	-9.545902e+01	-3.078614e+01	-7.912145e+00	-8.721064e+01	6.093240e+01	-5.319092e+01	1.072530e+02
3.628656e+06	-4.463823e+01	-9.551302e+01	-3.078793e+01	-7.906854e+00	-8.957048e+01	6.208387e+01	-5.319262e+01	1.072975e+02
3.628687e+06	-4.465813e+01	-9.556727e+01	-3.078972e+01	-7.901561e+00	-9.281122e+01	6.427849e+01	-5.319433e+01	1.073419e+02
3.628718e+06	-4.467807e+01	-9.562177e+01	-3.079151e+01	-7.896266e+00	-9.797810e+01	7.006440e+01	-5.319602e+01	1.073864e+02
3.628750e+06	-4.469804e+01	-9.567652e+01	-3.079331e+01	-7.890968e+00	-1.094052e+02	1.129937e+02	-5.319772e+01	1.074309e+02
3.628781e+06	-4.467812e+01	-9.569242e+01	-3.079221e+01	-7.882207e+00	-1.037358e+02	1.099644e+02	-5.322266e+01	1.073485e+02
3.628812e+06	-4.465791e+01	-9.570794e+01	-3.079109e+01	-7.873419e+00	-1.002589e+02	1.085054e+02	-5.324785e+01	1.072646e+02
3.628844e+06	-4.463776e+01	-9.572338e+01	-3.078997e+01	-7.864634e+00	-9.778055e+01	1.077705e+02	-5.327310e+01	1.071801e+02
3.628875e+06	-4.461765e+01	-9.573875e+01	-3.078885e+01	-7.855851e+00	-9.585393e+01	1.073279e+02	-5.329840e+01	1.070952e+02
3.628906e+06	-4.459759e+01	-9.575405e+01	-3.078773e+01	-7.847070e+00	-9.427775e+01	1.070322e+02	-5.332375e+01	1.070098e+02
3.628937e+06	-4.460640e+01	-9.578276e+01	-3.078693e+01	-7.837637e+00	-9.637445e+01	9.276376e+01	-5.331445e+01	1.070798e+02
3.628968e+06	-4.461521e+01	-9.581153e+01	-3.078613e+01	-7.828206e+00	-9.801386e+01	7.049624e+01	-5.330516e+01	1.071496e+02
3.629000e+06	-4.462403e+01	-9.584036e+01	-3.078534e+01	-7.818777e+00	-9.806647e+01	4.308152e+01	-5.329585e+01	1.072193e+02
3.629031e+06	-4.463285e+01	-9.586924e+01	-3.078454e+01	-7.809349e+00	-9.648337e+01	2.037291e+01	-5.328655e+01	1.072888e+02
3.629062e+06	-4.464169e+01	-9.589818e+01	-3.078374e+01	-7.799923e+00	-9.438980e+01	5.728719e+00	-5.327724e+01	1.073582e+02
3.629094e+06	-4.464019e+01	-9.581503e+01	-3.078452e+01	-7.806369e+00	-9.459118e+01	-4.681214e+00	-5.327419e+01	1.071762e+02
3.629125e+06	-4.463841e+01	-9.572916e+01	-3.078534e+01	-7.813207e+00	-9.455901e+01	-1.534010e+01	-5.327120e+01	1.069882e+02
3.629156e+06	-4.463662e+01	-9.564332e+01	-3.078615e+01	-7.820046e+00	-9.424021e+01	-2.557224e+01	-5.326811e+01	1.068002e+02
3.629187e+06	-4.463481e+01	-9.555751e+01	-3.078697e+01	-7.826887e+00	-9.369141e+01	-3.482271e+01	-5.326493e+01	1.066125e+02
3.629218e+06	-4.463298e+01	-9.547174e+01	-3.078779e+01	-7.833729e+00	-9.299089e+01	-4.282515e+01	-5.326166e+01	1.064248e+02
3.629250e+06	-4.463645e+01	-9.552552e+01	-3.078972e+01	-7.835647e+00	-9.141100e+01	-4.729994e+01	-5.323251e+01	1.066044e+02
3.629281e+06	-4.463999e+01	-9.558162e+01	-3.079167e+01	-7.837487e+00	-9.003198e+01	-5.045256e+01	-5.320295e+01	1.067887e+02
3.629312e+06	-4.464353e+01	-9.563776e+01	-3.079361e+01	-7.839327e+00	-8.882517e+01	-5.279291e+01	-5.317339e+01	1.069717e+02
3.629344e+06	-4.464707e+01	-9.569395e+01	-3.079556e+01	-7.841168e+00	-8.775589e+01	-5.459355e+01	-5.314385e+01	1.071535e+02
3.629375e+06	-4.465059e+01	-9.575018e+01	-3.079751e+01	-7.843010e+00	-8.679785e+01	-5.601927e+01	-5.311433e+01	1.073341e+02
3.629406e+06	-4.463945e+01	-9.580466e+01	-3.079687e+01	-7.831086e+00	-8.732504e+01	-5.190985e+01	-5.311996e+01	1.075266e+02
3.629437e+06	-4.462820e+01	-9.585899e+01	-3.079620e+01	-7.819053e+00	-8.784451e+01	-4.722006e+01	-5.312579e+01	1.077195e+02
3.629468e+06	-4.461695e+01	-9.591317e+01	-3.079554e+01	-7.807022e+00	-8.832747e+01	-4.195503e+01	-5.313152e+01	1.079127e+02
3.629500e+06	-4.460571e+01	-9.596721e+01	-3.079487e+01	-7.794993e+00	-8.875256e+01	-3.610784e+01	-5.313716e+01	1.081061e+02
3.629531e+06	-4.459448e+01	-9.602112e+01	-3.079420e+01	-7.782965e+00	-8.909559e+01	-2.971786e+01	-5.314270e+01	1.082998e+02
3.629562e+06	-4.460658e+01	-9.595120e+01	-3.079019e+01	-7.809781e+00	-9.195481e+01	-2.874518e+01	-5.314525e+01	1.082691e+02
3.629594e+06	-4.461869e+01	-9.588109e+01	-3.078619e+01	-7.836572e+00	-9.623643e+01	-2.653158e+01	-5.314779e+01	1.082385e+02
3.629625e+06	-4.463080e+01	-9.581078e+01	-3.078218e+01	-7.863339e+00	-1.048830e+02	-1.667918e+01	-5.315033e+01	1.082078e+02
3.629656e+06	-4.464291e+01	-9.574028e+01	-3.077817e+01	-7.890081e+00	-1.067003e+02	1.285161e+02	-5.315287e+01	1.081771e+02
3.629687e+06	-4.465503e+01	-9.566958e+01	-3.077417e+01	-7.916798e+00	-9.689191e+01	1.416640e+02	-5.315541e+01	1.081463e+02
3.629718e+06	-4.464835e+01	-9.562947e+01	-3.077679e+01	-7.894288e+00	-9.739395e+01	1.296705e+02	-5.318189e+01	1.080328e+02
3.629750e+06	-4.464122e+01	-9.559017e+01	-3.077959e+01	-7.870553e+00	-9.762714e+01	1.159343e+02	-5.320901e+01	1.079164e+02
3.629781e+06	-4.463408e+01	-9.555094e+01	-3.078238e+01	-7.846802e+00	-9.735839e+01	1.022552e+02	-5.323617e+01	1.077993e+02
3.629812e+06	-4.462695e+01	-9.551178e+01	-3.078517e+01	-7.823037e+00	-9.666963e+01	9.002741e+01	-5.326339e+01	1.076815e+02
3.629844e+06	-4.461981e+01	-9.547268e+01	-3.078796e+01	-7.799256e+00	-9.572803e+01	7.991663e+01	-5.329065e+01	1.075630e+02
3.629875e+06	-4.461191e+01	-9.551734e+01	-3.078669e+01	-7.806635e+00	-9.420077e+01	5.369394e+01	-5.327727e+01	1.076469e+02
3.629906e+06	-4.460400e+01	-9.556329e+01	-3.078535e+01	-7.814519e+00	-9.189253e+01	3.696719e+01	-5.326323e+01	1.077339e+02
3.629937e+06	-4.459608e+01	-9.560916e+01	-3.078401e+01	-7.822400e+00	-8.971521e+01	2.707928e+01	-5.324918e+01	1.078206e+02
3.629968e+06	-4.458817e+01	-9.565494e+01	-3.078268e+01	-7.830279e+00	-8.784325e+01	2.089446e+01	-5.323515e+01	1.079070e+02
3.630000e+06	-4.458026e+01	-9.570063e+01	-3.078134e+01	-7.838155e+00	-8.624725e+01	1.675005e+01	-5.322111e+01	1.079931e+02
3.630031e+06	-4.459908e+01	-9.569655e+01	-3.078129e+01	-7.844283e+00	-8.803514e+01	1.440626e+01	-5.322280e+01	1.078678e+02
3.630062e+06	-4.461816e+01	-9.569204e+01	-3.078126e+01	-7.850397e+00	-9.029899e+01	1.067683e+01	-5.322458e+01	1.077407e+02
3.630094e+06	-4.463728e+01	-9.568751e+01	-3.078122e+01	-7.856511e+00	-9.327345e+01	3.849059e+00	-5.322631e+01	1.076135e+02
3.630125e+06	-4.465644e+01	-9.568296e+01	-3.078119e+01	-7.862624e+00	-9.736332e+01	-1.170395e+01	-5.322800e+01	1.074863e+02
3.630156e+06	-4.467564e+01	-9.567839e+01	-3.078115e+01	-7.868738e+00	-1.014144e+02	-5.490257e+01	-5.322965e+01	1.073591e+02
3.630187e+06	-4.466814e+01	-9.568863e+01	-3.078192e+01	-7.862610e+00	-1.019685e+02	-3.939902e+01	-5.323196e+01	1.075911e+02
3.630218e+06	-4.466064e+01	-9.569885e+01	-3.078269e+01	-7.856481e+00	-1.018498e+02	-2.307681e+01	-5.323413e+01	1.078231e+02
3.630250e+06	-4.465315e+01	-9.570906e+01	-3.078346e+01	-7.850351e+00	-1.011076e+02	-8.331711e+00	-5.323615e+01	1.080553e+02
3.630281e+06	-4.464566e+01	-9.571925e+01	-3.078422e+01	-7.844220e+00	-9.999688e+01	3.534322e+00	-5.323804e+01	1.082876e+02
3.630312e+06	-4.463818e+01	-9.572942e+01	-3.078499e+01	-7.838088e+00	-9.875932e+01	1.256207e+01	-5.323978e+01	1.085200e+02
3.630344e+06	-4.463689e+01	-9.574153e+01	-3.078428e+01	-7.836321e+00	-1.035399e+02	2.950270e+01	-5.322235e+01	1.082567e+02
3.630375e+06	-4.463574e+01	-9.575370e+01	-3.078354e+01	-7.834661e+00	-1.079177e+02	8.778676e+01	-5.320428e+01	1.079823e+02
3.630406e+06	-4.463460e+01	-9.576586e+01	-3.078279e+01	-7.833001e+00	-1.027865e+02	1.390465e+02	-5.318606e+01	1.077091e+02
3.630437e+06	-4.463346e+01	-9.577801e+01	-3.078205e+01	-7.831342e+00	-9.813225e+01	1.536912e+02	-5.316768e+01	1.074370e+02
3.630468e+06	-4.463232e+01	-9.579017e+01	-3.078130e+01	-7.829683e+00	-9.495628e+01	1.595822e+02	-5.314914e+01	1.071661e+02
3.630500e+06	-4.464025e+01	-9.572640e+01	-3.078203e+01	-7.830195e+00	-9.572714e+01	1.452622e+02	-5.317037e+01	1.072525e+02
3.630531e+06	-4.464832e+01	-9.566128e+01	-3.078279e+01	-7.830743e+00	-9.594342e+01	1.287473e+02	-5.319228e+01	1.073451e+02
3.630562e+06	-4.465639e+01	-9.559603e+01	-3.078354e+01	-7.831291e+00	-9.545361e+01	1.127583e+02	-5.321422e+01	1.074382e+02
3.630594e+06	-4.466446e+01	-9.553067e+01	-3.078430e+01	-7.831839e+00	-9.445361e+01	9.934129e+01	-5.323620e+01	1.075318e+02
3.630625e+06	-4.467253e+01	-9.546518e+01	-3.078505e+01	-7.832387e+00	-9.322613e+01	8.899780e+01	-5.325820e+01	1.076258e+02
3.630656e+06	-4.466772e+01	-9.551094e+01	-3.078399e+01	-7.845050e+00	-9.239504e+01	7.777353e+01	-5.326782e+01	1.077369e+02
3.630687e+06	-4.466281e+01	-9.555754e+01	-3.078292e+01	-7.857809e+00	-9.139252e+01	6.867897e+01	-5.327731e+01	1.078484e+02
3.630718e+06	-4.465790e+01	-9.560409e+01	-3.078184e+01	-7.870564e+00	-9.033844e+01	6.151326e+01	-5.328678e+01	1.079601e+02
3.630750e+06	-4.465299e+01	-9.565059e+01	-3.078077e+01	-7.883316e+00	-8.930281e+01	5.588545e+01	-5.329623e+01	1.080720e+02
3.630781e+06	-4.464807e+01	-9.569703e+01	-3.077969e+01	-7.896065e+00	-8.831797e+01	5.142831e+01	-5.330565e+01	1.081842e+02
3.630812e+06	-4.464666e+01	-9.564338e+01	-3.077881e+01	-7.899810e+00	-9.017838e+01	4.791557e+01	-5.330160e+01	1.080732e+02
3.630844e+06	-4.464525e+01	-9.558976e+01	-3.077793e+01	-7.903554e+00	-9.247979e+01	4.223783e+01	-5.329753e+01	1.079624e+02
3.630875e+06	-4.464382e+01	-9.553614e+01	-3.077704e+01	-7.907297e+00	-9.539678e+01	3.184415e+01	-5.329342e+01	1.078516e+02
3.630906e+06	-4.464239e+01	-9.548255e+01	-3.077616e+01	-7.911039e+00	-9.883669e+01	9.815785e+00	-5.328928e+01	1.077410e+02
3.630937e+06	-4.464095e+01	-9.542898e+01	-3.077528e+01	-7.914781e+00	-1.003970e+02	-3.201947e+01	-5.328511e+01	1.076305e+02
3.630968e+06	-4.463709e+01	-9.544854e+01	-3.077798e+01	-7.919163e+00	-1.044262e+02	-1.470097e+01	-5.326667e+01	1.075886e+02
3.631000e+06	-4.463317e+01	-9.546989e+01	-3.078078e+01	-7.923563e+00	-1.075120e+02	3.270959e+01	-5.324792e+01	1.075487e+02
3.631031e+06	-4.462925e+01	-9.549121e+01	-3.078357e+01	-7.927967e+00	-1.041405e+02	7.814048e+01	-5.322920e+01	1.075089e+02
3.631062e+06	-4.462533e+01	-9.551252e+01	-3.078636e+01	-7.932373e+00	-1.000648e+02	9.573342e+01	-5.321052e+01	1.074693e+02
3.631094e+06	-4.462141e+01	-9.553381e+01	-3.078916e+01	-7.936781e+00	-9.704085e+01	1.034036e+02	-5.319188e+01	1.074298e+02
3.631125e+06	-4.462530e+01	-9.547616e+01	-3.078704e+01	-7.933464e+00	-9.825633e+01	9.509864e+01	-5.318111e+01	1.075398e+02
3.631156e+06	-4.462930e+01	-9.541718e+01	-3.078484e+01	-7.930024e+00	-9.945263e+01	8.375438e+01	-5.317044e+01	1.076519e+02
3.631187e+06	-4.463329e+01	-9.535814e+01	-3.078264e+01	-7.926585e+00	-1.003349e+02	6.928370e+01	-5.315976e+01	1.077637e+02
3.631218e+06	-4.463728e+01	-9.529904e+01	-3.078044e+01	-7.923147e+00	-1.006125e+02	5.269000e+01	-5.314906e+01	1.078752e+02
3.631250e+06	-4.464126e+01	-9.523989e+01	-3.077825e+01	-7.919711e+00	-1.001667e+02	3.642334e+01	-5.313834e+01	1.079865e+02
3.631281e+06	-4.463854e+01	-9.534935e+01	-3.077876e+01	-7.910023e+00	-9.731620e+01	7.056496e+01	-5.315705e+01	1.080170e+02
3.631312e+06	-4.463575e+01	-9.546010e+01	-3.077930e+01	-7.900282e+00	-9.399454e+01	8.676891e+01	-5.317604e+01	1.080470e+02
3.631344e+06	-4.463292e+01	-9.557078e+01	-3.077983e+01	-7.890541e+00	-9.133462e+01	9.482583e+01	-5.319507e+01	1.080771e+02
3.631375e+06	-4.463005e+01	-9.568139e+01	-3.078037e+01	-7.880798e+00	-8.922282e+01	9.946699e+01	-5.321413e+01	1.081073e+02
3.631406e+06	-4.462716e+01	-9.579192e+01	-3.078090e+01	-7.871054e+00	-8.749525e+01	1.024481e+02	-5.323324e+01	1.081377e+02
3.631437e+06	-4.462136e+01	-9.574386e+01	-3.077909e+01	-7.857605e+00	-8.792358e+01	1.020747e+02	-5.321967e+01	1.080059e+02
