# Hz S dB R 50.000
3.628594e+06	-4.370606e+01	-1.010219e+02	-3.079674e+01	-7.012997e+00	-8.740560e+01	1.245449e+02	-5.507095e+01	9.122883e+01
3.628625e+06	-4.369902e+01	-1.009718e+02	-3.080077e+01	-7.006323e+00	-8.898434e+01	1.213046e+02	-5.505573e+01	9.113191e+01
3.628656e+06	-4.369197e+01	-1.009217e+02	-3.080481e+01	-6.999643e+00	-9.086356e+01	1.164765e+02	-5.504051e+01	9.103534e+01
3.628688e+06	-4.368493e+01	-1.008718e+02	-3.080885e+01	-6.992956e+00	-9.313389e+01	1.086768e+02	-5.502529e+01	9.093910e+01
3.628719e+06	-4.367788e+01	-1.008219e+02	-3.081289e+01	-6.986263e+00	-9.581115e+01	9.479739e+01	-5.501007e+01	9.084319e+01
3.628750e+06	-4.367090e+01	-1.007734e+02	-3.081691e+01	-6.979667e+00	-9.825271e+01	6.942942e+01	-5.499529e+01	9.075063e+01
3.628782e+06	-4.367216e+01	-1.008829e+02	-3.081822e+01	-6.985811e+00	-9.736980e+01	7.588965e+01	-5.503407e+01	9.103221e+01
3.628813e+06	-4.367339e+01	-1.009924e+02	-3.081954e+01	-6.991957e+00	-9.648635e+01	8.115736e+01	-5.507282e+01	9.131631e+01
3.628844e+06	-4.367459e+01	-1.011020e+02	-3.082085e+01	-6.998105e+00	-9.562976e+01	8.546677e+01	-5.511152e+01	9.160295e+01
3.628875e+06	-4.367575e+01	-1.012115e+02	-3.082217e+01	-7.004255e+00	-9.481308e+01	8.901999e+01	-5.515017e+01	9.189216e+01
3.628906e+06	-4.367684e+01	-1.013187e+02	-3.082344e+01	-7.010078e+00	-9.403658e+01	9.186314e+01	-5.518762e+01	9.217700e+01
3.628938e+06	-4.367475e+01	-1.012729e+02	-3.082215e+01	-6.995731e+00	-9.303962e+01	8.784290e+01	-5.515413e+01	9.203602e+01
3.628969e+06	-4.367266e+01	-1.012271e+02	-3.082086e+01	-6.981387e+00	-9.211449e+01	8.462168e+01	-5.512071e+01	9.189612e+01
3.629000e+06	-4.367056e+01	-1.011813e+02	-3.081958e+01	-6.967048e+00	-9.125818e+01	8.199824e+01	-5.508736e+01	9.175730e+01
3.629032e+06	-4.366845e+01	-1.011356e+02	-3.081829e+01	-6.952712e+00	-9.046500e+01	7.982880e+01	-5.505409e+01	9.161953e+01
3.629063e+06	-4.366635e+01	-1.010899e+02	-3.081700e+01	-6.938382e+00	-8.972862e+01	7.800977e+01	-5.502091e+01	9.148282e+01
3.629094e+06	-4.366665e+01	-1.011151e+02	-3.081703e+01	-6.938450e+00	-9.084235e+01	7.417721e+01	-5.503470e+01	9.156292e+01
3.629125e+06	-4.366697e+01	-1.011410e+02	-3.081707e+01	-6.938635e+00	-9.207939e+01	6.912449e+01	-5.504888e+01	9.164503e+01
3.629156e+06	-4.366729e+01	-1.011668e+02	-3.081712e+01	-6.938819e+00	-9.341516e+01	6.232271e+01	-5.506307e+01	9.172741e+01
3.629188e+06	-4.366761e+01	-1.011927e+02	-3.081716e+01	-6.939004e+00	-9.479393e+01	5.300638e+01	-5.507726e+01	9.181006e+01
3.629219e+06	-4.366793e+01	-1.012185e+02	-3.081720e+01	-6.939188e+00	-9.605855e+01	4.032845e+01	-5.509146e+01	9.189298e+01
3.629250e+06	-4.366708e+01	-1.011467e+02	-3.081817e+01	-6.939162e+00	-9.900116e+01	1.503116e+01	-5.509292e+01	9.181404e+01
3.629282e+06	-4.366621e+01	-1.010748e+02	-3.081915e+01	-6.939136e+00	-9.948587e+01	-2.431738e+01	-5.509436e+01	9.173508e+01
3.629313e+06	-4.366533e+01	-1.010030e+02	-3.082012e+01	-6.939110e+00	-9.682040e+01	-5.387248e+01	-5.509579e+01	9.165609e+01
3.629344e+06	-4.366443e+01	-1.009312e+02	-3.082109e+01	-6.939085e+00	-9.385094e+01	-6.881370e+01	-5.509720e+01	9.157707e+01
3.629375e+06	-4.366353e+01	-1.008598e+02	-3.082206e+01	-6.939063e+00	-9.141867e+01	-7.665094e+01	-5.509873e+01	9.149827e+01
3.629406e+06	-4.366383e+01	-1.008394e+02	-3.082230e+01	-6.939572e+00	-9.172217e+01	-6.973115e+01	-5.511689e+01	9.144894e+01
3.629438e+06	-4.366413e+01	-1.008191e+02	-3.082254e+01	-6.940080e+00	-9.189801e+01	-6.241667e+01	-5.513509e+01	9.139940e+01
3.629469e+06	-4.366443e+01	-1.007987e+02	-3.082278e+01	-6.940589e+00	-9.192969e+01	-5.492432e+01	-5.515332e+01	9.134965e+01
3.629500e+06	-4.366472e+01	-1.007783e+02	-3.082302e+01	-6.941097e+00	-9.181406e+01	-4.750445e+01	-5.517158e+01	9.129970e+01
3.629532e+06	-4.366504e+01	-1.007587e+02	-3.082327e+01	-6.941519e+00	-9.156514e+01	-4.061229e+01	-5.518916e+01	9.125245e+01
3.629563e+06	-4.366697e+01	-1.007882e+02	-3.082369e+01	-6.936551e+00	-9.136958e+01	-4.725714e+01	-5.516301e+01	9.138392e+01
3.629594e+06	-4.366890e+01	-1.008178e+02	-3.082411e+01	-6.931582e+00	-9.107050e+01	-5.353263e+01	-5.513688e+01	9.151460e+01
3.629625e+06	-4.367082e+01	-1.008474e+02	-3.082454e+01	-6.926614e+00	-9.068829e+01	-5.933302e+01	-5.511079e+01	9.164450e+01
3.629656e+06	-4.367274e+01	-1.008770e+02	-3.082496e+01	-6.921644e+00	-9.024465e+01	-6.460575e+01	-5.508474e+01	9.177362e+01
3.629688e+06	-4.367466e+01	-1.009066e+02	-3.082539e+01	-6.916675e+00	-8.975966e+01	-6.934255e+01	-5.505872e+01	9.190197e+01
3.629719e+06	-4.367760e+01	-1.009730e+02	-3.082457e+01	-6.924101e+00	-9.192340e+01	-6.970129e+01	-5.507645e+01	9.183548e+01
3.629750e+06	-4.368053e+01	-1.010399e+02	-3.082373e+01	-6.931626e+00	-9.484580e+01	-7.028629e+01	-5.509456e+01	9.176714e+01
3.629782e+06	-4.368345e+01	-1.011067e+02	-3.082290e+01	-6.939149e+00	-9.927890e+01	-7.165074e+01	-5.511269e+01	9.169851e+01
3.629813e+06	-4.368635e+01	-1.011736e+02	-3.082207e+01	-6.946671e+00	-1.087291e+02	-7.841298e+01	-5.513085e+01	9.162960e+01
3.629844e+06	-4.368925e+01	-1.012406e+02	-3.082124e+01	-6.954192e+00	-1.086422e+02	1.218322e+02	-5.514903e+01	9.156040e+01
3.629875e+06	-4.368344e+01	-1.011882e+02	-3.082060e+01	-6.953059e+00	-1.056102e+02	8.315874e+01	-5.512762e+01	9.165939e+01
3.629906e+06	-4.367763e+01	-1.011358e+02	-3.081997e+01	-6.951925e+00	-1.020028e+02	6.624359e+01	-5.510623e+01	9.175789e+01
3.629938e+06	-4.367181e+01	-1.010835e+02	-3.081933e+01	-6.950792e+00	-9.919358e+01	5.825400e+01	-5.508487e+01	9.185590e+01
3.629969e+06	-4.366599e+01	-1.010312e+02	-3.081870e+01	-6.949660e+00	-9.700005e+01	5.377250e+01	-5.506354e+01	9.195344e+01
3.630000e+06	-4.366018e+01	-1.009796e+02	-3.081808e+01	-6.948564e+00	-9.524489e+01	5.092466e+01	-5.504257e+01	9.204959e+01
3.630032e+06	-4.365641e+01	-1.009889e+02	-3.081874e+01	-6.952100e+00	-9.644666e+01	4.647727e+01	-5.506323e+01	9.203393e+01
3.630063e+06	-4.365264e+01	-1.009983e+02	-3.081941e+01	-6.955637e+00	-9.775977e+01	4.053170e+01	-5.508395e+01	9.201819e+01
3.630094e+06	-4.364887e+01	-1.010076e+02	-3.082008e+01	-6.959174e+00	-9.915485e+01	3.239809e+01	-5.510471e+01	9.200237e+01
3.630125e+06	-4.364510e+01	-1.010169e+02	-3.082075e+01	-6.962712e+00	-1.005267e+02	2.117917e+01	-5.512552e+01	9.198648e+01
3.630156e+06	-4.364157e+01	-1.010260e+02	-3.082139e+01	-6.965984e+00	-1.016027e+02	6.637386e+00	-5.514592e+01	9.196860e+01
3.630188e+06	-4.365264e+01	-1.010198e+02	-3.082014e+01	-6.952847e+00	-1.009386e+02	1.674768e+01	-5.513802e+01	9.183334e+01
3.630219e+06	-4.366372e+01	-1.010137e+02	-3.081889e+01	-6.939714e+00	-1.001101e+02	2.524865e+01	-5.513007e+01	9.169832e+01
3.630250e+06	-4.367482e+01	-1.010075e+02	-3.081763e+01	-6.926586e+00	-9.921035e+01	3.220740e+01	-5.512208e+01	9.156355e+01
3.630282e+06	-4.368593e+01	-1.010013e+02	-3.081638e+01	-6.913460e+00	-9.830057e+01	3.785276e+01	-5.511405e+01	9.142903e+01
3.630313e+06	-4.369706e+01	-1.009950e+02	-3.081513e+01	-6.900339e+00	-9.741479e+01	4.244130e+01	-5.510598e+01	9.129475e+01
3.630344e+06	-4.369677e+01	-1.010348e+02	-3.081652e+01	-6.903534e+00	-1.002550e+02	4.183282e+01	-5.512194e+01	9.158883e+01
3.630375e+06	-4.369639e+01	-1.010749e+02	-3.081794e+01	-6.906861e+00	-1.045588e+02	4.035944e+01	-5.513789e+01	9.188746e+01
3.630406e+06	-4.369601e+01	-1.011151e+02	-3.081935e+01	-6.910190e+00	-1.133918e+02	3.365906e+01	-5.515363e+01	9.218718e+01
3.630438e+06	-4.369562e+01	-1.011552e+02	-3.082077e+01	-6.913519e+00	-1.151943e+02	-1.229519e+02	-5.516916e+01	9.248799e+01
3.630469e+06	-4.369522e+01	-1.011953e+02	-3.082218e+01	-6.916850e+00	-1.051802e+02	-1.318243e+02	-5.518448e+01	9.278986e+01
3.630500e+06	-4.369403e+01	-1.011900e+02	-3.082072e+01	-6.924562e+00	-1.146533e+02	1.531218e+02	-5.514772e+01	9.277313e+01
3.630532e+06	-4.369284e+01	-1.011848e+02	-3.081926e+01	-6.932271e+00	-1.047467e+02	8.632162e+01	-5.511112e+01	9.275655e+01
3.630563e+06	-4.369165e+01	-1.011796e+02	-3.081780e+01	-6.939978e+00	-9.918554e+01	7.741187e+01	-5.507467e+01	9.274010e+01
3.630594e+06	-4.369046e+01	-1.011743e+02	-3.081634e+01	-6.947682e+00	-9.577177e+01	7.425261e+01	-5.503837e+01	9.272379e+01
3.630625e+06	-4.368927e+01	-1.011685e+02	-3.081489e+01	-6.955241e+00	-9.332159e+01	7.269028e+01	-5.500269e+01	9.270759e+01
3.630656e+06	-4.368811e+01	-1.010926e+02	-3.081468e+01	-6.945137e+00	-9.182082e+01	7.636290e+01	-5.502521e+01	9.268891e+01
3.630688e+06	-4.368693e+01	-1.010168e+02	-3.081446e+01	-6.935034e+00	-9.051925e+01	7.902189e+01	-5.504778e+01	9.267012e+01
3.630719e+06	-4.368573e+01	-1.009410e+02	-3.081425e+01	-6.924931e+00	-8.937516e+01	8.102806e+01	-5.507041e+01	9.265124e+01
3.630750e+06	-4.368452e+01	-1.008652e+02	-3.081404e+01	-6.914829e+00	-8.835698e+01	8.259199e+01	-5.509310e+01	9.263226e+01
3.630782e+06	-4.368314e+01	-1.007916e+02	-3.081385e+01	-6.904868e+00	-8.746453e+01	8.384845e+01	-5.511516e+01	9.261070e+01
3.630813e+06	-4.367164e+01	-1.008509e+02	-3.081497e+01	-6.903535e+00	-8.807725e+01	8.538109e+01	-5.509523e+01	9.243646e+01
3.630844e+06	-4.366014e+01	-1.009101e+02	-3.081609e+01	-6.902202e+00	-8.872874e+01	8.715393e+01	-5.507526e+01	9.226302e+01
3.630875e+06	-4.364865e+01	-1.009691e+02	-3.081721e+01	-6.900868e+00	-8.942255e+01	8.922387e+01	-5.505525e+01	9.209039e+01
3.630906e+06	-4.363717e+01	-1.010280e+02	-3.081833e+01	-6.899534e+00	-9.016206e+01	9.166539e+01	-5.503522e+01	9.191854e+01
3.630938e+06	-4.362569e+01	-1.010867e+02	-3.081945e+01	-6.898200e+00	-9.094980e+01	9.457664e+01	-5.501515e+01	9.174749e+01
3.630969e+06	-4.363540e+01	-1.010601e+02	-3.081999e+01	-6.894494e+00	-9.004710e+01	1.010501e+02	-5.501600e+01	9.201900e+01
3.631000e+06	-4.364530e+01	-1.010328e+02	-3.082053e+01	-6.890769e+00	-8.913581e+01	1.063173e+02	-5.501682e+01	9.229415e+01
3.631032e+06	-4.365520e+01	-1.010053e+02	-3.082106e+01	-6.887043e+00	-8.825683e+01	1.106014e+02	-5.501744e+01	9.256934e+01
3.631063e+06	-4.366511e+01	-1.009778e+02	-3.082160e+01	-6.883317e+00	-8.742234e+01	1.141174e+02	-5.501785e+01	9.284456e+01
3.631094e+06	-4.367503e+01	-1.009503e+02	-3.082213e+01	-6.879591e+00	-8.663618e+01	1.170344e+02	-5.501807e+01	9.311980e+01
3.631125e+06	-4.366976e+01	-1.009766e+02	-3.081909e+01	-6.885658e+00	-8.833941e+01	1.170192e+02	-5.500241e+01	9.299332e+01
3.631156e+06	-4.366449e+01	-1.010028e+02	-3.081605e+01	-6.891721e+00	-9.046016e+01	1.169955e+02	-5.498673e+01	9.286730e+01
3.631188e+06	-4.365923e+01	-1.010291e+02	-3.081300e+01	-6.897780e+00	-9.327199e+01	1.169537e+02	-5.497104e+01	9.274173e+01
3.631219e+06	-4.365396e+01	-1.010553e+02	-3.080996e+01	-6.903835e+00	-9.745591e+01	1.168602e+02	-5.495533e+01	9.261662e+01
3.631250e+06	-4.364875e+01	-1.010814e+02	-3.080697e+01	-6.909842e+00	-1.057821e+02	1.163426e+02	-5.494007e+01	9.249162e+01
3.631282e+06	-4.364966e+01	-1.011057e+02	-3.080926e+01	-6.910505e+00	-1.160812e+02	4.849968e+01	-5.498156e+01	9.232477e+01
3.631313e+06	-4.365057e+01	-1.011300e+02	-3.081155e+01	-6.911168e+00	-1.061799e+02	-2.732657e+01	-5.502318e+01	9.215632e+01
3.631344e+06	-4.365148e+01	-1.011543e+02	-3.081385e+01	-6.911832e+00	-1.003946e+02	-3.649348e+01	-5.506492e+01	9.198624e+01
3.631375e+06	-4.365239e+01	-1.011786e+02	-3.081614e+01	-6.912495e+00	-9.690138e+01	-3.963153e+01	-5.510678e+01	9.181451e+01
3.631406e+06	-4.365336e+01	-1.012023e+02	-3.081839e+01	-6.913150e+00	-9.447707e+01	-4.123140e+01	-5.514747e+01	9.164315e+01
3.631438e+06	-4.365857e+01	-1.011872e+02	-3.081797e+01	-6.913192e+00	-9.699756e+01	-4.495975e+01	-5.510820e+01	9.159585e+01
3.631469e+06	-4.366378e+01	-1.011721e+02	-3.081755e+01	-6.913235e+00	-1.004527e+02	-5.239357e+01	-5.506910e+01	9.154898e+01
3.631500e+06	-4.366899e+01	-1.011570e+02	-3.081712e+01	-6.913278e+00	-1.055161e+02	-7.257425e+01	-5.503017e+01	9.150253e+01
3.631532e+06	-4.367421e+01	-1.011419e+02	-3.081670e+01	-6.913321e+00	-1.086727e+02	-1.352953e+02	-5.499140e+01	9.145649e+01
3.631563e+06	-4.367943e+01	-1.011267e+02	-3.081627e+01	-6.913364e+00	-1.033175e+02	-1.789277e+02	-5.495281e+01	9.141085e+01
3.631594e+06	-4.367865e+01	-1.011198e+02	-3.081565e+01	-6.904033e+00	-1.083962e+02	1.208553e+02	-5.498350e+01	9.156892e+01
3.631625e+06	-4.367781e+01	-1.011129e+02	-3.081503e+01	-6.894628e+00	-1.027240e+02	6.579811e+01	-5.501479e+01	9.172977e+01
3.631656e+06	-4.367698e+01	-1.011060e+02	-3.081441e+01	-6.885225e+00	-9.784069e+01	5.172502e+01	-5.504612e+01	9.189178e+01
3.631688e+06	-4.367615e+01	-1.010991e+02	-3.081379e+01	-6.875823e+00	-9.459069e+01	4.625478e+01	-5.507750e+01	9.205498e+01
3.631719e+06	-4.367532e+01	-1.010922e+02	-3.081317e+01	-6.866422e+00	-9.219960e+01	4.340067e+01	-5.510892e+01	9.221935e+01
3.631750e+06	-4.368361e+01	-1.010688e+02	-3.081165e+01	-6.879703e+00	-9.302560e+01	5.099484e+01	-5.513831e+01	9.206938e+01
3.631782e+06	-4.369191e+01	-1.010453e+02	-3.081013e+01	-6.892979e+00	-9.373648e+01	6.007032e+01	-5.516773e+01	9.191839e+01
3.631813e+06	-4.370021e+01	-1.010218e+02	-3.080861e+01	-6.906250e+00	-9.423747e+01	7.051886e+01	-5.519719e+01	9.176637e+01
3.631844e+06	-4.370852e+01	-1.009983e+02	-3.080709e+01	-6.919517e+00	-9.443725e+01	8.185650e+01	-5.522670e+01	9.161331e+01
3.631875e+06	-4.371678e+01	-1.009747e+02	-3.080558e+01	-6.932706e+00	-9.430577e+01	9.316231e+01	-5.525583e+01	9.146131e+01
3.631906e+06	-4.371752e+01	-1.009523e+02	-3.080513e+01	-6.936860e+00	-9.575606e+01	9.083929e+01	-5.523422e+01	9.156827e+01
3.631938e+06	-4.371826e+01	-1.009298e+02	-3.080468e+01	-6.941014e+00	-9.747291e+01	8.749321e+01	-5.521264e+01	9.167470e+01
3.631969e+06	-4.371900e+01	-1.009074e+02	-3.080424e+01	-6.945167e+00	-9.955616e+01	8.230654e+01	-5.519109e+01	9.178060e+01
3.632000e+06	-4.371974e+01	-1.008849e+02	-3.080379e+01	-6.949320e+00	-1.021353e+02	7.341125e+01	-5.516955e+01	9.188598e+01
3.632032e+06	-4.372042e+01	-1.008633e+02	-3.080340e+01	-6.953148e+00	-1.049869e+02	5.698640e+01	-5.514876e+01	9.198834e+01
3.632063e+06	-4.371778e+01	-1.008945e+02	-3.080630e+01	-6.937025e+00	-9.786369e+01	6.875220e+01	-5.517210e+01	9.193619e+01
3.632094e+06	-4.371514e+01	-1.009257e+02	-3.080920e+01	-6.920890e+00	-9.393779e+01	7.202822e+01	-5.519549e+01	9.188375e+01
3.632125e+06	-4.371251e+01	-1.009568e+02	-3.081210e+01	-6.904745e+00	-9.123411e+01	7.355467e+01	-5.521893e+01	9.183104e+01
3.632156e+06	-4.370986e+01	-1.009879e+02	-3.081500e+01	-6.888589e+00	-8.917244e+01	7.443649e+01	-5.524243e+01	9.177804e+01
3.632188e+06	-4.370722e+01	-1.010191e+02	-3.081790e+01	-6.872422e+00	-8.750636e+01	7.501058e+01	-5.526599e+01	9.172475e+01
3.632219e+06	-4.369988e+01	-1.010075e+02	-3.081823e+01	-6.884774e+00	-8.782159e+01	6.850648e+01	-5.523980e+01	9.178011e+01
3.632250e+06	-4.369250e+01	-1.009956e+02	-3.081855e+01	-6.897357e+00	-8.803908e+01	6.151911e+01	-5.521328e+01	9.183600e+01
3.632282e+06	-4.368513e+01	-1.009837e+02	-3.081886e+01	-6.909941e+00	-8.812507e+01	5.428199e+01	-5.518684e+01	9.189156e+01
3.632313e+06	-4.367776e+01	-1.009718e+02	-3.081918e+01	-6.922526e+00	-8.807162e+01	4.701755e+01	-5.516046e+01	9.194678e+01
3.632344e+06	-4.367040e+01	-1.009600e+02	-3.081949e+01	-6.935112e+00	-8.788371e+01	3.995323e+01	-5.513416e+01	9.200166e+01
3.632375e+06	-4.367149e+01	-1.009959e+02	-3.081822e+01	-6.932011e+00	-9.005206e+01	4.229943e+01	-5.511686e+01	9.230909e+01
3.632406e+06	-4.367258e+01	-1.010319e+02	-3.081696e+01	-6.928911e+00	-9.291224e+01	4.648792e+01	-5.509934e+01	9.261529e+01
3.632438e+06	-4.367366e+01	-1.010678e+02	-3.081569e+01	-6.925811e+00	-9.703544e+01	5.588054e+01	-5.508162e+01	9.292025e+01
3.632469e+06	-4.367474e+01	-1.011038e+02	-3.081443e+01	-6.922713e+00	-1.032290e+02	8.824143e+01	-5.506368e+01	9.322396e+01
3.632500e+06	-4.367580e+01	-1.011396e+02	-3.081317e+01	-6.919641e+00	-1.022915e+02	1.637050e+02	-5.504545e+01	9.352100e+01
3.632532e+06	-4.367473e+01	-1.011551e+02	-3.081255e+01	-6.919800e+00	-1.099482e+02	-1.727897e+02	-5.501488e+01	9.314705e+01
3.632563e+06	-4.367366e+01	-1.011706e+02	-3.081193e+01	-6.919959e+00	-1.100660e+02	-7.024991e+01	-5.498406e+01	9.277573e+01
3.632594e+06	-4.367259e+01	-1.011860e+02	-3.081131e+01	-6.920118e+00	-1.023517e+02	-4.622781e+01	-5.495298e+01	9.240705e+01
3.632625e+06	-4.367152e+01	-1.012015e+02	-3.081070e+01	-6.920277e+00	-9.809290e+01	-4.034042e+01	-5.492166e+01	9.204101e+01
3.632656e+06	-4.367048e+01	-1.012170e+02	-3.081008e+01	-6.920388e+00	-9.530358e+01	-3.761308e+01	-5.489151e+01	9.168212e+01
3.632688e+06	-4.367112e+01	-1.012330e+02	-3.080974e+01	-6.917586e+00	-9.842600e+01	-2.203110e+01	-5.494785e+01	9.160186e+01
3.632719e+06	-4.367177e+01	-1.012490e+02	-3.080940e+01	-6.914784e+00	-1.011623e+02	9.792949e+00	-5.500454e+01	9.152055e+01
3.632750e+06	-4.367241e+01	-1.012650e+02	-3.080905e+01	-6.911982e+00	-1.002969e+02	5.064071e+01	-5.506159e+01	9.143817e+01
3.632782e+06	-4.367305e+01	-1.012810e+02	-3.080871e+01	-6.909181e+00	-9.711526e+01	7.487387e+01	-5.511900e+01	9.135469e+01
3.632813e+06	-4.367369e+01	-1.012970e+02	-3.080836e+01	-6.906379e+00	-9.421082e+01	8.662638e+01	-5.517677e+01	9.127010e+01
3.632844e+06	-4.367823e+01	-1.012595e+02	-3.081045e+01	-6.902435e+00	-9.401105e+01	5.496152e+01	-5.517264e+01	9.143315e+01
3.632875e+06	-4.368280e+01	-1.012216e+02	-3.081255e+01	-6.898480e+00	-9.187755e+01	3.099169e+01	-5.516794e+01	9.159803e+01
3.632906e+06	-4.368736e+01	-1.011836e+02	-3.081466e+01	-6.894523e+00	-8.944013e+01	1.710377e+01	-5.516318e+01	9.176272e+01
3.632938e+06	-4.369193e+01	-1.011456e+02	-3.081676e+01	-6.890564e+00	-8.729817e+01	8.959151e+00	-5.515834e+01	9.192724e+01
3.632969e+06	-4.369649e+01	-1.011075e+02	-3.081887e+01	-6.886603e+00	-8.549006e+01	3.801046e+00	-5.515344e+01	9.209157e+01
3.633000e+06	-4.368756e+01	-1.010891e+02	-3.081535e+01	-6.913079e+00	-8.760424e+01	8.284328e+00	-5.512416e+01	9.180523e+01
3.633032e+06	-4.367863e+01	-1.010707e+02	-3.081184e+01	-6.939534e+00	-9.027717e+01	1.607992e+01	-5.509477e+01	9.152083e+01
3.633063e+06	-4.366972e+01	-1.010524e+02	-3.080832e+01	-6.965967e+00	-9.365471e+01	3.187592e+01	-5.506527e+01	9.123834e+01
3.633094e+06	-4.366081e+01	-1.010341e+02	-3.080480e+01	-6.992379e+00	-9.668097e+01	6.655525e+01	-5.503565e+01	9.095777e+01
3.633125e+06	-4.365207e+01	-1.010162e+02	-3.080131e+01	-7.018311e+00	-9.541850e+01	1.102668e+02	-5.500622e+01	9.068294e+01
3.633156e+06	-4.366393e+01	-1.010460e+02	-3.080136e+01	-6.987317e+00	-9.600023e+01	1.089479e+02	-5.501201e+01	9.088442e+01
3.633188e+06	-4.367579e+01	-1.010759e+02	-3.080140e+01	-6.956322e+00	-9.661805e+01	1.074335e+02	-5.501770e+01	9.108617e+01
3.633219e+06	-4.368767e+01	-1.011059e+02	-3.080144e+01	-6.925327e+00	-9.727563e+01	1.056796e+02	-5.502329e+01	9.128818e+01
3.633250e+06	-4.369956e+01	-1.011359e+02	-3.080148e+01	-6.894332e+00	-9.797677e+01	1.036286e+02	-5.502877e+01	9.149045e+01
3.633282e+06	-4.371115e+01	-1.011646e+02	-3.080153e+01	-6.864115e+00	-9.879240e+01	1.008294e+02	-5.503391e+01	9.168856e+01
3.633313e+06	-4.370289e+01	-1.011021e+02	-3.080255e+01	-6.881826e+00	-1.028478e+02	5.366019e+01	-5.502465e+01	9.161533e+01
3.633344e+06	-4.369463e+01	-1.010398e+02	-3.080357e+01	-6.899541e+00	-9.941037e+01	1.713002e+00	-5.501539e+01	9.154226e+01
3.633375e+06	-4.368637e+01	-1.009776e+02	-3.080459e+01	-6.917260e+00	-9.494902e+01	-1.677834e+01	-5.500613e+01	9.146934e+01
3.633406e+06	-4.367811e+01	-1.009155e+02	-3.080561e+01	-6.934983e+00	-9.175115e+01	-2.432401e+01	-5.499686e+01	9.139658e+01
3.633438e+06	-4.366985e+01	-1.008535e+02	-3.080663e+01	-6.952710e+00	-8.935857e+01	-2.828008e+01	-5.498758e+01	9.132398e+01
3.633469e+06	-4.367502e+01	-1.008742e+02	-3.080664e+01	-6.956139e+00	-9.189841e+01	-2.466022e+01	-5.504226e+01	9.138363e+01
3.633500e+06	-4.368031e+01	-1.008956e+02	-3.080664e+01	-6.959452e+00	-9.546395e+01	-1.721139e+01	-5.509778e+01	9.144512e+01
3.633532e+06	-4.368560e+01	-1.009170e+02	-3.080665e+01	-6.962765e+00	-1.007896e+02	3.939801e+00	-5.515366e+01	9.150740e+01
3.633563e+06	-4.369089e+01	-1.009384e+02	-3.080665e+01	-6.966079e+00	-1.036200e+02	7.127761e+01	-5.520989e+01	9.157049e+01
3.633594e+06	-4.369618e+01	-1.009599e+02	-3.080665e+01	-6.969392e+00	-9.784053e+01	1.123586e+02	-5.526647e+01	9.163441e+01
3.633625e+06	-4.369685e+01	-1.010057e+02	-3.080722e+01	-6.971825e+00	-9.807627e+01	1.300338e+02	-5.524562e+01	9.171459e+01
