# Hz S dB R 50.000
3.625156e+06	-4.483010e+01	-9.474396e+01	-3.074935e+01	-7.539240e+00	-9.231954e+01	5.351586e+01	-5.217771e+01	1.093292e+02
3.625187e+06	-4.483652e+01	-9.478044e+01	-3.075125e+01	-7.587330e+00	-8.992688e+01	5.356585e+01	-5.220435e+01	1.092986e+02
3.625218e+06	-4.484294e+01	-9.481697e+01	-3.075315e+01	-7.635441e+00	-8.805298e+01	5.359645e+01	-5.223108e+01	1.092678e+02
3.625250e+06	-4.484936e+01	-9.485355e+01	-3.075504e+01	-7.683573e+00	-8.651248e+01	5.361709e+01	-5.225788e+01	1.092367e+02
3.625281e+06	-4.485578e+01	-9.489019e+01	-3.075693e+01	-7.731727e+00	-8.520448e+01	5.363197e+01	-5.228477e+01	1.092055e+02
3.625312e+06	-4.486221e+01	-9.492689e+01	-3.075880e+01	-7.779901e+00	-8.406792e+01	5.364319e+01	-5.231173e+01	1.091742e+02
3.625344e+06	-4.486024e+01	-9.484438e+01	-3.075755e+01	-7.794743e+00	-8.526136e+01	5.351353e+01	-5.228522e+01	1.092152e+02
3.625375e+06	-4.485805e+01	-9.475899e+01	-3.075621e+01	-7.808762e+00	-8.671765e+01	5.333243e+01	-5.225747e+01	1.092578e+02
3.625406e+06	-4.485583e+01	-9.467364e+01	-3.075488e+01	-7.822776e+00	-8.846815e+01	5.307045e+01	-5.222981e+01	1.093002e+02
3.625437e+06	-4.485360e+01	-9.458833e+01	-3.075355e+01	-7.836786e+00	-9.066244e+01	5.265788e+01	-5.220223e+01	1.093422e+02
3.625468e+06	-4.485136e+01	-9.450306e+01	-3.075221e+01	-7.850792e+00	-9.360444e+01	5.191259e+01	-5.217474e+01	1.093840e+02
3.625500e+06	-4.485712e+01	-9.453331e+01	-3.075185e+01	-7.891090e+00	-9.252919e+01	3.987428e+01	-5.221473e+01	1.092958e+02
3.625531e+06	-4.486302e+01	-9.456547e+01	-3.075150e+01	-7.931811e+00	-9.124991e+01	3.064613e+01	-5.225598e+01	1.092046e+02
3.625562e+06	-4.486891e+01	-9.459768e+01	-3.075115e+01	-7.972530e+00	-8.998751e+01	2.377239e+01	-5.229741e+01	1.091125e+02
3.625594e+06	-4.487481e+01	-9.462993e+01	-3.075079e+01	-8.013245e+00	-8.880254e+01	1.859185e+01	-5.233901e+01	1.090196e+02
3.625625e+06	-4.488071e+01	-9.466222e+01	-3.075043e+01	-8.053957e+00	-8.771157e+01	1.460770e+01	-5.238080e+01	1.089258e+02
3.625656e+06	-4.488456e+01	-9.467226e+01	-3.075196e+01	-8.027323e+00	-8.817853e+01	1.349958e+01	-5.240009e+01	1.089245e+02
3.625687e+06	-4.488839e+01	-9.468213e+01	-3.075350e+01	-8.000135e+00	-8.868183e+01	1.228094e+01	-5.241924e+01	1.089239e+02
3.625718e+06	-4.489223e+01	-9.469201e+01	-3.075503e+01	-7.972939e+00	-8.921140e+01	1.090840e+01	-5.243843e+01	1.089234e+02
3.625750e+06	-4.489606e+01	-9.470190e+01	-3.075657e+01	-7.945732e+00	-8.976933e+01	9.352740e+00	-5.245766e+01	1.089228e+02
3.625781e+06	-4.489990e+01	-9.471180e+01	-3.075810e+01	-7.918516e+00	-9.035775e+01	7.577541e+00	-5.247694e+01	1.089223e+02
3.625812e+06	-4.489932e+01	-9.471441e+01	-3.075943e+01	-7.937671e+00	-9.053697e+01	9.044822e+00	-5.241458e+01	1.089842e+02
3.625844e+06	-4.489875e+01	-9.471702e+01	-3.076075e+01	-7.956832e+00	-9.071391e+01	1.057353e+01	-5.235265e+01	1.090452e+02
3.625875e+06	-4.489817e+01	-9.471963e+01	-3.076208e+01	-7.975998e+00	-9.088796e+01	1.216530e+01	-5.229115e+01	1.091054e+02
3.625906e+06	-4.489760e+01	-9.472224e+01	-3.076340e+01	-7.995170e+00	-9.105845e+01	1.382149e+01	-5.223008e+01	1.091647e+02
3.625937e+06	-4.489702e+01	-9.472485e+01	-3.076473e+01	-8.014349e+00	-9.122465e+01	1.554316e+01	-5.216942e+01	1.092232e+02
3.625968e+06	-4.489346e+01	-9.469551e+01	-3.076871e+01	-8.023489e+00	-9.248831e+01	1.522337e+01	-5.220212e+01	1.093000e+02
3.626000e+06	-4.488983e+01	-9.466541e+01	-3.077276e+01	-8.032390e+00	-9.400125e+01	1.471311e+01	-5.223724e+01	1.093779e+02
3.626031e+06	-4.488619e+01	-9.463534e+01	-3.077681e+01	-8.041299e+00	-9.583325e+01	1.396314e+01	-5.227248e+01	1.094565e+02
3.626062e+06	-4.488256e+01	-9.460529e+01	-3.078086e+01	-8.050217e+00	-9.815471e+01	1.275326e+01	-5.230785e+01	1.095357e+02
3.626094e+06	-4.487892e+01	-9.457527e+01	-3.078492e+01	-8.059143e+00	-1.013219e+02	1.047684e+01	-5.234334e+01	1.096155e+02
3.626125e+06	-4.488643e+01	-9.465991e+01	-3.078175e+01	-8.069564e+00	-9.469539e+01	1.497481e+01	-5.233741e+01	1.096119e+02
3.626156e+06	-4.489412e+01	-9.474657e+01	-3.077848e+01	-8.080002e+00	-9.090205e+01	1.635718e+01	-5.233082e+01	1.096068e+02
3.626187e+06	-4.490179e+01	-9.483339e+01	-3.077520e+01	-8.090431e+00	-8.826885e+01	1.701675e+01	-5.232422e+01	1.096018e+02
3.626218e+06	-4.490944e+01	-9.492035e+01	-3.077192e+01	-8.100853e+00	-8.625045e+01	1.740283e+01	-5.231764e+01	1.095968e+02
3.626250e+06	-4.491709e+01	-9.500747e+01	-3.076865e+01	-8.111267e+00	-8.461356e+01	1.765629e+01	-5.231105e+01	1.095918e+02
3.626281e+06	-4.491535e+01	-9.495692e+01	-3.077027e+01	-8.100167e+00	-8.630189e+01	1.661470e+01	-5.230706e+01	1.094486e+02
3.626312e+06	-4.491353e+01	-9.490527e+01	-3.077194e+01	-8.088889e+00	-8.843158e+01	1.498007e+01	-5.230303e+01	1.093044e+02
3.626344e+06	-4.491170e+01	-9.485365e+01	-3.077361e+01	-8.077608e+00	-9.124190e+01	1.209242e+01	-5.229894e+01	1.091604e+02
3.626375e+06	-4.490987e+01	-9.480205e+01	-3.077527e+01	-8.066321e+00	-9.534341e+01	5.682409e+00	-5.229481e+01	1.090165e+02
3.626406e+06	-4.490803e+01	-9.475047e+01	-3.077694e+01	-8.055031e+00	-1.023923e+02	-1.808603e+01	-5.229062e+01	1.088727e+02
3.626437e+06	-4.490415e+01	-9.476276e+01	-3.077689e+01	-8.065274e+00	-1.017770e+02	-1.029865e+01	-5.230219e+01	1.090152e+02
3.626468e+06	-4.490028e+01	-9.477503e+01	-3.077685e+01	-8.075517e+00	-1.010736e+02	-3.613614e+00	-5.231372e+01	1.091582e+02
3.626500e+06	-4.489640e+01	-9.478730e+01	-3.077680e+01	-8.085760e+00	-1.003301e+02	2.042000e+00	-5.232522e+01	1.093015e+02
3.626531e+06	-4.489253e+01	-9.479955e+01	-3.077676e+01	-8.096003e+00	-9.957952e+01	6.801601e+00	-5.233667e+01	1.094452e+02
3.626562e+06	-4.488865e+01	-9.481180e+01	-3.077671e+01	-8.106246e+00	-9.884203e+01	1.081046e+01	-5.234809e+01	1.095892e+02
3.626594e+06	-4.488085e+01	-9.479399e+01	-3.078034e+01	-8.108389e+00	-9.696142e+01	-5.669724e+00	-5.233390e+01	1.094222e+02
3.626625e+06	-4.487297e+01	-9.477548e+01	-3.078406e+01	-8.110334e+00	-9.499208e+01	-1.650208e+01	-5.231903e+01	1.092482e+02
3.626656e+06	-4.486508e+01	-9.475701e+01	-3.078778e+01	-8.112280e+00	-9.322048e+01	-2.351942e+01	-5.230411e+01	1.090747e+02
3.626687e+06	-4.485721e+01	-9.473856e+01	-3.079151e+01	-8.114229e+00	-9.167474e+01	-2.830268e+01	-5.228913e+01	1.089018e+02
3.626718e+06	-4.484934e+01	-9.472015e+01	-3.079523e+01	-8.116179e+00	-9.032569e+01	-3.172829e+01	-5.227410e+01	1.087296e+02
3.626750e+06	-4.485186e+01	-9.470229e+01	-3.079348e+01	-8.107540e+00	-9.101498e+01	-4.202449e+01	-5.227955e+01	1.089459e+02
3.626781e+06	-4.485455e+01	-9.468443e+01	-3.079164e+01	-8.098732e+00	-9.144631e+01	-5.392464e+01	-5.228520e+01	1.091689e+02
3.626812e+06	-4.485724e+01	-9.466656e+01	-3.078981e+01	-8.089928e+00	-9.148510e+01	-6.649714e+01	-5.229073e+01	1.093922e+02
3.626844e+06	-4.485994e+01	-9.464867e+01	-3.078797e+01	-8.081128e+00	-9.112115e+01	-7.860054e+01	-5.229613e+01	1.096157e+02
3.626875e+06	-4.486263e+01	-9.463077e+01	-3.078613e+01	-8.072331e+00	-9.044292e+01	-8.931819e+01	-5.230140e+01	1.098395e+02
3.626906e+06	-4.486845e+01	-9.458117e+01	-3.078702e+01	-8.069730e+00	-9.213906e+01	-7.719378e+01	-5.231241e+01	1.096470e+02
3.626937e+06	-4.487430e+01	-9.453124e+01	-3.078792e+01	-8.067178e+00	-9.355144e+01	-5.943587e+01	-5.232338e+01	1.094506e+02
3.626968e+06	-4.488015e+01	-9.448124e+01	-3.078883e+01	-8.064626e+00	-9.399808e+01	-3.723932e+01	-5.233426e+01	1.092537e+02
3.627000e+06	-4.488599e+01	-9.443117e+01	-3.078973e+01	-8.062073e+00	-9.317267e+01	-1.603684e+01	-5.234506e+01	1.090563e+02
3.627031e+06	-4.489183e+01	-9.438104e+01	-3.079064e+01	-8.059519e+00	-9.160189e+01	-1.063260e-01	-5.235576e+01	1.088584e+02
3.627062e+06	-4.489598e+01	-9.443104e+01	-3.078969e+01	-8.067408e+00	-9.235615e+01	1.128048e+01	-5.232809e+01	1.088595e+02
3.627094e+06	-4.490013e+01	-9.448109e+01	-3.078875e+01	-8.075296e+00	-9.275302e+01	2.430746e+01	-5.230051e+01	1.088605e+02
3.627125e+06	-4.490427e+01	-9.453119e+01	-3.078780e+01	-8.083182e+00	-9.268221e+01	3.784206e+01	-5.227302e+01	1.088616e+02
3.627156e+06	-4.490841e+01	-9.458133e+01	-3.078686e+01	-8.091066e+00	-9.216494e+01	5.047545e+01	-5.224561e+01	1.088626e+02
3.627187e+06	-4.491254e+01	-9.463152e+01	-3.078591e+01	-8.098949e+00	-9.133633e+01	6.127172e+01	-5.221829e+01	1.088637e+02
3.627218e+06	-4.491050e+01	-9.462015e+01	-3.078598e+01	-8.116181e+00	-9.191791e+01	6.045866e+01	-5.223452e+01	1.089307e+02
3.627250e+06	-4.490832e+01	-9.460727e+01	-3.078607e+01	-8.133643e+00	-9.257985e+01	5.921805e+01	-5.225183e+01	1.089995e+02
3.627281e+06	-4.490613e+01	-9.459440e+01	-3.078616e+01	-8.151105e+00	-9.329125e+01	5.776489e+01	-5.226917e+01	1.090687e+02
3.627312e+06	-4.490394e+01	-9.458154e+01	-3.078625e+01	-8.168568e+00	-9.405891e+01	5.604189e+01	-5.228653e+01	1.091381e+02
3.627344e+06	-4.490175e+01	-9.456868e+01	-3.078634e+01	-8.186031e+00	-9.489064e+01	5.397040e+01	-5.230391e+01	1.092078e+02
3.627375e+06	-4.490270e+01	-9.462425e+01	-3.078551e+01	-8.184194e+00	-9.538387e+01	5.449905e+01	-5.229967e+01	1.092065e+02
3.627406e+06	-4.490370e+01	-9.468094e+01	-3.078466e+01	-8.182044e+00	-9.589869e+01	5.514308e+01	-5.229508e+01	1.092041e+02
3.627437e+06	-4.490468e+01	-9.473765e+01	-3.078382e+01	-8.179894e+00	-9.644464e+01	5.587077e+01	-5.229049e+01	1.092017e+02
3.627468e+06	-4.490566e+01	-9.479437e+01	-3.078297e+01	-8.177745e+00	-9.702551e+01	5.669927e+01	-5.228591e+01	1.091993e+02
3.627500e+06	-4.490662e+01	-9.485111e+01	-3.078213e+01	-8.175596e+00	-9.764580e+01	5.765065e+01	-5.228133e+01	1.091969e+02
3.627531e+06	-4.490526e+01	-9.480660e+01	-3.078533e+01	-8.155700e+00	-1.025222e+02	5.434209e+01	-5.227509e+01	1.091369e+02
3.627562e+06	-4.490388e+01	-9.476129e+01	-3.078856e+01	-8.135645e+00	-1.140488e+02	3.168353e+01	-5.226884e+01	1.090765e+02
3.627594e+06	-4.490249e+01	-9.471599e+01	-3.079180e+01	-8.115576e+00	-1.077176e+02	-1.038370e+02	-5.226258e+01	1.090162e+02
3.627625e+06	-4.490109e+01	-9.467071e+01	-3.079503e+01	-8.095491e+00	-1.002283e+02	-1.120421e+02	-5.225631e+01	1.089560e+02
3.627656e+06	-4.489969e+01	-9.462544e+01	-3.079827e+01	-8.075392e+00	-9.623727e+01	-1.142233e+02	-5.225004e+01	1.088959e+02
3.627687e+06	-4.489671e+01	-9.458477e+01	-3.079449e+01	-8.084490e+00	-9.858537e+01	-1.329738e+02	-5.224243e+01	1.089945e+02
3.627718e+06	-4.489373e+01	-9.454414e+01	-3.079071e+01	-8.093580e+00	-9.981322e+01	-1.619984e+02	-5.223479e+01	1.090930e+02
3.627750e+06	-4.489074e+01	-9.450353e+01	-3.078693e+01	-8.102662e+00	-9.868045e+01	1.686265e+02	-5.222714e+01	1.091913e+02
3.627781e+06	-4.488775e+01	-9.446295e+01	-3.078315e+01	-8.111736e+00	-9.634821e+01	1.494085e+02	-5.221947e+01	1.092894e+02
3.627812e+06	-4.488476e+01	-9.442239e+01	-3.077937e+01	-8.120803e+00	-9.405183e+01	1.382696e+02	-5.221178e+01	1.093874e+02
3.627844e+06	-4.488913e+01	-9.444065e+01	-3.078162e+01	-8.107050e+00	-9.266530e+01	1.347599e+02	-5.223643e+01	1.095441e+02
3.627875e+06	-4.489368e+01	-9.446036e+01	-3.078401e+01	-8.092729e+00	-9.146214e+01	1.322308e+02	-5.226187e+01	1.097031e+02
3.627906e+06	-4.489822e+01	-9.448010e+01	-3.078640e+01	-8.078400e+00	-9.039401e+01	1.302839e+02	-5.228733e+01	1.098632e+02
3.627937e+06	-4.490278e+01	-9.449986e+01	-3.078880e+01	-8.064063e+00	-8.943584e+01	1.287422e+02	-5.231279e+01	1.100241e+02
3.627968e+06	-4.490733e+01	-9.451964e+01	-3.079119e+01	-8.049718e+00	-8.856834e+01	1.274928e+02	-5.233825e+01	1.101860e+02
3.628000e+06	-4.490674e+01	-9.453454e+01	-3.079225e+01	-8.070569e+00	-9.096284e+01	1.255612e+02	-5.232413e+01	1.101269e+02
3.628031e+06	-4.490607e+01	-9.454935e+01	-3.079329e+01	-8.091998e+00	-9.434332e+01	1.217727e+02	-5.230937e+01	1.100644e+02
3.628062e+06	-4.490541e+01	-9.456416e+01	-3.079432e+01	-8.113431e+00	-9.975395e+01	1.112982e+02	-5.229463e+01	1.100022e+02
3.628094e+06	-4.490474e+01	-9.457897e+01	-3.079536e+01	-8.134870e+00	-1.082107e+02	4.748770e+01	-5.227991e+01	1.099401e+02
3.628125e+06	-4.490407e+01	-9.459378e+01	-3.079639e+01	-8.156314e+00	-1.001929e+02	-2.322122e+01	-5.226520e+01	1.098783e+02
3.628156e+06	-4.489633e+01	-9.458333e+01	-3.079317e+01	-8.152260e+00	-1.057554e+02	-3.689706e+01	-5.226988e+01	1.099026e+02
3.628187e+06	-4.488855e+01	-9.457270e+01	-3.078992e+01	-8.148003e+00	-1.123189e+02	-1.101351e+02	-5.227472e+01	1.099276e+02
3.628218e+06	-4.488077e+01	-9.456208e+01	-3.078667e+01	-8.143748e+00	-1.044822e+02	-1.659230e+02	-5.227956e+01	1.099526e+02
3.628250e+06	-4.487300e+01	-9.455149e+01	-3.078342e+01	-8.139498e+00	-9.936045e+01	-1.766438e+02	-5.228441e+01	1.099777e+02
3.628281e+06	-4.486523e+01	-9.454091e+01	-3.078017e+01	-8.135250e+00	-9.608043e+01	1.793015e+02	-5.228925e+01	1.100028e+02
3.628312e+06	-4.487196e+01	-9.454133e+01	-3.078121e+01	-8.135432e+00	-1.028481e+02	-1.563082e+02	-5.227865e+01	1.099418e+02
3.628344e+06	-4.487870e+01	-9.454175e+01	-3.078226e+01	-8.135614e+00	-1.037613e+02	-6.725625e+01	-5.226805e+01	1.098810e+02
3.628375e+06	-4.488544e+01	-9.454217e+01	-3.078330e+01	-8.135796e+00	-9.663438e+01	-3.798535e+01	-5.225745e+01	1.098203e+02
3.628406e+06	-4.489219e+01	-9.454260e+01	-3.078434e+01	-8.135978e+00	-9.238917e+01	-3.039884e+01	-5.224686e+01	1.097598e+02
3.628437e+06	-4.489895e+01	-9.454302e+01	-3.078538e+01	-8.136161e+00	-8.950187e+01	-2.706925e+01	-5.223627e+01	1.096994e+02
3.628468e+06	-4.489735e+01	-9.458410e+01	-3.078547e+01	-8.135956e+00	-9.120973e+01	-2.220763e+01	-5.225212e+01	1.097832e+02
3.628500e+06	-4.489554e+01	-9.462617e+01	-3.078554e+01	-8.135741e+00	-9.336339e+01	-1.446195e+01	-5.226863e+01	1.098708e+02
3.628531e+06	-4.489373e+01	-9.466822e+01	-3.078560e+01	-8.135527e+00	-9.585707e+01	-1.157003e+00	-5.228515e+01	1.099587e+02
3.628562e+06	-4.489192e+01	-9.471025e+01	-3.078566e+01	-8.135312e+00	-9.815919e+01	2.240452e+01	-5.230168e+01	1.100470e+02
3.628594e+06	-4.489010e+01	-9.475227e+01	-3.078573e+01	-8.135097e+00	-9.852221e+01	5.531205e+01	-5.231822e+01	1.101356e+02
3.628625e+06	-4.489204e+01	-9.478699e+01	-3.078566e+01	-8.137164e+00	-1.004477e+02	5.690631e+01	-5.230868e+01	1.101370e+02
3.628656e+06	-4.489403e+01	-9.482161e+01	-3.078560e+01	-8.139267e+00	-1.029949e+02	5.874024e+01	-5.229873e+01	1.101370e+02
3.628687e+06	-4.489603e+01	-9.485625e+01	-3.078553e+01	-8.141370e+00	-1.065872e+02	6.246067e+01	-5.228880e+01	1.101370e+02
3.628718e+06	-4.489802e+01	-9.489090e+01	-3.078547e+01	-8.143473e+00	-1.125960e+02	7.376286e+01	-5.227887e+01	1.101370e+02
3.628750e+06	-4.490000e+01	-9.492557e+01	-3.078540e+01	-8.145576e+00	-1.206944e+02	1.577189e+02	-5.226896e+01	1.101370e+02
3.628781e+06	-4.490070e+01	-9.493059e+01	-3.078585e+01	-8.150830e+00	-1.131973e+02	5.103800e+01	-5.224949e+01	1.100937e+02
3.628812e+06	-4.490139e+01	-9.493537e+01	-3.078630e+01	-8.156110e+00	-1.064382e+02	4.025826e+01	-5.222997e+01	1.100501e+02
3.628844e+06	-4.490208e+01	-9.494015e+01	-3.078675e+01	-8.161390e+00	-1.026246e+02	3.708411e+01	-5.221050e+01	1.100068e+02
3.628875e+06	-4.490277e+01	-9.494493e+01	-3.078721e+01	-8.166671e+00	-9.997419e+01	3.557661e+01	-5.219107e+01	1.099637e+02
3.628906e+06	-4.490346e+01	-9.494971e+01	-3.078766e+01	-8.171952e+00	-9.794349e+01	3.469725e+01	-5.217167e+01	1.099208e+02
3.628937e+06	-4.490014e+01	-9.490825e+01	-3.078946e+01	-8.184280e+00	-9.772448e+01	3.163240e+01	-5.220326e+01	1.098624e+02
3.628968e+06	-4.489683e+01	-9.486683e+01	-3.079125e+01	-8.196614e+00	-9.748785e+01	2.872431e+01	-5.223495e+01	1.098036e+02
3.629000e+06	-4.489350e+01	-9.482543e+01	-3.079305e+01	-8.208952e+00	-9.723690e+01	2.597510e+01	-5.226675e+01	1.097444e+02
3.629031e+06	-4.489018e+01	-9.478407e+01	-3.079485e+01	-8.221296e+00	-9.697468e+01	2.338372e+01	-5.229866e+01	1.096847e+02
3.629062e+06	-4.488685e+01	-9.474274e+01	-3.079665e+01	-8.233645e+00	-9.670391e+01	2.094667e+01	-5.233068e+01	1.096245e+02
3.629094e+06	-4.488235e+01	-9.472647e+01	-3.079244e+01	-8.220297e+00	-9.501889e+01	2.542444e+01	-5.229144e+01	1.096543e+02
3.629125e+06	-4.487783e+01	-9.471083e+01	-3.078808e+01	-8.206331e+00	-9.354774e+01	2.865566e+01	-5.225064e+01	1.096859e+02
3.629156e+06	-4.487331e+01	-9.469521e+01	-3.078372e+01	-8.192379e+00	-9.227262e+01	3.101042e+01	-5.221002e+01	1.097172e+02
3.629187e+06	-4.486879e+01	-9.467961e+01	-3.077937e+01	-8.178441e+00	-9.115117e+01	3.279718e+01	-5.216959e+01	1.097483e+02
3.629218e+06	-4.486427e+01	-9.466402e+01	-3.077502e+01	-8.164517e+00	-9.015218e+01	3.419682e+01	-5.212934e+01	1.097790e+02
3.629250e+06	-4.486052e+01	-9.462319e+01	-3.077678e+01	-8.166978e+00	-9.123088e+01	3.580816e+01	-5.215684e+01	1.098019e+02
3.629281e+06	-4.485678e+01	-9.458199e+01	-3.077865e+01	-8.169707e+00	-9.249406e+01	3.792987e+01	-5.218554e+01	1.098248e+02
3.629312e+06	-4.485304e+01	-9.454082e+01	-3.078051e+01	-8.172437e+00	-9.395340e+01	4.083320e+01	-5.221433e+01	1.098478e+02
3.629344e+06	-4.484930e+01	-9.449969e+01	-3.078238e+01	-8.175168e+00	-9.566911e+01	4.501969e+01	-5.224321e+01	1.098711e+02
3.629375e+06	-4.484555e+01	-9.445860e+01	-3.078425e+01	-8.177900e+00	-9.771781e+01	5.148525e+01	-5.227219e+01	1.098944e+02
3.629406e+06	-4.486364e+01	-9.449188e+01	-3.078397e+01	-8.177822e+00	-9.658404e+01	3.565572e+01	-5.226485e+01	1.099196e+02
3.629437e+06	-4.488194e+01	-9.452590e+01	-3.078367e+01	-8.177721e+00	-9.511777e+01	2.387065e+01	-5.225723e+01	1.099447e+02
3.629468e+06	-4.490028e+01	-9.456006e+01	-3.078337e+01	-8.177620e+00	-9.363789e+01	1.550495e+01	-5.224961e+01	1.099698e+02
3.629500e+06	-4.491865e+01	-9.459437e+01	-3.078308e+01	-8.177519e+00	-9.225884e+01	9.495876e+00	-5.224200e+01	1.099949e+02
3.629531e+06	-4.493706e+01	-9.462883e+01	-3.078278e+01	-8.177418e+00	-9.100755e+01	5.060523e+00	-5.223439e+01	1.100199e+02
3.629562e+06	-4.493082e+01	-9.466098e+01	-3.078388e+01	-8.166405e+00	-9.139806e+01	1.098469e+01	-5.223340e+01	1.098611e+02
3.629594e+06	-4.492459e+01	-9.469308e+01	-3.078499e+01	-8.155388e+00	-9.170161e+01	1.740367e+01	-5.223234e+01	1.097024e+02
3.629625e+06	-4.491836e+01	-9.472513e+01	-3.078609e+01	-8.144369e+00	-9.189657e+01	2.420356e+01	-5.223122e+01	1.095437e+02
3.629656e+06	-4.491213e+01	-9.475714e+01	-3.078719e+01	-8.133347e+00	-9.196710e+01	3.121556e+01	-5.223003e+01	1.093850e+02
3.629687e+06	-4.490590e+01	-9.478910e+01	-3.078829e+01	-8.122323e+00	-9.190705e+01	3.823606e+01	-5.222877e+01	1.092264e+02
3.629718e+06	-4.490211e+01	-9.470013e+01	-3.078747e+01	-8.126424e+00	-9.194351e+01	4.629851e+01	-5.223611e+01	1.092626e+02
3.629750e+06	-4.489837e+01	-9.460825e+01	-3.078661e+01	-8.130897e+00	-9.181431e+01	5.430585e+01	-5.224366e+01	1.093037e+02
3.629781e+06	-4.489460e+01	-9.451646e+01	-3.078574e+01	-8.135369e+00	-9.152791e+01	6.193679e+01	-5.225122e+01	1.093448e+02
3.629812e+06	-4.489081e+01	-9.442475e+01	-3.078487e+01	-8.139840e+00	-9.111319e+01	6.897285e+01	-5.225878e+01	1.093861e+02
3.629844e+06	-4.488700e+01	-9.433312e+01	-3.078400e+01	-8.144309e+00	-9.060499e+01	7.529659e+01	-5.226634e+01	1.094273e+02
3.629875e+06	-4.489150e+01	-9.438070e+01	-3.078366e+01	-8.152180e+00	-9.073117e+01	6.844280e+01	-5.228534e+01	1.095152e+02
3.629906e+06	-4.489613e+01	-9.443060e+01	-3.078333e+01	-8.160106e+00	-9.073543e+01	6.126567e+01	-5.230455e+01	1.096042e+02
3.629937e+06	-4.490075e+01	-9.448055e+01	-3.078300e+01	-8.168031e+00	-9.060547e+01	5.419218e+01	-5.232379e+01	1.096935e+02
3.629968e+06	-4.490538e+01	-9.453056e+01	-3.078267e+01	-8.175955e+00	-9.035277e+01	4.742501e+01	-5.234304e+01	1.097833e+02
3.630000e+06	-4.490999e+01	-9.458062e+01	-3.078233e+01	-8.183879e+00	-8.999751e+01	4.111723e+01	-5.236232e+01	1.098735e+02
3.630031e+06	-4.490532e+01	-9.459287e+01	-3.078335e+01	-8.170321e+00	-9.035400e+01	3.857108e+01	-5.234221e+01	1.098208e+02
3.630062e+06	-4.490058e+01	-9.460480e+01	-3.078438e+01	-8.156588e+00	-9.071335e+01	3.583561e+01	-5.232183e+01	1.097673e+02
3.630094e+06	-4.489584e+01	-9.461671e+01	-3.078541e+01	-8.142851e+00	-9.106578e+01	3.286635e+01	-5.230149e+01	1.097140e+02
3.630125e+06	-4.489111e+01	-9.462862e+01	-3.078643e+01	-8.129110e+00	-9.140677e+01	2.965006e+01	-5.228119e+01	1.096609e+02
3.630156e+06	-4.488637e+01	-9.464051e+01	-3.078746e+01	-8.115367e+00	-9.173092e+01	2.617751e+01	-5.226093e+01	1.096081e+02
3.630187e+06	-4.488405e+01	-9.465655e+01	-3.078694e+01	-8.131867e+00	-9.407406e+01	2.009149e+01	-5.226221e+01	1.096672e+02
