# Hz S dB R 50.000
3.622656e+06	-4.375290e+01	-9.237602e+01	-3.092643e+01	-7.942379e+00	-9.286076e+01	5.244590e-02	-5.260613e+01	1.133634e+02
3.622687e+06	-4.374684e+01	-9.237892e+01	-3.092495e+01	-7.930414e+00	-9.382402e+01	-3.281946e+00	-5.261433e+01	1.134085e+02
3.622718e+06	-4.374078e+01	-9.238181e+01	-3.092348e+01	-7.918453e+00	-9.486561e+01	-7.483435e+00	-5.262254e+01	1.134537e+02
3.622750e+06	-4.373473e+01	-9.238470e+01	-3.092200e+01	-7.906496e+00	-9.598077e+01	-1.287223e+01	-5.263075e+01	1.134990e+02
3.622781e+06	-4.372868e+01	-9.238758e+01	-3.092052e+01	-7.894543e+00	-9.714483e+01	-1.988513e+01	-5.263896e+01	1.135444e+02
3.622812e+06	-4.372264e+01	-9.239046e+01	-3.091905e+01	-7.882594e+00	-9.829145e+01	-2.905158e+01	-5.264717e+01	1.135899e+02
3.622844e+06	-4.372309e+01	-9.233244e+01	-3.092212e+01	-7.896860e+00	-9.904434e+01	-1.989419e+01	-5.267554e+01	1.135675e+02
3.622875e+06	-4.372370e+01	-9.227290e+01	-3.092530e+01	-7.911782e+00	-9.955101e+01	-8.764170e+00	-5.270450e+01	1.135434e+02
3.622906e+06	-4.372429e+01	-9.221337e+01	-3.092848e+01	-7.926714e+00	-9.971373e+01	3.270347e+00	-5.273355e+01	1.135190e+02
3.622937e+06	-4.372488e+01	-9.215382e+01	-3.093166e+01	-7.941658e+00	-9.949312e+01	1.522374e+01	-5.276270e+01	1.134945e+02
3.622968e+06	-4.372546e+01	-9.209426e+01	-3.093485e+01	-7.956613e+00	-9.894184e+01	2.614758e+01	-5.279194e+01	1.134698e+02
3.623000e+06	-4.372141e+01	-9.206664e+01	-3.093454e+01	-7.932206e+00	-1.087751e+02	4.243257e+01	-5.277198e+01	1.133129e+02
3.623031e+06	-4.371729e+01	-9.203957e+01	-3.093417e+01	-7.907161e+00	-1.062202e+02	-1.783484e+02	-5.275120e+01	1.131546e+02
3.623062e+06	-4.371316e+01	-9.201252e+01	-3.093380e+01	-7.882119e+00	-9.788729e+01	-1.676008e+02	-5.273041e+01	1.129970e+02
3.623094e+06	-4.370904e+01	-9.198549e+01	-3.093343e+01	-7.857079e+00	-9.366938e+01	-1.650811e+02	-5.270960e+01	1.128402e+02
3.623125e+06	-4.370491e+01	-9.195850e+01	-3.093305e+01	-7.832040e+00	-9.083704e+01	-1.639623e+02	-5.268878e+01	1.126841e+02
3.623156e+06	-4.370923e+01	-9.201696e+01	-3.093370e+01	-7.823360e+00	-9.416709e+01	-1.682126e+02	-5.266122e+01	1.127312e+02
3.623187e+06	-4.371360e+01	-9.207618e+01	-3.093435e+01	-7.814811e+00	-9.950173e+01	-1.799455e+02	-5.263370e+01	1.127795e+02
3.623218e+06	-4.371797e+01	-9.213546e+01	-3.093500e+01	-7.806261e+00	-1.070092e+02	1.169332e+02	-5.260625e+01	1.128275e+02
3.623250e+06	-4.372233e+01	-9.219479e+01	-3.093565e+01	-7.797709e+00	-9.973300e+01	5.058024e+01	-5.257889e+01	1.128753e+02
3.623281e+06	-4.372668e+01	-9.225419e+01	-3.093630e+01	-7.789156e+00	-9.430101e+01	3.833595e+01	-5.255160e+01	1.129227e+02
3.623312e+06	-4.372153e+01	-9.233007e+01	-3.093667e+01	-7.782192e+00	-9.169501e+01	3.934524e+01	-5.257403e+01	1.130587e+02
3.623344e+06	-4.371636e+01	-9.240586e+01	-3.093704e+01	-7.775227e+00	-8.969185e+01	3.993890e+01	-5.259647e+01	1.131954e+02
3.623375e+06	-4.371118e+01	-9.248156e+01	-3.093741e+01	-7.768262e+00	-8.806468e+01	4.032976e+01	-5.261892e+01	1.133327e+02
3.623406e+06	-4.370599e+01	-9.255717e+01	-3.093778e+01	-7.761296e+00	-8.669452e+01	4.060655e+01	-5.264138e+01	1.134708e+02
3.623437e+06	-4.370079e+01	-9.263269e+01	-3.093815e+01	-7.754329e+00	-8.551121e+01	4.081284e+01	-5.266384e+01	1.136097e+02
3.623468e+06	-4.370884e+01	-9.258475e+01	-3.093777e+01	-7.762579e+00	-8.621585e+01	3.344664e+01	-5.266907e+01	1.134969e+02
3.623500e+06	-4.371723e+01	-9.253367e+01	-3.093737e+01	-7.771202e+00	-8.684356e+01	2.460532e+01	-5.267385e+01	1.133777e+02
3.623531e+06	-4.372561e+01	-9.248250e+01	-3.093697e+01	-7.779824e+00	-8.726835e+01	1.461406e+01	-5.267859e+01	1.132585e+02
3.623562e+06	-4.373400e+01	-9.243122e+01	-3.093657e+01	-7.788445e+00	-8.741869e+01	3.931078e+00	-5.268330e+01	1.131391e+02
3.623594e+06	-4.374239e+01	-9.237985e+01	-3.093617e+01	-7.797066e+00	-8.726541e+01	-6.748254e+00	-5.268797e+01	1.130196e+02
3.623625e+06	-4.373313e+01	-9.236279e+01	-3.093464e+01	-7.780570e+00	-8.957095e+01	-1.071761e+01	-5.267029e+01	1.130421e+02
3.623656e+06	-4.372360e+01	-9.234633e+01	-3.093309e+01	-7.763672e+00	-9.268395e+01	-1.794665e+01	-5.265229e+01	1.130668e+02
3.623687e+06	-4.371407e+01	-9.232990e+01	-3.093153e+01	-7.746780e+00	-9.701107e+01	-3.518542e+01	-5.263433e+01	1.130913e+02
3.623718e+06	-4.370456e+01	-9.231351e+01	-3.092998e+01	-7.729893e+00	-1.007659e+02	-8.390264e+01	-5.261640e+01	1.131158e+02
3.623750e+06	-4.369506e+01	-9.229715e+01	-3.092843e+01	-7.713013e+00	-9.713403e+01	-1.335591e+02	-5.259850e+01	1.131402e+02
3.623781e+06	-4.370571e+01	-9.227173e+01	-3.092974e+01	-7.702073e+00	-1.073261e+02	-1.234722e+02	-5.259843e+01	1.133353e+02
3.623812e+06	-4.371654e+01	-9.224617e+01	-3.093107e+01	-7.691177e+00	-1.047368e+02	3.073214e+01	-5.259841e+01	1.135318e+02
3.623844e+06	-4.372738e+01	-9.222055e+01	-3.093240e+01	-7.680278e+00	-9.614905e+01	3.763415e+01	-5.259828e+01	1.137282e+02
3.623875e+06	-4.373823e+01	-9.219486e+01	-3.093373e+01	-7.669376e+00	-9.189864e+01	3.920477e+01	-5.259804e+01	1.139247e+02
3.623906e+06	-4.374909e+01	-9.216911e+01	-3.093506e+01	-7.658470e+00	-8.905520e+01	3.989873e+01	-5.259771e+01	1.141211e+02
3.623937e+06	-4.374471e+01	-9.218749e+01	-3.093228e+01	-7.657530e+00	-9.046230e+01	4.104762e+01	-5.260035e+01	1.138325e+02
3.623968e+06	-4.374033e+01	-9.220585e+01	-3.092950e+01	-7.656591e+00	-9.213623e+01	4.268580e+01	-5.260277e+01	1.135438e+02
3.624000e+06	-4.373595e+01	-9.222419e+01	-3.092672e+01	-7.655652e+00	-9.419780e+01	4.520474e+01	-5.260497e+01	1.132549e+02
3.624031e+06	-4.373157e+01	-9.224252e+01	-3.092394e+01	-7.654714e+00	-9.686665e+01	4.954999e+01	-5.260695e+01	1.129659e+02
3.624062e+06	-4.372720e+01	-9.226082e+01	-3.092116e+01	-7.653776e+00	-1.005764e+02	5.863553e+01	-5.260871e+01	1.126767e+02
3.624094e+06	-4.372954e+01	-9.226316e+01	-3.092152e+01	-7.635484e+00	-1.046859e+02	6.053057e+01	-5.263021e+01	1.126882e+02
3.624125e+06	-4.373206e+01	-9.226511e+01	-3.092196e+01	-7.616764e+00	-1.125712e+02	6.681562e+01	-5.265225e+01	1.127071e+02
3.624156e+06	-4.373458e+01	-9.226706e+01	-3.092240e+01	-7.598041e+00	-1.179625e+02	-1.435045e+02	-5.267435e+01	1.127261e+02
3.624187e+06	-4.373709e+01	-9.226901e+01	-3.092284e+01	-7.579317e+00	-1.065375e+02	-1.289066e+02	-5.269651e+01	1.127453e+02
3.624218e+06	-4.373961e+01	-9.227096e+01	-3.092327e+01	-7.560591e+00	-1.017185e+02	-1.266807e+02	-5.271871e+01	1.127645e+02
3.624250e+06	-4.373873e+01	-9.221078e+01	-3.092192e+01	-7.552205e+00	-1.026242e+02	-1.119368e+02	-5.273715e+01	1.128711e+02
3.624281e+06	-4.373778e+01	-9.214960e+01	-3.092053e+01	-7.543991e+00	-1.029586e+02	-9.448165e+01	-5.275553e+01	1.129796e+02
3.624312e+06	-4.373682e+01	-9.208843e+01	-3.091914e+01	-7.535779e+00	-1.024880e+02	-7.730644e+01	-5.277392e+01	1.130885e+02
3.624344e+06	-4.373585e+01	-9.202728e+01	-3.091776e+01	-7.527570e+00	-1.014254e+02	-6.297626e+01	-5.279232e+01	1.131979e+02
3.624375e+06	-4.373488e+01	-9.196614e+01	-3.091637e+01	-7.519364e+00	-1.001101e+02	-5.212655e+01	-5.281072e+01	1.133078e+02
3.624406e+06	-4.373377e+01	-9.203976e+01	-3.091421e+01	-7.497822e+00	-9.786377e+01	-2.459243e+01	-5.278736e+01	1.132338e+02
3.624437e+06	-4.373264e+01	-9.211445e+01	-3.091204e+01	-7.476183e+00	-9.516291e+01	-9.324977e+00	-5.276371e+01	1.131587e+02
3.624468e+06	-4.373150e+01	-9.218913e+01	-3.090987e+01	-7.454555e+00	-9.283456e+01	-8.381848e-01	-5.274011e+01	1.130840e+02
3.624500e+06	-4.373034e+01	-9.226378e+01	-3.090770e+01	-7.432938e+00	-9.090591e+01	4.348597e+00	-5.271655e+01	1.130097e+02
3.624531e+06	-4.372917e+01	-9.233841e+01	-3.090553e+01	-7.411332e+00	-8.928922e+01	7.794471e+00	-5.269305e+01	1.129358e+02
3.624562e+06	-4.372597e+01	-9.230029e+01	-3.090488e+01	-7.393516e+00	-9.146728e+01	1.652164e+01	-5.268019e+01	1.128693e+02
3.624594e+06	-4.372276e+01	-9.226219e+01	-3.090423e+01	-7.375703e+00	-9.390293e+01	3.147784e+01	-5.266735e+01	1.128029e+02
3.624625e+06	-4.371955e+01	-9.222412e+01	-3.090359e+01	-7.357892e+00	-9.586305e+01	5.682479e+01	-5.265451e+01	1.127368e+02
3.624656e+06	-4.371634e+01	-9.218608e+01	-3.090294e+01	-7.340085e+00	-9.569134e+01	8.855863e+01	-5.264167e+01	1.126708e+02
3.624687e+06	-4.371313e+01	-9.214807e+01	-3.090229e+01	-7.322279e+00	-9.358061e+01	1.124140e+02	-5.262885e+01	1.126051e+02
3.624718e+06	-4.371231e+01	-9.216332e+01	-3.089647e+01	-7.297911e+00	-9.420871e+01	9.526818e+01	-5.263069e+01	1.127123e+02
3.624750e+06	-4.371155e+01	-9.217988e+01	-3.089053e+01	-7.273414e+00	-9.400459e+01	7.617282e+01	-5.263285e+01	1.128238e+02
3.624781e+06	-4.371079e+01	-9.219643e+01	-3.088459e+01	-7.248951e+00	-9.299408e+01	5.964692e+01	-5.263499e+01	1.129353e+02
3.624812e+06	-4.371003e+01	-9.221299e+01	-3.087866e+01	-7.224521e+00	-9.159905e+01	4.719391e+01	-5.263709e+01	1.130469e+02
3.624844e+06	-4.370927e+01	-9.222954e+01	-3.087272e+01	-7.200124e+00	-9.014116e+01	3.826159e+01	-5.263916e+01	1.131586e+02
3.624875e+06	-4.370555e+01	-9.221703e+01	-3.086756e+01	-7.196302e+00	-9.279550e+01	3.312213e+01	-5.265333e+01	1.131549e+02
3.624906e+06	-4.370178e+01	-9.220406e+01	-3.086240e+01	-7.192819e+00	-9.654002e+01	2.238880e+01	-5.266773e+01	1.131494e+02
3.624937e+06	-4.369801e+01	-9.219110e+01	-3.085725e+01	-7.189340e+00	-1.014850e+02	-8.039295e+00	-5.268215e+01	1.131438e+02
3.624968e+06	-4.369425e+01	-9.217816e+01	-3.085211e+01	-7.185865e+00	-1.013659e+02	-7.001467e+01	-5.269659e+01	1.131382e+02
3.625000e+06	-4.369048e+01	-9.216522e+01	-3.084696e+01	-7.182394e+00	-9.642554e+01	-9.955388e+01	-5.271105e+01	1.131325e+02
3.625031e+06	-4.369321e+01	-9.219256e+01	-3.084123e+01	-7.211758e+00	-9.585786e+01	-9.909502e+01	-5.272205e+01	1.129827e+02
3.625062e+06	-4.369598e+01	-9.222024e+01	-3.083549e+01	-7.241348e+00	-9.535146e+01	-9.857062e+01	-5.273298e+01	1.128313e+02
3.625094e+06	-4.369876e+01	-9.224794e+01	-3.082976e+01	-7.270898e+00	-9.487235e+01	-9.810247e+01	-5.274386e+01	1.126795e+02
3.625125e+06	-4.370154e+01	-9.227566e+01	-3.082402e+01	-7.300410e+00	-9.441780e+01	-9.768203e+01	-5.275469e+01	1.125273e+02
3.625156e+06	-4.370431e+01	-9.230339e+01	-3.081829e+01	-7.329883e+00	-9.398545e+01	-9.730240e+01	-5.276547e+01	1.123748e+02
3.625187e+06	-4.370876e+01	-9.229481e+01	-3.081549e+01	-7.353476e+00	-9.827966e+01	-6.139522e+01	-5.273990e+01	1.125520e+02
3.625218e+06	-4.371320e+01	-9.228621e+01	-3.081269e+01	-7.377054e+00	-9.689288e+01	-6.347030e+00	-5.271432e+01	1.127282e+02
3.625250e+06	-4.371766e+01	-9.227761e+01	-3.080988e+01	-7.400617e+00	-9.246299e+01	1.845932e+01	-5.268873e+01	1.129033e+02
3.625281e+06	-4.372211e+01	-9.226900e+01	-3.080708e+01	-7.424164e+00	-8.907791e+01	2.828339e+01	-5.266314e+01	1.130775e+02
3.625312e+06	-4.372656e+01	-9.226038e+01	-3.080428e+01	-7.447696e+00	-8.655083e+01	3.323897e+01	-5.263754e+01	1.132506e+02
3.625344e+06	-4.372501e+01	-9.226129e+01	-3.080432e+01	-7.467637e+00	-8.745012e+01	2.781798e+01	-5.265268e+01	1.132751e+02
3.625375e+06	-4.372330e+01	-9.226243e+01	-3.080443e+01	-7.487491e+00	-8.842996e+01	2.076000e+01	-5.266884e+01	1.132960e+02
3.625406e+06	-4.372160e+01	-9.226358e+01	-3.080454e+01	-7.507345e+00	-8.934856e+01	1.196551e+01	-5.268504e+01	1.133170e+02
3.625437e+06	-4.371989e+01	-9.226472e+01	-3.080465e+01	-7.527199e+00	-9.009743e+01	1.289891e+00	-5.270126e+01	1.133381e+02
3.625468e+06	-4.371819e+01	-9.226586e+01	-3.080476e+01	-7.547054e+00	-9.053821e+01	-1.097552e+01	-5.271751e+01	1.133593e+02
3.625500e+06	-4.371141e+01	-9.218471e+01	-3.080325e+01	-7.600174e+00	-9.040084e+01	-1.417303e+01	-5.269943e+01	1.132692e+02
3.625531e+06	-4.370454e+01	-9.210236e+01	-3.080171e+01	-7.653815e+00	-9.023660e+01	-1.710908e+01	-5.268080e+01	1.131778e+02
3.625562e+06	-4.369765e+01	-9.202013e+01	-3.080016e+01	-7.707437e+00	-9.005390e+01	-1.993007e+01	-5.266220e+01	1.130868e+02
3.625594e+06	-4.369075e+01	-9.193803e+01	-3.079860e+01	-7.761041e+00	-8.985523e+01	-2.262978e+01	-5.264361e+01	1.129961e+02
3.625625e+06	-4.368385e+01	-9.185607e+01	-3.079703e+01	-7.814624e+00	-8.964302e+01	-2.520468e+01	-5.262504e+01	1.129058e+02
3.625656e+06	-4.368602e+01	-9.195182e+01	-3.079913e+01	-7.825343e+00	-9.133071e+01	-1.932315e+01	-5.260897e+01	1.129522e+02
3.625687e+06	-4.368824e+01	-9.204905e+01	-3.080125e+01	-7.835721e+00	-9.326871e+01	-1.026848e+01	-5.259295e+01	1.129994e+02
3.625718e+06	-4.369044e+01	-9.214634e+01	-3.080337e+01	-7.846104e+00	-9.531095e+01	4.141502e+00	-5.257695e+01	1.130465e+02
3.625750e+06	-4.369261e+01	-9.224367e+01	-3.080550e+01	-7.856493e+00	-9.686414e+01	2.625636e+01	-5.256097e+01	1.130935e+02
3.625781e+06	-4.369476e+01	-9.234105e+01	-3.080762e+01	-7.866886e+00	-9.687009e+01	5.303121e+01	-5.254502e+01	1.131402e+02
3.625812e+06	-4.369337e+01	-9.232085e+01	-3.081012e+01	-7.878240e+00	-9.686244e+01	4.781247e+01	-5.258423e+01	1.131248e+02
3.625844e+06	-4.369197e+01	-9.230066e+01	-3.081263e+01	-7.889601e+00	-9.678356e+01	4.264560e+01	-5.262362e+01	1.131093e+02
3.625875e+06	-4.369058e+01	-9.228048e+01	-3.081513e+01	-7.900968e+00	-9.663723e+01	3.761133e+01	-5.266319e+01	1.130937e+02
3.625906e+06	-4.368918e+01	-9.226030e+01	-3.081764e+01	-7.912342e+00	-9.643004e+01	3.277833e+01	-5.270294e+01	1.130779e+02
3.625937e+06	-4.368778e+01	-9.224013e+01	-3.082014e+01	-7.923722e+00	-9.617049e+01	2.819874e+01	-5.274287e+01	1.130620e+02
3.625968e+06	-4.369084e+01	-9.219809e+01	-3.082023e+01	-7.918642e+00	-9.761512e+01	4.629108e+01	-5.273927e+01	1.131114e+02
3.626000e+06	-4.369400e+01	-9.215547e+01	-3.082026e+01	-7.913157e+00	-9.803761e+01	6.968464e+01	-5.273460e+01	1.131623e+02
3.626031e+06	-4.369716e+01	-9.211283e+01	-3.082029e+01	-7.907672e+00	-9.707550e+01	9.159331e+01	-5.272992e+01	1.132132e+02
3.626062e+06	-4.370031e+01	-9.207015e+01	-3.082032e+01	-7.902187e+00	-9.537496e+01	1.075324e+02	-5.272523e+01	1.132640e+02
3.626094e+06	-4.370346e+01	-9.202744e+01	-3.082035e+01	-7.896702e+00	-9.357464e+01	1.181073e+02	-5.272055e+01	1.133148e+02
3.626125e+06	-4.369181e+01	-9.197803e+01	-3.082069e+01	-7.899027e+00	-9.343599e+01	1.200936e+02	-5.274895e+01	1.133677e+02
3.626156e+06	-4.367993e+01	-9.192863e+01	-3.082103e+01	-7.901479e+00	-9.331597e+01	1.219244e+02	-5.277799e+01	1.134210e+02
3.626187e+06	-4.366806e+01	-9.187937e+01	-3.082137e+01	-7.903931e+00	-9.318907e+01	1.237039e+02	-5.280711e+01	1.134747e+02
3.626218e+06	-4.365620e+01	-9.183025e+01	-3.082171e+01	-7.906384e+00	-9.305599e+01	1.254308e+02	-5.283633e+01	1.135287e+02
3.626250e+06	-4.364434e+01	-9.178126e+01	-3.082206e+01	-7.908836e+00	-9.291739e+01	1.271046e+02	-5.286564e+01	1.135831e+02
3.626281e+06	-4.365514e+01	-9.184835e+01	-3.082250e+01	-7.918291e+00	-9.264160e+01	1.134778e+02	-5.282872e+01	1.133963e+02
3.626312e+06	-4.366612e+01	-9.191654e+01	-3.082293e+01	-7.927803e+00	-9.194357e+01	1.012067e+02	-5.279135e+01	1.132093e+02
3.626344e+06	-4.367710e+01	-9.198491e+01	-3.082337e+01	-7.937317e+00	-9.099280e+01	9.108203e+01	-5.275404e+01	1.130238e+02
3.626375e+06	-4.368808e+01	-9.205345e+01	-3.082381e+01	-7.946831e+00	-8.994128e+01	8.305740e+01	-5.271680e+01	1.128399e+02
3.626406e+06	-4.369906e+01	-9.212216e+01	-3.082425e+01	-7.956346e+00	-8.888366e+01	7.677076e+01	-5.267963e+01	1.126576e+02
3.626437e+06	-4.370020e+01	-9.211567e+01	-3.082498e+01	-7.968111e+00	-8.994037e+01	8.429397e+01	-5.269253e+01	1.128893e+02
3.626468e+06	-4.370134e+01	-9.210919e+01	-3.082572e+01	-7.979877e+00	-9.092641e+01	9.382847e+01	-5.270531e+01	1.131217e+02
3.626500e+06	-4.370249e+01	-9.210270e+01	-3.082645e+01	-7.991646e+00	-9.170477e+01	1.055380e+02	-5.271796e+01	1.133548e+02
3.626531e+06	-4.370363e+01	-9.209621e+01	-3.082718e+01	-8.003417e+00	-9.210322e+01	1.189762e+02	-5.273049e+01	1.135885e+02
3.626562e+06	-4.370477e+01	-9.208972e+01	-3.082791e+01	-8.015189e+00	-9.200456e+01	1.328957e+02	-5.274288e+01	1.138230e+02
3.626594e+06	-4.370145e+01	-9.209054e+01	-3.082675e+01	-8.019775e+00	-9.421477e+01	1.199171e+02	-5.273367e+01	1.137308e+02
3.626625e+06	-4.369802e+01	-9.209153e+01	-3.082555e+01	-8.024183e+00	-9.617807e+01	9.748235e+01	-5.272391e+01	1.136308e+02
3.626656e+06	-4.369458e+01	-9.209253e+01	-3.082434e+01	-8.028590e+00	-9.646250e+01	6.785574e+01	-5.271414e+01	1.135310e+02
3.626687e+06	-4.369115e+01	-9.209353e+01	-3.082313e+01	-8.032995e+00	-9.477494e+01	4.298299e+01	-5.270435e+01	1.134315e+02
3.626718e+06	-4.368772e+01	-9.209452e+01	-3.082193e+01	-8.037400e+00	-9.249646e+01	2.753146e+01	-5.269455e+01	1.133322e+02
3.626750e+06	-4.368572e+01	-9.220479e+01	-3.082418e+01	-8.022754e+00	-9.770577e+01	3.283718e+01	-5.267235e+01	1.133690e+02
3.626781e+06	-4.368371e+01	-9.231678e+01	-3.082648e+01	-8.007792e+00	-1.099847e+02	7.985017e+01	-5.265001e+01	1.134079e+02
3.626812e+06	-4.368166e+01	-9.242872e+01	-3.082878e+01	-7.992821e+00	-1.001223e+02	-1.751992e+02	-5.262772e+01	1.134465e+02
3.626844e+06	-4.367959e+01	-9.254060e+01	-3.083109e+01	-7.977842e+00	-9.365356e+01	-1.667232e+02	-5.260549e+01	1.134849e+02
3.626875e+06	-4.367748e+01	-9.265244e+01	-3.083339e+01	-7.962856e+00	-8.994880e+01	-1.641044e+02	-5.258331e+01	1.135232e+02
3.626906e+06	-4.368165e+01	-9.252549e+01	-3.083124e+01	-7.967839e+00	-9.188953e+01	-1.628281e+02	-5.258753e+01	1.132686e+02
3.626937e+06	-4.368583e+01	-9.239649e+01	-3.082904e+01	-7.972981e+00	-9.444714e+01	-1.606853e+02	-5.259179e+01	1.130114e+02
3.626968e+06	-4.368997e+01	-9.226737e+01	-3.082685e+01	-7.978120e+00	-9.805030e+01	-1.563267e+02	-5.259588e+01	1.127539e+02
3.627000e+06	-4.369407e+01	-9.213813e+01	-3.082466e+01	-7.983256e+00	-1.040088e+02	-1.431181e+02	-5.259979e+01	1.124962e+02
3.627031e+06	-4.369813e+01	-9.200876e+01	-3.082247e+01	-7.988390e+00	-1.107796e+02	-6.149168e+01	-5.260353e+01	1.122383e+02
3.627062e+06	-4.369767e+01	-9.204881e+01	-3.082461e+01	-7.994819e+00	-1.043738e+02	-4.797737e+01	-5.261828e+01	1.122820e+02
3.627094e+06	-4.369720e+01	-9.208885e+01	-3.082675e+01	-8.001250e+00	-1.006291e+02	-4.381236e+01	-5.263305e+01	1.123258e+02
3.627125e+06	-4.369673e+01	-9.212889e+01	-3.082889e+01	-8.007685e+00	-9.800465e+01	-4.181313e+01	-5.264784e+01	1.123698e+02
3.627156e+06	-4.369626e+01	-9.216892e+01	-3.083104e+01	-8.014123e+00	-9.598699e+01	-4.064175e+01	-5.266264e+01	1.124139e+02
3.627187e+06	-4.369578e+01	-9.220895e+01	-3.083318e+01	-8.020564e+00	-9.434882e+01	-3.987281e+01	-5.267747e+01	1.124581e+02
3.627218e+06	-4.369277e+01	-9.221199e+01	-3.083370e+01	-8.017025e+00	-9.661501e+01	-3.231048e+01	-5.267610e+01	1.126717e+02
3.627250e+06	-4.368971e+01	-9.221412e+01	-3.083418e+01	-8.013241e+00	-9.944103e+01	-1.825524e+01	-5.267421e+01	1.128893e+02
3.627281e+06	-4.368664e+01	-9.221625e+01	-3.083466e+01	-8.009455e+00	-1.020802e+02	8.850073e+00	-5.267219e+01	1.131068e+02
3.627312e+06	-4.368357e+01	-9.221837e+01	-3.083514e+01	-8.005670e+00	-1.020316e+02	4.672628e+01	-5.267005e+01	1.133242e+02
3.627344e+06	-4.368051e+01	-9.222050e+01	-3.083562e+01	-8.001884e+00	-9.936192e+01	7.340440e+01	-5.266779e+01	1.135415e+02
3.627375e+06	-4.368525e+01	-9.222242e+01	-3.083551e+01	-8.011554e+00	-9.473329e+01	7.748162e+01	-5.267355e+01	1.134706e+02
3.627406e+06	-4.369011e+01	-9.222434e+01	-3.083538e+01	-8.021443e+00	-9.169742e+01	7.907734e+01	-5.267944e+01	1.133949e+02
3.627437e+06	-4.369498e+01	-9.222627e+01	-3.083526e+01	-8.031332e+00	-8.944938e+01	7.994574e+01	-5.268532e+01	1.133191e+02
3.627468e+06	-4.369986e+01	-9.222820e+01	-3.083514e+01	-8.041221e+00	-8.766415e+01	8.049156e+01	-5.269118e+01	1.132431e+02
3.627500e+06	-4.370473e+01	-9.223012e+01	-3.083501e+01	-8.051109e+00	-8.618356e+01	8.086632e+01	-5.269703e+01	1.131671e+02
3.627531e+06	-4.370164e+01	-9.224510e+01	-3.083548e+01	-8.049417e+00	-8.704075e+01	8.085857e+01	-5.269447e+01	1.132302e+02
3.627562e+06	-4.369849e+01	-9.226016e+01	-3.083596e+01	-8.047632e+00	-8.801354e+01	8.084575e+01	-5.269182e+01	1.132943e+02
3.627594e+06	-4.369533e+01	-9.227521e+01	-3.083643e+01	-8.045846e+00	-8.910918e+01	8.082950e+01	-5.268917e+01	1.133585e+02
3.627625e+06	-4.369218e+01	-9.229026e+01	-3.083691e+01	-8.044061e+00	-9.036325e+01	8.080819e+01	-5.268650e+01	1.134226e+02
3.627656e+06	-4.368903e+01	-9.230529e+01	-3.083738e+01	-8.042275e+00	-9.182944e+01	8.077904e+01	-5.268383e+01	1.134866e+02
