# Hz S dB R 50.000
3.622969e+06	-4.378897e+01	-9.217621e+01	-3.093847e+01	-7.775110e+00	-9.162778e+01	5.417102e+01	-5.289576e+01	1.104411e+02
3.623000e+06	-4.378740e+01	-9.227640e+01	-3.093795e+01	-7.777612e+00	-9.530604e+01	3.960668e+01	-5.289278e+01	1.104190e+02
3.623032e+06	-4.378581e+01	-9.237655e+01	-3.093743e+01	-7.780113e+00	-9.907569e+01	3.253788e+00	-5.288979e+01	1.103970e+02
3.623063e+06	-4.378419e+01	-9.247666e+01	-3.093691e+01	-7.782615e+00	-9.758357e+01	-4.714191e+01	-5.288681e+01	1.103749e+02
3.623094e+06	-4.378255e+01	-9.257673e+01	-3.093639e+01	-7.785115e+00	-9.349813e+01	-7.105760e+01	-5.288382e+01	1.103529e+02
3.623125e+06	-4.378087e+01	-9.267498e+01	-3.093586e+01	-7.787607e+00	-9.030237e+01	-8.100733e+01	-5.288089e+01	1.103316e+02
3.623156e+06	-4.377871e+01	-9.255144e+01	-3.093485e+01	-7.789039e+00	-9.250642e+01	-7.341374e+01	-5.288499e+01	1.103945e+02
3.623188e+06	-4.377651e+01	-9.242795e+01	-3.093385e+01	-7.790470e+00	-9.509532e+01	-6.014867e+01	-5.288909e+01	1.104575e+02
3.623219e+06	-4.377427e+01	-9.230453e+01	-3.093284e+01	-7.791901e+00	-9.753751e+01	-3.597519e+01	-5.289317e+01	1.105205e+02
3.623250e+06	-4.377199e+01	-9.218118e+01	-3.093183e+01	-7.793332e+00	-9.789629e+01	-1.549886e+00	-5.289725e+01	1.105836e+02
3.623282e+06	-4.376971e+01	-9.206014e+01	-3.093085e+01	-7.794392e+00	-9.578203e+01	2.583245e+01	-5.290133e+01	1.106463e+02
3.623313e+06	-4.376984e+01	-9.207757e+01	-3.093173e+01	-7.772679e+00	-9.566952e+01	5.057981e+01	-5.290646e+01	1.106847e+02
3.623344e+06	-4.376997e+01	-9.209499e+01	-3.093260e+01	-7.750962e+00	-9.424398e+01	7.110893e+01	-5.291158e+01	1.107231e+02
3.623375e+06	-4.377010e+01	-9.211242e+01	-3.093347e+01	-7.729241e+00	-9.236537e+01	8.497906e+01	-5.291670e+01	1.107616e+02
3.623406e+06	-4.377023e+01	-9.212985e+01	-3.093434e+01	-7.707516e+00	-9.054476e+01	9.398772e+01	-5.292182e+01	1.108001e+02
3.623438e+06	-4.377036e+01	-9.214728e+01	-3.093521e+01	-7.685786e+00	-8.891923e+01	1.000323e+02	-5.292694e+01	1.108387e+02
3.623469e+06	-4.376794e+01	-9.218425e+01	-3.093560e+01	-7.681468e+00	-9.153429e+01	9.454709e+01	-5.289753e+01	1.107430e+02
3.623500e+06	-4.376550e+01	-9.222136e+01	-3.093599e+01	-7.677290e+00	-9.509850e+01	8.312843e+01	-5.286791e+01	1.106468e+02
3.623532e+06	-4.376306e+01	-9.225844e+01	-3.093638e+01	-7.673112e+00	-9.951073e+01	5.339620e+01	-5.283838e+01	1.105513e+02
3.623563e+06	-4.376061e+01	-9.229551e+01	-3.093676e+01	-7.668934e+00	-9.955681e+01	-2.560151e+00	-5.280892e+01	1.104564e+02
3.623594e+06	-4.375816e+01	-9.233255e+01	-3.093715e+01	-7.664755e+00	-9.514857e+01	-3.265728e+01	-5.277953e+01	1.103622e+02
3.623625e+06	-4.376935e+01	-9.229778e+01	-3.093739e+01	-7.657902e+00	-9.410242e+01	-1.905647e+01	-5.280435e+01	1.104155e+02
3.623656e+06	-4.378055e+01	-9.226292e+01	-3.093762e+01	-7.651048e+00	-9.283376e+01	-8.678422e+00	-5.282923e+01	1.104690e+02
3.623688e+06	-4.379177e+01	-9.222798e+01	-3.093786e+01	-7.644194e+00	-9.154073e+01	-9.700118e-01	-5.285418e+01	1.105229e+02
3.623719e+06	-4.380299e+01	-9.219294e+01	-3.093810e+01	-7.637340e+00	-9.031233e+01	4.788544e+00	-5.287919e+01	1.105770e+02
3.623750e+06	-4.381413e+01	-9.215829e+01	-3.093833e+01	-7.630444e+00	-8.919523e+01	9.113175e+00	-5.290408e+01	1.106301e+02
3.623782e+06	-4.381241e+01	-9.218363e+01	-3.093858e+01	-7.618403e+00	-9.041065e+01	5.045508e+00	-5.290546e+01	1.105111e+02
3.623813e+06	-4.381070e+01	-9.220896e+01	-3.093883e+01	-7.606362e+00	-9.175512e+01	-4.200387e-01	-5.290679e+01	1.103921e+02
3.623844e+06	-4.380899e+01	-9.223428e+01	-3.093908e+01	-7.594320e+00	-9.321548e+01	-7.979250e+00	-5.290809e+01	1.102730e+02
3.623875e+06	-4.380727e+01	-9.225959e+01	-3.093933e+01	-7.582278e+00	-9.471227e+01	-1.863490e+01	-5.290935e+01	1.101539e+02
3.623906e+06	-4.380554e+01	-9.228378e+01	-3.093955e+01	-7.570362e+00	-9.599921e+01	-3.301473e+01	-5.291035e+01	1.100373e+02
3.623938e+06	-4.380280e+01	-9.223989e+01	-3.093859e+01	-7.566292e+00	-9.611845e+01	-2.458110e+01	-5.289708e+01	1.100753e+02
3.623969e+06	-4.380006e+01	-9.219602e+01	-3.093763e+01	-7.562223e+00	-9.604782e+01	-1.609979e+01	-5.288382e+01	1.101131e+02
3.624000e+06	-4.379731e+01	-9.215219e+01	-3.093666e+01	-7.558156e+00	-9.579618e+01	-7.929552e+00	-5.287058e+01	1.101508e+02
3.624032e+06	-4.379456e+01	-9.210838e+01	-3.093570e+01	-7.554089e+00	-9.539267e+01	-3.565209e-01	-5.285736e+01	1.101884e+02
3.624063e+06	-4.379180e+01	-9.206460e+01	-3.093474e+01	-7.550023e+00	-9.487669e+01	6.451996e+00	-5.284416e+01	1.102259e+02
3.624094e+06	-4.379343e+01	-9.211012e+01	-3.093273e+01	-7.529186e+00	-9.596836e+01	1.845127e+01	-5.287374e+01	1.100762e+02
3.624125e+06	-4.379509e+01	-9.215639e+01	-3.093072e+01	-7.508224e+00	-9.669102e+01	3.336161e+01	-5.290371e+01	1.099239e+02
3.624156e+06	-4.379675e+01	-9.220267e+01	-3.092871e+01	-7.487272e+00	-9.677709e+01	4.976602e+01	-5.293372e+01	1.097706e+02
3.624188e+06	-4.379840e+01	-9.224896e+01	-3.092669e+01	-7.466330e+00	-9.619042e+01	6.522800e+01	-5.296377e+01	1.096162e+02
3.624219e+06	-4.380004e+01	-9.229528e+01	-3.092468e+01	-7.445397e+00	-9.515168e+01	7.800163e+01	-5.299386e+01	1.094608e+02
3.624250e+06	-4.379397e+01	-9.231640e+01	-3.092212e+01	-7.443627e+00	-9.572107e+01	6.212963e+01	-5.293534e+01	1.095941e+02
3.624282e+06	-4.378790e+01	-9.233750e+01	-3.091956e+01	-7.441859e+00	-9.558460e+01	4.542333e+01	-5.287716e+01	1.097255e+02
3.624313e+06	-4.378184e+01	-9.235856e+01	-3.091700e+01	-7.440091e+00	-9.480139e+01	3.043725e+01	-5.281933e+01	1.098552e+02
3.624344e+06	-4.377578e+01	-9.237960e+01	-3.091445e+01	-7.438324e+00	-9.364796e+01	1.849623e+01	-5.276183e+01	1.099833e+02
3.624375e+06	-4.376973e+01	-9.239976e+01	-3.091190e+01	-7.436432e+00	-9.239478e+01	9.647569e+00	-5.270538e+01	1.101093e+02
3.624406e+06	-4.376470e+01	-9.231501e+01	-3.091097e+01	-7.418838e+00	-9.317057e+01	2.259804e+01	-5.273704e+01	1.101944e+02
3.624438e+06	-4.375965e+01	-9.223036e+01	-3.091004e+01	-7.401248e+00	-9.347117e+01	3.729315e+01	-5.276880e+01	1.102801e+02
3.624469e+06	-4.375459e+01	-9.214581e+01	-3.090910e+01	-7.383662e+00	-9.319253e+01	5.202629e+01	-5.280065e+01	1.103664e+02
3.624500e+06	-4.374951e+01	-9.206136e+01	-3.090817e+01	-7.366080e+00	-9.243158e+01	6.506621e+01	-5.283260e+01	1.104534e+02
3.624532e+06	-4.374462e+01	-9.197925e+01	-3.090722e+01	-7.348730e+00	-9.139872e+01	7.541415e+01	-5.286414e+01	1.105370e+02
3.624563e+06	-4.375223e+01	-9.203558e+01	-3.090548e+01	-7.345492e+00	-9.048809e+01	7.122548e+01	-5.286391e+01	1.103761e+02
3.624594e+06	-4.375983e+01	-9.209201e+01	-3.090373e+01	-7.342254e+00	-8.962952e+01	6.780972e+01	-5.286361e+01	1.102151e+02
3.624625e+06	-4.376744e+01	-9.214853e+01	-3.090199e+01	-7.339018e+00	-8.882493e+01	6.498973e+01	-5.286324e+01	1.100541e+02
3.624656e+06	-4.377504e+01	-9.220516e+01	-3.090025e+01	-7.335783e+00	-8.807245e+01	6.263283e+01	-5.286280e+01	1.098932e+02
3.624688e+06	-4.378264e+01	-9.226189e+01	-3.089850e+01	-7.332550e+00	-8.736852e+01	6.063993e+01	-5.286229e+01	1.097323e+02
3.624719e+06	-4.377791e+01	-9.224526e+01	-3.089334e+01	-7.315491e+00	-8.896647e+01	5.753846e+01	-5.286171e+01	1.098905e+02
3.624750e+06	-4.377308e+01	-9.222805e+01	-3.088815e+01	-7.298341e+00	-9.090405e+01	5.285771e+01	-5.286106e+01	1.100513e+02
3.624782e+06	-4.376825e+01	-9.221087e+01	-3.088296e+01	-7.281212e+00	-9.327495e+01	4.515641e+01	-5.286034e+01	1.102120e+02
3.624813e+06	-4.376342e+01	-9.219371e+01	-3.087777e+01	-7.264103e+00	-9.612990e+01	3.099922e+01	-5.285956e+01	1.103727e+02
3.624844e+06	-4.375860e+01	-9.217656e+01	-3.087259e+01	-7.247014e+00	-9.879067e+01	3.512484e+00	-5.285870e+01	1.105334e+02
3.624875e+06	-4.375984e+01	-9.219265e+01	-3.086972e+01	-7.261525e+00	-9.827851e+01	1.440136e+01	-5.282582e+01	1.106462e+02
3.624906e+06	-4.376108e+01	-9.220875e+01	-3.086684e+01	-7.276027e+00	-9.753878e+01	2.381433e+01	-5.279302e+01	1.107581e+02
3.624938e+06	-4.376232e+01	-9.222485e+01	-3.086397e+01	-7.290519e+00	-9.667730e+01	3.163168e+01	-5.276032e+01	1.108692e+02
3.624969e+06	-4.376356e+01	-9.224096e+01	-3.086110e+01	-7.305001e+00	-9.577324e+01	3.800447e+01	-5.272771e+01	1.109795e+02
3.625000e+06	-4.376479e+01	-9.225680e+01	-3.085822e+01	-7.319144e+00	-9.488193e+01	4.333218e+01	-5.269587e+01	1.110862e+02
3.625032e+06	-4.376455e+01	-9.223970e+01	-3.085456e+01	-7.292423e+00	-9.416356e+01	6.576326e+01	-5.274790e+01	1.108518e+02
3.625063e+06	-4.376430e+01	-9.222259e+01	-3.085091e+01	-7.265725e+00	-9.256887e+01	8.276277e+01	-5.280010e+01	1.106145e+02
3.625094e+06	-4.376406e+01	-9.220548e+01	-3.084725e+01	-7.239049e+00	-9.078184e+01	9.418739e+01	-5.285246e+01	1.103743e+02
3.625125e+06	-4.376381e+01	-9.218838e+01	-3.084359e+01	-7.212396e+00	-8.910570e+01	1.018273e+02	-5.290498e+01	1.101312e+02
3.625156e+06	-4.376352e+01	-9.217156e+01	-3.083995e+01	-7.186842e+00	-8.766498e+01	1.069727e+02	-5.295633e+01	1.098906e+02
3.625188e+06	-4.376029e+01	-9.217215e+01	-3.083752e+01	-7.227513e+00	-8.990945e+01	1.006334e+02	-5.292569e+01	1.099810e+02
3.625219e+06	-4.375707e+01	-9.217274e+01	-3.083509e+01	-7.268162e+00	-9.267581e+01	8.929554e+01	-5.289514e+01	1.100707e+02
3.625250e+06	-4.375385e+01	-9.217333e+01	-3.083266e+01	-7.308787e+00	-9.570437e+01	6.676940e+01	-5.286468e+01	1.101599e+02
3.625282e+06	-4.375063e+01	-9.217392e+01	-3.083022e+01	-7.349390e+00	-9.682726e+01	2.860937e+01	-5.283430e+01	1.102484e+02
3.625313e+06	-4.374741e+01	-9.217452e+01	-3.082778e+01	-7.389970e+00	-9.448245e+01	-3.855159e+00	-5.280400e+01	1.103363e+02
3.625344e+06	-4.374770e+01	-9.214168e+01	-3.082433e+01	-7.404199e+00	-9.439124e+01	3.402527e+00	-5.279101e+01	1.104669e+02
3.625375e+06	-4.374803e+01	-9.210857e+01	-3.082087e+01	-7.418205e+00	-9.418225e+01	1.067232e+01	-5.277813e+01	1.105974e+02
3.625406e+06	-4.374835e+01	-9.207547e+01	-3.081741e+01	-7.432199e+00	-9.385001e+01	1.750079e+01	-5.276523e+01	1.107275e+02
3.625438e+06	-4.374867e+01	-9.204235e+01	-3.081395e+01	-7.446182e+00	-9.342121e+01	2.375403e+01	-5.275230e+01	1.108572e+02
3.625469e+06	-4.374898e+01	-9.200924e+01	-3.081049e+01	-7.460154e+00	-9.292395e+01	2.937273e+01	-5.273934e+01	1.109866e+02
3.625500e+06	-4.375171e+01	-9.206064e+01	-3.080884e+01	-7.502433e+00	-9.188389e+01	3.145204e+01	-5.277208e+01	1.108653e+02
3.625532e+06	-4.375444e+01	-9.211207e+01	-3.080718e+01	-7.544696e+00	-9.094697e+01	3.310794e+01	-5.280491e+01	1.107431e+02
3.625563e+06	-4.375715e+01	-9.216353e+01	-3.080552e+01	-7.586943e+00	-9.009599e+01	3.445572e+01	-5.283783e+01	1.106200e+02
3.625594e+06	-4.375987e+01	-9.221503e+01	-3.080386e+01	-7.629173e+00	-8.931735e+01	3.557290e+01	-5.287082e+01	1.104959e+02
3.625625e+06	-4.376255e+01	-9.226612e+01	-3.080218e+01	-7.671171e+00	-8.862495e+01	3.653446e+01	-5.290364e+01	1.103719e+02
3.625656e+06	-4.376281e+01	-9.226324e+01	-3.079991e+01	-7.686309e+00	-9.140463e+01	4.137905e+01	-5.290314e+01	1.103692e+02
3.625688e+06	-4.376308e+01	-9.226037e+01	-3.079764e+01	-7.701439e+00	-9.530215e+01	5.187524e+01	-5.290263e+01	1.103664e+02
3.625719e+06	-4.376334e+01	-9.225750e+01	-3.079537e+01	-7.716562e+00	-1.006346e+02	8.369159e+01	-5.290213e+01	1.103637e+02
3.625750e+06	-4.376360e+01	-9.225463e+01	-3.079310e+01	-7.731676e+00	-1.000896e+02	1.498743e+02	-5.290163e+01	1.103610e+02
3.625782e+06	-4.376379e+01	-9.225195e+01	-3.079096e+01	-7.746615e+00	-9.492236e+01	1.774510e+02	-5.290138e+01	1.103587e+02
3.625813e+06	-4.375951e+01	-9.226137e+01	-3.079634e+01	-7.751269e+00	-9.695542e+01	1.681660e+02	-5.291643e+01	1.103821e+02
3.625844e+06	-4.375523e+01	-9.227077e+01	-3.080173e+01	-7.755928e+00	-9.911406e+01	1.530117e+02	-5.293151e+01	1.104057e+02
3.625875e+06	-4.375095e+01	-9.228017e+01	-3.080713e+01	-7.760593e+00	-1.007025e+02	1.292815e+02	-5.294662e+01	1.104293e+02
3.625906e+06	-4.374668e+01	-9.228956e+01	-3.081253e+01	-7.765263e+00	-1.005113e+02	1.010743e+02	-5.296175e+01	1.104530e+02
3.625938e+06	-4.374240e+01	-9.229894e+01	-3.081793e+01	-7.769940e+00	-9.872525e+01	7.896122e+01	-5.297690e+01	1.104768e+02
3.625969e+06	-4.373526e+01	-9.228488e+01	-3.081886e+01	-7.782726e+00	-9.695050e+01	8.614770e+01	-5.294476e+01	1.102618e+02
3.626000e+06	-4.372810e+01	-9.227065e+01	-3.081976e+01	-7.795580e+00	-9.539576e+01	9.118446e+01	-5.291223e+01	1.100465e+02
3.626032e+06	-4.372094e+01	-9.225645e+01	-3.082066e+01	-7.808436e+00	-9.403630e+01	9.478334e+01	-5.287970e+01	1.098328e+02
3.626063e+06	-4.371379e+01	-9.224227e+01	-3.082156e+01	-7.821296e+00	-9.283882e+01	9.746370e+01	-5.284718e+01	1.096206e+02
3.626094e+06	-4.370664e+01	-9.222812e+01	-3.082246e+01	-7.834158e+00	-9.177362e+01	9.952905e+01	-5.281466e+01	1.094101e+02
3.626125e+06	-4.371087e+01	-9.222693e+01	-3.082350e+01	-7.816411e+00	-9.266635e+01	9.635783e+01	-5.282130e+01	1.095501e+02
3.626156e+06	-4.371510e+01	-9.222574e+01	-3.082454e+01	-7.798660e+00	-9.362454e+01	9.243236e+01	-5.282789e+01	1.096904e+02
3.626188e+06	-4.371933e+01	-9.222454e+01	-3.082558e+01	-7.780905e+00	-9.464377e+01	8.750109e+01	-5.283443e+01	1.098309e+02
3.626219e+06	-4.372357e+01	-9.222335e+01	-3.082661e+01	-7.763146e+00	-9.570536e+01	8.123018e+01	-5.284092e+01	1.099715e+02
3.626250e+06	-4.372785e+01	-9.222200e+01	-3.082764e+01	-7.745850e+00	-9.678333e+01	7.337289e+01	-5.284732e+01	1.101118e+02
3.626282e+06	-4.373844e+01	-9.220240e+01	-3.082810e+01	-7.786625e+00	-1.010748e+02	9.092046e+01	-5.284698e+01	1.101766e+02
3.626313e+06	-4.374904e+01	-9.218274e+01	-3.082855e+01	-7.827403e+00	-1.046858e+02	1.394131e+02	-5.284663e+01	1.102414e+02
3.626344e+06	-4.375965e+01	-9.216304e+01	-3.082900e+01	-7.868186e+00	-1.011077e+02	-1.718477e+02	-5.284627e+01	1.103062e+02
3.626375e+06	-4.377028e+01	-9.214329e+01	-3.082944e+01	-7.908973e+00	-9.680783e+01	-1.541799e+02	-5.284590e+01	1.103710e+02
3.626406e+06	-4.378064e+01	-9.212411e+01	-3.082987e+01	-7.948723e+00	-9.373401e+01	-1.465612e+02	-5.284554e+01	1.104350e+02
3.626438e+06	-4.377452e+01	-9.214285e+01	-3.082983e+01	-7.924430e+00	-9.321001e+01	-1.301470e+02	-5.284642e+01	1.104510e+02
3.626469e+06	-4.376840e+01	-9.216157e+01	-3.082978e+01	-7.900137e+00	-9.215833e+01	-1.165143e+02	-5.284730e+01	1.104670e+02
3.626500e+06	-4.376228e+01	-9.218025e+01	-3.082974e+01	-7.875844e+00	-9.088430e+01	-1.061253e+02	-5.284817e+01	1.104830e+02
3.626532e+06	-4.375617e+01	-9.219892e+01	-3.082969e+01	-7.851551e+00	-8.958709e+01	-9.841729e+01	-5.284905e+01	1.104990e+02
3.626563e+06	-4.375006e+01	-9.221755e+01	-3.082964e+01	-7.827258e+00	-8.835566e+01	-9.266384e+01	-5.284992e+01	1.105150e+02
3.626594e+06	-4.375104e+01	-9.226590e+01	-3.083061e+01	-7.840283e+00	-8.975281e+01	-9.200805e+01	-5.285400e+01	1.105843e+02
3.626625e+06	-4.375206e+01	-9.231449e+01	-3.083159e+01	-7.853611e+00	-9.144531e+01	-9.112089e+01	-5.285810e+01	1.106542e+02
3.626656e+06	-4.375309e+01	-9.236310e+01	-3.083257e+01	-7.866943e+00	-9.354531e+01	-8.974794e+01	-5.286218e+01	1.107241e+02
3.626688e+06	-4.375410e+01	-9.241172e+01	-3.083355e+01	-7.880277e+00	-9.630862e+01	-8.734410e+01	-5.286626e+01	1.107941e+02
3.626719e+06	-4.375511e+01	-9.246035e+01	-3.083453e+01	-7.893615e+00	-1.003316e+02	-8.208753e+01	-5.287032e+01	1.108641e+02
3.626750e+06	-4.376396e+01	-9.238511e+01	-3.083367e+01	-7.888626e+00	-1.003324e+02	-6.436950e+01	-5.286369e+01	1.107805e+02
3.626782e+06	-4.377281e+01	-9.230971e+01	-3.083281e+01	-7.883637e+00	-9.957855e+01	-4.816545e+01	-5.285705e+01	1.106970e+02
3.626813e+06	-4.378165e+01	-9.223416e+01	-3.083195e+01	-7.878650e+00	-9.837652e+01	-3.529235e+01	-5.285039e+01	1.106137e+02
3.626844e+06	-4.379048e+01	-9.215846e+01	-3.083108e+01	-7.873664e+00	-9.703243e+01	-2.572620e+01	-5.284372e+01	1.105304e+02
3.626875e+06	-4.379910e+01	-9.208323e+01	-3.083024e+01	-7.868665e+00	-9.575633e+01	-1.863338e+01	-5.283709e+01	1.104478e+02
3.626906e+06	-4.378215e+01	-9.208622e+01	-3.083209e+01	-7.862013e+00	-1.004135e+02	7.125860e+00	-5.283676e+01	1.104190e+02
3.626938e+06	-4.376523e+01	-9.208920e+01	-3.083394e+01	-7.855358e+00	-1.015831e+02	6.533754e+01	-5.283642e+01	1.103903e+02
3.626969e+06	-4.374835e+01	-9.209216e+01	-3.083578e+01	-7.848701e+00	-9.696182e+01	1.001758e+02	-5.283608e+01	1.103616e+02
3.627000e+06	-4.373149e+01	-9.209512e+01	-3.083763e+01	-7.842041e+00	-9.312984e+01	1.126418e+02	-5.283575e+01	1.103329e+02
3.627032e+06	-4.371503e+01	-9.209854e+01	-3.083945e+01	-7.835921e+00	-9.041947e+01	1.182919e+02	-5.283578e+01	1.103058e+02
3.627063e+06	-4.372041e+01	-9.213187e+01	-3.083928e+01	-7.863215e+00	-9.346455e+01	1.127256e+02	-5.285867e+01	1.103804e+02
3.627094e+06	-4.372579e+01	-9.216525e+01	-3.083911e+01	-7.890508e+00	-9.786177e+01	9.951733e+01	-5.288162e+01	1.104553e+02
3.627125e+06	-4.373118e+01	-9.219866e+01	-3.083893e+01	-7.917800e+00	-1.032109e+02	5.494885e+01	-5.290461e+01	1.105307e+02
3.627156e+06	-4.373656e+01	-9.223212e+01	-3.083876e+01	-7.945091e+00	-9.988313e+01	-7.381617e+00	-5.292764e+01	1.106064e+02
3.627188e+06	-4.374195e+01	-9.226561e+01	-3.083858e+01	-7.972381e+00	-9.483373e+01	-2.711212e+01	-5.295073e+01	1.106826e+02
3.627219e+06	-4.374352e+01	-9.229260e+01	-3.083665e+01	-7.965253e+00	-9.545135e+01	-2.995127e+01	-5.293961e+01	1.105169e+02
3.627250e+06	-4.374507e+01	-9.231954e+01	-3.083470e+01	-7.957851e+00	-9.613476e+01	-3.318753e+01	-5.292816e+01	1.103497e+02
3.627282e+06	-4.374661e+01	-9.234650e+01	-3.083275e+01	-7.950452e+00	-9.684116e+01	-3.698612e+01	-5.291666e+01	1.101829e+02
3.627313e+06	-4.374815e+01	-9.237346e+01	-3.083080e+01	-7.943056e+00	-9.756099e+01	-4.146384e+01	-5.290509e+01	1.100166e+02
3.627344e+06	-4.374969e+01	-9.240043e+01	-3.082885e+01	-7.935664e+00	-9.827744e+01	-4.674884e+01	-5.289347e+01	1.098507e+02
3.627375e+06	-4.374035e+01	-9.232183e+01	-3.082815e+01	-7.931748e+00	-9.950613e+01	-3.097231e+01	-5.290054e+01	1.099515e+02
3.627406e+06	-4.373101e+01	-9.224341e+01	-3.082746e+01	-7.927833e+00	-9.999876e+01	-1.161388e+01	-5.290759e+01	1.100524e+02
3.627438e+06	-4.372166e+01	-9.216515e+01	-3.082676e+01	-7.923919e+00	-9.948324e+01	7.691566e+00	-5.291462e+01	1.101535e+02
3.627469e+06	-4.371231e+01	-9.208706e+01	-3.082607e+01	-7.920005e+00	-9.824298e+01	2.336159e+01	-5.292163e+01	1.102547e+02
3.627500e+06	-4.370307e+01	-9.200983e+01	-3.082539e+01	-7.916220e+00	-9.676775e+01	3.445494e+01	-5.292857e+01	1.103564e+02
3.627532e+06	-4.370927e+01	-9.201886e+01	-3.082632e+01	-7.928304e+00	-9.755022e+01	7.052744e+00	-5.293023e+01	1.104916e+02
3.627563e+06	-4.371547e+01	-9.202791e+01	-3.082726e+01	-7.940391e+00	-9.637264e+01	-1.903630e+01	-5.293184e+01	1.106268e+02
3.627594e+06	-4.372167e+01	-9.203696e+01	-3.082819e+01	-7.952480e+00	-9.426270e+01	-3.656567e+01	-5.293340e+01	1.107621e+02
3.627625e+06	-4.372789e+01	-9.204603e+01	-3.082913e+01	-7.964572e+00	-9.215811e+01	-4.725039e+01	-5.293492e+01	1.108974e+02
3.627656e+06	-4.373406e+01	-9.205558e+01	-3.083003e+01	-7.976354e+00	-9.035359e+01	-5.388951e+01	-5.293627e+01	1.110268e+02
3.627688e+06	-4.373810e+01	-9.209399e+01	-3.082866e+01	-7.968946e+00	-9.155568e+01	-5.195874e+01	-5.293046e+01	1.107920e+02
3.627719e+06	-4.374212e+01	-9.213243e+01	-3.082729e+01	-7.961539e+00	-9.293568e+01	-4.935916e+01	-5.292450e+01	1.105574e+02
3.627750e+06	-4.374615e+01	-9.217090e+01	-3.082591e+01	-7.954135e+00	-9.454665e+01	-4.568973e+01	-5.291841e+01	1.103232e+02
3.627782e+06	-4.375018e+01	-9.220941e+01	-3.082454e+01	-7.946734e+00	-9.645892e+01	-4.017995e+01	-5.291218e+01	1.100893e+02
3.627813e+06	-4.375420e+01	-9.224796e+01	-3.082317e+01	-7.939334e+00	-9.874206e+01	-3.122623e+01	-5.290580e+01	1.098558e+02
3.627844e+06	-4.374480e+01	-9.228266e+01	-3.082564e+01	-7.927509e+00	-9.462660e+01	-1.538744e+01	-5.291366e+01	1.098511e+02
3.627875e+06	-4.373531e+01	-9.231726e+01	-3.082814e+01	-7.915642e+00	-9.160790e+01	-8.492615e+00	-5.292165e+01	1.098483e+02
3.627906e+06	-4.372582e+01	-9.235178e+01	-3.083064e+01	-7.903768e+00	-8.931933e+01	-4.756513e+00	-5.292964e+01	1.098455e+02
3.627938e+06	-4.371633e+01	-9.238622e+01	-3.083314e+01	-7.891887e+00	-8.749109e+01	-2.431691e+00	-5.293764e+01	1.098426e+02
3.627969e+06	-4.370686e+01	-9.242059e+01	-3.083564e+01	-7.879999e+00	-8.597337e+01	-8.503429e-01	-5.294565e+01	1.098398e+02
