# Hz S dB R 50.000
3.624375e+06	-4.386568e+01	-9.276610e+01	-3.091842e+01	-7.001897e+00	-9.222737e+01	6.204091e+01	-5.300977e+01	1.028735e+02
3.624406e+06	-4.387139e+01	-9.278339e+01	-3.091809e+01	-6.993307e+00	-9.243361e+01	8.103764e+01	-5.297809e+01	1.029074e+02
3.624438e+06	-4.387709e+01	-9.280070e+01	-3.091777e+01	-6.984718e+00	-9.173099e+01	9.894226e+01	-5.294653e+01	1.029410e+02
3.624469e+06	-4.388280e+01	-9.281803e+01	-3.091744e+01	-6.976129e+00	-9.045956e+01	1.131202e+02	-5.291508e+01	1.029743e+02
3.624500e+06	-4.388852e+01	-9.283539e+01	-3.091711e+01	-6.967542e+00	-8.901029e+01	1.234355e+02	-5.288373e+01	1.030075e+02
3.624531e+06	-4.389417e+01	-9.285260e+01	-3.091673e+01	-6.958943e+00	-8.762088e+01	1.307757e+02	-5.285274e+01	1.030382e+02
3.624562e+06	-4.389116e+01	-9.284933e+01	-3.090900e+01	-6.948891e+00	-8.994114e+01	1.297086e+02	-5.285168e+01	1.027971e+02
3.624594e+06	-4.388816e+01	-9.284606e+01	-3.090128e+01	-6.938857e+00	-9.310841e+01	1.277012e+02	-5.285047e+01	1.025561e+02
3.624625e+06	-4.388516e+01	-9.284280e+01	-3.089357e+01	-6.928841e+00	-9.809602e+01	1.225622e+02	-5.284911e+01	1.023151e+02
3.624656e+06	-4.388216e+01	-9.283953e+01	-3.088586e+01	-6.918843e+00	-1.091284e+02	8.805817e+01	-5.284759e+01	1.020742e+02
3.624688e+06	-4.387916e+01	-9.283627e+01	-3.087816e+01	-6.908863e+00	-1.021877e+02	-2.680565e+01	-5.284592e+01	1.018335e+02
3.624719e+06	-4.388192e+01	-9.284252e+01	-3.087330e+01	-6.923073e+00	-1.018082e+02	-4.178783e+01	-5.285361e+01	1.019456e+02
3.624750e+06	-4.388477e+01	-9.284892e+01	-3.086849e+01	-6.937661e+00	-1.010901e+02	-5.510216e+01	-5.286142e+01	1.020637e+02
3.624781e+06	-4.388762e+01	-9.285532e+01	-3.086368e+01	-6.952232e+00	-1.000728e+02	-6.597240e+01	-5.286920e+01	1.021821e+02
3.624812e+06	-4.389047e+01	-9.286173e+01	-3.085887e+01	-6.966787e+00	-9.894297e+01	-7.444184e+01	-5.287696e+01	1.023006e+02
3.624844e+06	-4.389333e+01	-9.286815e+01	-3.085407e+01	-6.981327e+00	-9.781319e+01	-8.096159e+01	-5.288468e+01	1.024193e+02
3.624875e+06	-4.388849e+01	-9.283213e+01	-3.085107e+01	-6.983763e+00	-9.762788e+01	-8.500921e+01	-5.288026e+01	1.026729e+02
3.624906e+06	-4.388360e+01	-9.279582e+01	-3.084808e+01	-6.986100e+00	-9.741340e+01	-8.886569e+01	-5.287557e+01	1.029273e+02
3.624938e+06	-4.387870e+01	-9.275955e+01	-3.084509e+01	-6.988436e+00	-9.716767e+01	-9.252288e+01	-5.287071e+01	1.031814e+02
3.624969e+06	-4.387381e+01	-9.272331e+01	-3.084210e+01	-6.990770e+00	-9.689627e+01	-9.596842e+01	-5.286569e+01	1.034352e+02
3.625000e+06	-4.386891e+01	-9.268712e+01	-3.083912e+01	-6.993102e+00	-9.660455e+01	-9.919744e+01	-5.286050e+01	1.036887e+02
3.625031e+06	-4.386454e+01	-9.270106e+01	-3.083376e+01	-7.039636e+00	-1.013005e+02	-1.066945e+02	-5.286579e+01	1.034568e+02
3.625062e+06	-4.386017e+01	-9.271498e+01	-3.082840e+01	-7.086112e+00	-1.098783e+02	-1.436698e+02	-5.287094e+01	1.032246e+02
3.625094e+06	-4.385580e+01	-9.272889e+01	-3.082304e+01	-7.132530e+00	-1.056814e+02	1.212070e+02	-5.287595e+01	1.029922e+02
3.625125e+06	-4.385143e+01	-9.274279e+01	-3.081767e+01	-7.178892e+00	-9.905310e+01	1.045633e+02	-5.288082e+01	1.027595e+02
3.625156e+06	-4.384721e+01	-9.275673e+01	-3.081236e+01	-7.224981e+00	-9.524963e+01	9.956298e+01	-5.288569e+01	1.025281e+02
3.625188e+06	-4.386046e+01	-9.277811e+01	-3.081356e+01	-7.244399e+00	-9.916498e+01	7.688542e+01	-5.290767e+01	1.024891e+02
3.625219e+06	-4.387373e+01	-9.279955e+01	-3.081475e+01	-7.263822e+00	-1.008999e+02	2.924751e+01	-5.292971e+01	1.024498e+02
3.625250e+06	-4.388702e+01	-9.282105e+01	-3.081595e+01	-7.283251e+00	-9.747580e+01	-8.220164e+00	-5.295180e+01	1.024104e+02
3.625281e+06	-4.390033e+01	-9.284262e+01	-3.081715e+01	-7.302685e+00	-9.383202e+01	-2.386120e+01	-5.297394e+01	1.023708e+02
3.625312e+06	-4.391366e+01	-9.286426e+01	-3.081834e+01	-7.322124e+00	-9.104443e+01	-3.124863e+01	-5.299613e+01	1.023309e+02
3.625344e+06	-4.390972e+01	-9.285908e+01	-3.081848e+01	-7.338597e+00	-9.478998e+01	-2.873296e+01	-5.295077e+01	1.023614e+02
3.625375e+06	-4.390551e+01	-9.285347e+01	-3.081860e+01	-7.355022e+00	-1.016806e+02	-1.966458e+01	-5.290455e+01	1.023926e+02
3.625406e+06	-4.390131e+01	-9.284787e+01	-3.081871e+01	-7.371447e+00	-1.097795e+02	9.805280e+01	-5.285858e+01	1.024235e+02
3.625438e+06	-4.389710e+01	-9.284227e+01	-3.081883e+01	-7.387873e+00	-9.796628e+01	1.333091e+02	-5.281284e+01	1.024541e+02
3.625469e+06	-4.389289e+01	-9.283667e+01	-3.081895e+01	-7.404300e+00	-9.287753e+01	1.380392e+02	-5.276734e+01	1.024844e+02
3.625500e+06	-4.389393e+01	-9.279038e+01	-3.081970e+01	-7.424480e+00	-9.610321e+01	1.368133e+02	-5.279176e+01	1.025531e+02
3.625531e+06	-4.389501e+01	-9.274375e+01	-3.082045e+01	-7.444695e+00	-1.014115e+02	1.334423e+02	-5.281680e+01	1.026225e+02
3.625562e+06	-4.389608e+01	-9.269711e+01	-3.082119e+01	-7.464913e+00	-1.156654e+02	9.944792e+01	-5.284190e+01	1.026923e+02
3.625594e+06	-4.389715e+01	-9.265046e+01	-3.082194e+01	-7.485135e+00	-1.043566e+02	-2.885048e+01	-5.286706e+01	1.027626e+02
3.625625e+06	-4.389821e+01	-9.260379e+01	-3.082269e+01	-7.505360e+00	-9.759128e+01	-3.447223e+01	-5.289228e+01	1.028332e+02
3.625656e+06	-4.389198e+01	-9.259108e+01	-3.082411e+01	-7.505616e+00	-1.009631e+02	-4.479560e+01	-5.287403e+01	1.027079e+02
3.625688e+06	-4.388575e+01	-9.257838e+01	-3.082553e+01	-7.505873e+00	-1.052601e+02	-7.047255e+01	-5.285577e+01	1.025830e+02
3.625719e+06	-4.387953e+01	-9.256571e+01	-3.082695e+01	-7.506129e+00	-1.063537e+02	-1.241753e+02	-5.283751e+01	1.024587e+02
3.625750e+06	-4.387331e+01	-9.255305e+01	-3.082837e+01	-7.506385e+00	-1.022027e+02	-1.587039e+02	-5.281925e+01	1.023350e+02
3.625781e+06	-4.386705e+01	-9.254078e+01	-3.082977e+01	-7.506597e+00	-9.853302e+01	-1.719423e+02	-5.280121e+01	1.022131e+02
3.625812e+06	-4.385565e+01	-9.257450e+01	-3.082803e+01	-7.501203e+00	-9.841773e+01	-1.752936e+02	-5.281123e+01	1.022691e+02
3.625844e+06	-4.384426e+01	-9.260814e+01	-3.082630e+01	-7.495812e+00	-9.827549e+01	-1.785470e+02	-5.282125e+01	1.023251e+02
3.625875e+06	-4.383289e+01	-9.264169e+01	-3.082457e+01	-7.490423e+00	-9.810895e+01	1.783133e+02	-5.283127e+01	1.023813e+02
3.625906e+06	-4.382152e+01	-9.267514e+01	-3.082284e+01	-7.485036e+00	-9.792098e+01	1.752994e+02	-5.284130e+01	1.024376e+02
3.625938e+06	-4.381017e+01	-9.270852e+01	-3.082111e+01	-7.479651e+00	-9.771451e+01	1.724194e+02	-5.285133e+01	1.024941e+02
3.625969e+06	-4.382468e+01	-9.268691e+01	-3.082417e+01	-7.495667e+00	-1.049839e+02	1.466363e+02	-5.284798e+01	1.024520e+02
3.626000e+06	-4.383963e+01	-9.266432e+01	-3.082731e+01	-7.512042e+00	-1.047756e+02	5.111518e+01	-5.284441e+01	1.024083e+02
3.626031e+06	-4.385460e+01	-9.264167e+01	-3.083045e+01	-7.528429e+00	-9.750926e+01	2.621962e+01	-5.284083e+01	1.023646e+02
3.626062e+06	-4.386960e+01	-9.261893e+01	-3.083359e+01	-7.544828e+00	-9.333305e+01	1.974574e+01	-5.283725e+01	1.023209e+02
3.626094e+06	-4.388462e+01	-9.259611e+01	-3.083673e+01	-7.561239e+00	-9.048895e+01	1.686564e+01	-5.283367e+01	1.022773e+02
3.626125e+06	-4.388383e+01	-9.259095e+01	-3.083426e+01	-7.579282e+00	-9.290758e+01	1.626546e+01	-5.285124e+01	1.024464e+02
3.626156e+06	-4.388291e+01	-9.258592e+01	-3.083174e+01	-7.597328e+00	-9.634023e+01	1.510888e+01	-5.286893e+01	1.026178e+02
3.626188e+06	-4.388199e+01	-9.258090e+01	-3.082921e+01	-7.615363e+00	-1.020789e+02	1.178260e+01	-5.288659e+01	1.027899e+02
3.626219e+06	-4.388108e+01	-9.257588e+01	-3.082669e+01	-7.633388e+00	-1.197423e+02	-4.735630e+01	-5.290420e+01	1.029627e+02
3.626250e+06	-4.388016e+01	-9.257086e+01	-3.082417e+01	-7.651403e+00	-1.030481e+02	-1.536690e+02	-5.292177e+01	1.031362e+02
3.626281e+06	-4.387967e+01	-9.259335e+01	-3.082655e+01	-7.636279e+00	-1.047973e+02	-1.746933e+02	-5.291667e+01	1.032923e+02
3.626312e+06	-4.387919e+01	-9.261584e+01	-3.082893e+01	-7.621146e+00	-1.051158e+02	1.582294e+02	-5.291151e+01	1.034483e+02
3.626344e+06	-4.387870e+01	-9.263833e+01	-3.083132e+01	-7.606005e+00	-1.037123e+02	1.345423e+02	-5.290629e+01	1.036040e+02
3.626375e+06	-4.387821e+01	-9.266082e+01	-3.083370e+01	-7.590856e+00	-1.016512e+02	1.189021e+02	-5.290100e+01	1.037596e+02
3.626406e+06	-4.387772e+01	-9.268276e+01	-3.083605e+01	-7.575922e+00	-9.969688e+01	1.092996e+02	-5.289569e+01	1.039111e+02
3.626438e+06	-4.387729e+01	-9.263826e+01	-3.083505e+01	-7.588725e+00	-1.039623e+02	1.223908e+02	-5.289425e+01	1.035823e+02
3.626469e+06	-4.387686e+01	-9.259376e+01	-3.083405e+01	-7.601524e+00	-1.091368e+02	1.645758e+02	-5.289253e+01	1.032536e+02
3.626500e+06	-4.387642e+01	-9.254927e+01	-3.083305e+01	-7.614321e+00	-1.063167e+02	-1.337081e+02	-5.289052e+01	1.029251e+02
3.626531e+06	-4.387598e+01	-9.250478e+01	-3.083205e+01	-7.627115e+00	-1.013302e+02	-1.127018e+02	-5.288822e+01	1.025967e+02
3.626562e+06	-4.387553e+01	-9.246029e+01	-3.083105e+01	-7.639905e+00	-9.787824e+01	-1.049035e+02	-5.288564e+01	1.022685e+02
3.626594e+06	-4.387504e+01	-9.245759e+01	-3.083129e+01	-7.643352e+00	-1.043139e+02	-9.722380e+01	-5.289884e+01	1.023224e+02
3.626625e+06	-4.387454e+01	-9.245557e+01	-3.083156e+01	-7.646648e+00	-1.146749e+02	1.369778e+01	-5.291230e+01	1.023826e+02
3.626656e+06	-4.387405e+01	-9.245355e+01	-3.083183e+01	-7.649943e+00	-1.017578e+02	5.780052e+01	-5.292578e+01	1.024431e+02
3.626688e+06	-4.387356e+01	-9.245153e+01	-3.083210e+01	-7.653239e+00	-9.644061e+01	6.269280e+01	-5.293926e+01	1.025037e+02
3.626719e+06	-4.387306e+01	-9.244951e+01	-3.083237e+01	-7.656535e+00	-9.315040e+01	6.450700e+01	-5.295276e+01	1.025645e+02
3.626750e+06	-4.386504e+01	-9.249866e+01	-3.083450e+01	-7.662152e+00	-9.357999e+01	6.208293e+01	-5.295794e+01	1.024581e+02
3.626781e+06	-4.385696e+01	-9.254813e+01	-3.083665e+01	-7.667791e+00	-9.404157e+01	5.935714e+01	-5.296303e+01	1.023502e+02
3.626812e+06	-4.384888e+01	-9.259751e+01	-3.083881e+01	-7.673432e+00	-9.450594e+01	5.632445e+01	-5.296809e+01	1.022421e+02
3.626844e+06	-4.384081e+01	-9.264679e+01	-3.084096e+01	-7.679077e+00	-9.496790e+01	5.295007e+01	-5.297313e+01	1.021340e+02
3.626875e+06	-4.383273e+01	-9.269599e+01	-3.084311e+01	-7.684724e+00	-9.542043e+01	4.920054e+01	-5.297813e+01	1.020257e+02
3.626906e+06	-4.383575e+01	-9.269693e+01	-3.084321e+01	-7.674380e+00	-9.707861e+01	1.788033e+01	-5.295001e+01	1.022141e+02
3.626938e+06	-4.383876e+01	-9.269787e+01	-3.084331e+01	-7.664035e+00	-9.584316e+01	-1.519526e+01	-5.292188e+01	1.024013e+02
3.626969e+06	-4.384178e+01	-9.269881e+01	-3.084341e+01	-7.653690e+00	-9.318319e+01	-3.559164e+01	-5.289375e+01	1.025872e+02
3.627000e+06	-4.384480e+01	-9.269975e+01	-3.084350e+01	-7.643345e+00	-9.067461e+01	-4.667383e+01	-5.286562e+01	1.027720e+02
3.627031e+06	-4.384776e+01	-9.270064e+01	-3.084361e+01	-7.633141e+00	-8.861324e+01	-5.308066e+01	-5.283774e+01	1.029532e+02
3.627062e+06	-4.384247e+01	-9.269571e+01	-3.084432e+01	-7.640456e+00	-9.144563e+01	-4.479678e+01	-5.284028e+01	1.028395e+02
3.627094e+06	-4.383719e+01	-9.269079e+01	-3.084504e+01	-7.647773e+00	-9.505690e+01	-2.718667e+01	-5.284278e+01	1.027258e+02
3.627125e+06	-4.383191e+01	-9.268587e+01	-3.084576e+01	-7.655092e+00	-9.790688e+01	1.234949e+01	-5.284525e+01	1.026119e+02
3.627156e+06	-4.382663e+01	-9.268096e+01	-3.084648e+01	-7.662411e+00	-9.574627e+01	5.591205e+01	-5.284769e+01	1.024981e+02
3.627188e+06	-4.382135e+01	-9.267606e+01	-3.084720e+01	-7.669732e+00	-9.203951e+01	7.644252e+01	-5.285009e+01	1.023841e+02
3.627219e+06	-4.383109e+01	-9.266224e+01	-3.084434e+01	-7.658692e+00	-9.381505e+01	8.269524e+01	-5.284125e+01	1.022902e+02
3.627250e+06	-4.384109e+01	-9.264825e+01	-3.084143e+01	-7.647361e+00	-9.597340e+01	9.244575e+01	-5.283221e+01	1.021968e+02
3.627281e+06	-4.385109e+01	-9.263422e+01	-3.083852e+01	-7.636037e+00	-9.826871e+01	1.088735e+02	-5.282315e+01	1.021035e+02
3.627312e+06	-4.386111e+01	-9.262016e+01	-3.083561e+01	-7.624722e+00	-9.982244e+01	1.350090e+02	-5.281408e+01	1.020105e+02
3.627344e+06	-4.387114e+01	-9.260607e+01	-3.083270e+01	-7.613413e+00	-9.926980e+01	1.646330e+02	-5.280500e+01	1.019176e+02
3.627375e+06	-4.386920e+01	-9.261569e+01	-3.083324e+01	-7.630673e+00	-9.879594e+01	1.592633e+02	-5.282973e+01	1.019509e+02
3.627406e+06	-4.386717e+01	-9.262549e+01	-3.083380e+01	-7.648164e+00	-9.828390e+01	1.542342e+02	-5.285480e+01	1.019853e+02
3.627438e+06	-4.386514e+01	-9.263528e+01	-3.083436e+01	-7.665658e+00	-9.774432e+01	1.497797e+02	-5.287994e+01	1.020199e+02
3.627469e+06	-4.386310e+01	-9.264507e+01	-3.083492e+01	-7.683155e+00	-9.719266e+01	1.458521e+02	-5.290515e+01	1.020548e+02
3.627500e+06	-4.386107e+01	-9.265486e+01	-3.083548e+01	-7.700653e+00	-9.664011e+01	1.423939e+02	-5.293043e+01	1.020898e+02
3.627531e+06	-4.386338e+01	-9.266687e+01	-3.083563e+01	-7.695020e+00	-9.472647e+01	1.604097e+02	-5.292909e+01	1.021277e+02
3.627562e+06	-4.386568e+01	-9.267890e+01	-3.083578e+01	-7.689386e+00	-9.270730e+01	1.717512e+02	-5.292775e+01	1.021655e+02
3.627594e+06	-4.386799e+01	-9.269092e+01	-3.083592e+01	-7.683753e+00	-9.088949e+01	1.790147e+02	-5.292641e+01	1.022034e+02
3.627625e+06	-4.387030e+01	-9.270296e+01	-3.083607e+01	-7.678119e+00	-8.930779e+01	-1.760814e+02	-5.292506e+01	1.022412e+02
3.627656e+06	-4.387256e+01	-9.271483e+01	-3.083622e+01	-7.672741e+00	-8.796445e+01	-1.726575e+02	-5.292370e+01	1.022785e+02
3.627688e+06	-4.386878e+01	-9.270568e+01	-3.083681e+01	-7.699063e+00	-9.133898e+01	-1.798114e+02	-5.292139e+01	1.022574e+02
3.627719e+06	-4.386500e+01	-9.269655e+01	-3.083740e+01	-7.725389e+00	-9.626337e+01	1.612977e+02	-5.291908e+01	1.022363e+02
3.627750e+06	-4.386122e+01	-9.268742e+01	-3.083799e+01	-7.751718e+00	-9.986801e+01	1.014899e+02	-5.291676e+01	1.022153e+02
3.627781e+06	-4.385745e+01	-9.267830e+01	-3.083857e+01	-7.778051e+00	-9.475320e+01	5.490424e+01	-5.291445e+01	1.021942e+02
3.627812e+06	-4.385367e+01	-9.266919e+01	-3.083915e+01	-7.804388e+00	-9.030907e+01	4.091887e+01	-5.291214e+01	1.021731e+02
3.627844e+06	-4.385783e+01	-9.263012e+01	-3.083654e+01	-7.786898e+00	-9.232191e+01	4.241091e+01	-5.291739e+01	1.022406e+02
3.627875e+06	-4.386211e+01	-9.259052e+01	-3.083388e+01	-7.768706e+00	-9.508133e+01	4.528978e+01	-5.292276e+01	1.023095e+02
3.627906e+06	-4.386640e+01	-9.255089e+01	-3.083122e+01	-7.750526e+00	-9.907295e+01	5.156254e+01	-5.292812e+01	1.023786e+02
3.627938e+06	-4.387068e+01	-9.251122e+01	-3.082855e+01	-7.732356e+00	-1.058198e+02	7.365953e+01	-5.293347e+01	1.024477e+02
3.627969e+06	-4.387496e+01	-9.247151e+01	-3.082589e+01	-7.714198e+00	-1.075637e+02	1.646889e+02	-5.293881e+01	1.025169e+02
3.628000e+06	-4.386999e+01	-9.258927e+01	-3.082901e+01	-7.697709e+00	-1.039506e+02	1.059848e+02	-5.293886e+01	1.027298e+02
3.628031e+06	-4.386493e+01	-9.270817e+01	-3.083217e+01	-7.681221e+00	-9.902927e+01	8.689721e+01	-5.293874e+01	1.029438e+02
3.628062e+06	-4.385982e+01	-9.282693e+01	-3.083534e+01	-7.664722e+00	-9.565075e+01	7.967204e+01	-5.293851e+01	1.031578e+02
3.628094e+06	-4.385468e+01	-9.294555e+01	-3.083850e+01	-7.648210e+00	-9.317138e+01	7.599837e+01	-5.293815e+01	1.033717e+02
3.628125e+06	-4.384951e+01	-9.306403e+01	-3.084167e+01	-7.631686e+00	-9.122766e+01	7.379161e+01	-5.293767e+01	1.035857e+02
3.628156e+06	-4.384815e+01	-9.298724e+01	-3.084203e+01	-7.646421e+00	-9.445070e+01	6.690698e+01	-5.292136e+01	1.035477e+02
3.628188e+06	-4.384677e+01	-9.291047e+01	-3.084238e+01	-7.661158e+00	-9.907134e+01	4.970563e+01	-5.290509e+01	1.035099e+02
3.628219e+06	-4.384537e+01	-9.283372e+01	-3.084274e+01	-7.675895e+00	-1.031252e+02	-3.695336e+00	-5.288883e+01	1.034722e+02
3.628250e+06	-4.384396e+01	-9.275700e+01	-3.084310e+01	-7.690634e+00	-9.874772e+01	-5.436148e+01	-5.287261e+01	1.034347e+02
3.628281e+06	-4.384261e+01	-9.268092e+01	-3.084345e+01	-7.705226e+00	-9.425599e+01	-7.021217e+01	-5.285666e+01	1.033973e+02
3.628312e+06	-4.385069e+01	-9.268144e+01	-3.084296e+01	-7.701463e+00	-9.370123e+01	-4.726422e+01	-5.287120e+01	1.033593e+02
3.628344e+06	-4.385878e+01	-9.268196e+01	-3.084248e+01	-7.697700e+00	-9.216445e+01	-2.941833e+01	-5.288576e+01	1.033211e+02
3.628375e+06	-4.386688e+01	-9.268248e+01	-3.084200e+01	-7.693937e+00	-9.036932e+01	-1.736503e+01	-5.290035e+01	1.032828e+02
3.628406e+06	-4.387498e+01	-9.268300e+01	-3.084152e+01	-7.690175e+00	-8.866667e+01	-9.340323e+00	-5.291495e+01	1.032444e+02
3.628438e+06	-4.388309e+01	-9.268352e+01	-3.084104e+01	-7.686413e+00	-8.714409e+01	-3.814195e+00	-5.292958e+01	1.032058e+02
3.628469e+06	-4.387541e+01	-9.265560e+01	-3.084080e+01	-7.683450e+00	-8.901069e+01	1.380280e+00	-5.292811e+01	1.032122e+02
3.628500e+06	-4.386747e+01	-9.262727e+01	-3.084057e+01	-7.680500e+00	-9.132132e+01	9.839479e+00	-5.292639e+01	1.032192e+02
3.628531e+06	-4.385954e+01	-9.259899e+01	-3.084033e+01	-7.677551e+00	-9.399630e+01	2.497844e+01	-5.292466e+01	1.032263e+02
3.628562e+06	-4.385161e+01	-9.257076e+01	-3.084010e+01	-7.674601e+00	-9.623188e+01	5.234360e+01	-5.292294e+01	1.032334e+02
3.628594e+06	-4.384369e+01	-9.254259e+01	-3.083986e+01	-7.671652e+00	-9.590529e+01	8.727852e+01	-5.292121e+01	1.032404e+02
3.628625e+06	-4.384686e+01	-9.257928e+01	-3.083936e+01	-7.685478e+00	-9.825968e+01	8.491516e+01	-5.296182e+01	1.031172e+02
3.628656e+06	-4.385011e+01	-9.261652e+01	-3.083885e+01	-7.699438e+00	-1.015087e+02	7.987556e+01	-5.300292e+01	1.029917e+02
3.628688e+06	-4.385336e+01	-9.265379e+01	-3.083835e+01	-7.713397e+00	-1.064436e+02	6.685057e+01	-5.304418e+01	1.028650e+02
3.628719e+06	-4.385661e+01	-9.269108e+01	-3.083784e+01	-7.727354e+00	-1.126985e+02	1.203237e+01	-5.308559e+01	1.027370e+02
3.628750e+06	-4.385985e+01	-9.272841e+01	-3.083733e+01	-7.741309e+00	-1.072748e+02	-5.204851e+01	-5.312715e+01	1.026079e+02
3.628781e+06	-4.385936e+01	-9.275047e+01	-3.083776e+01	-7.732485e+00	-1.094992e+02	-5.669934e+01	-5.308704e+01	1.027349e+02
3.628812e+06	-4.385888e+01	-9.277252e+01	-3.083818e+01	-7.723660e+00	-1.123519e+02	-6.506413e+01	-5.304707e+01	1.028606e+02
3.628844e+06	-4.385839e+01	-9.279458e+01	-3.083860e+01	-7.714834e+00	-1.159905e+02	-8.295182e+01	-5.300724e+01	1.029853e+02
3.628875e+06	-4.385790e+01	-9.281663e+01	-3.083903e+01	-7.706008e+00	-1.187964e+02	-1.231195e+02	-5.296755e+01	1.031088e+02
3.628906e+06	-4.385740e+01	-9.283825e+01	-3.083945e+01	-7.697139e+00	-1.164319e+02	-1.666155e+02	-5.292850e+01	1.032289e+02
3.628938e+06	-4.385632e+01	-9.280729e+01	-3.083975e+01	-7.683157e+00	-1.070394e+02	1.761271e+02	-5.295056e+01	1.030643e+02
3.628969e+06	-4.385524e+01	-9.277634e+01	-3.084005e+01	-7.669173e+00	-1.025377e+02	1.726920e+02	-5.297260e+01	1.028988e+02
3.629000e+06	-4.385415e+01	-9.274540e+01	-3.084035e+01	-7.655189e+00	-9.957807e+01	1.712377e+02	-5.299463e+01	1.027325e+02
3.629031e+06	-4.385307e+01	-9.271446e+01	-3.084065e+01	-7.641204e+00	-9.737228e+01	1.704353e+02	-5.301665e+01	1.025654e+02
3.629062e+06	-4.385198e+01	-9.268353e+01	-3.084095e+01	-7.627218e+00	-9.561385e+01	1.699270e+02	-5.303864e+01	1.023974e+02
3.629094e+06	-4.385069e+01	-9.267396e+01	-3.084145e+01	-7.638994e+00	-9.915955e+01	1.559313e+02	-5.302847e+01	1.023642e+02
3.629125e+06	-4.384939e+01	-9.266474e+01	-3.084195e+01	-7.651191e+00	-1.029600e+02	1.209001e+02	-5.301778e+01	1.023333e+02
3.629156e+06	-4.384810e+01	-9.265552e+01	-3.084245e+01	-7.663389e+00	-1.017349e+02	7.035330e+01	-5.300711e+01	1.023025e+02
3.629188e+06	-4.384680e+01	-9.264630e+01	-3.084295e+01	-7.675588e+00	-9.767502e+01	4.550652e+01	-5.299645e+01	1.022718e+02
3.629219e+06	-4.384551e+01	-9.263708e+01	-3.084346e+01	-7.687789e+00	-9.441538e+01	3.508356e+01	-5.298580e+01	1.022411e+02
3.629250e+06	-4.384430e+01	-9.265305e+01	-3.084260e+01	-7.694823e+00	-9.712428e+01	1.160136e+01	-5.299576e+01	1.021619e+02
3.629281e+06	-4.384309e+01	-9.266921e+01	-3.084173e+01	-7.701814e+00	-9.782632e+01	-2.491521e+01	-5.300588e+01	1.020822e+02
3.629312e+06	-4.384188e+01	-9.268537e+01	-3.084086e+01	-7.708803e+00	-9.554723e+01	-5.466774e+01	-5.301599e+01	1.020022e+02
3.629344e+06	-4.384066e+01	-9.270153e+01	-3.084000e+01	-7.715791e+00	-9.271322e+01	-7.065683e+01	-5.302610e+01	1.019220e+02
3.629375e+06	-4.383945e+01	-9.271768e+01	-3.083913e+01	-7.722777e+00	-9.029288e+01	-7.930863e+01	-5.303621e+01	1.018417e+02
