!CETC41,AV3656A,ZGL00048,1.3.2
!Calibration ON (Full Solt 2-Port(Omit Isolation))
!Measurements: S11 S21 S12 S22
!2025-04-18 22:49
# Hz  S  dB  R 50.000
1.095000e+007	-3.625905e+001	-1.789571e+002	-3.058255e+001	-2.427595e+001	-9.719375e+001	9.112546e+001	-3.311311e+001	1.529825e+002
1.095001e+007	-3.626952e+001	-1.790076e+002	-3.059510e+001	-2.428600e+001	-9.516765e+001	8.285159e+001	-3.311641e+001	1.529596e+002
1.095002e+007	-3.625520e+001	-1.788574e+002	-3.058691e+001	-2.440700e+001	-9.647333e+001	8.867887e+001	-3.311954e+001	1.530374e+002
1.095002e+007	-3.625252e+001	-1.789625e+002	-3.058013e+001	-2.435624e+001	-9.661007e+001	1.074759e+002	-3.310916e+001	1.530694e+002
1.095003e+007	-3.626503e+001	-1.788618e+002	-3.057981e+001	-2.438774e+001	-9.496489e+001	1.122971e+002	-3.311711e+001	1.530290e+002
1.095004e+007	-3.625545e+001	-1.789666e+002	-3.058134e+001	-2.440409e+001	-9.690850e+001	9.351995e+001	-3.311445e+001	1.530476e+002
1.095005e+007	-3.625980e+001	-1.790132e+002	-3.059147e+001	-2.444708e+001	-9.529225e+001	1.006777e+002	-3.311933e+001	1.529999e+002
1.095005e+007	-3.627524e+001	-1.789682e+002	-3.058385e+001	-2.446176e+001	-9.579762e+001	1.189856e+002	-3.311761e+001	1.530189e+002
1.095006e+007	-3.626149e+001	-1.789634e+002	-3.058282e+001	-2.448006e+001	-9.571390e+001	8.631720e+001	-3.311952e+001	1.530260e+002
1.095007e+007	-3.626843e+001	-1.789105e+002	-3.059263e+001	-2.450677e+001	-9.338259e+001	1.013441e+002	-3.311137e+001	1.530266e+002
1.095008e+007	-3.626735e+001	-1.789464e+002	-3.059173e+001	-2.457671e+001	-9.634840e+001	1.069312e+002	-3.312134e+001	1.530063e+002
1.095009e+007	-3.626403e+001	-1.789349e+002	-3.059991e+001	-2.463673e+001	-9.889764e+001	8.787897e+001	-3.310552e+001	1.530211e+002
1.095009e+007	-3.626504e+001	-1.789472e+002	-3.060922e+001	-2.461950e+001	-9.867802e+001	1.074449e+002	-3.312376e+001	1.529786e+002
1.095010e+007	-3.628475e+001	-1.789203e+002	-3.063371e+001	-2.447332e+001	-1.067662e+002	8.381761e+001	-3.312385e+001	1.529561e+002
1.095011e+007	-3.626691e+001	-1.788741e+002	-3.064859e+001	-2.448442e+001	-9.643313e+001	8.767325e+001	-3.312660e+001	1.529152e+002
1.095012e+007	-3.625469e+001	-1.789994e+002	-3.064976e+001	-2.437395e+001	-9.917856e+001	1.097325e+002	-3.311328e+001	1.528608e+002
1.095013e+007	-3.626878e+001	-1.789776e+002	-3.063990e+001	-2.429709e+001	-9.611752e+001	1.070878e+002	-3.312527e+001	1.529877e+002
1.095013e+007	-3.626616e+001	-1.788938e+002	-3.062652e+001	-2.412268e+001	-9.750650e+001	9.526675e+001	-3.313285e+001	1.530103e+002
1.095014e+007	-3.626036e+001	-1.790111e+002	-3.060827e+001	-2.405602e+001	-9.449052e+001	9.266948e+001	-3.312727e+001	1.529969e+002
1.095015e+007	-3.626633e+001	-1.788855e+002	-3.058571e+001	-2.414920e+001	-9.812251e+001	1.088912e+002	-3.311826e+001	1.529945e+002
1.095016e+007	-3.628333e+001	-1.789918e+002	-3.056954e+001	-2.425752e+001	-9.521368e+001	9.114554e+001	-3.312791e+001	1.530516e+002
1.095016e+007	-3.627032e+001	-1.789993e+002	-3.057141e+001	-2.440183e+001	-9.540196e+001	9.511722e+001	-3.311263e+001	1.530733e+002
1.095017e+007	-3.625626e+001	-1.790190e+002	-3.058763e+001	-2.450420e+001	-9.539249e+001	1.243395e+002	-3.312136e+001	1.529495e+002
1.095018e+007	-3.627239e+001	-1.790114e+002	-3.061650e+001	-2.453448e+001	-9.443717e+001	7.997003e+001	-3.312327e+001	1.529957e+002
1.095019e+007	-3.626506e+001	-1.789232e+002	-3.062507e+001	-2.438734e+001	-9.751081e+001	9.104272e+001	-3.313290e+001	1.529465e+002
1.095020e+007	-3.627183e+001	-1.790439e+002	-3.063780e+001	-2.422893e+001	-9.667860e+001	1.154957e+002	-3.311863e+001	1.529725e+002
1.095020e+007	-3.626930e+001	-1.788464e+002	-3.060130e+001	-2.414062e+001	-9.693228e+001	1.110554e+002	-3.313132e+001	1.530558e+002
1.095021e+007	-3.625878e+001	-1.790353e+002	-3.056924e+001	-2.425848e+001	-9.526851e+001	1.071614e+002	-3.311750e+001	1.530671e+002
1.095022e+007	-3.627558e+001	-1.790134e+002	-3.057283e+001	-2.443237e+001	-9.601113e+001	9.874195e+001	-3.311786e+001	1.529540e+002
1.095023e+007	-3.626190e+001	-1.790295e+002	-3.060215e+001	-2.449588e+001	-9.625552e+001	1.123307e+002	-3.312168e+001	1.530032e+002
1.095023e+007	-3.626873e+001	-1.789846e+002	-3.062405e+001	-2.428331e+001	-9.734749e+001	9.239800e+001	-3.313063e+001	1.529590e+002
1.095024e+007	-3.625866e+001	-1.789349e+002	-3.061034e+001	-2.420987e+001	-9.699364e+001	9.373774e+001	-3.313388e+001	1.530115e+002
1.095025e+007	-3.627345e+001	-1.789931e+002	-3.057943e+001	-2.421387e+001	-9.619083e+001	8.738711e+001	-3.312442e+001	1.530523e+002
1.095026e+007	-3.626391e+001	-1.788621e+002	-3.057782e+001	-2.441282e+001	-9.792430e+001	1.013662e+002	-3.311788e+001	1.529921e+002
1.095027e+007	-3.624615e+001	-1.790114e+002	-3.060456e+001	-2.438280e+001	-9.823459e+001	1.152510e+002	-3.311807e+001	1.529668e+002
1.095027e+007	-3.627721e+001	-1.789624e+002	-3.062087e+001	-2.429143e+001	-9.466558e+001	9.879275e+001	-3.312979e+001	1.530055e+002
1.095028e+007	-3.626129e+001	-1.789112e+002	-3.059548e+001	-2.415190e+001	-9.653451e+001	9.402942e+001	-3.312589e+001	1.529570e+002
1.095029e+007	-3.626005e+001	-1.790201e+002	-3.056932e+001	-2.433946e+001	-9.487217e+001	1.015200e+002	-3.312344e+001	1.529769e+002
1.095030e+007	-3.625917e+001	-1.789655e+002	-3.059909e+001	-2.450396e+001	-9.988483e+001	1.250268e+002	-3.312898e+001	1.529749e+002
1.095030e+007	-3.625495e+001	-1.789942e+002	-3.061568e+001	-2.436971e+001	-9.649230e+001	7.903643e+001	-3.313468e+001	1.530158e+002
1.095031e+007	-3.625575e+001	-1.789607e+002	-3.060054e+001	-2.413872e+001	-1.038201e+002	1.187209e+002	-3.312379e+001	1.529982e+002
1.095032e+007	-3.627273e+001	-1.789905e+002	-3.057346e+001	-2.433882e+001	-9.447459e+001	8.958224e+001	-3.311940e+001	1.530057e+002
1.095033e+007	-3.625757e+001	-1.790131e+002	-3.058899e+001	-2.441145e+001	-9.880691e+001	9.870862e+001	-3.311738e+001	1.529489e+002
1.095034e+007	-3.623883e+001	-1.788797e+002	-3.061530e+001	-2.435895e+001	-9.488030e+001	1.093534e+002	-3.313524e+001	1.530083e+002
1.095034e+007	-3.627336e+001	-1.789780e+002	-3.058428e+001	-2.421144e+001	-9.663037e+001	7.998386e+001	-3.313059e+001	1.530147e+002
1.095035e+007	-3.625488e+001	-1.788998e+002	-3.058949e+001	-2.441499e+001	-9.667926e+001	1.127185e+002	-3.312583e+001	1.529393e+002
1.095036e+007	-3.626866e+001	-1.790656e+002	-3.060834e+001	-2.433911e+001	-9.891873e+001	1.007380e+002	-3.312865e+001	1.528864e+002
1.095037e+007	-3.627218e+001	-1.789114e+002	-3.059305e+001	-2.418820e+001	-9.696792e+001	1.054592e+002	-3.311226e+001	1.530088e+002
1.095038e+007	-3.626813e+001	-1.788832e+002	-3.058471e+001	-2.439186e+001	-9.575290e+001	9.176975e+001	-3.312346e+001	1.530307e+002
1.095038e+007	-3.627232e+001	-1.788413e+002	-3.061020e+001	-2.435260e+001	-9.490478e+001	1.066274e+002	-3.311789e+001	1.530425e+002
1.095039e+007	-3.625764e+001	-1.789174e+002	-3.059109e+001	-2.428216e+001	-9.496574e+001	9.939139e+001	-3.312081e+001	1.530418e+002
1.095040e+007	-3.625862e+001	-1.789430e+002	-3.058658e+001	-2.438842e+001	-9.601082e+001	9.587569e+001	-3.311551e+001	1.529868e+002
1.095041e+007	-3.625511e+001	-1.790003e+002	-3.059780e+001	-2.436722e+001	-9.937141e+001	1.056615e+002	-3.312527e+001	1.529602e+002
1.095041e+007	-3.627318e+001	-1.788500e+002	-3.058974e+001	-2.426575e+001	-9.486111e+001	9.527133e+001	-3.312554e+001	1.529987e+002
1.095042e+007	-3.627359e+001	-1.789148e+002	-3.058258e+001	-2.441708e+001	-9.823013e+001	9.722308e+001	-3.311666e+001	1.529550e+002
1.095043e+007	-3.626579e+001	-1.789431e+002	-3.060302e+001	-2.432374e+001	-9.930147e+001	1.037165e+002	-3.312064e+001	1.529735e+002
1.095044e+007	-3.626067e+001	-1.789167e+002	-3.058668e+001	-2.433062e+001	-9.351577e+001	1.027472e+002	-3.311311e+001	1.530254e+002
1.095045e+007	-3.627203e+001	-1.788909e+002	-3.058985e+001	-2.440954e+001	-9.395907e+001	9.180548e+001	-3.311657e+001	1.530166e+002
1.095045e+007	-3.626495e+001	-1.788098e+002	-3.060107e+001	-2.420312e+001	-9.711731e+001	1.050597e+002	-3.312463e+001	1.529842e+002
1.095046e+007	-3.627620e+001	-1.789578e+002	-3.057932e+001	-2.432727e+001	-9.436593e+001	8.791708e+001	-3.311155e+001	1.529691e+002
1.095047e+007	-3.626096e+001	-1.788853e+002	-3.059904e+001	-2.431732e+001	-9.259679e+001	8.083487e+001	-3.311924e+001	1.530130e+002
1.095048e+007	-3.626112e+001	-1.789469e+002	-3.058561e+001	-2.423675e+001	-9.894849e+001	8.662009e+001	-3.311179e+001	1.529428e+002
1.095048e+007	-3.626559e+001	-1.789350e+002	-3.058853e+001	-2.433899e+001	-9.516437e+001	8.771411e+001	-3.311614e+001	1.529636e+002
1.095049e+007	-3.626400e+001	-1.789751e+002	-3.058757e+001	-2.423093e+001	-9.641718e+001	1.040883e+002	-3.311622e+001	1.530029e+002
1.095050e+007	-3.625513e+001	-1.790391e+002	-3.058933e+001	-2.431915e+001	-9.874126e+001	9.678070e+001	-3.311129e+001	1.530384e+002
1.095051e+007	-3.626654e+001	-1.789406e+002	-3.058676e+001	-2.430700e+001	-9.835972e+001	1.186649e+002	-3.311048e+001	1.529511e+002
1.095052e+007	-3.627613e+001	-1.789042e+002	-3.059085e+001	-2.431561e+001	-9.661217e+001	1.481984e+002	-3.312817e+001	1.530627e+002
1.095052e+007	-3.625922e+001	-1.789659e+002	-3.058854e+001	-2.440755e+001	-9.563594e+001	9.950705e+001	-3.312645e+001	1.529809e+002
1.095053e+007	-3.626183e+001	-1.789670e+002	-3.058911e+001	-2.431229e+001	-9.656286e+001	7.873024e+001	-3.312298e+001	1.529890e+002
1.095054e+007	-3.626209e+001	-1.789395e+002	-3.059424e+001	-2.427799e+001	-9.763136e+001	1.242588e+002	-3.311964e+001	1.529956e+002
1.095055e+007	-3.625790e+001	-1.789606e+002	-3.057976e+001	-2.427734e+001	-9.402789e+001	9.788642e+001	-3.312171e+001	1.529759e+002
1.095055e+007	-3.626493e+001	-1.789605e+002	-3.059186e+001	-2.437813e+001	-9.490968e+001	9.113696e+001	-3.311007e+001	1.529775e+002
1.095056e+007	-3.627282e+001	-1.790589e+002	-3.058950e+001	-2.435489e+001	-9.425539e+001	9.250351e+001	-3.311627e+001	1.529882e+002
1.095057e+007	-3.626331e+001	-1.789483e+002	-3.058740e+001	-2.432713e+001	-1.027375e+002	1.093771e+002	-3.311287e+001	1.530245e+002
1.095058e+007	-3.626556e+001	-1.789905e+002	-3.058810e+001	-2.425722e+001	-9.615493e+001	1.005553e+002	-3.311085e+001	1.530384e+002
1.095059e+007	-3.625979e+001	-1.790411e+002	-3.057819e+001	-2.429701e+001	-9.444844e+001	9.325201e+001	-3.311040e+001	1.529856e+002
1.095059e+007	-3.626665e+001	-1.789523e+002	-3.059182e+001	-2.429389e+001	-9.836450e+001	9.413506e+001	-3.311774e+001	1.530020e+002
1.095060e+007	-3.626869e+001	-1.788815e+002	-3.058910e+001	-2.435506e+001	-9.553010e+001	1.079106e+002	-3.311187e+001	1.529514e+002
1.095061e+007	-3.625059e+001	-1.789922e+002	-3.059139e+001	-2.437587e+001	-1.006189e+002	9.869233e+001	-3.313184e+001	1.530198e+002
1.095062e+007	-3.626665e+001	-1.789405e+002	-3.058791e+001	-2.435652e+001	-9.677155e+001	8.937315e+001	-3.311769e+001	1.529856e+002
1.095063e+007	-3.626297e+001	-1.789956e+002	-3.058570e+001	-2.423873e+001	-9.636467e+001	1.158520e+002	-3.312458e+001	1.530003e+002
1.095063e+007	-3.626685e+001	-1.789253e+002	-3.058751e+001	-2.439529e+001	-1.041522e+002	6.690659e+001	-3.311649e+001	1.530119e+002
1.095064e+007	-3.625455e+001	-1.789732e+002	-3.058350e+001	-2.428154e+001	-9.427362e+001	9.695714e+001	-3.310614e+001	1.529948e+002
1.095065e+007	-3.626303e+001	-1.790198e+002	-3.058915e+001	-2.438519e+001	-9.506216e+001	1.074949e+002	-3.312479e+001	1.530092e+002
1.095066e+007	-3.626344e+001	-1.789796e+002	-3.057369e+001	-2.429868e+001	-9.533542e+001	1.111692e+002	-3.312386e+001	1.530007e+002
1.095066e+007	-3.628980e+001	-1.788291e+002	-3.059241e+001	-2.432826e+001	-9.520036e+001	9.141299e+001	-3.311799e+001	1.529854e+002
1.095067e+007	-3.628165e+001	-1.788817e+002	-3.056723e+001	-2.435442e+001	-9.639263e+001	1.045771e+002	-3.311572e+001	1.529914e+002
1.095068e+007	-3.627934e+001	-1.788876e+002	-3.058239e+001	-2.422081e+001	-9.715400e+001	7.697149e+001	-3.312092e+001	1.529378e+002
1.095069e+007	-3.626924e+001	-1.789659e+002	-3.059050e+001	-2.438849e+001	-9.476195e+001	1.018116e+002	-3.312670e+001	1.529616e+002
1.095070e+007	-3.626592e+001	-1.788815e+002	-3.057312e+001	-2.434171e+001	-9.938722e+001	1.080380e+002	-3.311657e+001	1.530266e+002
1.095070e+007	-3.625988e+001	-1.788822e+002	-3.059261e+001	-2.428859e+001	-1.019402e+002	9.339425e+001	-3.311739e+001	1.529844e+002
1.095071e+007	-3.625516e+001	-1.789921e+002	-3.058286e+001	-2.445792e+001	-9.482261e+001	1.090835e+002	-3.312088e+001	1.529754e+002
1.095072e+007	-3.627869e+001	-1.788572e+002	-3.057734e+001	-2.424684e+001	-9.739251e+001	1.002485e+002	-3.311160e+001	1.529763e+002
1.095073e+007	-3.627603e+001	-1.790172e+002	-3.060101e+001	-2.428820e+001	-9.481155e+001	1.067140e+002	-3.311337e+001	1.530540e+002
1.095073e+007	-3.626912e+001	-1.789074e+002	-3.058108e+001	-2.436541e+001	-9.681448e+001	1.020289e+002	-3.312006e+001	1.529338e+002
1.095074e+007	-3.625567e+001	-1.788609e+002	-3.057437e+001	-2.425112e+001	-9.706465e+001	1.015388e+002	-3.312207e+001	1.529798e+002
1.095075e+007	-3.626488e+001	-1.788973e+002	-3.058949e+001	-2.432971e+001	-9.418721e+001	7.962210e+001	-3.311648e+001	1.530267e+002
1.095076e+007	-3.627743e+001	-1.789231e+002	-3.057670e+001	-2.441359e+001	-9.875153e+001	9.541377e+001	-3.311524e+001	1.529616e+002
1.095077e+007	-3.626502e+001	-1.789030e+002	-3.055196e+001	-2.424625e+001	-9.614729e+001	9.106809e+001	-3.312082e+001	1.530205e+002
1.095077e+007	-3.626786e+001	-1.789545e+002	-3.060047e+001	-2.421250e+001	-9.740153e+001	9.565251e+001	-3.312775e+001	1.530095e+002
1.095078e+007	-3.625492e+001	-1.789839e+002	-3.058969e+001	-2.440047e+001	-9.474541e+001	1.000878e+002	-3.311922e+001	1.530101e+002
1.095079e+007	-3.626503e+001	-1.789515e+002	-3.056995e+001	-2.441203e+001	-9.535284e+001	8.204823e+001	-3.312747e+001	1.529929e+002
1.095080e+007	-3.627875e+001	-1.789227e+002	-3.057649e+001	-2.423562e+001	-9.969136e+001	1.046570e+002	-3.312208e+001	1.530115e+002
1.095080e+007	-3.625394e+001	-1.789816e+002	-3.059074e+001	-2.436237e+001	-9.639192e+001	1.046654e+002	-3.311898e+001	1.529814e+002
1.095081e+007	-3.627099e+001	-1.789576e+002	-3.057289e+001	-2.441905e+001	-9.475845e+001	1.012152e+002	-3.311189e+001	1.530524e+002
1.095082e+007	-3.627430e+001	-1.788929e+002	-3.055299e+001	-2.427191e+001	-9.463497e+001	9.730349e+001	-3.311612e+001	1.529836e+002
1.095083e+007	-3.625661e+001	-1.789023e+002	-3.058260e+001	-2.417238e+001	-9.731074e+001	1.022238e+002	-3.312253e+001	1.530218e+002
1.095084e+007	-3.626948e+001	-1.790097e+002	-3.059302e+001	-2.435666e+001	-9.637097e+001	1.011393e+002	-3.312903e+001	1.530270e+002
1.095084e+007	-3.625019e+001	-1.789383e+002	-3.057215e+001	-2.444109e+001	-9.484199e+001	9.591938e+001	-3.312035e+001	1.530735e+002
1.095085e+007	-3.626604e+001	-1.790168e+002	-3.055844e+001	-2.426607e+001	-9.463541e+001	1.069686e+002	-3.311149e+001	1.529599e+002
1.095086e+007	-3.626024e+001	-1.788916e+002	-3.058041e+001	-2.418046e+001	-9.478917e+001	7.704540e+001	-3.311841e+001	1.529645e+002
1.095087e+007	-3.625593e+001	-1.790122e+002	-3.059280e+001	-2.430214e+001	-9.936660e+001	7.670205e+001	-3.310804e+001	1.530245e+002
1.095088e+007	-3.625862e+001	-1.789835e+002	-3.058437e+001	-2.438288e+001	-9.485717e+001	1.001383e+002	-3.312597e+001	1.529470e+002
1.095088e+007	-3.626483e+001	-1.789949e+002	-3.056092e+001	-2.439216e+001	-1.013021e+002	8.856937e+001	-3.311557e+001	1.529233e+002
1.095089e+007	-3.627913e+001	-1.789797e+002	-3.055816e+001	-2.430890e+001	-9.563900e+001	9.290294e+001	-3.312345e+001	1.530210e+002
1.095090e+007	-3.625153e+001	-1.788931e+002	-3.057763e+001	-2.421014e+001	-9.477359e+001	9.149808e+001	-3.311503e+001	1.529957e+002
1.095091e+007	-3.625661e+001	-1.789510e+002	-3.059428e+001	-2.427105e+001	-9.552101e+001	1.001809e+002	-3.312056e+001	1.530042e+002
1.095091e+007	-3.624978e+001	-1.789231e+002	-3.058971e+001	-2.448644e+001	-9.743168e+001	1.003053e+002	-3.312621e+001	1.530297e+002
1.095092e+007	-3.627020e+001	-1.790338e+002	-3.057136e+001	-2.444643e+001	-9.745011e+001	1.013694e+002	-3.312139e+001	1.529981e+002
1.095093e+007	-3.625811e+001	-1.789606e+002	-3.055168e+001	-2.441692e+001	-9.570025e+001	9.409953e+001	-3.311327e+001	1.529957e+002
1.095094e+007	-3.625264e+001	-1.790253e+002	-3.054785e+001	-2.421169e+001	-9.734262e+001	9.612578e+001	-3.313261e+001	1.529495e+002
1.095095e+007	-3.627023e+001	-1.787938e+002	-3.056806e+001	-2.414439e+001	-9.869043e+001	1.038945e+002	-3.311837e+001	1.529359e+002
1.095095e+007	-3.625786e+001	-1.788586e+002	-3.058756e+001	-2.417124e+001	-9.909556e+001	7.971262e+001	-3.311823e+001	1.529891e+002
1.095096e+007	-3.627496e+001	-1.788756e+002	-3.060113e+001	-2.427579e+001	-9.726482e+001	9.026642e+001	-3.311413e+001	1.530088e+002
1.095097e+007	-3.625456e+001	-1.788662e+002	-3.058584e+001	-2.438621e+001	-9.635089e+001	8.568651e+001	-3.311444e+001	1.530147e+002
1.095098e+007	-3.625132e+001	-1.788719e+002	-3.057634e+001	-2.444925e+001	-9.653821e+001	1.048740e+002	-3.312291e+001	1.529468e+002
1.095098e+007	-3.626785e+001	-1.789932e+002	-3.054317e+001	-2.447374e+001	-9.875585e+001	1.130353e+002	-3.311414e+001	1.530022e+002
1.095099e+007	-3.626711e+001	-1.789212e+002	-3.054232e+001	-2.439764e+001	-9.644806e+001	9.664424e+001	-3.311408e+001	1.529056e+002
1.095100e+007	-3.626628e+001	-1.789232e+002	-3.053482e+001	-2.424870e+001	-9.650923e+001	8.840350e+001	-3.312455e+001	1.530064e+002
1.095101e+007	-3.625315e+001	-1.789412e+002	-3.054594e+001	-2.419676e+001	-9.363533e+001	9.132958e+001	-3.310997e+001	1.530231e+002
1.095102e+007	-3.627235e+001	-1.789634e+002	-3.055750e+001	-2.409581e+001	-9.591851e+001	1.057835e+002	-3.311769e+001	1.529216e+002
1.095102e+007	-3.627648e+001	-1.788277e+002	-3.056444e+001	-2.414473e+001	-9.623782e+001	9.226276e+001	-3.312136e+001	1.529918e+002
1.095103e+007	-3.625794e+001	-1.789553e+002	-3.058690e+001	-2.422134e+001	-9.759773e+001	1.173168e+002	-3.312508e+001	1.529367e+002
1.095104e+007	-3.626026e+001	-1.788743e+002	-3.058077e+001	-2.417521e+001	-9.622702e+001	1.115655e+002	-3.311854e+001	1.530214e+002
1.095105e+007	-3.628331e+001	-1.788888e+002	-3.059499e+001	-2.427864e+001	-9.614189e+001	1.102817e+002	-3.312489e+001	1.529711e+002
1.095105e+007	-3.627330e+001	-1.787771e+002	-3.059046e+001	-2.431499e+001	-9.590239e+001	1.024721e+002	-3.310916e+001	1.529782e+002
1.095106e+007	-3.625568e+001	-1.789659e+002	-3.058443e+001	-2.436226e+001	-9.718993e+001	9.381738e+001	-3.311048e+001	1.529334e+002
1.095107e+007	-3.626285e+001	-1.788746e+002	-3.057796e+001	-2.432391e+001	-9.508298e+001	1.293576e+002	-3.312371e+001	1.530700e+002
1.095108e+007	-3.626256e+001	-1.789004e+002	-3.058960e+001	-2.439093e+001	-9.728641e+001	8.525197e+001	-3.312001e+001	1.529740e+002
1.095109e+007	-3.626701e+001	-1.789251e+002	-3.057964e+001	-2.438916e+001	-9.724354e+001	1.075365e+002	-3.312545e+001	1.529552e+002
1.095109e+007	-3.626116e+001	-1.789233e+002	-3.057214e+001	-2.439483e+001	-9.413858e+001	8.960642e+001	-3.312418e+001	1.529816e+002
1.095110e+007	-3.626614e+001	-1.788721e+002	-3.057709e+001	-2.446777e+001	-9.430208e+001	1.014431e+002	-3.312400e+001	1.529811e+002
1.095111e+007	-3.624741e+001	-1.788539e+002	-3.056583e+001	-2.439624e+001	-9.599524e+001	9.789338e+001	-3.311860e+001	1.530592e+002
1.095112e+007	-3.627002e+001	-1.788542e+002	-3.057872e+001	-2.441104e+001	-9.752210e+001	9.888808e+001	-3.311992e+001	1.530171e+002
1.095113e+007	-3.626451e+001	-1.789555e+002	-3.058034e+001	-2.441309e+001	-9.723944e+001	1.042530e+002	-3.311851e+001	1.530572e+002
1.095113e+007	-3.626145e+001	-1.789808e+002	-3.058638e+001	-2.446174e+001	-9.333152e+001	9.626607e+001	-3.311221e+001	1.529909e+002
1.095114e+007	-3.625809e+001	-1.790125e+002	-3.059297e+001	-2.437921e+001	-9.529638e+001	1.089341e+002	-3.312232e+001	1.529770e+002
1.095115e+007	-3.626694e+001	-1.788750e+002	-3.059147e+001	-2.440845e+001	-9.554261e+001	8.626821e+001	-3.311227e+001	1.529797e+002
1.095116e+007	-3.627500e+001	-1.790105e+002	-3.059598e+001	-2.432668e+001	-9.692292e+001	7.827219e+001	-3.312153e+001	1.530029e+002
