!CETC41,AV3656A,ZGL00048,1.3.2
!Calibration ON (Full Solt 2-Port(Omit Isolation))
!Measurements: S11 S21 S12 S22
!2025-04-29 17:53
# Hz  S  dB  R 50.000
1.095000e+007	-4.254926e+001	-7.662144e+001	-3.074494e+001	-2.186571e+001	-1.000164e+002	9.918447e+001	-4.695235e+001	1.139964e+002
1.095001e+007	-4.252195e+001	-7.685165e+001	-3.075702e+001	-2.187534e+001	-9.837921e+001	9.155642e+001	-4.698107e+001	1.138761e+002
1.095002e+007	-4.252797e+001	-7.674063e+001	-3.075037e+001	-2.190396e+001	-9.945508e+001	1.186916e+002	-4.699312e+001	1.138964e+002
1.095002e+007	-4.249340e+001	-7.686945e+001	-3.075056e+001	-2.198316e+001	-9.769062e+001	1.191076e+002	-4.697769e+001	1.135096e+002
1.095003e+007	-4.251339e+001	-7.691341e+001	-3.076517e+001	-2.185139e+001	-9.692708e+001	1.126336e+002	-4.699738e+001	1.141087e+002
1.095004e+007	-4.255458e+001	-7.719805e+001	-3.074849e+001	-2.189371e+001	-9.719488e+001	8.034729e+001	-4.694369e+001	1.140400e+002
1.095005e+007	-4.251259e+001	-7.682182e+001	-3.075302e+001	-2.187368e+001	-9.458523e+001	8.647554e+001	-4.694523e+001	1.138664e+002
1.095005e+007	-4.251421e+001	-7.712726e+001	-3.075576e+001	-2.184059e+001	-9.889304e+001	1.032943e+002	-4.699122e+001	1.139725e+002
1.095006e+007	-4.254237e+001	-7.688361e+001	-3.074382e+001	-2.190550e+001	-9.644723e+001	8.083342e+001	-4.695331e+001	1.137011e+002
1.095007e+007	-4.254828e+001	-7.674772e+001	-3.075845e+001	-2.187811e+001	-9.788087e+001	9.243505e+001	-4.696531e+001	1.139950e+002
1.095008e+007	-4.253542e+001	-7.691266e+001	-3.074859e+001	-2.180714e+001	-9.857348e+001	7.924870e+001	-4.693673e+001	1.136465e+002
1.095009e+007	-4.251892e+001	-7.672201e+001	-3.075204e+001	-2.183493e+001	-9.425436e+001	9.211727e+001	-4.700944e+001	1.135722e+002
1.095009e+007	-4.252808e+001	-7.676842e+001	-3.073661e+001	-2.190804e+001	-9.713235e+001	1.147002e+002	-4.701866e+001	1.134946e+002
1.095010e+007	-4.249848e+001	-7.694170e+001	-3.074034e+001	-2.182348e+001	-9.473537e+001	1.172706e+002	-4.695784e+001	1.137308e+002
1.095011e+007	-4.254557e+001	-7.689279e+001	-3.073648e+001	-2.194049e+001	-9.724437e+001	1.224444e+002	-4.700251e+001	1.136896e+002
1.095012e+007	-4.250122e+001	-7.686113e+001	-3.075344e+001	-2.192107e+001	-9.580471e+001	9.609736e+001	-4.704544e+001	1.139283e+002
1.095013e+007	-4.252579e+001	-7.683503e+001	-3.075873e+001	-2.201232e+001	-9.748313e+001	8.641773e+001	-4.702054e+001	1.137382e+002
1.095013e+007	-4.252642e+001	-7.693465e+001	-3.076697e+001	-2.192499e+001	-9.539163e+001	8.251975e+001	-4.704252e+001	1.140435e+002
1.095014e+007	-4.249061e+001	-7.685585e+001	-3.076638e+001	-2.192816e+001	-9.487856e+001	9.536167e+001	-4.703250e+001	1.138206e+002
1.095015e+007	-4.253209e+001	-7.689668e+001	-3.075952e+001	-2.187574e+001	-9.734293e+001	9.322885e+001	-4.694719e+001	1.136099e+002
1.095016e+007	-4.254349e+001	-7.662525e+001	-3.075412e+001	-2.180764e+001	-9.537817e+001	8.996679e+001	-4.698266e+001	1.138469e+002
1.095016e+007	-4.252996e+001	-7.701782e+001	-3.075338e+001	-2.183090e+001	-9.679050e+001	8.048067e+001	-4.700629e+001	1.143455e+002
1.095017e+007	-4.252350e+001	-7.699977e+001	-3.074192e+001	-2.194456e+001	-9.783560e+001	9.543677e+001	-4.702856e+001	1.136571e+002
1.095018e+007	-4.254242e+001	-7.675590e+001	-3.075390e+001	-2.195334e+001	-9.594995e+001	7.825592e+001	-4.702170e+001	1.136791e+002
1.095019e+007	-4.251967e+001	-7.681244e+001	-3.075421e+001	-2.199726e+001	-9.689794e+001	1.077175e+002	-4.702706e+001	1.138209e+002
1.095020e+007	-4.254934e+001	-7.681477e+001	-3.076702e+001	-2.195031e+001	-9.827367e+001	7.040074e+001	-4.703895e+001	1.141738e+002
1.095020e+007	-4.255202e+001	-7.669343e+001	-3.075194e+001	-2.178688e+001	-9.772894e+001	8.892587e+001	-4.697735e+001	1.139457e+002
1.095021e+007	-4.253771e+001	-7.702191e+001	-3.074539e+001	-2.177720e+001	-9.460705e+001	8.816212e+001	-4.692835e+001	1.138878e+002
1.095022e+007	-4.255752e+001	-7.682066e+001	-3.074457e+001	-2.184487e+001	-9.706474e+001	9.194568e+001	-4.697729e+001	1.135143e+002
1.095023e+007	-4.250818e+001	-7.672368e+001	-3.074033e+001	-2.201263e+001	-9.800705e+001	9.288877e+001	-4.701369e+001	1.135704e+002
1.095023e+007	-4.254046e+001	-7.698806e+001	-3.075262e+001	-2.194880e+001	-9.670437e+001	9.144983e+001	-4.699041e+001	1.141369e+002
1.095024e+007	-4.253851e+001	-7.645961e+001	-3.076298e+001	-2.188987e+001	-9.715669e+001	9.614537e+001	-4.691767e+001	1.142288e+002
1.095025e+007	-4.255128e+001	-7.691552e+001	-3.075039e+001	-2.186272e+001	-9.583543e+001	1.013686e+002	-4.694569e+001	1.135539e+002
1.095026e+007	-4.253684e+001	-7.677747e+001	-3.074481e+001	-2.182433e+001	-9.510751e+001	1.029311e+002	-4.696517e+001	1.134324e+002
1.095027e+007	-4.257645e+001	-7.675250e+001	-3.075318e+001	-2.202881e+001	-9.695879e+001	9.287664e+001	-4.704640e+001	1.141097e+002
1.095027e+007	-4.252006e+001	-7.674456e+001	-3.076936e+001	-2.192424e+001	-9.490507e+001	8.585848e+001	-4.698557e+001	1.141460e+002
1.095028e+007	-4.254290e+001	-7.704796e+001	-3.075610e+001	-2.178302e+001	-9.570847e+001	1.189279e+002	-4.693645e+001	1.139438e+002
1.095029e+007	-4.255621e+001	-7.705937e+001	-3.073692e+001	-2.184040e+001	-9.635020e+001	9.641774e+001	-4.700569e+001	1.136457e+002
1.095030e+007	-4.257369e+001	-7.671034e+001	-3.074400e+001	-2.198409e+001	-9.999689e+001	8.834576e+001	-4.698211e+001	1.139157e+002
1.095030e+007	-4.251875e+001	-7.692024e+001	-3.077042e+001	-2.192131e+001	-9.843792e+001	1.064858e+002	-4.699560e+001	1.142721e+002
1.095031e+007	-4.254526e+001	-7.669973e+001	-3.075347e+001	-2.181356e+001	-9.718569e+001	9.890026e+001	-4.698158e+001	1.139419e+002
1.095032e+007	-4.257809e+001	-7.692463e+001	-3.074444e+001	-2.192343e+001	-1.006446e+002	1.001709e+002	-4.701572e+001	1.138138e+002
1.095033e+007	-4.252640e+001	-7.685655e+001	-3.075319e+001	-2.199606e+001	-9.798876e+001	8.585526e+001	-4.700661e+001	1.138812e+002
1.095034e+007	-4.252308e+001	-7.677071e+001	-3.076723e+001	-2.181134e+001	-9.576003e+001	1.049353e+002	-4.692781e+001	1.139894e+002
1.095034e+007	-4.255081e+001	-7.725531e+001	-3.074124e+001	-2.184259e+001	-9.761094e+001	1.145115e+002	-4.696251e+001	1.133340e+002
1.095035e+007	-4.256277e+001	-7.700027e+001	-3.074751e+001	-2.197453e+001	-1.002269e+002	1.123508e+002	-4.702508e+001	1.139652e+002
1.095036e+007	-4.253689e+001	-7.683360e+001	-3.076987e+001	-2.198439e+001	-9.888339e+001	9.358342e+001	-4.695188e+001	1.142469e+002
1.095037e+007	-4.253240e+001	-7.681655e+001	-3.074211e+001	-2.174830e+001	-9.687367e+001	9.425196e+001	-4.698654e+001	1.140919e+002
1.095038e+007	-4.253727e+001	-7.680223e+001	-3.074309e+001	-2.196893e+001	-9.548553e+001	8.847773e+001	-4.703613e+001	1.138018e+002
1.095038e+007	-4.254050e+001	-7.671689e+001	-3.076795e+001	-2.188273e+001	-9.766858e+001	7.809002e+001	-4.699863e+001	1.140415e+002
1.095039e+007	-4.254390e+001	-7.678248e+001	-3.074391e+001	-2.187423e+001	-9.850717e+001	9.360357e+001	-4.698952e+001	1.132869e+002
1.095040e+007	-4.258137e+001	-7.698360e+001	-3.074343e+001	-2.198696e+001	-1.006115e+002	9.336185e+001	-4.703435e+001	1.142381e+002
1.095041e+007	-4.255290e+001	-7.657678e+001	-3.076494e+001	-2.192052e+001	-9.870567e+001	1.074461e+002	-4.695270e+001	1.137579e+002
1.095041e+007	-4.252265e+001	-7.683346e+001	-3.074837e+001	-2.190755e+001	-9.877740e+001	8.710694e+001	-4.697565e+001	1.136446e+002
1.095042e+007	-4.253166e+001	-7.690764e+001	-3.075579e+001	-2.200216e+001	-9.650405e+001	9.438281e+001	-4.702746e+001	1.140424e+002
1.095043e+007	-4.252959e+001	-7.682116e+001	-3.076600e+001	-2.179436e+001	-9.529349e+001	9.226386e+001	-4.694119e+001	1.135740e+002
1.095044e+007	-4.252142e+001	-7.674606e+001	-3.074906e+001	-2.192940e+001	-1.001787e+002	9.324003e+001	-4.694492e+001	1.135613e+002
1.095045e+007	-4.251950e+001	-7.685266e+001	-3.076103e+001	-2.193371e+001	-1.006919e+002	9.843249e+001	-4.698280e+001	1.141218e+002
1.095045e+007	-4.255040e+001	-7.678899e+001	-3.074374e+001	-2.186290e+001	-9.654496e+001	9.605064e+001	-4.698454e+001	1.139250e+002
1.095046e+007	-4.250483e+001	-7.700259e+001	-3.075547e+001	-2.197887e+001	-9.415049e+001	8.732765e+001	-4.698516e+001	1.143661e+002
1.095047e+007	-4.252535e+001	-7.694152e+001	-3.075477e+001	-2.183583e+001	-9.591668e+001	9.749002e+001	-4.695303e+001	1.139618e+002
1.095048e+007	-4.251785e+001	-7.687421e+001	-3.074858e+001	-2.192334e+001	-9.509196e+001	1.079096e+002	-4.703680e+001	1.139027e+002
1.095048e+007	-4.253009e+001	-7.688299e+001	-3.076875e+001	-2.189175e+001	-9.796920e+001	1.011073e+002	-4.691135e+001	1.140869e+002
1.095049e+007	-4.251579e+001	-7.690014e+001	-3.074433e+001	-2.193105e+001	-9.595235e+001	1.033906e+002	-4.699389e+001	1.138379e+002
1.095050e+007	-4.253662e+001	-7.679816e+001	-3.076331e+001	-2.192367e+001	-9.551401e+001	1.019449e+002	-4.698014e+001	1.144462e+002
1.095051e+007	-4.255031e+001	-7.704094e+001	-3.075598e+001	-2.180058e+001	-9.570273e+001	1.004254e+002	-4.696390e+001	1.134943e+002
1.095052e+007	-4.253844e+001	-7.695954e+001	-3.076349e+001	-2.198396e+001	-9.507856e+001	1.082889e+002	-4.700775e+001	1.140061e+002
1.095052e+007	-4.251665e+001	-7.688594e+001	-3.074389e+001	-2.183036e+001	-1.019717e+002	9.843916e+001	-4.697610e+001	1.137723e+002
1.095053e+007	-4.250757e+001	-7.669082e+001	-3.075714e+001	-2.193555e+001	-9.712206e+001	1.070641e+002	-4.697618e+001	1.140943e+002
1.095054e+007	-4.253871e+001	-7.692239e+001	-3.075040e+001	-2.187813e+001	-9.608743e+001	1.044614e+002	-4.696974e+001	1.135857e+002
1.095055e+007	-4.254069e+001	-7.692238e+001	-3.075445e+001	-2.196017e+001	-9.607481e+001	1.193770e+002	-4.703565e+001	1.141574e+002
1.095055e+007	-4.253991e+001	-7.681304e+001	-3.074037e+001	-2.185049e+001	-9.643118e+001	9.562588e+001	-4.696365e+001	1.137216e+002
1.095056e+007	-4.251554e+001	-7.681361e+001	-3.075528e+001	-2.193761e+001	-9.840664e+001	1.113858e+002	-4.699395e+001	1.138132e+002
1.095057e+007	-4.252973e+001	-7.685310e+001	-3.074361e+001	-2.185999e+001	-9.586254e+001	9.626395e+001	-4.698997e+001	1.138073e+002
1.095058e+007	-4.252969e+001	-7.684572e+001	-3.074998e+001	-2.200841e+001	-9.695825e+001	1.217335e+002	-4.689026e+001	1.140404e+002
1.095059e+007	-4.252499e+001	-7.680664e+001	-3.074462e+001	-2.189914e+001	-9.528294e+001	7.774821e+001	-4.697733e+001	1.137221e+002
1.095059e+007	-4.250583e+001	-7.651878e+001	-3.074812e+001	-2.187681e+001	-9.507374e+001	1.192162e+002	-4.695186e+001	1.142123e+002
1.095060e+007	-4.253003e+001	-7.691077e+001	-3.074938e+001	-2.187996e+001	-9.743783e+001	9.307261e+001	-4.703931e+001	1.138964e+002
1.095061e+007	-4.254521e+001	-7.667256e+001	-3.075367e+001	-2.187698e+001	-9.757312e+001	8.350798e+001	-4.696363e+001	1.140872e+002
1.095062e+007	-4.252948e+001	-7.683883e+001	-3.074382e+001	-2.193474e+001	-9.949044e+001	1.057507e+002	-4.700540e+001	1.141524e+002
1.095063e+007	-4.252474e+001	-7.668245e+001	-3.075607e+001	-2.191977e+001	-9.719306e+001	8.865890e+001	-4.694410e+001	1.137035e+002
1.095063e+007	-4.254068e+001	-7.662020e+001	-3.074817e+001	-2.193738e+001	-9.478920e+001	9.271242e+001	-4.699162e+001	1.140515e+002
1.095064e+007	-4.249363e+001	-7.669495e+001	-3.075315e+001	-2.190778e+001	-9.595759e+001	1.066257e+002	-4.694179e+001	1.134145e+002
1.095065e+007	-4.253110e+001	-7.658728e+001	-3.075492e+001	-2.185778e+001	-9.767765e+001	9.610980e+001	-4.697838e+001	1.140346e+002
1.095066e+007	-4.252428e+001	-7.692975e+001	-3.073336e+001	-2.180384e+001	-9.800246e+001	9.417119e+001	-4.697929e+001	1.139034e+002
1.095066e+007	-4.253914e+001	-7.684511e+001	-3.075110e+001	-2.194970e+001	-9.640874e+001	9.084168e+001	-4.698957e+001	1.139439e+002
1.095067e+007	-4.250491e+001	-7.694334e+001	-3.073023e+001	-2.194065e+001	-9.579392e+001	1.058947e+002	-4.699214e+001	1.137383e+002
1.095068e+007	-4.253320e+001	-7.684526e+001	-3.074474e+001	-2.190651e+001	-9.874583e+001	1.073451e+002	-4.692507e+001	1.136979e+002
1.095069e+007	-4.251462e+001	-7.713873e+001	-3.075564e+001	-2.196632e+001	-9.601695e+001	9.413918e+001	-4.696040e+001	1.141454e+002
1.095070e+007	-4.251956e+001	-7.680048e+001	-3.075592e+001	-2.190832e+001	-9.466573e+001	9.920253e+001	-4.696891e+001	1.139962e+002
1.095070e+007	-4.251876e+001	-7.695714e+001	-3.074881e+001	-2.187645e+001	-9.763812e+001	1.156110e+002	-4.698499e+001	1.135107e+002
1.095071e+007	-4.253036e+001	-7.692673e+001	-3.074685e+001	-2.196058e+001	-9.401162e+001	8.790511e+001	-4.697891e+001	1.139819e+002
1.095072e+007	-4.254489e+001	-7.698223e+001	-3.074741e+001	-2.184859e+001	-9.520195e+001	9.153565e+001	-4.702618e+001	1.138801e+002
1.095073e+007	-4.257802e+001	-7.691130e+001	-3.075227e+001	-2.184730e+001	-9.483519e+001	9.164656e+001	-4.694113e+001	1.139742e+002
1.095073e+007	-4.252831e+001	-7.692303e+001	-3.075455e+001	-2.197921e+001	-9.406298e+001	1.109240e+002	-4.700428e+001	1.136718e+002
1.095074e+007	-4.250782e+001	-7.680839e+001	-3.074903e+001	-2.192783e+001	-1.029245e+002	1.246371e+002	-4.696833e+001	1.134656e+002
1.095075e+007	-4.250710e+001	-7.679681e+001	-3.074738e+001	-2.190492e+001	-9.909180e+001	8.225604e+001	-4.693973e+001	1.138137e+002
1.095076e+007	-4.251696e+001	-7.695644e+001	-3.075774e+001	-2.194796e+001	-9.528461e+001	7.492552e+001	-4.696672e+001	1.143956e+002
1.095077e+007	-4.251872e+001	-7.712113e+001	-3.076075e+001	-2.191036e+001	-9.755220e+001	8.354711e+001	-4.699259e+001	1.141642e+002
1.095077e+007	-4.251194e+001	-7.690829e+001	-3.074931e+001	-2.189359e+001	-9.268093e+001	1.048416e+002	-4.701260e+001	1.137494e+002
1.095078e+007	-4.250979e+001	-7.673487e+001	-3.076127e+001	-2.195820e+001	-9.508061e+001	1.034091e+002	-4.697740e+001	1.136505e+002
1.095079e+007	-4.254748e+001	-7.684640e+001	-3.075066e+001	-2.188972e+001	-9.653831e+001	1.006074e+002	-4.695913e+001	1.140971e+002
1.095080e+007	-4.250720e+001	-7.698633e+001	-3.074828e+001	-2.188177e+001	-9.631383e+001	1.010419e+002	-4.694375e+001	1.137917e+002
1.095080e+007	-4.251977e+001	-7.697188e+001	-3.075260e+001	-2.193258e+001	-9.884384e+001	9.100965e+001	-4.696447e+001	1.137616e+002
1.095081e+007	-4.249850e+001	-7.690433e+001	-3.075339e+001	-2.191472e+001	-9.681977e+001	8.796166e+001	-4.697851e+001	1.138947e+002
1.095082e+007	-4.253018e+001	-7.694316e+001	-3.074176e+001	-2.193106e+001	-9.518438e+001	1.017539e+002	-4.697743e+001	1.138652e+002
1.095083e+007	-4.252448e+001	-7.705138e+001	-3.074540e+001	-2.185909e+001	-9.614801e+001	8.892864e+001	-4.696683e+001	1.139671e+002
1.095084e+007	-4.255281e+001	-7.694093e+001	-3.075230e+001	-2.191128e+001	-9.950697e+001	8.989972e+001	-4.698962e+001	1.140579e+002
1.095084e+007	-4.254352e+001	-7.676351e+001	-3.074934e+001	-2.191708e+001	-9.902236e+001	8.940419e+001	-4.690273e+001	1.136816e+002
1.095085e+007	-4.249795e+001	-7.676495e+001	-3.075481e+001	-2.187482e+001	-9.913751e+001	9.610734e+001	-4.692438e+001	1.141407e+002
1.095086e+007	-4.255197e+001	-7.677895e+001	-3.075289e+001	-2.183646e+001	-9.911807e+001	9.012891e+001	-4.700881e+001	1.140096e+002
1.095087e+007	-4.253186e+001	-7.683564e+001	-3.076085e+001	-2.187395e+001	-9.623752e+001	8.074017e+001	-4.695942e+001	1.137640e+002
1.095088e+007	-4.250387e+001	-7.672573e+001	-3.074899e+001	-2.185649e+001	-9.702520e+001	1.077957e+002	-4.694498e+001	1.140501e+002
1.095088e+007	-4.254132e+001	-7.701852e+001	-3.074989e+001	-2.184771e+001	-9.537663e+001	8.508984e+001	-4.695697e+001	1.137199e+002
1.095089e+007	-4.252943e+001	-7.706305e+001	-3.074519e+001	-2.193332e+001	-9.478629e+001	9.725986e+001	-4.700570e+001	1.135038e+002
1.095090e+007	-4.253557e+001	-7.687035e+001	-3.073969e+001	-2.187081e+001	-9.933726e+001	7.485722e+001	-4.696277e+001	1.138592e+002
1.095091e+007	-4.256392e+001	-7.690933e+001	-3.075171e+001	-2.192129e+001	-9.509045e+001	9.774601e+001	-4.700721e+001	1.137031e+002
1.095091e+007	-4.250798e+001	-7.675664e+001	-3.074862e+001	-2.195904e+001	-1.027137e+002	9.082991e+001	-4.696408e+001	1.138338e+002
1.095092e+007	-4.253347e+001	-7.680430e+001	-3.074491e+001	-2.188685e+001	-9.605380e+001	9.213553e+001	-4.697766e+001	1.139323e+002
1.095093e+007	-4.256500e+001	-7.672119e+001	-3.075384e+001	-2.192542e+001	-1.020773e+002	9.423180e+001	-4.700942e+001	1.138594e+002
1.095094e+007	-4.250831e+001	-7.705197e+001	-3.075874e+001	-2.189375e+001	-9.807772e+001	1.172027e+002	-4.694364e+001	1.137725e+002
1.095095e+007	-4.252508e+001	-7.682205e+001	-3.074919e+001	-2.193031e+001	-9.733008e+001	1.154387e+002	-4.698572e+001	1.137719e+002
1.095095e+007	-4.252009e+001	-7.682124e+001	-3.075016e+001	-2.189764e+001	-9.627465e+001	9.317004e+001	-4.694035e+001	1.136125e+002
1.095096e+007	-4.255952e+001	-7.692862e+001	-3.074715e+001	-2.185492e+001	-9.815510e+001	1.110522e+002	-4.697648e+001	1.137116e+002
1.095097e+007	-4.251074e+001	-7.666074e+001	-3.075159e+001	-2.181961e+001	-9.659633e+001	8.707040e+001	-4.693689e+001	1.137580e+002
1.095098e+007	-4.254797e+001	-7.676070e+001	-3.075444e+001	-2.185570e+001	-9.812872e+001	1.039333e+002	-4.697222e+001	1.138071e+002
1.095098e+007	-4.250545e+001	-7.684231e+001	-3.075397e+001	-2.191546e+001	-9.627693e+001	1.032319e+002	-4.692586e+001	1.138449e+002
1.095099e+007	-4.254401e+001	-7.671503e+001	-3.075471e+001	-2.189408e+001	-9.614366e+001	1.010320e+002	-4.697351e+001	1.141485e+002
1.095100e+007	-4.254054e+001	-7.686185e+001	-3.074787e+001	-2.186400e+001	-9.763603e+001	8.050255e+001	-4.699438e+001	1.137361e+002
1.095101e+007	-4.253619e+001	-7.678317e+001	-3.074805e+001	-2.184451e+001	-9.845941e+001	1.399940e+002	-4.698556e+001	1.141981e+002
1.095102e+007	-4.257029e+001	-7.683925e+001	-3.074719e+001	-2.190943e+001	-9.761591e+001	9.417823e+001	-4.696051e+001	1.141821e+002
1.095102e+007	-4.253127e+001	-7.687859e+001	-3.075174e+001	-2.186910e+001	-9.761602e+001	9.357805e+001	-4.700491e+001	1.138931e+002
1.095103e+007	-4.256321e+001	-7.686631e+001	-3.074887e+001	-2.188174e+001	-9.612059e+001	9.999318e+001	-4.694856e+001	1.139487e+002
1.095104e+007	-4.254264e+001	-7.670035e+001	-3.074956e+001	-2.186465e+001	-9.771519e+001	8.959225e+001	-4.693372e+001	1.139628e+002
1.095105e+007	-4.256299e+001	-7.668076e+001	-3.075642e+001	-2.193376e+001	-9.739560e+001	9.193521e+001	-4.695901e+001	1.139373e+002
1.095105e+007	-4.251839e+001	-7.687362e+001	-3.075642e+001	-2.192870e+001	-9.524592e+001	9.187508e+001	-4.696782e+001	1.139086e+002
1.095106e+007	-4.254390e+001	-7.677522e+001	-3.074807e+001	-2.192523e+001	-9.443093e+001	7.548893e+001	-4.701066e+001	1.136511e+002
1.095107e+007	-4.253160e+001	-7.675443e+001	-3.074202e+001	-2.193702e+001	-9.444237e+001	1.226444e+002	-4.699018e+001	1.140444e+002
1.095108e+007	-4.254369e+001	-7.707029e+001	-3.074935e+001	-2.186710e+001	-9.609053e+001	1.062506e+002	-4.694766e+001	1.140796e+002
1.095109e+007	-4.258142e+001	-7.672224e+001	-3.075417e+001	-2.183875e+001	-9.495221e+001	9.466099e+001	-4.696993e+001	1.137267e+002
1.095109e+007	-4.253385e+001	-7.686040e+001	-3.075286e+001	-2.188494e+001	-9.666767e+001	9.085928e+001	-4.702036e+001	1.138929e+002
1.095110e+007	-4.252367e+001	-7.697435e+001	-3.074746e+001	-2.192671e+001	-9.485351e+001	1.008550e+002	-4.700345e+001	1.134138e+002
1.095111e+007	-4.249932e+001	-7.685207e+001	-3.073870e+001	-2.186759e+001	-9.934023e+001	1.022355e+002	-4.702292e+001	1.140376e+002
1.095112e+007	-4.250859e+001	-7.675177e+001	-3.074412e+001	-2.188334e+001	-9.641161e+001	9.841262e+001	-4.700533e+001	1.141082e+002
1.095113e+007	-4.253980e+001	-7.688808e+001	-3.075801e+001	-2.192486e+001	-9.877522e+001	9.036295e+001	-4.690962e+001	1.141208e+002
1.095113e+007	-4.252121e+001	-7.682672e+001	-3.073684e+001	-2.192570e+001	-1.005678e+002	9.329441e+001	-4.696927e+001	1.139735e+002
1.095114e+007	-4.252167e+001	-7.665909e+001	-3.074980e+001	-2.193874e+001	-9.602839e+001	8.740312e+001	-4.702377e+001	1.138145e+002
1.095115e+007	-4.253352e+001	-7.683983e+001	-3.075162e+001	-2.189390e+001	-9.415917e+001	9.991332e+001	-4.700239e+001	1.140223e+002
1.095116e+007	-4.251160e+001	-7.680792e+001	-3.073868e+001	-2.194317e+001	-9.772220e+001	8.983699e+001	-4.693895e+001	1.141818e+002
