!CETC41,AV3656A,ZGL00048,1.3.2
!Calibration ON (Full Solt 2-Port(Omit Isolation))
!Measurements: S11 S21 S12 S22
!2025-04-22 21:02
# Hz  S  dB  R 50.000
9.990000e+006	-4.316634e+001	-8.657418e+001	-3.063647e+001	-2.008505e+001	-8.773919e+001	-1.227988e+002	-4.604689e+001	1.095236e+002
9.990005e+006	-4.314142e+001	-8.622367e+001	-3.063877e+001	-2.002261e+001	-9.288578e+001	1.495165e+002	-4.601015e+001	1.093888e+002
9.990009e+006	-4.316382e+001	-8.659403e+001	-3.063886e+001	-1.996473e+001	-9.229122e+001	8.850898e+001	-4.601543e+001	1.096645e+002
9.990014e+006	-4.313907e+001	-8.673671e+001	-3.063974e+001	-2.004985e+001	-1.040804e+002	3.761306e+001	-4.594544e+001	1.094994e+002
9.990019e+006	-4.315239e+001	-8.652404e+001	-3.064948e+001	-2.002655e+001	-9.099918e+001	1.686003e+002	-4.593846e+001	1.094784e+002
9.990023e+006	-4.315151e+001	-8.661482e+001	-3.064286e+001	-2.003277e+001	-9.152873e+001	-1.674371e+002	-4.593550e+001	1.100571e+002
9.990028e+006	-4.315359e+001	-8.640364e+001	-3.064489e+001	-2.003985e+001	-8.452888e+001	1.153865e+002	-4.593211e+001	1.097456e+002
9.990033e+006	-4.312432e+001	-8.655749e+001	-3.063613e+001	-2.006706e+001	-9.207895e+001	7.440870e+001	-4.598268e+001	1.100633e+002
9.990038e+006	-4.316250e+001	-8.643743e+001	-3.063002e+001	-2.007785e+001	-8.901237e+001	6.083923e+001	-4.599040e+001	1.102196e+002
9.990042e+006	-4.315448e+001	-8.647713e+001	-3.063464e+001	-2.004392e+001	-9.884603e+001	1.041248e+002	-4.601741e+001	1.101686e+002
9.990047e+006	-4.313857e+001	-8.665497e+001	-3.064447e+001	-2.001054e+001	-9.599733e+001	1.519518e+002	-4.600231e+001	1.101849e+002
9.990052e+006	-4.314671e+001	-8.668329e+001	-3.062916e+001	-2.002547e+001	-1.078091e+002	-1.445984e+002	-4.598370e+001	1.097834e+002
9.990056e+006	-4.317795e+001	-8.662784e+001	-3.063657e+001	-2.005909e+001	-9.587946e+001	-1.442036e+002	-4.606548e+001	1.097276e+002
9.990061e+006	-4.313736e+001	-8.637021e+001	-3.063788e+001	-2.000312e+001	-9.557781e+001	6.929898e+001	-4.607604e+001	1.098690e+002
9.990066e+006	-4.313799e+001	-8.662533e+001	-3.063565e+001	-2.004077e+001	-9.237730e+001	1.093580e+002	-4.599678e+001	1.097619e+002
9.990070e+006	-4.314357e+001	-8.663319e+001	-3.064594e+001	-2.006899e+001	-9.336867e+001	1.106503e+002	-4.601373e+001	1.098033e+002
9.990075e+006	-4.314528e+001	-8.662146e+001	-3.064024e+001	-2.000010e+001	-1.042832e+002	3.280524e+001	-4.597381e+001	1.099146e+002
9.990080e+006	-4.311582e+001	-8.654867e+001	-3.063760e+001	-2.007300e+001	-9.857930e+001	1.609482e+002	-4.599105e+001	1.097847e+002
9.990084e+006	-4.318898e+001	-8.660053e+001	-3.063671e+001	-2.000361e+001	-9.621728e+001	-1.027197e+002	-4.603761e+001	1.099341e+002
9.990089e+006	-4.316748e+001	-8.655791e+001	-3.063641e+001	-2.002516e+001	-9.167542e+001	1.690035e+002	-4.604562e+001	1.100668e+002
9.990094e+006	-4.314600e+001	-8.636244e+001	-3.062963e+001	-2.005818e+001	-9.053851e+001	1.503320e+002	-4.604597e+001	1.099276e+002
9.990098e+006	-4.316194e+001	-8.681508e+001	-3.063806e+001	-2.007378e+001	-9.847217e+001	-1.648502e+002	-4.603677e+001	1.102274e+002
9.990103e+006	-4.318299e+001	-8.645300e+001	-3.063251e+001	-2.007401e+001	-9.641870e+001	1.309353e+002	-4.609651e+001	1.099507e+002
9.990108e+006	-4.316422e+001	-8.637865e+001	-3.062511e+001	-2.001863e+001	-8.725707e+001	1.159767e+002	-4.599032e+001	1.096800e+002
9.990113e+006	-4.316971e+001	-8.641557e+001	-3.063826e+001	-2.015175e+001	-9.093577e+001	1.621458e+002	-4.602976e+001	1.098559e+002
9.990117e+006	-4.316357e+001	-8.660249e+001	-3.063992e+001	-2.016125e+001	-8.903858e+001	5.775855e+001	-4.604465e+001	1.101504e+002
9.990122e+006	-4.317978e+001	-8.644320e+001	-3.065360e+001	-2.008012e+001	-9.484748e+001	5.065915e+001	-4.604120e+001	1.098114e+002
9.990127e+006	-4.315126e+001	-8.656049e+001	-3.065473e+001	-2.009164e+001	-9.782771e+001	1.584680e+001	-4.603556e+001	1.099526e+002
9.990131e+006	-4.314633e+001	-8.649605e+001	-3.064947e+001	-2.009479e+001	-9.649295e+001	-1.178835e+002	-4.597780e+001	1.098778e+002
9.990136e+006	-4.317979e+001	-8.642601e+001	-3.065767e+001	-2.004290e+001	-9.903512e+001	1.120087e+002	-4.595327e+001	1.098813e+002
9.990141e+006	-4.314450e+001	-8.641421e+001	-3.065770e+001	-2.001467e+001	-9.332313e+001	1.326993e+002	-4.596235e+001	1.100555e+002
9.990145e+006	-4.313070e+001	-8.657554e+001	-3.065372e+001	-1.994165e+001	-9.607631e+001	1.768644e+002	-4.597819e+001	1.099433e+002
9.990150e+006	-4.315797e+001	-8.652449e+001	-3.065558e+001	-1.992632e+001	-8.784585e+001	9.769930e+001	-4.598989e+001	1.096562e+002
9.990155e+006	-4.316219e+001	-8.660443e+001	-3.064232e+001	-1.997232e+001	-8.321547e+001	1.094916e+002	-4.598461e+001	1.098912e+002
9.990159e+006	-4.313875e+001	-8.661361e+001	-3.064016e+001	-1.997725e+001	-9.372640e+001	1.736729e+002	-4.604182e+001	1.096251e+002
9.990164e+006	-4.317147e+001	-8.675744e+001	-3.063422e+001	-2.004188e+001	-9.518612e+001	5.120040e+001	-4.603925e+001	1.097699e+002
9.990169e+006	-4.315906e+001	-8.658057e+001	-3.063782e+001	-1.999285e+001	-9.070532e+001	1.673117e+002	-4.602277e+001	1.099588e+002
9.990173e+006	-4.315107e+001	-8.634362e+001	-3.064354e+001	-2.001798e+001	-1.033181e+002	9.521486e+001	-4.599621e+001	1.096961e+002
9.990178e+006	-4.316670e+001	-8.634110e+001	-3.064990e+001	-2.006790e+001	-8.873923e+001	1.319661e+002	-4.601089e+001	1.099939e+002
9.990183e+006	-4.314850e+001	-8.674241e+001	-3.063651e+001	-1.999675e+001	-9.566988e+001	7.634094e+001	-4.602722e+001	1.095411e+002
9.990188e+006	-4.314318e+001	-8.668623e+001	-3.064857e+001	-2.002820e+001	-8.949268e+001	5.256490e+001	-4.599046e+001	1.097849e+002
9.990192e+006	-4.313487e+001	-8.644896e+001	-3.065236e+001	-2.011568e+001	-9.355273e+001	1.507326e+002	-4.602215e+001	1.097329e+002
9.990197e+006	-4.316978e+001	-8.650311e+001	-3.064664e+001	-2.011747e+001	-1.009633e+002	1.627809e+002	-4.594977e+001	1.099906e+002
9.990202e+006	-4.316843e+001	-8.657574e+001	-3.065967e+001	-2.004482e+001	-8.929179e+001	7.803794e+001	-4.601537e+001	1.098513e+002
9.990206e+006	-4.313933e+001	-8.675094e+001	-3.064347e+001	-2.006338e+001	-9.500929e+001	1.066942e+002	-4.599617e+001	1.097450e+002
9.990211e+006	-4.317184e+001	-8.633692e+001	-3.064250e+001	-1.996290e+001	-9.447491e+001	2.966474e+001	-4.605305e+001	1.094927e+002
9.990216e+006	-4.317531e+001	-8.678146e+001	-3.064591e+001	-2.006470e+001	-8.937326e+001	2.833022e+001	-4.600093e+001	1.097355e+002
9.990220e+006	-4.317497e+001	-8.649894e+001	-3.062949e+001	-2.004615e+001	-9.518604e+001	-2.090855e+001	-4.600992e+001	1.096496e+002
9.990225e+006	-4.315024e+001	-8.668732e+001	-3.064197e+001	-2.003424e+001	-8.552510e+001	1.489647e+002	-4.596029e+001	1.095172e+002
9.990230e+006	-4.316387e+001	-8.667202e+001	-3.063690e+001	-2.003227e+001	-9.970620e+001	1.330485e+002	-4.597491e+001	1.100530e+002
9.990234e+006	-4.313661e+001	-8.639720e+001	-3.063564e+001	-2.003580e+001	-8.576005e+001	1.981559e+001	-4.598181e+001	1.095018e+002
9.990239e+006	-4.314924e+001	-8.656446e+001	-3.064323e+001	-2.001392e+001	-9.368504e+001	-1.515159e+002	-4.592367e+001	1.102212e+002
9.990244e+006	-4.316628e+001	-8.636145e+001	-3.064675e+001	-1.996172e+001	-9.086987e+001	1.673213e+002	-4.592970e+001	1.095769e+002
9.990248e+006	-4.314961e+001	-8.656382e+001	-3.064367e+001	-2.000475e+001	-9.267560e+001	1.406140e+002	-4.601078e+001	1.097274e+002
9.990253e+006	-4.320921e+001	-8.652009e+001	-3.064189e+001	-2.004076e+001	-8.814919e+001	1.085685e+002	-4.598141e+001	1.093228e+002
9.990258e+006	-4.313077e+001	-8.667656e+001	-3.064574e+001	-2.010027e+001	-8.849376e+001	1.375860e+002	-4.599058e+001	1.101215e+002
9.990263e+006	-4.315446e+001	-8.644562e+001	-3.063544e+001	-1.998401e+001	-9.148478e+001	8.662976e+001	-4.598064e+001	1.096935e+002
9.990267e+006	-4.312830e+001	-8.668208e+001	-3.064888e+001	-2.003425e+001	-9.316156e+001	-1.474909e+002	-4.599585e+001	1.097371e+002
9.990272e+006	-4.317516e+001	-8.637261e+001	-3.063784e+001	-2.003410e+001	-9.419999e+001	1.080509e+002	-4.604657e+001	1.097683e+002
9.990277e+006	-4.313626e+001	-8.669266e+001	-3.063539e+001	-2.002626e+001	-9.335418e+001	-1.356233e+002	-4.599430e+001	1.095735e+002
9.990281e+006	-4.316657e+001	-8.662348e+001	-3.063609e+001	-2.011176e+001	-9.298660e+001	4.342958e+001	-4.604019e+001	1.097223e+002
9.990286e+006	-4.316067e+001	-8.638709e+001	-3.063354e+001	-2.005586e+001	-9.923641e+001	1.018829e+002	-4.602835e+001	1.098371e+002
9.990291e+006	-4.314429e+001	-8.670711e+001	-3.064437e+001	-2.005302e+001	-8.999059e+001	8.137235e+001	-4.598144e+001	1.097494e+002
9.990295e+006	-4.315263e+001	-8.661795e+001	-3.063739e+001	-2.002100e+001	-8.889793e+001	1.374414e+002	-4.597932e+001	1.099776e+002
9.990300e+006	-4.315167e+001	-8.651917e+001	-3.064326e+001	-2.005683e+001	-1.021421e+002	1.229686e+002	-4.596382e+001	1.100406e+002
9.990305e+006	-4.315548e+001	-8.674760e+001	-3.064263e+001	-1.997923e+001	-9.623488e+001	1.234444e+002	-4.595911e+001	1.097578e+002
9.990309e+006	-4.314627e+001	-8.652539e+001	-3.064032e+001	-2.001066e+001	-9.707520e+001	7.242345e+001	-4.600833e+001	1.100786e+002
9.990314e+006	-4.313316e+001	-8.657498e+001	-3.064617e+001	-2.003099e+001	-9.694145e+001	7.467685e+001	-4.598423e+001	1.101644e+002
9.990319e+006	-4.319294e+001	-8.631727e+001	-3.063493e+001	-2.005584e+001	-8.806544e+001	9.214203e+001	-4.595862e+001	1.097301e+002
9.990323e+006	-4.317292e+001	-8.642224e+001	-3.062628e+001	-2.002186e+001	-8.787017e+001	5.153361e+001	-4.603603e+001	1.096943e+002
9.990328e+006	-4.314479e+001	-8.635189e+001	-3.064208e+001	-2.008927e+001	-9.216417e+001	1.125368e+002	-4.601190e+001	1.098795e+002
9.990333e+006	-4.316685e+001	-8.644283e+001	-3.063997e+001	-2.005842e+001	-9.069980e+001	1.113721e+002	-4.596266e+001	1.099096e+002
9.990338e+006	-4.317383e+001	-8.649691e+001	-3.064375e+001	-2.004126e+001	-9.665620e+001	1.745591e+002	-4.597009e+001	1.098192e+002
9.990342e+006	-4.314018e+001	-8.666927e+001	-3.063805e+001	-2.000189e+001	-9.082817e+001	1.558987e+002	-4.594374e+001	1.096953e+002
9.990347e+006	-4.313843e+001	-8.668124e+001	-3.063171e+001	-2.002584e+001	-9.113409e+001	1.355112e+002	-4.598517e+001	1.098892e+002
9.990352e+006	-4.315910e+001	-8.657716e+001	-3.063692e+001	-1.997208e+001	-9.000614e+001	3.052458e+001	-4.597939e+001	1.097552e+002
9.990356e+006	-4.316381e+001	-8.658049e+001	-3.064487e+001	-2.008170e+001	-9.715520e+001	6.745328e+001	-4.601043e+001	1.100273e+002
9.990361e+006	-4.315178e+001	-8.657275e+001	-3.065329e+001	-2.002879e+001	-9.063996e+001	7.254287e+001	-4.596979e+001	1.101223e+002
9.990366e+006	-4.319042e+001	-8.638666e+001	-3.064822e+001	-2.006051e+001	-9.219125e+001	-1.755176e+002	-4.603915e+001	1.096309e+002
9.990370e+006	-4.316404e+001	-8.630884e+001	-3.063538e+001	-1.997791e+001	-9.049091e+001	5.907442e+001	-4.593992e+001	1.098521e+002
9.990375e+006	-4.319135e+001	-8.637282e+001	-3.063505e+001	-2.005132e+001	-9.321947e+001	1.296489e+002	-4.600415e+001	1.101309e+002
9.990380e+006	-4.314574e+001	-8.651244e+001	-3.064347e+001	-2.003534e+001	-9.450838e+001	-1.194486e+002	-4.600687e+001	1.096169e+002
9.990384e+006	-4.314192e+001	-8.658972e+001	-3.063988e+001	-2.003162e+001	-9.043753e+001	8.780493e+001	-4.600298e+001	1.096436e+002
9.990389e+006	-4.316713e+001	-8.675568e+001	-3.064027e+001	-2.000361e+001	-1.033742e+002	6.239343e+001	-4.598287e+001	1.099953e+002
9.990394e+006	-4.314593e+001	-8.663697e+001	-3.064339e+001	-1.998365e+001	-1.051457e+002	-1.619108e+002	-4.601812e+001	1.102832e+002
9.990398e+006	-4.315817e+001	-8.648937e+001	-3.063985e+001	-2.002788e+001	-9.140288e+001	1.068386e+002	-4.604155e+001	1.095387e+002
9.990403e+006	-4.314045e+001	-8.642949e+001	-3.063882e+001	-2.008452e+001	-1.007885e+002	5.459328e+001	-4.596000e+001	1.102985e+002
9.990408e+006	-4.314897e+001	-8.646065e+001	-3.063611e+001	-2.000629e+001	-8.737203e+001	6.360034e+001	-4.597491e+001	1.100679e+002
9.990413e+006	-4.313799e+001	-8.667116e+001	-3.063844e+001	-2.002789e+001	-8.727663e+001	1.475173e+002	-4.599027e+001	1.098460e+002
9.990417e+006	-4.316416e+001	-8.638960e+001	-3.065101e+001	-2.005099e+001	-8.997651e+001	1.614584e+002	-4.598843e+001	1.098718e+002
9.990422e+006	-4.316187e+001	-8.681000e+001	-3.063804e+001	-2.007323e+001	-9.810946e+001	7.252699e+001	-4.598891e+001	1.096906e+002
9.990427e+006	-4.316078e+001	-8.663447e+001	-3.063044e+001	-2.006265e+001	-8.931642e+001	5.903236e+001	-4.598530e+001	1.095918e+002
9.990431e+006	-4.316603e+001	-8.651599e+001	-3.063451e+001	-2.004439e+001	-9.529454e+001	9.364658e+001	-4.601971e+001	1.098152e+002
9.990436e+006	-4.315471e+001	-8.613689e+001	-3.063897e+001	-2.004153e+001	-8.494990e+001	1.598734e+002	-4.601132e+001	1.099212e+002
9.990441e+006	-4.313318e+001	-8.660639e+001	-3.064196e+001	-2.004788e+001	-9.068473e+001	1.115771e+002	-4.597076e+001	1.100139e+002
9.990445e+006	-4.316355e+001	-8.660011e+001	-3.064060e+001	-2.004198e+001	-1.028155e+002	-3.057425e+001	-4.600816e+001	1.097238e+002
9.990450e+006	-4.315793e+001	-8.640817e+001	-3.063190e+001	-2.007176e+001	-8.729844e+001	9.107538e+001	-4.596620e+001	1.098525e+002
9.990455e+006	-4.315339e+001	-8.612072e+001	-3.064569e+001	-2.007431e+001	-1.043005e+002	-1.044732e+001	-4.598895e+001	1.099928e+002
9.990459e+006	-4.318771e+001	-8.644527e+001	-3.064105e+001	-1.998559e+001	-8.916537e+001	8.239874e+001	-4.593117e+001	1.096498e+002
9.990464e+006	-4.314976e+001	-8.651203e+001	-3.064456e+001	-2.003797e+001	-9.176523e+001	5.812426e+001	-4.600195e+001	1.097575e+002
9.990469e+006	-4.316814e+001	-8.644115e+001	-3.064261e+001	-1.996384e+001	-8.638452e+001	7.528302e+001	-4.598694e+001	1.096259e+002
9.990473e+006	-4.317160e+001	-8.630278e+001	-3.062737e+001	-2.002704e+001	-9.312146e+001	1.134817e+002	-4.598235e+001	1.094079e+002
9.990478e+006	-4.313879e+001	-8.643696e+001	-3.063171e+001	-2.004006e+001	-9.327304e+001	-1.749026e+002	-4.599137e+001	1.102387e+002
9.990483e+006	-4.317835e+001	-8.635623e+001	-3.063554e+001	-2.003309e+001	-8.972828e+001	1.317786e+002	-4.599031e+001	1.097881e+002
9.990488e+006	-4.312330e+001	-8.664534e+001	-3.064605e+001	-2.015812e+001	-9.429992e+001	5.415531e+001	-4.595833e+001	1.097976e+002
9.990492e+006	-4.311691e+001	-8.668907e+001	-3.063890e+001	-2.004652e+001	-9.419127e+001	1.113502e+002	-4.602097e+001	1.098658e+002
9.990497e+006	-4.317785e+001	-8.665888e+001	-3.064328e+001	-1.999352e+001	-9.249734e+001	1.593189e+002	-4.602276e+001	1.099013e+002
9.990502e+006	-4.315359e+001	-8.664988e+001	-3.063855e+001	-2.005637e+001	-9.778885e+001	1.691262e+002	-4.598125e+001	1.099429e+002
9.990506e+006	-4.315679e+001	-8.643572e+001	-3.063946e+001	-2.000162e+001	-9.258236e+001	8.998657e+001	-4.600207e+001	1.098811e+002
9.990511e+006	-4.316170e+001	-8.629653e+001	-3.064044e+001	-2.006984e+001	-9.033625e+001	-1.646930e+002	-4.598426e+001	1.097966e+002
9.990516e+006	-4.315665e+001	-8.648626e+001	-3.064659e+001	-2.003332e+001	-8.646974e+001	6.851395e+001	-4.601260e+001	1.093022e+002
9.990520e+006	-4.315708e+001	-8.670437e+001	-3.063803e+001	-2.004259e+001	-9.211317e+001	1.232294e+002	-4.602456e+001	1.099124e+002
9.990525e+006	-4.311490e+001	-8.662364e+001	-3.063429e+001	-1.999820e+001	-9.029813e+001	1.527047e+002	-4.594959e+001	1.097502e+002
9.990530e+006	-4.315243e+001	-8.649276e+001	-3.063789e+001	-2.004546e+001	-8.627523e+001	9.023115e+000	-4.602568e+001	1.096896e+002
9.990534e+006	-4.313769e+001	-8.650725e+001	-3.063152e+001	-2.005410e+001	-9.326897e+001	3.658753e+001	-4.601171e+001	1.098836e+002
9.990539e+006	-4.318938e+001	-8.649104e+001	-3.063219e+001	-2.002331e+001	-9.075249e+001	8.651626e+001	-4.598699e+001	1.098063e+002
9.990544e+006	-4.313888e+001	-8.637951e+001	-3.063845e+001	-2.004666e+001	-1.013265e+002	1.384481e+002	-4.599254e+001	1.100817e+002
9.990548e+006	-4.313306e+001	-8.655677e+001	-3.063617e+001	-1.999924e+001	-8.968025e+001	9.938470e+001	-4.602470e+001	1.092639e+002
9.990553e+006	-4.317039e+001	-8.646691e+001	-3.063451e+001	-2.010448e+001	-8.966752e+001	6.418769e+001	-4.599460e+001	1.096712e+002
9.990558e+006	-4.310829e+001	-8.661060e+001	-3.063529e+001	-2.008687e+001	-9.127869e+001	-7.386396e+001	-4.596468e+001	1.100269e+002
9.990563e+006	-4.316106e+001	-8.663199e+001	-3.063756e+001	-2.005882e+001	-8.563590e+001	1.077557e+002	-4.599573e+001	1.098118e+002
9.990567e+006	-4.315935e+001	-8.618722e+001	-3.063021e+001	-2.000700e+001	-9.350371e+001	4.985586e+001	-4.593866e+001	1.099923e+002
9.990572e+006	-4.317468e+001	-8.654445e+001	-3.063303e+001	-2.004872e+001	-9.336216e+001	1.339924e+002	-4.604700e+001	1.099248e+002
9.990577e+006	-4.317501e+001	-8.638968e+001	-3.063812e+001	-2.000719e+001	-8.912414e+001	8.979652e+001	-4.593323e+001	1.096484e+002
9.990581e+006	-4.316302e+001	-8.654337e+001	-3.063270e+001	-2.001811e+001	-8.706905e+001	1.307047e+002	-4.600061e+001	1.100681e+002
9.990586e+006	-4.319631e+001	-8.655056e+001	-3.063941e+001	-2.000335e+001	-8.899279e+001	1.574832e+002	-4.596200e+001	1.098793e+002
9.990591e+006	-4.316678e+001	-8.646611e+001	-3.062806e+001	-2.004514e+001	-8.485616e+001	1.431547e+002	-4.606836e+001	1.098391e+002
9.990595e+006	-4.317197e+001	-8.662870e+001	-3.063114e+001	-2.009012e+001	-8.973380e+001	9.509628e+001	-4.596326e+001	1.097771e+002
9.990600e+006	-4.317483e+001	-8.661938e+001	-3.062974e+001	-1.996824e+001	-9.742524e+001	1.536615e+001	-4.600314e+001	1.092273e+002
9.990605e+006	-4.312825e+001	-8.673635e+001	-3.063727e+001	-2.008326e+001	-9.548489e+001	1.434958e+002	-4.596152e+001	1.101651e+002
9.990609e+006	-4.320008e+001	-8.656863e+001	-3.063155e+001	-1.995016e+001	-1.015024e+002	6.928494e+001	-4.601566e+001	1.102238e+002
9.990614e+006	-4.316945e+001	-8.637234e+001	-3.063952e+001	-1.999564e+001	-9.011640e+001	1.769891e+002	-4.603075e+001	1.093550e+002
9.990619e+006	-4.317748e+001	-8.663696e+001	-3.063094e+001	-2.003345e+001	-9.021674e+001	9.134291e+001	-4.604849e+001	1.097497e+002
9.990623e+006	-4.317125e+001	-8.624370e+001	-3.064380e+001	-2.005027e+001	-8.975371e+001	6.959340e+001	-4.601900e+001	1.096261e+002
9.990628e+006	-4.311323e+001	-8.622151e+001	-3.064133e+001	-2.003105e+001	-1.208264e+002	5.828667e+001	-4.596765e+001	1.097511e+002
9.990633e+006	-4.314437e+001	-8.662631e+001	-3.063835e+001	-2.004724e+001	-8.632911e+001	1.199252e+002	-4.599601e+001	1.098123e+002
9.990638e+006	-4.316737e+001	-8.649515e+001	-3.062661e+001	-2.003963e+001	-9.782192e+001	8.814671e+001	-4.600299e+001	1.095984e+002
9.990642e+006	-4.317673e+001	-8.669504e+001	-3.063516e+001	-2.009471e+001	-9.804385e+001	-1.142444e+001	-4.596251e+001	1.099757e+002
9.990647e+006	-4.318319e+001	-8.649001e+001	-3.063698e+001	-2.008590e+001	-9.116341e+001	1.444224e+002	-4.595583e+001	1.098121e+002
9.990652e+006	-4.314358e+001	-8.647665e+001	-3.063948e+001	-2.007843e+001	-9.032376e+001	1.453273e+002	-4.597918e+001	1.096376e+002
9.990656e+006	-4.314677e+001	-8.639271e+001	-3.064111e+001	-2.009053e+001	-9.412042e+001	1.148974e+001	-4.597890e+001	1.097329e+002
9.990661e+006	-4.312338e+001	-8.630169e+001	-3.063000e+001	-2.006655e+001	-9.400816e+001	7.841483e+001	-4.600497e+001	1.099565e+002
9.990666e+006	-4.315383e+001	-8.653830e+001	-3.062892e+001	-2.003024e+001	-8.810104e+001	5.039552e+001	-4.598872e+001	1.097425e+002
9.990670e+006	-4.317901e+001	-8.635360e+001	-3.062162e+001	-2.001000e+001	-1.025861e+002	-1.210561e+002	-4.599946e+001	1.098005e+002
9.990675e+006	-4.318647e+001	-8.658838e+001	-3.063641e+001	-2.006526e+001	-9.425455e+001	7.315207e+001	-4.595938e+001	1.101068e+002
9.990680e+006	-4.318800e+001	-8.651806e+001	-3.064033e+001	-2.008753e+001	-9.885119e+001	1.752695e+002	-4.596864e+001	1.096265e+002
9.990684e+006	-4.315251e+001	-8.642691e+001	-3.063779e+001	-2.005175e+001	-9.556995e+001	8.808380e+001	-4.596532e+001	1.099113e+002
9.990689e+006	-4.317016e+001	-8.649902e+001	-3.063758e+001	-1.998639e+001	-9.631393e+001	8.604343e+001	-4.603355e+001	1.097057e+002
9.990694e+006	-4.317153e+001	-8.649589e+001	-3.063271e+001	-2.002292e+001	-9.575337e+001	-1.453459e+002	-4.599996e+001	1.099024e+002
