!CETC41,AV3656A,ZGL00048,1.3.2
!Calibration ON (Full Solt 2-Port(Omit Isolation))
!Measurements: S11 S21 S12 S22
!2025-04-22 21:39
# Hz  S  dB  R 50.000
9.990000e+006	-4.461654e+001	-8.617774e+001	-3.064641e+001	-2.047922e+001	-9.142074e+001	8.432339e+001	-4.527758e+001	1.127259e+002
9.990005e+006	-4.460377e+001	-8.654028e+001	-3.065025e+001	-2.053677e+001	-1.048016e+002	1.204662e+002	-4.526723e+001	1.122145e+002
9.990009e+006	-4.455083e+001	-8.655141e+001	-3.064085e+001	-2.054833e+001	-9.662131e+001	1.368258e+002	-4.529835e+001	1.123479e+002
9.990014e+006	-4.457372e+001	-8.636775e+001	-3.063557e+001	-2.057266e+001	-8.933321e+001	-1.051414e+002	-4.528763e+001	1.120310e+002
9.990019e+006	-4.458070e+001	-8.676566e+001	-3.063227e+001	-2.054819e+001	-8.823086e+001	6.348345e+001	-4.513981e+001	1.121739e+002
9.990023e+006	-4.456691e+001	-8.629836e+001	-3.063063e+001	-2.045724e+001	-9.400076e+001	1.008661e+002	-4.517490e+001	1.116648e+002
9.990028e+006	-4.456241e+001	-8.627732e+001	-3.062852e+001	-2.044422e+001	-9.132298e+001	1.274429e+002	-4.518411e+001	1.119923e+002
9.990033e+006	-4.460824e+001	-8.655821e+001	-3.062232e+001	-2.043196e+001	-8.384796e+001	1.025903e+002	-4.514992e+001	1.124072e+002
9.990038e+006	-4.460583e+001	-8.657283e+001	-3.064923e+001	-2.038382e+001	-9.749299e+001	6.895703e+001	-4.512288e+001	1.122138e+002
9.990042e+006	-4.459576e+001	-8.656475e+001	-3.064067e+001	-2.045952e+001	-8.665456e+001	1.079467e+002	-4.513604e+001	1.124221e+002
9.990047e+006	-4.459740e+001	-8.670654e+001	-3.064462e+001	-2.047490e+001	-9.156413e+001	1.380309e+002	-4.512964e+001	1.122202e+002
9.990052e+006	-4.457910e+001	-8.663717e+001	-3.065977e+001	-2.054254e+001	-8.688894e+001	1.024166e+002	-4.512549e+001	1.127559e+002
9.990056e+006	-4.460565e+001	-8.653077e+001	-3.064980e+001	-2.050470e+001	-9.015480e+001	1.364530e+002	-4.514378e+001	1.126348e+002
9.990061e+006	-4.458877e+001	-8.662322e+001	-3.063981e+001	-2.057549e+001	-9.075065e+001	1.207305e+002	-4.517981e+001	1.127951e+002
9.990066e+006	-4.462458e+001	-8.685342e+001	-3.064905e+001	-2.056592e+001	-8.836464e+001	5.621321e+001	-4.516852e+001	1.126874e+002
9.990070e+006	-4.458916e+001	-8.645245e+001	-3.063359e+001	-2.060873e+001	-9.379506e+001	1.131400e+002	-4.515662e+001	1.125918e+002
9.990075e+006	-4.462205e+001	-8.661852e+001	-3.065200e+001	-2.056961e+001	-9.755973e+001	2.685807e+001	-4.518870e+001	1.124130e+002
9.990080e+006	-4.456676e+001	-8.681985e+001	-3.064754e+001	-2.061628e+001	-9.711843e+001	1.348017e+002	-4.518723e+001	1.124948e+002
9.990084e+006	-4.459945e+001	-8.662192e+001	-3.063665e+001	-2.067014e+001	-9.047144e+001	1.292293e+002	-4.514840e+001	1.120539e+002
9.990089e+006	-4.458610e+001	-8.661359e+001	-3.063884e+001	-2.055377e+001	-9.941385e+001	1.654627e+002	-4.522549e+001	1.125462e+002
9.990094e+006	-4.457883e+001	-8.621616e+001	-3.064606e+001	-2.059520e+001	-9.668718e+001	6.443159e+001	-4.518211e+001	1.122670e+002
9.990098e+006	-4.458893e+001	-8.668105e+001	-3.063735e+001	-2.058357e+001	-8.733866e+001	9.273136e+001	-4.520065e+001	1.124028e+002
9.990103e+006	-4.461881e+001	-8.662829e+001	-3.064076e+001	-2.061742e+001	-8.639683e+001	1.128579e+002	-4.514496e+001	1.125088e+002
9.990108e+006	-4.460774e+001	-8.649344e+001	-3.065146e+001	-2.056479e+001	-9.648865e+001	1.417114e+002	-4.521656e+001	1.123688e+002
9.990113e+006	-4.460601e+001	-8.660664e+001	-3.064829e+001	-2.062285e+001	-8.583537e+001	1.391807e+002	-4.523163e+001	1.122261e+002
9.990117e+006	-4.456190e+001	-8.637048e+001	-3.066074e+001	-2.050659e+001	-8.727192e+001	1.743818e+002	-4.516971e+001	1.121039e+002
9.990122e+006	-4.457854e+001	-8.667277e+001	-3.066494e+001	-2.051440e+001	-9.394858e+001	9.649830e+001	-4.518070e+001	1.119455e+002
9.990127e+006	-4.461219e+001	-8.658089e+001	-3.065377e+001	-2.041653e+001	-8.990681e+001	6.404929e+001	-4.524141e+001	1.121847e+002
9.990131e+006	-4.462847e+001	-8.619358e+001	-3.065913e+001	-2.035078e+001	-8.828648e+001	1.491358e+002	-4.524838e+001	1.122286e+002
9.990136e+006	-4.459214e+001	-8.627333e+001	-3.064700e+001	-2.036652e+001	-1.007924e+002	1.029370e+002	-4.522469e+001	1.124871e+002
9.990141e+006	-4.459163e+001	-8.662104e+001	-3.062981e+001	-2.045481e+001	-1.195758e+002	4.041123e+001	-4.519323e+001	1.124910e+002
9.990145e+006	-4.456155e+001	-8.675384e+001	-3.064753e+001	-2.046994e+001	-9.132896e+001	4.455542e+001	-4.518460e+001	1.127137e+002
9.990150e+006	-4.463667e+001	-8.644666e+001	-3.064498e+001	-2.050865e+001	-8.983815e+001	1.734691e+001	-4.519936e+001	1.127646e+002
9.990155e+006	-4.461180e+001	-8.684077e+001	-3.064230e+001	-2.045222e+001	-1.007574e+002	7.993352e+001	-4.521057e+001	1.124770e+002
9.990159e+006	-4.459441e+001	-8.655817e+001	-3.063893e+001	-2.053407e+001	-8.616352e+001	6.161279e+001	-4.518363e+001	1.124270e+002
9.990164e+006	-4.462860e+001	-8.645405e+001	-3.063541e+001	-2.058474e+001	-8.881869e+001	1.541253e+002	-4.514059e+001	1.125537e+002
9.990169e+006	-4.460243e+001	-8.652121e+001	-3.064327e+001	-2.048488e+001	-9.814532e+001	-1.186877e+002	-4.521113e+001	1.123670e+002
9.990173e+006	-4.454667e+001	-8.654992e+001	-3.065736e+001	-2.052544e+001	-9.746827e+001	6.236673e+001	-4.522267e+001	1.120708e+002
9.990178e+006	-4.460853e+001	-8.664474e+001	-3.064904e+001	-2.043892e+001	-9.084859e+001	2.227362e+001	-4.518142e+001	1.128427e+002
9.990183e+006	-4.458945e+001	-8.638837e+001	-3.063390e+001	-2.042144e+001	-8.838027e+001	-1.432979e+002	-4.525723e+001	1.125111e+002
9.990188e+006	-4.459829e+001	-8.654229e+001	-3.063071e+001	-2.051482e+001	-9.811640e+001	-1.279151e+002	-4.523867e+001	1.128587e+002
9.990192e+006	-4.459786e+001	-8.652313e+001	-3.063888e+001	-2.052460e+001	-9.408635e+001	7.050868e+001	-4.522034e+001	1.123696e+002
9.990197e+006	-4.460067e+001	-8.665021e+001	-3.064335e+001	-2.049589e+001	-9.669159e+001	-2.036124e+001	-4.518662e+001	1.124471e+002
9.990202e+006	-4.462012e+001	-8.637971e+001	-3.063814e+001	-2.046867e+001	-1.091026e+002	-4.295726e+001	-4.521922e+001	1.125620e+002
9.990206e+006	-4.458011e+001	-8.656838e+001	-3.064394e+001	-2.045243e+001	-8.755430e+001	1.156031e+002	-4.519313e+001	1.125244e+002
9.990211e+006	-4.457496e+001	-8.648947e+001	-3.064310e+001	-2.045867e+001	-9.268479e+001	-1.735368e+002	-4.518603e+001	1.123888e+002
9.990216e+006	-4.460724e+001	-8.638739e+001	-3.064235e+001	-2.042165e+001	-9.110754e+001	1.289464e+002	-4.522140e+001	1.123169e+002
9.990220e+006	-4.459406e+001	-8.637617e+001	-3.064816e+001	-2.049977e+001	-9.066028e+001	7.367375e+001	-4.519548e+001	1.123509e+002
9.990225e+006	-4.457037e+001	-8.645097e+001	-3.063810e+001	-2.046988e+001	-9.355170e+001	-3.610904e+001	-4.521890e+001	1.126908e+002
9.990230e+006	-4.458462e+001	-8.685232e+001	-3.063728e+001	-2.048901e+001	-9.517068e+001	-1.506011e+002	-4.523933e+001	1.126034e+002
9.990234e+006	-4.458107e+001	-8.632588e+001	-3.064439e+001	-2.051082e+001	-1.025519e+002	-9.903020e+001	-4.519332e+001	1.124853e+002
9.990239e+006	-4.460713e+001	-8.674745e+001	-3.064294e+001	-2.048596e+001	-9.259509e+001	2.877231e+001	-4.515802e+001	1.123754e+002
9.990244e+006	-4.462302e+001	-8.666318e+001	-3.063165e+001	-2.043203e+001	-9.344833e+001	8.522036e+001	-4.517558e+001	1.125094e+002
9.990248e+006	-4.456006e+001	-8.664153e+001	-3.063859e+001	-2.047095e+001	-9.056261e+001	1.146368e+002	-4.516051e+001	1.127320e+002
9.990253e+006	-4.462143e+001	-8.650914e+001	-3.064024e+001	-2.045065e+001	-9.443999e+001	9.954477e+000	-4.518421e+001	1.123004e+002
9.990258e+006	-4.460384e+001	-8.665727e+001	-3.063660e+001	-2.052439e+001	-9.188914e+001	-1.674279e+002	-4.521930e+001	1.124430e+002
9.990263e+006	-4.461252e+001	-8.675842e+001	-3.063599e+001	-2.043842e+001	-8.676927e+001	9.639810e+001	-4.519268e+001	1.127146e+002
9.990267e+006	-4.458052e+001	-8.648025e+001	-3.063959e+001	-2.051245e+001	-9.124625e+001	8.474494e+001	-4.524917e+001	1.126609e+002
9.990272e+006	-4.463389e+001	-8.650267e+001	-3.063647e+001	-2.046841e+001	-8.805636e+001	8.762462e+001	-4.521375e+001	1.126561e+002
9.990277e+006	-4.459058e+001	-8.668500e+001	-3.064320e+001	-2.044939e+001	-9.485889e+001	-1.729943e+002	-4.522472e+001	1.127748e+002
9.990281e+006	-4.462409e+001	-8.650111e+001	-3.063943e+001	-2.047419e+001	-9.170968e+001	1.426725e+002	-4.522154e+001	1.124872e+002
9.990286e+006	-4.458887e+001	-8.685708e+001	-3.064401e+001	-2.043815e+001	-9.313958e+001	-1.531292e+002	-4.522938e+001	1.121587e+002
9.990291e+006	-4.462256e+001	-8.631249e+001	-3.063682e+001	-2.048170e+001	-8.501017e+001	1.026005e+002	-4.522612e+001	1.126309e+002
9.990295e+006	-4.457900e+001	-8.635330e+001	-3.063598e+001	-2.045578e+001	-9.022091e+001	9.276940e+001	-4.522629e+001	1.126971e+002
9.990300e+006	-4.461731e+001	-8.672313e+001	-3.063731e+001	-2.050465e+001	-8.883195e+001	1.081044e+002	-4.521113e+001	1.117728e+002
9.990305e+006	-4.458070e+001	-8.633174e+001	-3.064161e+001	-2.045207e+001	-9.671008e+001	8.091613e+001	-4.520890e+001	1.122186e+002
9.990309e+006	-4.456946e+001	-8.628201e+001	-3.063411e+001	-2.047480e+001	-9.249023e+001	1.583290e+002	-4.520744e+001	1.126130e+002
9.990314e+006	-4.462010e+001	-8.642875e+001	-3.063765e+001	-2.041700e+001	-8.892401e+001	8.636124e+001	-4.521378e+001	1.123649e+002
9.990319e+006	-4.459370e+001	-8.636375e+001	-3.064240e+001	-2.044780e+001	-8.866666e+001	1.072257e+002	-4.521478e+001	1.126033e+002
9.990323e+006	-4.458227e+001	-8.649056e+001	-3.063842e+001	-2.055916e+001	-9.021987e+001	6.754616e+001	-4.522772e+001	1.124171e+002
9.990328e+006	-4.456747e+001	-8.634674e+001	-3.063138e+001	-2.051963e+001	-8.360565e+001	1.530691e+002	-4.522315e+001	1.124576e+002
9.990333e+006	-4.458582e+001	-8.649944e+001	-3.064303e+001	-2.045005e+001	-9.730218e+001	1.199544e+002	-4.520603e+001	1.124519e+002
9.990338e+006	-4.462250e+001	-8.648344e+001	-3.064184e+001	-2.038854e+001	-9.083262e+001	1.346421e+002	-4.523618e+001	1.123830e+002
9.990342e+006	-4.457783e+001	-8.671362e+001	-3.063113e+001	-2.048365e+001	-9.501849e+001	7.603859e+001	-4.518203e+001	1.123806e+002
9.990347e+006	-4.458245e+001	-8.637563e+001	-3.063239e+001	-2.048047e+001	-1.178127e+002	-6.966131e+001	-4.524903e+001	1.125172e+002
9.990352e+006	-4.458741e+001	-8.646906e+001	-3.064329e+001	-2.038699e+001	-9.391751e+001	3.900004e+001	-4.519485e+001	1.123516e+002
9.990356e+006	-4.461737e+001	-8.663034e+001	-3.064370e+001	-2.044786e+001	-9.291099e+001	-1.913090e+000	-4.515144e+001	1.125662e+002
9.990361e+006	-4.457473e+001	-8.670370e+001	-3.063099e+001	-2.041057e+001	-9.044673e+001	-1.431759e+002	-4.515854e+001	1.121839e+002
9.990366e+006	-4.462888e+001	-8.644501e+001	-3.063343e+001	-2.048059e+001	-9.267519e+001	5.882340e+001	-4.516904e+001	1.125071e+002
9.990370e+006	-4.459548e+001	-8.636950e+001	-3.063593e+001	-2.050356e+001	-9.066547e+001	1.668163e+002	-4.517508e+001	1.125379e+002
9.990375e+006	-4.458582e+001	-8.646675e+001	-3.063776e+001	-2.047537e+001	-8.936730e+001	3.155238e+001	-4.519625e+001	1.127137e+002
9.990380e+006	-4.460913e+001	-8.654756e+001	-3.063243e+001	-2.047749e+001	-8.575219e+001	1.375123e+002	-4.519765e+001	1.125352e+002
9.990384e+006	-4.463347e+001	-8.654397e+001	-3.063667e+001	-2.048286e+001	-1.014433e+002	7.142842e+000	-4.523035e+001	1.124956e+002
9.990389e+006	-4.457471e+001	-8.630324e+001	-3.062671e+001	-2.050978e+001	-1.020374e+002	5.908138e+001	-4.523087e+001	1.124964e+002
9.990394e+006	-4.458999e+001	-8.624071e+001	-3.062432e+001	-2.052408e+001	-1.031225e+002	7.553812e+001	-4.520169e+001	1.127011e+002
9.990398e+006	-4.460401e+001	-8.660854e+001	-3.064142e+001	-2.049513e+001	-9.478779e+001	6.584037e+001	-4.527228e+001	1.124461e+002
9.990403e+006	-4.458471e+001	-8.662039e+001	-3.064309e+001	-2.046007e+001	-9.147988e+001	-3.213562e+001	-4.525043e+001	1.123791e+002
9.990408e+006	-4.457284e+001	-8.640812e+001	-3.063381e+001	-2.049563e+001	-8.997318e+001	1.544408e+002	-4.525292e+001	1.125983e+002
9.990413e+006	-4.459083e+001	-8.652139e+001	-3.063484e+001	-2.053360e+001	-9.836124e+001	6.023029e+001	-4.515927e+001	1.126322e+002
9.990417e+006	-4.456893e+001	-8.657159e+001	-3.064044e+001	-2.040233e+001	-9.131361e+001	1.349626e+001	-4.524604e+001	1.122578e+002
9.990422e+006	-4.462292e+001	-8.646442e+001	-3.064307e+001	-2.051372e+001	-9.047788e+001	1.190505e+002	-4.521041e+001	1.126465e+002
9.990427e+006	-4.459920e+001	-8.643691e+001	-3.064317e+001	-2.047322e+001	-1.045572e+002	1.595210e+002	-4.519557e+001	1.124110e+002
9.990431e+006	-4.459292e+001	-8.642170e+001	-3.062782e+001	-2.046895e+001	-8.778935e+001	1.052697e+002	-4.519786e+001	1.125176e+002
9.990436e+006	-4.461182e+001	-8.649413e+001	-3.064373e+001	-2.044207e+001	-9.544212e+001	-1.652915e+002	-4.517691e+001	1.124332e+002
9.990441e+006	-4.462996e+001	-8.673905e+001	-3.064065e+001	-2.042713e+001	-9.229774e+001	3.573832e+001	-4.518363e+001	1.126923e+002
9.990445e+006	-4.456436e+001	-8.663423e+001	-3.063112e+001	-2.044900e+001	-9.275426e+001	4.078623e+001	-4.519069e+001	1.123907e+002
9.990450e+006	-4.463427e+001	-8.631051e+001	-3.064183e+001	-2.047235e+001	-9.919380e+001	3.944844e+001	-4.520864e+001	1.126386e+002
9.990455e+006	-4.458948e+001	-8.656018e+001	-3.064034e+001	-2.043309e+001	-8.978261e+001	3.906899e+001	-4.521516e+001	1.126738e+002
9.990459e+006	-4.456428e+001	-8.645297e+001	-3.064196e+001	-2.052092e+001	-9.385603e+001	1.542039e+002	-4.520674e+001	1.121885e+002
9.990464e+006	-4.456588e+001	-8.627455e+001	-3.063692e+001	-2.047747e+001	-8.893211e+001	1.078660e+002	-4.519902e+001	1.122561e+002
9.990469e+006	-4.454826e+001	-8.650826e+001	-3.064794e+001	-2.050567e+001	-8.610037e+001	8.784558e+001	-4.524077e+001	1.126435e+002
9.990473e+006	-4.458524e+001	-8.646675e+001	-3.063598e+001	-2.042086e+001	-1.098655e+002	3.787386e+001	-4.522047e+001	1.123902e+002
9.990478e+006	-4.458233e+001	-8.647737e+001	-3.063211e+001	-2.048382e+001	-8.820301e+001	9.715583e+001	-4.521648e+001	1.126876e+002
9.990483e+006	-4.462922e+001	-8.659166e+001	-3.063793e+001	-2.043527e+001	-9.118853e+001	1.771658e+002	-4.520071e+001	1.127080e+002
9.990488e+006	-4.460059e+001	-8.650863e+001	-3.062694e+001	-2.054512e+001	-1.120731e+002	-7.464600e+001	-4.524068e+001	1.129470e+002
9.990492e+006	-4.459658e+001	-8.671049e+001	-3.064186e+001	-2.043805e+001	-8.876608e+001	-1.479100e+002	-4.524065e+001	1.124548e+002
9.990497e+006	-4.461689e+001	-8.616445e+001	-3.063559e+001	-2.048961e+001	-8.647881e+001	1.320982e+002	-4.522910e+001	1.127843e+002
9.990502e+006	-4.462582e+001	-8.640936e+001	-3.063196e+001	-2.046495e+001	-9.140835e+001	1.785214e+002	-4.522347e+001	1.126415e+002
9.990506e+006	-4.457572e+001	-8.635308e+001	-3.062734e+001	-2.047339e+001	-9.233328e+001	-1.237344e+002	-4.524287e+001	1.121626e+002
9.990511e+006	-4.460584e+001	-8.636402e+001	-3.063419e+001	-2.050252e+001	-9.141032e+001	1.449098e+002	-4.521454e+001	1.123958e+002
9.990516e+006	-4.464800e+001	-8.649206e+001	-3.064196e+001	-2.051093e+001	-9.165540e+001	7.361995e+001	-4.517583e+001	1.123738e+002
9.990520e+006	-4.456683e+001	-8.641430e+001	-3.063139e+001	-2.042102e+001	-8.943494e+001	1.195811e+002	-4.520072e+001	1.125633e+002
9.990525e+006	-4.462004e+001	-8.641055e+001	-3.064679e+001	-2.045720e+001	-8.956579e+001	8.030986e+001	-4.522085e+001	1.125833e+002
9.990530e+006	-4.457243e+001	-8.638873e+001	-3.063789e+001	-2.040680e+001	-8.674187e+001	1.532597e+002	-4.520509e+001	1.125019e+002
9.990534e+006	-4.457822e+001	-8.660979e+001	-3.062588e+001	-2.049201e+001	-8.721422e+001	1.121746e+002	-4.518734e+001	1.125873e+002
9.990539e+006	-4.457093e+001	-8.628632e+001	-3.063586e+001	-2.045707e+001	-9.632783e+001	9.571242e+001	-4.521256e+001	1.126397e+002
9.990544e+006	-4.458062e+001	-8.622974e+001	-3.062724e+001	-2.049493e+001	-9.178204e+001	6.728794e+001	-4.518168e+001	1.127588e+002
9.990548e+006	-4.460218e+001	-8.623950e+001	-3.063811e+001	-2.045639e+001	-9.285709e+001	4.854637e+001	-4.518658e+001	1.126701e+002
9.990553e+006	-4.461219e+001	-8.654539e+001	-3.062972e+001	-2.048532e+001	-9.022224e+001	-1.629124e+002	-4.516756e+001	1.127132e+002
9.990558e+006	-4.460894e+001	-8.617857e+001	-3.063696e+001	-2.054676e+001	-9.687134e+001	8.365039e+001	-4.518189e+001	1.126036e+002
9.990563e+006	-4.455778e+001	-8.653951e+001	-3.061498e+001	-2.054432e+001	-8.669779e+001	1.568243e+002	-4.523057e+001	1.126603e+002
9.990567e+006	-4.460827e+001	-8.624543e+001	-3.063559e+001	-2.047567e+001	-9.026085e+001	1.442782e+002	-4.517869e+001	1.123415e+002
9.990572e+006	-4.460105e+001	-8.657943e+001	-3.062826e+001	-2.040020e+001	-9.088172e+001	-2.483893e+001	-4.519673e+001	1.124774e+002
9.990577e+006	-4.459306e+001	-8.638085e+001	-3.063316e+001	-2.053042e+001	-8.642170e+001	9.738658e+001	-4.527471e+001	1.125193e+002
9.990581e+006	-4.461508e+001	-8.631413e+001	-3.063306e+001	-2.047064e+001	-9.592160e+001	-3.865665e+001	-4.518978e+001	1.127965e+002
9.990586e+006	-4.457508e+001	-8.657384e+001	-3.063841e+001	-2.047705e+001	-9.427725e+001	-6.840066e+001	-4.519931e+001	1.125503e+002
9.990591e+006	-4.461500e+001	-8.646042e+001	-3.063206e+001	-2.043792e+001	-1.001879e+002	-1.530102e+002	-4.521344e+001	1.126064e+002
9.990595e+006	-4.461268e+001	-8.636580e+001	-3.064075e+001	-2.042530e+001	-9.041231e+001	8.004066e+001	-4.522036e+001	1.123690e+002
9.990600e+006	-4.459579e+001	-8.659755e+001	-3.063489e+001	-2.050144e+001	-9.903163e+001	6.081756e+001	-4.517798e+001	1.126319e+002
9.990605e+006	-4.457778e+001	-8.654770e+001	-3.062796e+001	-2.046879e+001	-1.007013e+002	1.401005e+002	-4.525788e+001	1.126330e+002
9.990609e+006	-4.460024e+001	-8.656048e+001	-3.063120e+001	-2.049575e+001	-8.784304e+001	-1.428170e+002	-4.518598e+001	1.124093e+002
9.990614e+006	-4.457914e+001	-8.647383e+001	-3.064384e+001	-2.040195e+001	-9.376091e+001	6.720868e+001	-4.521494e+001	1.124219e+002
9.990619e+006	-4.460322e+001	-8.651540e+001	-3.063381e+001	-2.044945e+001	-9.616788e+001	1.451888e+001	-4.522253e+001	1.127276e+002
9.990623e+006	-4.458754e+001	-8.615669e+001	-3.063310e+001	-2.037706e+001	-8.950186e+001	1.234456e+002	-4.523872e+001	1.127086e+002
9.990628e+006	-4.462952e+001	-8.669072e+001	-3.062910e+001	-2.047200e+001	-9.308546e+001	6.097869e+001	-4.521106e+001	1.123419e+002
9.990633e+006	-4.455687e+001	-8.643888e+001	-3.063604e+001	-2.053590e+001	-9.570584e+001	8.907345e+001	-4.520390e+001	1.127179e+002
9.990638e+006	-4.460291e+001	-8.685224e+001	-3.063481e+001	-2.054487e+001	-8.843000e+001	6.468205e+001	-4.520466e+001	1.126077e+002
9.990642e+006	-4.460403e+001	-8.652552e+001	-3.063287e+001	-2.043442e+001	-9.134331e+001	1.228341e+002	-4.518694e+001	1.124513e+002
9.990647e+006	-4.459694e+001	-8.658547e+001	-3.062926e+001	-2.052684e+001	-9.786676e+001	4.861997e+001	-4.519450e+001	1.125279e+002
9.990652e+006	-4.463204e+001	-8.636464e+001	-3.063374e+001	-2.044390e+001	-9.279830e+001	8.786290e+001	-4.517916e+001	1.124745e+002
9.990656e+006	-4.460824e+001	-8.632345e+001	-3.063066e+001	-2.053990e+001	-1.055054e+002	-1.625074e+002	-4.523725e+001	1.124537e+002
9.990661e+006	-4.459460e+001	-8.671594e+001	-3.062987e+001	-2.051614e+001	-8.943536e+001	5.915173e+001	-4.520309e+001	1.126686e+002
9.990666e+006	-4.457689e+001	-8.620434e+001	-3.063035e+001	-2.049461e+001	-8.833153e+001	1.384278e+002	-4.516125e+001	1.122444e+002
9.990670e+006	-4.457188e+001	-8.650412e+001	-3.062123e+001	-2.053220e+001	-9.516808e+001	1.595061e+001	-4.516286e+001	1.121528e+002
9.990675e+006	-4.456284e+001	-8.635891e+001	-3.063505e+001	-2.049284e+001	-8.982656e+001	1.071715e+002	-4.518958e+001	1.126124e+002
9.990680e+006	-4.459027e+001	-8.674215e+001	-3.063158e+001	-2.050902e+001	-9.535827e+001	6.543652e+001	-4.515957e+001	1.127857e+002
9.990684e+006	-4.461609e+001	-8.638338e+001	-3.063112e+001	-2.040449e+001	-9.321299e+001	1.330856e+002	-4.525629e+001	1.123197e+002
9.990689e+006	-4.461109e+001	-8.624435e+001	-3.064421e+001	-2.042554e+001	-9.018154e+001	1.520314e+002	-4.519101e+001	1.122935e+002
