!CETC41,AV3656A,ZGL00048,1.3.2
!Calibration ON (Full Solt 2-Port(Omit Isolation))
!Measurements: S11 S21 S12 S22
!2025-04-22 21:13
# Hz  S  dB  R 50.000
9.990000e+006	-4.484307e+001	-8.891010e+001	-3.063445e+001	-2.028288e+001	-1.007458e+002	1.528649e+002	-4.556632e+001	1.113393e+002
9.990005e+006	-4.483877e+001	-8.857694e+001	-3.063654e+001	-2.023827e+001	-1.119264e+002	-6.679896e+001	-4.559820e+001	1.115164e+002
9.990009e+006	-4.485305e+001	-8.886308e+001	-3.063325e+001	-2.018745e+001	-8.844553e+001	1.776034e+002	-4.564527e+001	1.113522e+002
9.990014e+006	-4.485425e+001	-8.887311e+001	-3.063106e+001	-2.015233e+001	-9.231420e+001	1.507557e+002	-4.559637e+001	1.111946e+002
9.990019e+006	-4.480967e+001	-8.875615e+001	-3.063636e+001	-2.020664e+001	-1.014959e+002	6.265244e+001	-4.559553e+001	1.110810e+002
9.990023e+006	-4.482100e+001	-8.875941e+001	-3.064908e+001	-2.012326e+001	-8.658313e+001	1.144052e+002	-4.564178e+001	1.112428e+002
9.990028e+006	-4.480642e+001	-8.879985e+001	-3.063446e+001	-2.014557e+001	-8.534729e+001	9.919969e+001	-4.557855e+001	1.108998e+002
9.990033e+006	-4.486274e+001	-8.887028e+001	-3.064137e+001	-2.007680e+001	-8.786449e+001	8.584787e+001	-4.553751e+001	1.110762e+002
9.990038e+006	-4.484472e+001	-8.899560e+001	-3.064720e+001	-2.019545e+001	-9.698259e+001	4.961207e+001	-4.557398e+001	1.111592e+002
9.990042e+006	-4.484767e+001	-8.894245e+001	-3.064913e+001	-2.017953e+001	-9.975006e+001	1.248537e+001	-4.557817e+001	1.110947e+002
9.990047e+006	-4.481696e+001	-8.879611e+001	-3.064547e+001	-2.019946e+001	-9.453077e+001	8.327977e+001	-4.554945e+001	1.115339e+002
9.990052e+006	-4.480472e+001	-8.876608e+001	-3.063851e+001	-2.029937e+001	-8.756762e+001	1.077586e+002	-4.554894e+001	1.117680e+002
9.990056e+006	-4.482162e+001	-8.861074e+001	-3.064222e+001	-2.023105e+001	-9.187610e+001	1.525209e+002	-4.556964e+001	1.110414e+002
9.990061e+006	-4.480331e+001	-8.837923e+001	-3.064144e+001	-2.017309e+001	-1.094221e+002	1.613945e+002	-4.560627e+001	1.112345e+002
9.990066e+006	-4.481635e+001	-8.893631e+001	-3.063779e+001	-2.022267e+001	-9.352555e+001	-1.038817e+002	-4.561376e+001	1.112704e+002
9.990070e+006	-4.483167e+001	-8.900448e+001	-3.064545e+001	-2.032290e+001	-1.019504e+002	-8.239389e+000	-4.562080e+001	1.115266e+002
9.990075e+006	-4.486246e+001	-8.879237e+001	-3.064985e+001	-2.027391e+001	-9.945625e+001	-1.268333e+002	-4.556115e+001	1.115726e+002
9.990080e+006	-4.485056e+001	-8.896400e+001	-3.064637e+001	-2.023770e+001	-8.973339e+001	5.778775e+001	-4.563131e+001	1.114840e+002
9.990084e+006	-4.476280e+001	-8.864472e+001	-3.064264e+001	-2.027004e+001	-8.781763e+001	9.135317e+001	-4.560831e+001	1.110660e+002
9.990089e+006	-4.479458e+001	-8.864791e+001	-3.063761e+001	-2.036378e+001	-8.756854e+001	9.857128e+001	-4.560698e+001	1.113475e+002
9.990094e+006	-4.480852e+001	-8.912845e+001	-3.064270e+001	-2.027168e+001	-9.293468e+001	1.365082e+002	-4.560424e+001	1.113393e+002
9.990098e+006	-4.484049e+001	-8.887052e+001	-3.063567e+001	-2.029001e+001	-9.836579e+001	2.702910e+001	-4.561095e+001	1.112614e+002
9.990103e+006	-4.479456e+001	-8.881810e+001	-3.062887e+001	-2.030023e+001	-9.406573e+001	1.798314e+002	-4.558956e+001	1.113231e+002
9.990108e+006	-4.479462e+001	-8.875696e+001	-3.063591e+001	-2.025622e+001	-9.731017e+001	-6.803147e+001	-4.561407e+001	1.112180e+002
9.990113e+006	-4.480834e+001	-8.870368e+001	-3.063753e+001	-2.028012e+001	-9.982425e+001	1.453902e+002	-4.555941e+001	1.110223e+002
9.990117e+006	-4.484682e+001	-8.897538e+001	-3.063292e+001	-2.032002e+001	-9.400846e+001	1.465999e+002	-4.557568e+001	1.113749e+002
9.990122e+006	-4.483609e+001	-8.890591e+001	-3.064653e+001	-2.039076e+001	-8.875228e+001	1.261767e+002	-4.564017e+001	1.116317e+002
9.990127e+006	-4.485751e+001	-8.914864e+001	-3.063958e+001	-2.035143e+001	-9.113915e+001	1.605949e+002	-4.559938e+001	1.115131e+002
9.990131e+006	-4.485470e+001	-8.883339e+001	-3.065938e+001	-2.037515e+001	-9.848963e+001	1.302795e+002	-4.558897e+001	1.111506e+002
9.990136e+006	-4.484588e+001	-8.893894e+001	-3.066335e+001	-2.023453e+001	-9.680826e+001	1.266328e+002	-4.557429e+001	1.111140e+002
9.990141e+006	-4.481137e+001	-8.893082e+001	-3.065056e+001	-2.031413e+001	-8.726915e+001	1.740228e+002	-4.561837e+001	1.111373e+002
9.990145e+006	-4.485690e+001	-8.891133e+001	-3.066146e+001	-2.028169e+001	-1.113863e+002	-1.073652e+002	-4.556488e+001	1.110240e+002
9.990150e+006	-4.483383e+001	-8.880541e+001	-3.065517e+001	-2.033547e+001	-9.210255e+001	1.930445e+001	-4.561995e+001	1.110853e+002
9.990155e+006	-4.483335e+001	-8.871969e+001	-3.067356e+001	-2.019912e+001	-9.304558e+001	1.210479e+002	-4.561937e+001	1.111960e+002
9.990159e+006	-4.485884e+001	-8.855341e+001	-3.065113e+001	-2.018306e+001	-9.861362e+001	-1.651798e+002	-4.562922e+001	1.113616e+002
9.990164e+006	-4.483338e+001	-8.881969e+001	-3.065689e+001	-2.019545e+001	-9.349364e+001	8.800937e+001	-4.561841e+001	1.112289e+002
9.990169e+006	-4.486182e+001	-8.907053e+001	-3.065121e+001	-2.016068e+001	-9.525161e+001	6.590403e+001	-4.561194e+001	1.111059e+002
9.990173e+006	-4.482471e+001	-8.899997e+001	-3.064968e+001	-2.015237e+001	-9.796898e+001	3.002931e+001	-4.556378e+001	1.112753e+002
9.990178e+006	-4.481285e+001	-8.889985e+001	-3.065615e+001	-2.018113e+001	-8.816610e+001	8.004602e+001	-4.561710e+001	1.115321e+002
9.990183e+006	-4.480454e+001	-8.873916e+001	-3.063728e+001	-2.020770e+001	-8.545446e+001	4.883612e+001	-4.564936e+001	1.111970e+002
9.990188e+006	-4.480054e+001	-8.881640e+001	-3.063334e+001	-2.017362e+001	-8.561564e+001	6.987282e+001	-4.559733e+001	1.112790e+002
9.990192e+006	-4.478762e+001	-8.892346e+001	-3.063889e+001	-2.028193e+001	-9.066522e+001	6.721483e+001	-4.567180e+001	1.112288e+002
9.990197e+006	-4.480310e+001	-8.907023e+001	-3.064224e+001	-2.026402e+001	-9.393277e+001	-9.443902e+001	-4.561664e+001	1.113426e+002
9.990202e+006	-4.481562e+001	-8.905419e+001	-3.064951e+001	-2.029100e+001	-1.001044e+002	1.799994e+002	-4.558608e+001	1.113386e+002
9.990206e+006	-4.479815e+001	-8.878866e+001	-3.064894e+001	-2.020881e+001	-9.950033e+001	1.351843e+002	-4.560381e+001	1.113609e+002
9.990211e+006	-4.481955e+001	-8.906715e+001	-3.064874e+001	-2.013590e+001	-9.210676e+001	1.300493e+002	-4.561325e+001	1.117887e+002
9.990216e+006	-4.482048e+001	-8.878462e+001	-3.063310e+001	-2.020694e+001	-9.914524e+001	1.112972e+002	-4.557585e+001	1.108370e+002
9.990220e+006	-4.482580e+001	-8.899887e+001	-3.063815e+001	-2.021994e+001	-9.884353e+001	1.545456e+002	-4.559050e+001	1.113080e+002
9.990225e+006	-4.478882e+001	-8.884329e+001	-3.063320e+001	-2.021402e+001	-9.206768e+001	1.099681e+002	-4.560539e+001	1.114188e+002
9.990230e+006	-4.483137e+001	-8.861955e+001	-3.064921e+001	-2.023495e+001	-9.907249e+001	1.275178e+002	-4.558560e+001	1.114964e+002
9.990234e+006	-4.482155e+001	-8.896647e+001	-3.064930e+001	-2.021199e+001	-9.703639e+001	7.775730e+001	-4.562709e+001	1.112412e+002
9.990239e+006	-4.480774e+001	-8.876477e+001	-3.063451e+001	-2.011942e+001	-9.233916e+001	1.015897e+002	-4.561878e+001	1.111743e+002
9.990244e+006	-4.479395e+001	-8.866258e+001	-3.063638e+001	-2.027711e+001	-9.847547e+001	-5.685788e+001	-4.553628e+001	1.111677e+002
9.990248e+006	-4.481299e+001	-8.885877e+001	-3.064292e+001	-2.024708e+001	-9.310937e+001	5.020067e+001	-4.559808e+001	1.113878e+002
9.990253e+006	-4.481130e+001	-8.884207e+001	-3.064329e+001	-2.024844e+001	-9.113158e+001	1.620800e+002	-4.553785e+001	1.107629e+002
9.990258e+006	-4.483940e+001	-8.878760e+001	-3.065158e+001	-2.024367e+001	-9.230634e+001	4.576848e+001	-4.557846e+001	1.114249e+002
9.990263e+006	-4.479609e+001	-8.886934e+001	-3.064306e+001	-2.011721e+001	-8.910431e+001	9.510717e+001	-4.564107e+001	1.113642e+002
9.990267e+006	-4.481413e+001	-8.905770e+001	-3.063754e+001	-2.020384e+001	-9.458750e+001	1.120764e+002	-4.559796e+001	1.111210e+002
9.990272e+006	-4.480296e+001	-8.873916e+001	-3.064306e+001	-2.022969e+001	-9.019779e+001	1.380418e+001	-4.560616e+001	1.115119e+002
9.990277e+006	-4.485276e+001	-8.873056e+001	-3.063624e+001	-2.018574e+001	-9.416700e+001	8.637583e+001	-4.560838e+001	1.114179e+002
9.990281e+006	-4.481676e+001	-8.856871e+001	-3.065044e+001	-2.020582e+001	-9.422913e+001	1.514693e+002	-4.553262e+001	1.112056e+002
9.990286e+006	-4.485948e+001	-8.879401e+001	-3.063473e+001	-2.019757e+001	-8.816388e+001	8.393618e+001	-4.561886e+001	1.112153e+002
9.990291e+006	-4.478897e+001	-8.871549e+001	-3.063533e+001	-2.019757e+001	-8.955474e+001	4.569032e+001	-4.557749e+001	1.115845e+002
9.990295e+006	-4.479637e+001	-8.892829e+001	-3.064441e+001	-2.019097e+001	-8.547661e+001	8.395707e+001	-4.560250e+001	1.112281e+002
9.990300e+006	-4.483393e+001	-8.879399e+001	-3.064415e+001	-2.018412e+001	-8.673548e+001	3.447507e+001	-4.562184e+001	1.110749e+002
9.990305e+006	-4.484656e+001	-8.874983e+001	-3.063820e+001	-2.018513e+001	-8.864185e+001	1.336880e+002	-4.559917e+001	1.114528e+002
9.990309e+006	-4.477820e+001	-8.898666e+001	-3.063460e+001	-2.019969e+001	-9.698822e+001	8.119744e+001	-4.561008e+001	1.114133e+002
9.990314e+006	-4.479996e+001	-8.894927e+001	-3.063810e+001	-2.020096e+001	-9.640746e+001	-1.669654e+002	-4.560164e+001	1.112092e+002
9.990319e+006	-4.480995e+001	-8.850894e+001	-3.064786e+001	-2.019025e+001	-9.646855e+001	5.246068e+001	-4.561767e+001	1.112329e+002
9.990323e+006	-4.485343e+001	-8.881337e+001	-3.064087e+001	-2.021631e+001	-9.153307e+001	1.262816e+002	-4.561603e+001	1.112181e+002
9.990328e+006	-4.481000e+001	-8.880961e+001	-3.063217e+001	-2.026243e+001	-9.128085e+001	1.056065e+002	-4.558828e+001	1.111136e+002
9.990333e+006	-4.482893e+001	-8.869614e+001	-3.063758e+001	-2.024479e+001	-9.600426e+001	1.285156e+002	-4.562602e+001	1.112333e+002
9.990338e+006	-4.486164e+001	-8.888846e+001	-3.063919e+001	-2.022197e+001	-9.597770e+001	5.878490e+001	-4.558972e+001	1.115986e+002
9.990342e+006	-4.482424e+001	-8.887053e+001	-3.063636e+001	-2.022614e+001	-1.040391e+002	1.486297e+002	-4.556212e+001	1.110836e+002
9.990347e+006	-4.482125e+001	-8.904166e+001	-3.064152e+001	-2.023443e+001	-9.919416e+001	1.380191e+002	-4.560836e+001	1.112796e+002
9.990352e+006	-4.485246e+001	-8.899988e+001	-3.064250e+001	-2.015365e+001	-1.053189e+002	1.507887e+002	-4.560220e+001	1.112787e+002
9.990356e+006	-4.484241e+001	-8.850664e+001	-3.063397e+001	-2.021418e+001	-9.018086e+001	6.006835e+001	-4.561082e+001	1.114137e+002
9.990361e+006	-4.483100e+001	-8.901279e+001	-3.064489e+001	-2.020451e+001	-8.637797e+001	1.648664e+002	-4.562491e+001	1.111622e+002
9.990366e+006	-4.479768e+001	-8.885975e+001	-3.064638e+001	-2.014654e+001	-9.674985e+001	1.468847e+002	-4.560480e+001	1.110029e+002
9.990370e+006	-4.484296e+001	-8.874349e+001	-3.063698e+001	-2.026329e+001	-8.913816e+001	1.225379e+002	-4.562330e+001	1.111645e+002
9.990375e+006	-4.482124e+001	-8.893776e+001	-3.064058e+001	-2.018183e+001	-9.212875e+001	-1.636626e-001	-4.563797e+001	1.113936e+002
9.990380e+006	-4.487166e+001	-8.896678e+001	-3.065108e+001	-2.019131e+001	-8.627757e+001	6.007441e+001	-4.561901e+001	1.111708e+002
9.990384e+006	-4.481470e+001	-8.869883e+001	-3.063734e+001	-2.018926e+001	-9.476067e+001	1.075764e+002	-4.567468e+001	1.109939e+002
9.990389e+006	-4.484856e+001	-8.865418e+001	-3.064493e+001	-2.015533e+001	-8.401701e+001	8.160558e+001	-4.561631e+001	1.112636e+002
9.990394e+006	-4.481861e+001	-8.899975e+001	-3.064269e+001	-2.022251e+001	-8.294750e+001	8.139737e+001	-4.560290e+001	1.113345e+002
9.990398e+006	-4.480300e+001	-8.883736e+001	-3.064831e+001	-2.014062e+001	-9.849361e+001	1.462395e+002	-4.562308e+001	1.114583e+002
9.990403e+006	-4.485041e+001	-8.860326e+001	-3.063677e+001	-2.023374e+001	-9.678607e+001	1.222905e+002	-4.564295e+001	1.112283e+002
9.990408e+006	-4.481548e+001	-8.849321e+001	-3.064199e+001	-2.019559e+001	-9.496045e+001	6.083726e+001	-4.556411e+001	1.113240e+002
9.990413e+006	-4.477589e+001	-8.871921e+001	-3.062700e+001	-2.016659e+001	-8.731831e+001	5.294419e+001	-4.567711e+001	1.112613e+002
9.990417e+006	-4.479298e+001	-8.889593e+001	-3.063909e+001	-2.024263e+001	-8.888567e+001	1.143355e+002	-4.563938e+001	1.112760e+002
9.990422e+006	-4.479348e+001	-8.872709e+001	-3.063567e+001	-2.023573e+001	-8.529249e+001	1.048219e+002	-4.557870e+001	1.112397e+002
9.990427e+006	-4.480082e+001	-8.878181e+001	-3.063185e+001	-2.028469e+001	-9.466162e+001	4.667213e+001	-4.559347e+001	1.112248e+002
9.990431e+006	-4.484178e+001	-8.882849e+001	-3.064232e+001	-2.019062e+001	-1.063668e+002	-1.496864e+002	-4.562050e+001	1.114109e+002
9.990436e+006	-4.482226e+001	-8.869422e+001	-3.062870e+001	-2.013117e+001	-9.352911e+001	1.594328e+002	-4.562296e+001	1.111640e+002
9.990441e+006	-4.481930e+001	-8.889048e+001	-3.064353e+001	-2.023906e+001	-9.849862e+001	-1.229723e+001	-4.563393e+001	1.114619e+002
9.990445e+006	-4.483928e+001	-8.910635e+001	-3.064760e+001	-2.025134e+001	-8.902510e+001	1.190429e+002	-4.561620e+001	1.111915e+002
9.990450e+006	-4.480182e+001	-8.896362e+001	-3.062492e+001	-2.019399e+001	-9.146065e+001	1.088205e+002	-4.556444e+001	1.110987e+002
9.990455e+006	-4.483926e+001	-8.893678e+001	-3.063850e+001	-2.020766e+001	-9.171346e+001	2.653418e+001	-4.559076e+001	1.112146e+002
9.990459e+006	-4.484772e+001	-8.882225e+001	-3.063710e+001	-2.011079e+001	-9.428483e+001	-1.236623e+002	-4.556245e+001	1.112144e+002
9.990464e+006	-4.481540e+001	-8.879152e+001	-3.064944e+001	-2.029291e+001	-9.499897e+001	1.060397e+002	-4.562299e+001	1.109245e+002
9.990469e+006	-4.484964e+001	-8.877883e+001	-3.064357e+001	-2.024615e+001	-8.803315e+001	1.360755e+002	-4.564111e+001	1.112743e+002
9.990473e+006	-4.485728e+001	-8.892176e+001	-3.063332e+001	-2.024067e+001	-9.235325e+001	1.242104e+002	-4.560267e+001	1.112750e+002
9.990478e+006	-4.480545e+001	-8.854451e+001	-3.063899e+001	-2.023298e+001	-9.513941e+001	9.734837e+001	-4.564403e+001	1.113459e+002
9.990483e+006	-4.484530e+001	-8.894100e+001	-3.063660e+001	-2.018756e+001	-1.010460e+002	1.747724e+002	-4.567663e+001	1.113310e+002
9.990488e+006	-4.483670e+001	-8.860622e+001	-3.064227e+001	-2.026014e+001	-9.773486e+001	9.724198e+001	-4.558610e+001	1.113997e+002
9.990492e+006	-4.486355e+001	-8.895195e+001	-3.063671e+001	-2.019616e+001	-8.963230e+001	1.460978e+002	-4.557615e+001	1.112746e+002
9.990497e+006	-4.481146e+001	-8.898555e+001	-3.063171e+001	-2.026921e+001	-8.925713e+001	1.393253e+002	-4.560826e+001	1.114650e+002
9.990502e+006	-4.483389e+001	-8.882978e+001	-3.064527e+001	-2.015858e+001	-9.459847e+001	-1.583299e+002	-4.565947e+001	1.113135e+002
9.990506e+006	-4.481326e+001	-8.899509e+001	-3.063172e+001	-2.021972e+001	-8.882782e+001	6.599405e+001	-4.563751e+001	1.113287e+002
9.990511e+006	-4.486981e+001	-8.905768e+001	-3.064404e+001	-2.019599e+001	-8.626580e+001	1.651292e+002	-4.560832e+001	1.112587e+002
9.990516e+006	-4.480785e+001	-8.873441e+001	-3.063777e+001	-2.020764e+001	-8.887975e+001	-1.570247e+002	-4.559608e+001	1.110769e+002
9.990520e+006	-4.478741e+001	-8.897513e+001	-3.063714e+001	-2.022785e+001	-9.463806e+001	4.838220e+001	-4.560188e+001	1.111390e+002
9.990525e+006	-4.482595e+001	-8.883476e+001	-3.063319e+001	-2.022020e+001	-9.649919e+001	8.701405e+001	-4.558317e+001	1.114670e+002
9.990530e+006	-4.484035e+001	-8.878392e+001	-3.064487e+001	-2.029766e+001	-9.715848e+001	-2.241359e+001	-4.557025e+001	1.113302e+002
9.990534e+006	-4.482119e+001	-8.878945e+001	-3.063819e+001	-2.016609e+001	-8.780547e+001	2.175893e+001	-4.556954e+001	1.110871e+002
9.990539e+006	-4.479558e+001	-8.897244e+001	-3.064606e+001	-2.023041e+001	-9.608374e+001	1.679059e+002	-4.561840e+001	1.110125e+002
9.990544e+006	-4.484548e+001	-8.894268e+001	-3.064569e+001	-2.016746e+001	-9.417104e+001	8.617333e+001	-4.563638e+001	1.112169e+002
9.990548e+006	-4.477097e+001	-8.903587e+001	-3.062754e+001	-2.025049e+001	-9.171397e+001	5.937006e+001	-4.562794e+001	1.108887e+002
9.990553e+006	-4.482465e+001	-8.862902e+001	-3.063477e+001	-2.020499e+001	-1.011055e+002	-1.392225e+001	-4.561876e+001	1.108135e+002
9.990558e+006	-4.479982e+001	-8.885321e+001	-3.063101e+001	-2.024258e+001	-9.236986e+001	1.004279e+002	-4.561554e+001	1.111669e+002
9.990563e+006	-4.482642e+001	-8.895911e+001	-3.064651e+001	-2.019121e+001	-8.831045e+001	9.510152e+001	-4.559022e+001	1.110154e+002
9.990567e+006	-4.478822e+001	-8.901004e+001	-3.062936e+001	-2.031900e+001	-9.255717e+001	9.395307e+001	-4.559491e+001	1.112607e+002
9.990572e+006	-4.479820e+001	-8.874562e+001	-3.063300e+001	-2.019659e+001	-8.850879e+001	1.012003e+002	-4.560527e+001	1.115383e+002
9.990577e+006	-4.481796e+001	-8.881237e+001	-3.064218e+001	-2.011173e+001	-9.109239e+001	1.156760e+002	-4.564781e+001	1.109913e+002
9.990581e+006	-4.483730e+001	-8.893652e+001	-3.063195e+001	-2.015626e+001	-9.011291e+001	9.031409e+001	-4.560167e+001	1.111689e+002
9.990586e+006	-4.479890e+001	-8.859148e+001	-3.062437e+001	-2.021153e+001	-9.013472e+001	1.057149e+002	-4.561314e+001	1.110834e+002
9.990591e+006	-4.483053e+001	-8.901507e+001	-3.064084e+001	-2.021540e+001	-8.949526e+001	1.118468e+002	-4.551988e+001	1.113511e+002
9.990595e+006	-4.485686e+001	-8.890154e+001	-3.063258e+001	-2.020201e+001	-9.408162e+001	3.852119e+001	-4.564375e+001	1.108420e+002
9.990600e+006	-4.483649e+001	-8.880931e+001	-3.064540e+001	-2.023444e+001	-8.903763e+001	1.656251e+002	-4.559175e+001	1.114549e+002
9.990605e+006	-4.479966e+001	-8.887251e+001	-3.062387e+001	-2.021322e+001	-9.526115e+001	1.221945e+002	-4.568384e+001	1.113418e+002
9.990609e+006	-4.483215e+001	-8.876000e+001	-3.064549e+001	-2.021464e+001	-1.002528e+002	1.071040e+002	-4.559945e+001	1.114784e+002
9.990614e+006	-4.479632e+001	-8.856229e+001	-3.062380e+001	-2.022389e+001	-8.888206e+001	1.790104e+002	-4.562778e+001	1.112166e+002
9.990619e+006	-4.480046e+001	-8.856267e+001	-3.063097e+001	-2.021989e+001	-9.086562e+001	1.606200e+002	-4.558659e+001	1.111504e+002
9.990623e+006	-4.482995e+001	-8.872750e+001	-3.064218e+001	-2.013585e+001	-9.976946e+001	1.412589e+002	-4.564637e+001	1.114590e+002
9.990628e+006	-4.478344e+001	-8.898528e+001	-3.063760e+001	-2.021919e+001	-9.359411e+001	7.077611e+001	-4.560119e+001	1.112346e+002
9.990633e+006	-4.481391e+001	-8.884731e+001	-3.063763e+001	-2.014811e+001	-8.712265e+001	9.191047e+001	-4.564397e+001	1.109889e+002
9.990638e+006	-4.481389e+001	-8.887286e+001	-3.062965e+001	-2.017303e+001	-8.869669e+001	8.940386e+001	-4.561871e+001	1.112120e+002
9.990642e+006	-4.484229e+001	-8.862318e+001	-3.063713e+001	-2.028229e+001	-9.522526e+001	-1.682219e+002	-4.558342e+001	1.111236e+002
9.990647e+006	-4.483254e+001	-8.880441e+001	-3.063412e+001	-2.014724e+001	-1.009257e+002	1.746433e+002	-4.559648e+001	1.111203e+002
9.990652e+006	-4.484797e+001	-8.877463e+001	-3.063591e+001	-2.019376e+001	-1.042398e+002	-3.287783e+001	-4.553244e+001	1.115049e+002
9.990656e+006	-4.483148e+001	-8.863179e+001	-3.062718e+001	-2.027111e+001	-9.502585e+001	8.288425e+001	-4.558523e+001	1.110981e+002
9.990661e+006	-4.480029e+001	-8.869727e+001	-3.063482e+001	-2.018437e+001	-8.940616e+001	1.270691e+002	-4.562491e+001	1.112158e+002
9.990666e+006	-4.486093e+001	-8.868291e+001	-3.063895e+001	-2.029786e+001	-8.969534e+001	1.698221e+002	-4.557129e+001	1.114534e+002
9.990670e+006	-4.487661e+001	-8.885650e+001	-3.063031e+001	-2.022642e+001	-9.584427e+001	9.030419e+001	-4.565506e+001	1.111966e+002
9.990675e+006	-4.482016e+001	-8.890471e+001	-3.063281e+001	-2.019174e+001	-9.626194e+001	9.600518e+001	-4.555799e+001	1.113768e+002
9.990680e+006	-4.484470e+001	-8.878994e+001	-3.063919e+001	-2.021964e+001	-8.708088e+001	1.068502e+002	-4.555018e+001	1.117024e+002
9.990684e+006	-4.481334e+001	-8.890342e+001	-3.063185e+001	-2.021812e+001	-8.746914e+001	4.931372e+001	-4.558955e+001	1.113111e+002
9.990689e+006	-4.479862e+001	-8.894220e+001	-3.063988e+001	-2.021344e+001	-9.234426e+001	3.905058e+001	-4.559523e+001	1.112143e+002
9.990694e+006	-4.480757e+001	-8.859261e+001	-3.063501e+001	-2.022324e+001	-9.307541e+001	-5.776231e+001	-4.562422e+001	1.112008e+002
