!CETC41,AV3656A,ZGL00048,1.3.2
!Calibration ON (Full Solt 2-Port(Omit Isolation))
!Measurements: S11 S21 S12 S22
!2025-04-23 00:37
# Hz  S  dB  R 50.000
9.990000e+006	-4.365410e+001	-8.170858e+001	-3.065758e+001	-2.240049e+001	-1.031191e+002	8.477428e+001	-4.313738e+001	1.191365e+002
9.990005e+006	-4.367354e+001	-8.149035e+001	-3.066727e+001	-2.240793e+001	-9.226167e+001	9.930571e+001	-4.310978e+001	1.189167e+002
9.990009e+006	-4.367017e+001	-8.166132e+001	-3.065614e+001	-2.236417e+001	-8.634177e+001	1.314146e+002	-4.312461e+001	1.192238e+002
9.990014e+006	-4.362318e+001	-8.157079e+001	-3.065462e+001	-2.239272e+001	-9.344251e+001	5.744931e+001	-4.315367e+001	1.190110e+002
9.990019e+006	-4.368497e+001	-8.162992e+001	-3.065128e+001	-2.237240e+001	-9.995690e+001	6.086155e+001	-4.311103e+001	1.193410e+002
9.990023e+006	-4.368292e+001	-8.153656e+001	-3.064864e+001	-2.236945e+001	-1.054935e+002	1.656556e+002	-4.316121e+001	1.194505e+002
9.990028e+006	-4.364979e+001	-8.171382e+001	-3.064583e+001	-2.229114e+001	-8.698525e+001	9.913032e+001	-4.312093e+001	1.190102e+002
9.990033e+006	-4.361989e+001	-8.152957e+001	-3.064982e+001	-2.234699e+001	-9.843469e+001	4.418519e+001	-4.312640e+001	1.192009e+002
9.990038e+006	-4.368460e+001	-8.179297e+001	-3.064246e+001	-2.232177e+001	-8.568399e+001	5.617347e+001	-4.312552e+001	1.190868e+002
9.990042e+006	-4.367664e+001	-8.156209e+001	-3.065343e+001	-2.242027e+001	-9.024514e+001	-1.395757e+002	-4.315203e+001	1.189317e+002
9.990047e+006	-4.366778e+001	-8.167209e+001	-3.064894e+001	-2.237183e+001	-9.269666e+001	-2.665383e+001	-4.314065e+001	1.189851e+002
9.990052e+006	-4.370379e+001	-8.131729e+001	-3.065394e+001	-2.240490e+001	-9.472560e+001	1.587773e+002	-4.311586e+001	1.190092e+002
9.990056e+006	-4.366147e+001	-8.151114e+001	-3.065214e+001	-2.234755e+001	-9.453723e+001	1.551104e+002	-4.316233e+001	1.191181e+002
9.990061e+006	-4.370437e+001	-8.149899e+001	-3.064856e+001	-2.238286e+001	-9.173902e+001	-7.069087e+001	-4.315629e+001	1.191003e+002
9.990066e+006	-4.369047e+001	-8.156399e+001	-3.065207e+001	-2.234821e+001	-9.424729e+001	1.990570e+001	-4.314954e+001	1.190465e+002
9.990070e+006	-4.366282e+001	-8.154317e+001	-3.064336e+001	-2.239564e+001	-1.006067e+002	-1.004510e+002	-4.317301e+001	1.188500e+002
9.990075e+006	-4.363471e+001	-8.140636e+001	-3.065116e+001	-2.234571e+001	-9.225979e+001	1.053009e+002	-4.312997e+001	1.191757e+002
9.990080e+006	-4.365535e+001	-8.165096e+001	-3.065051e+001	-2.237369e+001	-1.178619e+002	1.094799e+002	-4.315427e+001	1.192139e+002
9.990084e+006	-4.365201e+001	-8.152905e+001	-3.064454e+001	-2.239422e+001	-8.766525e+001	1.012237e+002	-4.312058e+001	1.193067e+002
9.990089e+006	-4.366325e+001	-8.135977e+001	-3.065218e+001	-2.234605e+001	-1.025628e+002	1.475450e+002	-4.314800e+001	1.191630e+002
9.990094e+006	-4.367643e+001	-8.141083e+001	-3.064431e+001	-2.235992e+001	-1.029821e+002	-4.742360e+001	-4.313160e+001	1.190965e+002
9.990098e+006	-4.367285e+001	-8.150877e+001	-3.064488e+001	-2.236534e+001	-9.894087e+001	8.013625e+001	-4.315152e+001	1.188914e+002
9.990103e+006	-4.366687e+001	-8.134388e+001	-3.065509e+001	-2.240812e+001	-8.756706e+001	7.315217e+001	-4.314787e+001	1.189962e+002
9.990108e+006	-4.364389e+001	-8.154999e+001	-3.065316e+001	-2.236374e+001	-9.261780e+001	-1.144434e+002	-4.310898e+001	1.191502e+002
9.990113e+006	-4.368098e+001	-8.146082e+001	-3.064354e+001	-2.240810e+001	-1.006285e+002	5.763026e+001	-4.314938e+001	1.191204e+002
9.990117e+006	-4.366095e+001	-8.153521e+001	-3.064277e+001	-2.233369e+001	-1.236736e+002	1.496070e+002	-4.315502e+001	1.190545e+002
9.990122e+006	-4.367268e+001	-8.183565e+001	-3.065818e+001	-2.236400e+001	-9.748988e+001	8.392053e+001	-4.318908e+001	1.188334e+002
9.990127e+006	-4.364024e+001	-8.135975e+001	-3.064495e+001	-2.236533e+001	-9.450577e+001	1.429340e+002	-4.313605e+001	1.191450e+002
9.990131e+006	-4.365455e+001	-8.137529e+001	-3.064720e+001	-2.236980e+001	-9.159692e+001	1.214653e+002	-4.316836e+001	1.188342e+002
9.990136e+006	-4.370011e+001	-8.136821e+001	-3.064274e+001	-2.238236e+001	-9.251843e+001	1.495234e+002	-4.315722e+001	1.190902e+002
9.990141e+006	-4.367667e+001	-8.167984e+001	-3.065453e+001	-2.242985e+001	-9.371173e+001	9.174519e+001	-4.316164e+001	1.190113e+002
9.990145e+006	-4.365771e+001	-8.139999e+001	-3.064874e+001	-2.242066e+001	-9.220900e+001	1.023616e+002	-4.314798e+001	1.189055e+002
9.990150e+006	-4.364384e+001	-8.160471e+001	-3.065469e+001	-2.238023e+001	-9.025099e+001	1.247693e+002	-4.313723e+001	1.190431e+002
9.990155e+006	-4.363969e+001	-8.150062e+001	-3.064640e+001	-2.243080e+001	-8.842785e+001	1.249422e+002	-4.314676e+001	1.191169e+002
9.990159e+006	-4.366980e+001	-8.139385e+001	-3.063992e+001	-2.240975e+001	-9.387537e+001	1.644245e+002	-4.312599e+001	1.190356e+002
9.990164e+006	-4.369108e+001	-8.148656e+001	-3.064386e+001	-2.241808e+001	-1.000292e+002	-1.474478e+002	-4.317000e+001	1.192138e+002
9.990169e+006	-4.365483e+001	-8.141703e+001	-3.064586e+001	-2.236669e+001	-9.324269e+001	1.590620e+002	-4.315742e+001	1.190093e+002
9.990173e+006	-4.367533e+001	-8.163879e+001	-3.064536e+001	-2.242228e+001	-9.323103e+001	1.746505e+002	-4.313459e+001	1.190035e+002
9.990178e+006	-4.364112e+001	-8.154740e+001	-3.065277e+001	-2.234587e+001	-9.014368e+001	1.100980e+002	-4.314459e+001	1.188146e+002
9.990183e+006	-4.367391e+001	-8.159798e+001	-3.064560e+001	-2.243291e+001	-9.708178e+001	2.484587e+000	-4.311257e+001	1.190215e+002
9.990188e+006	-4.363222e+001	-8.142264e+001	-3.065548e+001	-2.240094e+001	-9.033754e+001	1.785159e+002	-4.316489e+001	1.190043e+002
9.990192e+006	-4.367844e+001	-8.142338e+001	-3.064336e+001	-2.239244e+001	-8.841961e+001	1.400343e+002	-4.314474e+001	1.187524e+002
9.990197e+006	-4.367151e+001	-8.150872e+001	-3.065210e+001	-2.241681e+001	-8.802626e+001	1.373453e+002	-4.317257e+001	1.188102e+002
9.990202e+006	-4.365958e+001	-8.149046e+001	-3.064780e+001	-2.234950e+001	-9.745038e+001	5.703082e+001	-4.311741e+001	1.186852e+002
9.990206e+006	-4.364272e+001	-8.170636e+001	-3.064616e+001	-2.240545e+001	-9.770840e+001	1.275066e+002	-4.310571e+001	1.188563e+002
9.990211e+006	-4.365855e+001	-8.144239e+001	-3.064396e+001	-2.238315e+001	-1.013625e+002	1.537586e+002	-4.315139e+001	1.191891e+002
9.990216e+006	-4.368535e+001	-8.162523e+001	-3.065757e+001	-2.238175e+001	-8.858551e+001	7.208000e+001	-4.315910e+001	1.188831e+002
9.990220e+006	-4.370062e+001	-8.138896e+001	-3.064141e+001	-2.240891e+001	-9.509644e+001	8.784177e+001	-4.313181e+001	1.190694e+002
9.990225e+006	-4.365713e+001	-8.148573e+001	-3.065687e+001	-2.238109e+001	-9.257462e+001	1.614909e+002	-4.312079e+001	1.192443e+002
9.990230e+006	-4.368631e+001	-8.143988e+001	-3.063481e+001	-2.240965e+001	-9.179669e+001	1.317116e+002	-4.312638e+001	1.190982e+002
9.990234e+006	-4.364099e+001	-8.132535e+001	-3.063913e+001	-2.243178e+001	-8.744352e+001	1.466639e+002	-4.315752e+001	1.191648e+002
9.990239e+006	-4.369061e+001	-8.154420e+001	-3.064870e+001	-2.233922e+001	-9.300599e+001	-1.404286e+002	-4.312070e+001	1.189792e+002
9.990244e+006	-4.362632e+001	-8.167560e+001	-3.064263e+001	-2.237422e+001	-1.073997e+002	1.600089e+002	-4.316419e+001	1.191380e+002
9.990248e+006	-4.371731e+001	-8.109872e+001	-3.063821e+001	-2.237265e+001	-9.113906e+001	1.530945e+002	-4.314428e+001	1.191046e+002
9.990253e+006	-4.370229e+001	-8.164133e+001	-3.063921e+001	-2.242822e+001	-9.013348e+001	3.463265e+001	-4.318612e+001	1.190191e+002
9.990258e+006	-4.365881e+001	-8.168514e+001	-3.064448e+001	-2.236233e+001	-9.453254e+001	6.105308e+001	-4.318835e+001	1.188294e+002
9.990263e+006	-4.367606e+001	-8.186712e+001	-3.064587e+001	-2.239771e+001	-9.170983e+001	5.830833e+001	-4.318475e+001	1.191381e+002
9.990267e+006	-4.370775e+001	-8.160058e+001	-3.064216e+001	-2.237608e+001	-9.863316e+001	1.541890e+002	-4.311755e+001	1.188497e+002
9.990272e+006	-4.368516e+001	-8.155457e+001	-3.063932e+001	-2.237668e+001	-9.029724e+001	1.131076e+002	-4.317687e+001	1.187821e+002
9.990277e+006	-4.367477e+001	-8.141779e+001	-3.065698e+001	-2.239159e+001	-9.473785e+001	9.999830e+001	-4.315009e+001	1.190981e+002
9.990281e+006	-4.364592e+001	-8.138290e+001	-3.063830e+001	-2.241127e+001	-1.002218e+002	-1.534318e+002	-4.314605e+001	1.191404e+002
9.990286e+006	-4.361327e+001	-8.137185e+001	-3.064690e+001	-2.237564e+001	-8.850815e+001	1.005761e+002	-4.314535e+001	1.192228e+002
9.990291e+006	-4.368300e+001	-8.122477e+001	-3.064111e+001	-2.238289e+001	-8.957248e+001	-3.341062e+001	-4.321240e+001	1.192973e+002
9.990295e+006	-4.367123e+001	-8.145775e+001	-3.064808e+001	-2.235683e+001	-9.095596e+001	-1.225329e+002	-4.317823e+001	1.190798e+002
9.990300e+006	-4.369455e+001	-8.160202e+001	-3.063696e+001	-2.239267e+001	-9.631901e+001	5.707250e+001	-4.309951e+001	1.190200e+002
9.990305e+006	-4.366668e+001	-8.142376e+001	-3.064035e+001	-2.242923e+001	-9.695482e+001	1.633241e+002	-4.310160e+001	1.190120e+002
9.990309e+006	-4.367276e+001	-8.139629e+001	-3.065161e+001	-2.237002e+001	-9.001302e+001	-1.055677e+001	-4.312208e+001	1.194740e+002
9.990314e+006	-4.363023e+001	-8.176732e+001	-3.064557e+001	-2.234573e+001	-9.180520e+001	-1.438014e+002	-4.315521e+001	1.187486e+002
9.990319e+006	-4.368192e+001	-8.123398e+001	-3.064102e+001	-2.239190e+001	-9.549639e+001	-1.462577e+002	-4.310606e+001	1.193343e+002
9.990323e+006	-4.367394e+001	-8.154472e+001	-3.064668e+001	-2.239095e+001	-9.297908e+001	1.675582e+002	-4.312006e+001	1.188003e+002
9.990328e+006	-4.367039e+001	-8.139480e+001	-3.064580e+001	-2.240385e+001	-9.813381e+001	-3.011389e+000	-4.314012e+001	1.189274e+002
9.990333e+006	-4.365305e+001	-8.128936e+001	-3.065003e+001	-2.235283e+001	-9.297347e+001	1.212919e+002	-4.312167e+001	1.188051e+002
9.990338e+006	-4.367258e+001	-8.151375e+001	-3.063739e+001	-2.239062e+001	-9.506618e+001	1.319494e+002	-4.313061e+001	1.191439e+002
9.990342e+006	-4.362936e+001	-8.149236e+001	-3.064012e+001	-2.238767e+001	-9.732923e+001	5.010515e+001	-4.313781e+001	1.189823e+002
9.990347e+006	-4.368279e+001	-8.153570e+001	-3.063810e+001	-2.238691e+001	-9.557879e+001	-8.412444e+001	-4.315063e+001	1.190027e+002
9.990352e+006	-4.367861e+001	-8.131010e+001	-3.064204e+001	-2.232108e+001	-9.278168e+001	1.404794e+002	-4.312285e+001	1.190708e+002
9.990356e+006	-4.367317e+001	-8.135503e+001	-3.063919e+001	-2.243551e+001	-8.975857e+001	1.181441e+002	-4.317875e+001	1.191588e+002
9.990361e+006	-4.366999e+001	-8.149492e+001	-3.065047e+001	-2.238033e+001	-1.059500e+002	-3.381417e+001	-4.317155e+001	1.188034e+002
9.990366e+006	-4.368057e+001	-8.144723e+001	-3.064132e+001	-2.236116e+001	-8.732219e+001	-1.580775e+002	-4.312227e+001	1.189129e+002
9.990370e+006	-4.366768e+001	-8.178109e+001	-3.063520e+001	-2.232486e+001	-9.078470e+001	1.044919e+002	-4.319901e+001	1.191159e+002
9.990375e+006	-4.364081e+001	-8.143668e+001	-3.063805e+001	-2.230711e+001	-9.490787e+001	1.358992e+002	-4.312234e+001	1.188837e+002
9.990380e+006	-4.365972e+001	-8.147002e+001	-3.063999e+001	-2.234416e+001	-9.298090e+001	1.248370e+002	-4.316890e+001	1.187455e+002
9.990384e+006	-4.368870e+001	-8.145453e+001	-3.064224e+001	-2.236593e+001	-9.809139e+001	-1.671483e+002	-4.313561e+001	1.188139e+002
9.990389e+006	-4.364273e+001	-8.150584e+001	-3.063573e+001	-2.233562e+001	-8.950700e+001	7.090359e+001	-4.311894e+001	1.192200e+002
9.990394e+006	-4.364077e+001	-8.129176e+001	-3.064589e+001	-2.236469e+001	-9.978236e+001	-1.096128e+002	-4.314951e+001	1.189884e+002
9.990398e+006	-4.366195e+001	-8.144377e+001	-3.063764e+001	-2.229903e+001	-9.770933e+001	-1.234069e+001	-4.315788e+001	1.190913e+002
9.990403e+006	-4.368436e+001	-8.150992e+001	-3.064221e+001	-2.239592e+001	-1.042499e+002	9.308960e+001	-4.313644e+001	1.188415e+002
9.990408e+006	-4.370111e+001	-8.127074e+001	-3.063770e+001	-2.244813e+001	-9.273503e+001	9.759997e+001	-4.315319e+001	1.189410e+002
9.990413e+006	-4.364211e+001	-8.136042e+001	-3.063951e+001	-2.236986e+001	-8.724925e+001	1.157396e+002	-4.310990e+001	1.190636e+002
9.990417e+006	-4.364648e+001	-8.141978e+001	-3.064231e+001	-2.236905e+001	-9.717764e+001	-1.005200e+002	-4.312080e+001	1.190868e+002
9.990422e+006	-4.365736e+001	-8.132579e+001	-3.062837e+001	-2.239388e+001	-9.479021e+001	1.327471e+002	-4.316992e+001	1.190857e+002
9.990427e+006	-4.362694e+001	-8.131513e+001	-3.064357e+001	-2.237219e+001	-8.415458e+001	1.345671e+002	-4.313773e+001	1.188577e+002
9.990431e+006	-4.369362e+001	-8.128367e+001	-3.064831e+001	-2.239806e+001	-1.004137e+002	5.797912e+001	-4.313751e+001	1.194443e+002
9.990436e+006	-4.368300e+001	-8.164900e+001	-3.064604e+001	-2.237137e+001	-9.452363e+001	1.051120e+002	-4.310379e+001	1.188231e+002
9.990441e+006	-4.366703e+001	-8.137314e+001	-3.065043e+001	-2.238832e+001	-9.584502e+001	2.591645e+001	-4.313147e+001	1.191293e+002
9.990445e+006	-4.368980e+001	-8.160628e+001	-3.065391e+001	-2.235657e+001	-9.313216e+001	3.588356e+001	-4.316414e+001	1.190315e+002
9.990450e+006	-4.368039e+001	-8.152304e+001	-3.064072e+001	-2.242546e+001	-8.789087e+001	1.635163e+002	-4.315676e+001	1.190585e+002
9.990455e+006	-4.368594e+001	-8.137016e+001	-3.063809e+001	-2.242603e+001	-8.927436e+001	9.151883e+001	-4.316158e+001	1.191895e+002
9.990459e+006	-4.366899e+001	-8.140388e+001	-3.064380e+001	-2.232223e+001	-9.631211e+001	1.223906e+002	-4.313789e+001	1.189302e+002
9.990464e+006	-4.365711e+001	-8.163011e+001	-3.063673e+001	-2.244101e+001	-1.031705e+002	1.457338e+002	-4.311885e+001	1.193633e+002
9.990469e+006	-4.370727e+001	-8.125374e+001	-3.063871e+001	-2.240553e+001	-8.942997e+001	6.464362e+001	-4.316730e+001	1.190929e+002
9.990473e+006	-4.366984e+001	-8.149443e+001	-3.064652e+001	-2.238702e+001	-8.758423e+001	-1.312588e+001	-4.310822e+001	1.192181e+002
9.990478e+006	-4.370129e+001	-8.154262e+001	-3.063745e+001	-2.246370e+001	-9.394317e+001	8.339132e+001	-4.313552e+001	1.192259e+002
9.990483e+006	-4.369974e+001	-8.154719e+001	-3.063358e+001	-2.230738e+001	-9.946270e+001	-5.218329e+001	-4.315743e+001	1.189006e+002
9.990488e+006	-4.367119e+001	-8.172273e+001	-3.064440e+001	-2.230168e+001	-9.708443e+001	-1.861076e+001	-4.315128e+001	1.190393e+002
9.990492e+006	-4.367455e+001	-8.124255e+001	-3.063670e+001	-2.245924e+001	-9.646090e+001	1.774846e+002	-4.311930e+001	1.187822e+002
9.990497e+006	-4.365105e+001	-8.153664e+001	-3.063886e+001	-2.228477e+001	-9.724174e+001	-8.286433e+001	-4.311557e+001	1.190475e+002
9.990502e+006	-4.365438e+001	-8.149118e+001	-3.063325e+001	-2.237253e+001	-9.495757e+001	8.640840e+001	-4.314068e+001	1.192859e+002
9.990506e+006	-4.365321e+001	-8.144420e+001	-3.064809e+001	-2.235497e+001	-1.021957e+002	5.780806e+001	-4.312103e+001	1.191446e+002
9.990511e+006	-4.362991e+001	-8.154434e+001	-3.062983e+001	-2.241265e+001	-8.962326e+001	7.027086e+001	-4.308942e+001	1.191209e+002
9.990516e+006	-4.370132e+001	-8.136855e+001	-3.063988e+001	-2.233052e+001	-9.657465e+001	1.101033e+001	-4.310300e+001	1.190923e+002
9.990520e+006	-4.366729e+001	-8.168710e+001	-3.063760e+001	-2.236107e+001	-9.022789e+001	7.393414e+001	-4.316677e+001	1.191796e+002
9.990525e+006	-4.363073e+001	-8.143409e+001	-3.064757e+001	-2.238937e+001	-8.652416e+001	9.436267e+001	-4.313807e+001	1.190321e+002
9.990530e+006	-4.367649e+001	-8.147281e+001	-3.063291e+001	-2.233123e+001	-9.604096e+001	1.422002e+002	-4.310646e+001	1.192638e+002
9.990534e+006	-4.365500e+001	-8.129243e+001	-3.065322e+001	-2.240721e+001	-9.375764e+001	8.457137e+001	-4.313591e+001	1.191105e+002
9.990539e+006	-4.365858e+001	-8.135373e+001	-3.063754e+001	-2.235327e+001	-9.666857e+001	1.043876e+002	-4.312051e+001	1.191075e+002
9.990544e+006	-4.366791e+001	-8.178982e+001	-3.063911e+001	-2.241793e+001	-9.079928e+001	3.931308e+001	-4.313170e+001	1.190105e+002
9.990548e+006	-4.366845e+001	-8.131493e+001	-3.063523e+001	-2.236946e+001	-9.591285e+001	-1.723559e+002	-4.317976e+001	1.189491e+002
9.990553e+006	-4.371629e+001	-8.115324e+001	-3.063749e+001	-2.240635e+001	-9.574261e+001	1.220119e+002	-4.311739e+001	1.190414e+002
9.990558e+006	-4.366403e+001	-8.166834e+001	-3.064020e+001	-2.236109e+001	-9.052896e+001	1.121714e+002	-4.313489e+001	1.189326e+002
9.990563e+006	-4.366797e+001	-8.158217e+001	-3.063159e+001	-2.233659e+001	-9.021122e+001	9.802351e+001	-4.310747e+001	1.189540e+002
9.990567e+006	-4.367877e+001	-8.155498e+001	-3.063838e+001	-2.241946e+001	-9.757506e+001	-9.587835e+000	-4.313926e+001	1.189069e+002
9.990572e+006	-4.367558e+001	-8.148494e+001	-3.064306e+001	-2.241903e+001	-9.000550e+001	1.323057e+002	-4.316926e+001	1.192476e+002
9.990577e+006	-4.361931e+001	-8.132309e+001	-3.064772e+001	-2.244926e+001	-8.715373e+001	1.116580e+002	-4.317674e+001	1.190937e+002
9.990581e+006	-4.369380e+001	-8.141823e+001	-3.061522e+001	-2.234608e+001	-9.339288e+001	5.323702e+001	-4.311674e+001	1.190120e+002
9.990586e+006	-4.367379e+001	-8.143734e+001	-3.064326e+001	-2.227544e+001	-9.207679e+001	1.083177e+002	-4.313725e+001	1.190550e+002
9.990591e+006	-4.371605e+001	-8.106731e+001	-3.064918e+001	-2.237278e+001	-9.822642e+001	6.776940e+001	-4.312319e+001	1.187894e+002
9.990595e+006	-4.363901e+001	-8.132523e+001	-3.064006e+001	-2.252198e+001	-9.379642e+001	1.714029e+002	-4.312820e+001	1.193114e+002
9.990600e+006	-4.363299e+001	-8.142033e+001	-3.061411e+001	-2.239344e+001	-8.788647e+001	1.277187e+002	-4.311996e+001	1.192048e+002
9.990605e+006	-4.364675e+001	-8.143972e+001	-3.063010e+001	-2.237100e+001	-8.920912e+001	7.987602e+001	-4.314397e+001	1.190148e+002
9.990609e+006	-4.366098e+001	-8.150996e+001	-3.065133e+001	-2.238576e+001	-9.810194e+001	1.890092e+000	-4.311593e+001	1.190066e+002
9.990614e+006	-4.368087e+001	-8.157831e+001	-3.063865e+001	-2.238708e+001	-9.475398e+001	9.583855e+001	-4.315737e+001	1.191692e+002
9.990619e+006	-4.365962e+001	-8.142820e+001	-3.062842e+001	-2.226722e+001	-9.151313e+001	1.600306e+002	-4.313587e+001	1.191924e+002
9.990623e+006	-4.366216e+001	-8.137803e+001	-3.064713e+001	-2.226405e+001	-1.016594e+002	-1.764547e+002	-4.316297e+001	1.191370e+002
9.990628e+006	-4.367253e+001	-8.163386e+001	-3.064748e+001	-2.243061e+001	-9.188807e+001	3.568730e+001	-4.313989e+001	1.191509e+002
9.990633e+006	-4.367717e+001	-8.152467e+001	-3.062627e+001	-2.239270e+001	-9.445104e+001	1.442790e+002	-4.313026e+001	1.192976e+002
9.990638e+006	-4.365679e+001	-8.142911e+001	-3.063874e+001	-2.239624e+001	-1.018027e+002	1.645136e+002	-4.311499e+001	1.188749e+002
9.990642e+006	-4.364613e+001	-8.114038e+001	-3.064322e+001	-2.238882e+001	-8.498446e+001	1.533609e+002	-4.313214e+001	1.190800e+002
9.990647e+006	-4.367974e+001	-8.153907e+001	-3.064028e+001	-2.236597e+001	-1.024101e+002	-1.770650e+002	-4.313057e+001	1.189777e+002
9.990652e+006	-4.366028e+001	-8.159766e+001	-3.063380e+001	-2.245505e+001	-9.052021e+001	1.365276e+002	-4.312705e+001	1.191059e+002
9.990656e+006	-4.366283e+001	-8.144645e+001	-3.063186e+001	-2.241556e+001	-9.645708e+001	-1.725263e+002	-4.314451e+001	1.190598e+002
9.990661e+006	-4.367512e+001	-8.133222e+001	-3.062660e+001	-2.244884e+001	-8.831336e+001	1.202835e+002	-4.315826e+001	1.192111e+002
9.990666e+006	-4.368832e+001	-8.148841e+001	-3.062361e+001	-2.241721e+001	-9.388276e+001	2.971855e+001	-4.315432e+001	1.190177e+002
9.990670e+006	-4.369274e+001	-8.161979e+001	-3.063353e+001	-2.238646e+001	-9.602798e+001	5.508382e+001	-4.310708e+001	1.191302e+002
9.990675e+006	-4.363202e+001	-8.122042e+001	-3.063072e+001	-2.228003e+001	-9.807119e+001	1.036871e+002	-4.312676e+001	1.190668e+002
9.990680e+006	-4.369153e+001	-8.155022e+001	-3.063207e+001	-2.243317e+001	-9.324032e+001	8.987517e+001	-4.312370e+001	1.189737e+002
9.990684e+006	-4.366823e+001	-8.145204e+001	-3.064253e+001	-2.231976e+001	-1.062645e+002	-7.170396e+001	-4.311917e+001	1.189634e+002
9.990689e+006	-4.366682e+001	-8.159027e+001	-3.064383e+001	-2.237593e+001	-9.422049e+001	1.159237e+002	-4.316799e+001	1.189251e+002
