# Hz S dB R 50.000
3.288594e+06	-4.360526e+01	-9.501105e+01	-3.059483e+01	-6.950227e+00	-9.253249e+01	-1.482181e-01	-5.404100e+01	1.021297e+02
3.288625e+06	-4.360505e+01	-9.496659e+01	-3.059236e+01	-6.945637e+00	-9.316086e+01	4.553813e+00	-5.403933e+01	1.019857e+02
3.288656e+06	-4.360484e+01	-9.492213e+01	-3.058988e+01	-6.941050e+00	-9.376541e+01	9.974974e+00	-5.403761e+01	1.018417e+02
3.288688e+06	-4.360463e+01	-9.487767e+01	-3.058741e+01	-6.936466e+00	-9.431953e+01	1.617259e+01	-5.403584e+01	1.016979e+02
3.288719e+06	-4.360440e+01	-9.483322e+01	-3.058494e+01	-6.931884e+00	-9.478913e+01	2.314909e+01	-5.403401e+01	1.015540e+02
3.288750e+06	-4.360418e+01	-9.478888e+01	-3.058252e+01	-6.927525e+00	-9.514393e+01	3.073578e+01	-5.403209e+01	1.014134e+02
3.288782e+06	-4.360456e+01	-9.475901e+01	-3.058660e+01	-6.950575e+00	-9.650380e+01	2.814392e+01	-5.402605e+01	1.016665e+02
3.288813e+06	-4.360494e+01	-9.472914e+01	-3.059068e+01	-6.973647e+00	-9.808681e+01	2.450563e+01	-5.401984e+01	1.019193e+02
3.288844e+06	-4.360532e+01	-9.469927e+01	-3.059476e+01	-6.996740e+00	-9.995894e+01	1.908548e+01	-5.401346e+01	1.021717e+02
3.288875e+06	-4.360569e+01	-9.466939e+01	-3.059884e+01	-7.019856e+00	-1.021848e+02	1.037715e+01	-5.400692e+01	1.024237e+02
3.288906e+06	-4.360591e+01	-9.464007e+01	-3.060279e+01	-7.042419e+00	-1.046380e+02	-5.233587e+00	-5.400076e+01	1.026701e+02
3.288938e+06	-4.359682e+01	-9.464516e+01	-3.059920e+01	-7.029739e+00	-1.015481e+02	-4.199470e+01	-5.402793e+01	1.025938e+02
3.288969e+06	-4.358774e+01	-9.465025e+01	-3.059561e+01	-7.017069e+00	-9.803469e+01	-5.824444e+01	-5.405517e+01	1.025170e+02
3.289000e+06	-4.357867e+01	-9.465532e+01	-3.059202e+01	-7.004409e+00	-9.528692e+01	-6.606614e+01	-5.408248e+01	1.024397e+02
3.289032e+06	-4.356961e+01	-9.466038e+01	-3.058843e+01	-6.991761e+00	-9.313039e+01	-7.050397e+01	-5.410986e+01	1.023620e+02
3.289063e+06	-4.356055e+01	-9.466543e+01	-3.058484e+01	-6.979122e+00	-9.137698e+01	-7.333155e+01	-5.413731e+01	1.022837e+02
3.289094e+06	-4.356183e+01	-9.465673e+01	-3.058511e+01	-6.992412e+00	-9.391615e+01	-5.558607e+01	-5.413116e+01	1.023207e+02
3.289125e+06	-4.356318e+01	-9.464792e+01	-3.058541e+01	-7.005911e+00	-9.553441e+01	-2.577847e+01	-5.412474e+01	1.023585e+02
3.289156e+06	-4.356454e+01	-9.463911e+01	-3.058572e+01	-7.019411e+00	-9.449661e+01	6.324586e+00	-5.411832e+01	1.023962e+02
3.289188e+06	-4.356589e+01	-9.463029e+01	-3.058602e+01	-7.032913e+00	-9.199079e+01	2.702047e+01	-5.411191e+01	1.024340e+02
3.289219e+06	-4.356725e+01	-9.462147e+01	-3.058632e+01	-7.046415e+00	-8.954194e+01	3.854431e+01	-5.410549e+01	1.024716e+02
3.289250e+06	-4.357223e+01	-9.467361e+01	-3.058731e+01	-7.042016e+00	-9.050538e+01	2.845433e+01	-5.411175e+01	1.022086e+02
3.289282e+06	-4.357720e+01	-9.472581e+01	-3.058831e+01	-7.037615e+00	-9.122004e+01	1.618352e+01	-5.411783e+01	1.019453e+02
3.289313e+06	-4.358217e+01	-9.477806e+01	-3.058930e+01	-7.033214e+00	-9.151164e+01	2.377395e+00	-5.412374e+01	1.016816e+02
3.289344e+06	-4.358713e+01	-9.483038e+01	-3.059029e+01	-7.028811e+00	-9.128987e+01	-1.154241e+01	-5.412946e+01	1.014176e+02
3.289375e+06	-4.359197e+01	-9.488226e+01	-3.059127e+01	-7.024365e+00	-9.064939e+01	-2.402367e+01	-5.413494e+01	1.011556e+02
3.289406e+06	-4.358239e+01	-9.487219e+01	-3.058988e+01	-7.014643e+00	-9.326366e+01	-2.885720e+01	-5.413273e+01	1.011975e+02
3.289438e+06	-4.357282e+01	-9.486214e+01	-3.058849e+01	-7.004924e+00	-9.682727e+01	-3.873811e+01	-5.413051e+01	1.012393e+02
3.289469e+06	-4.356325e+01	-9.485211e+01	-3.058710e+01	-6.995209e+00	-1.016126e+02	-6.539925e+01	-5.412829e+01	1.012811e+02
3.289500e+06	-4.355370e+01	-9.484210e+01	-3.058572e+01	-6.985496e+00	-1.025378e+02	-1.253916e+02	-5.412606e+01	1.013228e+02
3.289532e+06	-4.354448e+01	-9.483185e+01	-3.058441e+01	-6.975997e+00	-9.786923e+01	-1.591243e+02	-5.412399e+01	1.013644e+02
3.289563e+06	-4.355539e+01	-9.480495e+01	-3.058817e+01	-6.979446e+00	-1.004483e+02	1.731554e+02	-5.413149e+01	1.013965e+02
3.289594e+06	-4.356631e+01	-9.477797e+01	-3.059194e+01	-6.982898e+00	-1.002535e+02	1.354149e+02	-5.413900e+01	1.014287e+02
3.289625e+06	-4.357724e+01	-9.475093e+01	-3.059570e+01	-6.986353e+00	-9.755109e+01	1.094079e+02	-5.414651e+01	1.014609e+02
3.289656e+06	-4.358818e+01	-9.472382e+01	-3.059947e+01	-6.989811e+00	-9.475673e+01	9.594184e+01	-5.415403e+01	1.014931e+02
3.289688e+06	-4.359913e+01	-9.469665e+01	-3.060324e+01	-6.993272e+00	-9.243800e+01	8.851514e+01	-5.416155e+01	1.015254e+02
3.289719e+06	-4.359411e+01	-9.469289e+01	-3.059939e+01	-6.998927e+00	-9.200240e+01	7.787966e+01	-5.414102e+01	1.016432e+02
3.289750e+06	-4.358896e+01	-9.468933e+01	-3.059548e+01	-7.004595e+00	-9.134702e+01	6.845722e+01	-5.412028e+01	1.017611e+02
3.289782e+06	-4.358381e+01	-9.468577e+01	-3.059157e+01	-7.010257e+00	-9.055275e+01	6.049343e+01	-5.409956e+01	1.018784e+02
3.289813e+06	-4.357866e+01	-9.468221e+01	-3.058766e+01	-7.015915e+00	-8.969764e+01	5.391372e+01	-5.407884e+01	1.019952e+02
3.289844e+06	-4.357352e+01	-9.467866e+01	-3.058375e+01	-7.021567e+00	-8.883339e+01	4.851954e+01	-5.405814e+01	1.021114e+02
3.289875e+06	-4.357274e+01	-9.470074e+01	-3.058520e+01	-7.026967e+00	-8.890998e+01	4.630573e+01	-5.405039e+01	1.021668e+02
3.289906e+06	-4.357195e+01	-9.472282e+01	-3.058665e+01	-7.032368e+00	-8.897395e+01	4.405578e+01	-5.404265e+01	1.022222e+02
3.289938e+06	-4.357116e+01	-9.474490e+01	-3.058809e+01	-7.037771e+00	-8.902473e+01	4.177590e+01	-5.403490e+01	1.022774e+02
3.289969e+06	-4.357037e+01	-9.476697e+01	-3.058954e+01	-7.043176e+00	-8.906183e+01	3.947282e+01	-5.402715e+01	1.023326e+02
3.290000e+06	-4.356972e+01	-9.478883e+01	-3.059099e+01	-7.048486e+00	-8.909615e+01	3.719836e+01	-5.401952e+01	1.023870e+02
3.290032e+06	-4.358612e+01	-9.478513e+01	-3.059243e+01	-7.041752e+00	-9.063026e+01	4.108950e+01	-5.402696e+01	1.023606e+02
3.290063e+06	-4.360255e+01	-9.478142e+01	-3.059387e+01	-7.035015e+00	-9.242192e+01	4.680103e+01	-5.403441e+01	1.023342e+02
3.290094e+06	-4.361901e+01	-9.477770e+01	-3.059531e+01	-7.028276e+00	-9.450703e+01	5.574720e+01	-5.404186e+01	1.023078e+02
3.290125e+06	-4.363550e+01	-9.477396e+01	-3.059675e+01	-7.021535e+00	-9.677770e+01	7.062547e+01	-5.404932e+01	1.022813e+02
3.290156e+06	-4.365157e+01	-9.477068e+01	-3.059812e+01	-7.014807e+00	-9.856327e+01	9.430643e+01	-5.405661e+01	1.022541e+02
3.290188e+06	-4.363971e+01	-9.479655e+01	-3.059499e+01	-7.009077e+00	-1.011985e+02	9.584241e+01	-5.405354e+01	1.021878e+02
3.290219e+06	-4.362786e+01	-9.482235e+01	-3.059185e+01	-7.003350e+00	-1.049795e+02	9.905882e+01	-5.405047e+01	1.021216e+02
3.290250e+06	-4.361603e+01	-9.484808e+01	-3.058872e+01	-6.997627e+00	-1.116276e+02	1.098023e+02	-5.404738e+01	1.020553e+02
3.290282e+06	-4.360422e+01	-9.487374e+01	-3.058559e+01	-6.991909e+00	-1.192425e+02	-1.445640e+02	-5.404428e+01	1.019892e+02
3.290313e+06	-4.359241e+01	-9.489933e+01	-3.058247e+01	-6.986195e+00	-1.083207e+02	-1.034093e+02	-5.404117e+01	1.019230e+02
3.290344e+06	-4.359335e+01	-9.482758e+01	-3.058277e+01	-6.994064e+00	-1.097311e+02	6.467457e+01	-5.405626e+01	1.021406e+02
3.290375e+06	-4.359438e+01	-9.475502e+01	-3.058311e+01	-7.002042e+00	-9.966917e+01	6.914265e+01	-5.407140e+01	1.023613e+02
3.290406e+06	-4.359539e+01	-9.468246e+01	-3.058345e+01	-7.010022e+00	-9.512610e+01	6.997336e+01	-5.408643e+01	1.025827e+02
3.290438e+06	-4.359639e+01	-9.460987e+01	-3.058378e+01	-7.018002e+00	-9.215791e+01	7.032320e+01	-5.410136e+01	1.028049e+02
3.290469e+06	-4.359737e+01	-9.453727e+01	-3.058412e+01	-7.025983e+00	-8.994964e+01	7.051597e+01	-5.411618e+01	1.030278e+02
3.290500e+06	-4.360017e+01	-9.457065e+01	-3.058528e+01	-7.033350e+00	-9.388015e+01	8.565511e+01	-5.411256e+01	1.027583e+02
3.290532e+06	-4.360297e+01	-9.460405e+01	-3.058644e+01	-7.040719e+00	-9.784630e+01	1.260653e+02	-5.410876e+01	1.024890e+02
3.290563e+06	-4.360577e+01	-9.463748e+01	-3.058759e+01	-7.048090e+00	-9.558271e+01	1.781231e+02	-5.410476e+01	1.022199e+02
3.290594e+06	-4.360857e+01	-9.467092e+01	-3.058875e+01	-7.055463e+00	-9.127137e+01	-1.601652e+02	-5.410058e+01	1.019511e+02
3.290625e+06	-4.361132e+01	-9.470417e+01	-3.058989e+01	-7.062765e+00	-8.807222e+01	-1.512668e+02	-5.409632e+01	1.016844e+02
3.290656e+06	-4.360838e+01	-9.471063e+01	-3.058882e+01	-7.061064e+00	-9.066057e+01	-1.469870e+02	-5.410570e+01	1.016445e+02
3.290688e+06	-4.360544e+01	-9.471708e+01	-3.058774e+01	-7.059364e+00	-9.421390e+01	-1.382820e+02	-5.411509e+01	1.016046e+02
3.290719e+06	-4.360250e+01	-9.472352e+01	-3.058666e+01	-7.057664e+00	-9.924534e+01	-1.142880e+02	-5.412449e+01	1.015646e+02
3.290750e+06	-4.359957e+01	-9.472997e+01	-3.058559e+01	-7.055964e+00	-1.010287e+02	-5.126979e+01	-5.413389e+01	1.015245e+02
3.290782e+06	-4.359661e+01	-9.473518e+01	-3.058452e+01	-7.054176e+00	-9.593749e+01	-1.404996e+01	-5.414341e+01	1.014859e+02
3.290813e+06	-4.359224e+01	-9.466513e+01	-3.058397e+01	-7.046946e+00	-9.472883e+01	5.473886e+00	-5.415961e+01	1.015495e+02
3.290844e+06	-4.358786e+01	-9.459515e+01	-3.058341e+01	-7.039716e+00	-9.303562e+01	1.931810e+01	-5.417582e+01	1.016133e+02
3.290875e+06	-4.358348e+01	-9.452524e+01	-3.058286e+01	-7.032487e+00	-9.132943e+01	2.862869e+01	-5.419206e+01	1.016774e+02
3.290906e+06	-4.357908e+01	-9.445540e+01	-3.058231e+01	-7.025260e+00	-8.977063e+01	3.500710e+01	-5.420831e+01	1.017417e+02
3.290938e+06	-4.357467e+01	-9.438563e+01	-3.058175e+01	-7.018033e+00	-8.838368e+01	3.954632e+01	-5.422459e+01	1.018063e+02
3.290969e+06	-4.357197e+01	-9.449268e+01	-3.058233e+01	-7.000194e+00	-9.091636e+01	4.711105e+01	-5.418041e+01	1.018854e+02
3.291000e+06	-4.356925e+01	-9.460109e+01	-3.058292e+01	-6.982267e+00	-9.411649e+01	6.194573e+01	-5.413595e+01	1.019638e+02
3.291032e+06	-4.356650e+01	-9.470943e+01	-3.058350e+01	-6.964338e+00	-9.712479e+01	9.349662e+01	-5.409171e+01	1.020415e+02
3.291063e+06	-4.356373e+01	-9.481771e+01	-3.058409e+01	-6.946406e+00	-9.640761e+01	1.364335e+02	-5.404767e+01	1.021183e+02
3.291094e+06	-4.356092e+01	-9.492591e+01	-3.058467e+01	-6.928472e+00	-9.308031e+01	1.617494e+02	-5.400384e+01	1.021944e+02
3.291125e+06	-4.356182e+01	-9.492987e+01	-3.058567e+01	-6.954546e+00	-9.872880e+01	1.638204e+02	-5.403002e+01	1.020725e+02
3.291156e+06	-4.356271e+01	-9.493382e+01	-3.058668e+01	-6.980627e+00	-1.179223e+02	-1.570533e+02	-5.405623e+01	1.019498e+02
3.291188e+06	-4.356361e+01	-9.493778e+01	-3.058768e+01	-7.006713e+00	-1.002305e+02	-2.565505e+01	-5.408249e+01	1.018264e+02
3.291219e+06	-4.356450e+01	-9.494174e+01	-3.058868e+01	-7.032805e+00	-9.383360e+01	-2.296980e+01	-5.410879e+01	1.017023e+02
3.291250e+06	-4.356544e+01	-9.494518e+01	-3.058966e+01	-7.058442e+00	-9.021946e+01	-2.225145e+01	-5.413486e+01	1.015805e+02
3.291282e+06	-4.357190e+01	-9.488338e+01	-3.058843e+01	-7.026874e+00	-9.112255e+01	-3.940957e+01	-5.412852e+01	1.018460e+02
3.291313e+06	-4.357835e+01	-9.482150e+01	-3.058720e+01	-6.995314e+00	-9.116447e+01	-5.861262e+01	-5.412200e+01	1.021111e+02
3.291344e+06	-4.358480e+01	-9.475952e+01	-3.058597e+01	-6.963764e+00	-9.032231e+01	-7.606827e+01	-5.411530e+01	1.023758e+02
3.291375e+06	-4.359125e+01	-9.469746e+01	-3.058474e+01	-6.932222e+00	-8.898524e+01	-8.956598e+01	-5.410842e+01	1.026401e+02
3.291406e+06	-4.359759e+01	-9.463625e+01	-3.058346e+01	-6.901558e+00	-8.758972e+01	-9.917774e+01	-5.410155e+01	1.028982e+02
3.291438e+06	-4.359847e+01	-9.463402e+01	-3.057962e+01	-6.924318e+00	-9.089144e+01	-9.990618e+01	-5.410648e+01	1.028028e+02
3.291469e+06	-4.359935e+01	-9.463179e+01	-3.057578e+01	-6.947058e+00	-9.627621e+01	-1.018868e+02	-5.411140e+01	1.027074e+02
3.291500e+06	-4.360023e+01	-9.462955e+01	-3.057194e+01	-6.969777e+00	-1.124073e+02	-1.261863e+02	-5.411629e+01	1.026119e+02
3.291532e+06	-4.360111e+01	-9.462731e+01	-3.056810e+01	-6.992476e+00	-9.904699e+01	8.829450e+01	-5.412116e+01	1.025162e+02
3.291563e+06	-4.360198e+01	-9.462508e+01	-3.056426e+01	-7.015156e+00	-9.227613e+01	8.509778e+01	-5.412601e+01	1.024205e+02
3.291594e+06	-4.360162e+01	-9.464865e+01	-3.056815e+01	-7.021475e+00	-9.359834e+01	8.444177e+01	-5.414402e+01	1.021249e+02
3.291625e+06	-4.360124e+01	-9.467242e+01	-3.057210e+01	-7.027668e+00	-9.522368e+01	8.352581e+01	-5.416195e+01	1.018264e+02
3.291656e+06	-4.360086e+01	-9.469619e+01	-3.057606e+01	-7.033866e+00	-9.722059e+01	8.213583e+01	-5.417967e+01	1.015267e+02
3.291688e+06	-4.360048e+01	-9.471996e+01	-3.058001e+01	-7.040070e+00	-9.980642e+01	7.977955e+01	-5.419719e+01	1.012258e+02
3.291719e+06	-4.360010e+01	-9.474373e+01	-3.058397e+01	-7.046280e+00	-1.034589e+02	7.494301e+01	-5.421450e+01	1.009237e+02
3.291750e+06	-4.359802e+01	-9.476827e+01	-3.058319e+01	-7.039769e+00	-1.036253e+02	1.563698e+01	-5.418668e+01	1.012165e+02
3.291782e+06	-4.359594e+01	-9.479280e+01	-3.058242e+01	-7.033260e+00	-9.891569e+01	-1.500500e+01	-5.415873e+01	1.015075e+02
3.291813e+06	-4.359387e+01	-9.481732e+01	-3.058164e+01	-7.026752e+00	-9.522907e+01	-2.618288e+01	-5.413065e+01	1.017965e+02
3.291844e+06	-4.359178e+01	-9.484183e+01	-3.058086e+01	-7.020245e+00	-9.253165e+01	-3.151655e+01	-5.410244e+01	1.020837e+02
3.291875e+06	-4.358975e+01	-9.486590e+01	-3.058009e+01	-7.013742e+00	-9.047716e+01	-3.453451e+01	-5.407463e+01	1.023674e+02
3.291906e+06	-4.359327e+01	-9.483687e+01	-3.058011e+01	-7.007557e+00	-9.338621e+01	-2.864277e+01	-5.411278e+01	1.024461e+02
3.291938e+06	-4.359679e+01	-9.480782e+01	-3.058012e+01	-7.001372e+00	-9.745169e+01	-1.539692e+01	-5.415108e+01	1.025255e+02
3.291969e+06	-4.360031e+01	-9.477875e+01	-3.058014e+01	-6.995187e+00	-1.022346e+02	2.399350e+01	-5.418953e+01	1.026056e+02
3.292000e+06	-4.360383e+01	-9.474965e+01	-3.058015e+01	-6.989002e+00	-1.000690e+02	8.305992e+01	-5.422814e+01	1.026864e+02
3.292032e+06	-4.360709e+01	-9.472173e+01	-3.058018e+01	-6.982986e+00	-9.541601e+01	1.053396e+02	-5.426616e+01	1.027632e+02
3.292063e+06	-4.359445e+01	-9.476743e+01	-3.058088e+01	-6.987373e+00	-9.975861e+01	8.434683e+01	-5.425878e+01	1.025497e+02
3.292094e+06	-4.358183e+01	-9.481300e+01	-3.058157e+01	-6.991760e+00	-1.022678e+02	3.230588e+01	-5.425128e+01	1.023366e+02
3.292125e+06	-4.356922e+01	-9.485844e+01	-3.058227e+01	-6.996148e+00	-9.829257e+01	-9.453032e+00	-5.424367e+01	1.021238e+02
3.292156e+06	-4.355662e+01	-9.490375e+01	-3.058296e+01	-7.000537e+00	-9.429178e+01	-2.487181e+01	-5.423595e+01	1.019115e+02
3.292188e+06	-4.354404e+01	-9.494892e+01	-3.058365e+01	-7.004927e+00	-9.135757e+01	-3.174388e+01	-5.422811e+01	1.016995e+02
3.292219e+06	-4.355636e+01	-9.492753e+01	-3.058474e+01	-6.991632e+00	-9.208580e+01	-1.756496e+01	-5.421481e+01	1.017289e+02
3.292250e+06	-4.356889e+01	-9.490554e+01	-3.058582e+01	-6.978191e+00	-9.225422e+01	-1.593567e+00	-5.420149e+01	1.017602e+02
3.292282e+06	-4.358144e+01	-9.488349e+01	-3.058691e+01	-6.964746e+00	-9.176727e+01	1.378821e+01	-5.418818e+01	1.017914e+02
3.292313e+06	-4.359401e+01	-9.486137e+01	-3.058799e+01	-6.951298e+00	-9.080693e+01	2.676393e+01	-5.417489e+01	1.018225e+02
3.292344e+06	-4.360659e+01	-9.483919e+01	-3.058908e+01	-6.937847e+00	-8.962844e+01	3.687337e+01	-5.416162e+01	1.018535e+02
3.292375e+06	-4.360106e+01	-9.480662e+01	-3.058733e+01	-6.954962e+00	-8.986057e+01	3.901261e+01	-5.417123e+01	1.020642e+02
3.292406e+06	-4.359553e+01	-9.477410e+01	-3.058557e+01	-6.972070e+00	-9.008596e+01	4.126762e+01	-5.418073e+01	1.022753e+02
3.292438e+06	-4.359000e+01	-9.474161e+01	-3.058382e+01	-6.989171e+00	-9.030281e+01	4.364048e+01	-5.419013e+01	1.024869e+02
3.292469e+06	-4.358447e+01	-9.470917e+01	-3.058206e+01	-7.006265e+00	-9.050918e+01	4.613189e+01	-5.419942e+01	1.026989e+02
3.292500e+06	-4.357905e+01	-9.467720e+01	-3.058031e+01	-7.023287e+00	-9.069308e+01	4.877300e+01	-5.420866e+01	1.029092e+02
3.292532e+06	-4.358709e+01	-9.469811e+01	-3.057962e+01	-7.032262e+00	-8.965823e+01	5.471376e+01	-5.422560e+01	1.028429e+02
3.292563e+06	-4.359514e+01	-9.471906e+01	-3.057892e+01	-7.041236e+00	-8.866722e+01	5.941550e+01	-5.424257e+01	1.027763e+02
3.292594e+06	-4.360319e+01	-9.474005e+01	-3.057823e+01	-7.050209e+00	-8.773550e+01	6.318209e+01	-5.425956e+01	1.027095e+02
3.292625e+06	-4.361125e+01	-9.476108e+01	-3.057753e+01	-7.059180e+00	-8.686643e+01	6.624266e+01	-5.427657e+01	1.026424e+02
3.292656e+06	-4.361909e+01	-9.478134e+01	-3.057689e+01	-7.067825e+00	-8.610527e+01	6.867383e+01	-5.429340e+01	1.025747e+02
3.292688e+06	-4.361281e+01	-9.475178e+01	-3.057969e+01	-7.056515e+00	-8.860064e+01	6.410018e+01	-5.429803e+01	1.024887e+02
3.292719e+06	-4.360652e+01	-9.472227e+01	-3.058249e+01	-7.045198e+00	-9.195312e+01	5.510562e+01	-5.430265e+01	1.024026e+02
3.292750e+06	-4.360024e+01	-9.469280e+01	-3.058529e+01	-7.033874e+00	-9.648575e+01	3.230349e+01	-5.430724e+01	1.023164e+02
3.292782e+06	-4.359397e+01	-9.466338e+01	-3.058810e+01	-7.022543e+00	-9.852053e+01	-2.333204e+01	-5.431182e+01	1.022301e+02
3.292813e+06	-4.358769e+01	-9.463399e+01	-3.059090e+01	-7.011204e+00	-9.413700e+01	-6.237357e+01	-5.431638e+01	1.021437e+02
3.292844e+06	-4.359558e+01	-9.460199e+01	-3.058919e+01	-7.008315e+00	-9.350096e+01	-5.927153e+01	-5.429270e+01	1.024476e+02
3.292875e+06	-4.360358e+01	-9.456991e+01	-3.058745e+01	-7.005496e+00	-9.291261e+01	-5.639181e+01	-5.426860e+01	1.027531e+02
3.292906e+06	-4.361159e+01	-9.453776e+01	-3.058571e+01	-7.002678e+00	-9.234358e+01	-5.387160e+01	-5.424433e+01	1.030568e+02
3.292938e+06	-4.361960e+01	-9.450556e+01	-3.058397e+01	-6.999862e+00	-9.179565e+01	-5.165565e+01	-5.421988e+01	1.033588e+02
3.292969e+06	-4.362762e+01	-9.447330e+01	-3.058223e+01	-6.997046e+00	-9.126943e+01	-4.969759e+01	-5.419526e+01	1.036591e+02
3.293000e+06	-4.362321e+01	-9.448139e+01	-3.058211e+01	-6.994507e+00	-9.465115e+01	-4.272145e+01	-5.420370e+01	1.033816e+02
3.293032e+06	-4.361881e+01	-9.448948e+01	-3.058198e+01	-6.991968e+00	-9.962299e+01	-2.419401e+01	-5.421194e+01	1.031036e+02
3.293063e+06	-4.361440e+01	-9.449756e+01	-3.058186e+01	-6.989430e+00	-1.033986e+02	3.625357e+01	-5.421999e+01	1.028250e+02
3.293094e+06	-4.361000e+01	-9.450562e+01	-3.058173e+01	-6.986891e+00	-9.816333e+01	8.358953e+01	-5.422783e+01	1.025459e+02
3.293125e+06	-4.360560e+01	-9.451388e+01	-3.058160e+01	-6.984370e+00	-9.370884e+01	9.732618e+01	-5.423530e+01	1.022683e+02
3.293156e+06	-4.360118e+01	-9.454692e+01	-3.058078e+01	-6.983945e+00	-9.524351e+01	8.613334e+01	-5.421990e+01	1.022334e+02
3.293188e+06	-4.359676e+01	-9.457993e+01	-3.057996e+01	-6.983520e+00	-9.654169e+01	7.053070e+01	-5.420453e+01	1.021987e+02
3.293219e+06	-4.359233e+01	-9.461290e+01	-3.057914e+01	-6.983096e+00	-9.712291e+01	5.102279e+01	-5.418918e+01	1.021641e+02
3.293250e+06	-4.358791e+01	-9.464584e+01	-3.057832e+01	-6.982672e+00	-9.666230e+01	3.123081e+01	-5.417386e+01	1.021295e+02
3.293282e+06	-4.358361e+01	-9.467778e+01	-3.057752e+01	-6.982322e+00	-9.547259e+01	1.529080e+01	-5.415908e+01	1.020948e+02
3.293313e+06	-4.358757e+01	-9.465058e+01	-3.057829e+01	-6.986552e+00	-9.725620e+01	1.568746e+01	-5.417636e+01	1.020367e+02
3.293344e+06	-4.359154e+01	-9.462335e+01	-3.057905e+01	-6.990784e+00	-9.950241e+01	1.631830e+01	-5.419366e+01	1.019784e+02
3.293375e+06	-4.359550e+01	-9.459609e+01	-3.057982e+01	-6.995016e+00	-1.025374e+02	1.747707e+01	-5.421099e+01	1.019199e+02
3.293406e+06	-4.359946e+01	-9.456881e+01	-3.058059e+01	-6.999249e+00	-1.072276e+02	2.029807e+01	-5.422835e+01	1.018612e+02
3.293438e+06	-4.360342e+01	-9.454151e+01	-3.058135e+01	-7.003483e+00	-1.177344e+02	3.674391e+01	-5.424573e+01	1.018022e+02
3.293469e+06	-4.360407e+01	-9.456960e+01	-3.058106e+01	-7.009909e+00	-1.039867e+02	4.788048e+01	-5.422531e+01	1.018562e+02
3.293500e+06	-4.360470e+01	-9.459814e+01	-3.058076e+01	-7.016352e+00	-9.883985e+01	4.907625e+01	-5.420463e+01	1.019108e+02
3.293532e+06	-4.360532e+01	-9.462669e+01	-3.058046e+01	-7.022795e+00	-9.562898e+01	4.953306e+01	-5.418399e+01	1.019652e+02
3.293563e+06	-4.360594e+01	-9.465524e+01	-3.058015e+01	-7.029237e+00	-9.328974e+01	4.977417e+01	-5.416339e+01	1.020193e+02
3.293594e+06	-4.360656e+01	-9.468379e+01	-3.057985e+01	-7.035679e+00	-9.144861e+01	4.992318e+01	-5.414283e+01	1.020732e+02
