# Hz S dB R 50.000
3.288438e+06	-4.345720e+01	-9.275437e+01	-3.063492e+01	-7.053279e+00	-9.275709e+01	4.890528e+01	-5.407664e+01	1.033387e+02
3.288469e+06	-4.346323e+01	-9.273976e+01	-3.063866e+01	-7.044274e+00	-9.324061e+01	6.583073e+01	-5.406452e+01	1.032430e+02
3.288500e+06	-4.346927e+01	-9.272512e+01	-3.064239e+01	-7.035261e+00	-9.293880e+01	8.312514e+01	-5.405239e+01	1.031475e+02
3.288532e+06	-4.347531e+01	-9.271046e+01	-3.064613e+01	-7.026240e+00	-9.199014e+01	9.804224e+01	-5.404025e+01	1.030523e+02
3.288563e+06	-4.348136e+01	-9.269579e+01	-3.064987e+01	-7.017212e+00	-9.072397e+01	1.095489e+02	-5.402810e+01	1.029573e+02
3.288594e+06	-4.348734e+01	-9.268077e+01	-3.065357e+01	-7.008172e+00	-8.941697e+01	1.179177e+02	-5.401603e+01	1.028636e+02
3.288626e+06	-4.348453e+01	-9.262628e+01	-3.065225e+01	-6.998712e+00	-9.136321e+01	1.056067e+02	-5.401352e+01	1.028880e+02
3.288657e+06	-4.348172e+01	-9.257183e+01	-3.065093e+01	-6.989254e+00	-9.306471e+01	8.667163e+01	-5.401101e+01	1.029124e+02
3.288688e+06	-4.347890e+01	-9.251741e+01	-3.064962e+01	-6.979799e+00	-9.363310e+01	6.174798e+01	-5.400850e+01	1.029368e+02
3.288719e+06	-4.347607e+01	-9.246303e+01	-3.064830e+01	-6.970347e+00	-9.260522e+01	3.818877e+01	-5.400599e+01	1.029611e+02
3.288750e+06	-4.347316e+01	-9.241065e+01	-3.064699e+01	-6.961084e+00	-9.081539e+01	2.177894e+01	-5.400354e+01	1.029858e+02
3.288782e+06	-4.346579e+01	-9.247914e+01	-3.064655e+01	-6.963266e+00	-9.298848e+01	2.574491e+01	-5.400492e+01	1.030308e+02
3.288813e+06	-4.345841e+01	-9.254752e+01	-3.064612e+01	-6.965448e+00	-9.579036e+01	3.278933e+01	-5.400629e+01	1.030758e+02
3.288844e+06	-4.345103e+01	-9.261578e+01	-3.064568e+01	-6.967630e+00	-9.950401e+01	4.783921e+01	-5.400766e+01	1.031209e+02
3.288876e+06	-4.344364e+01	-9.268392e+01	-3.064524e+01	-6.969812e+00	-1.031893e+02	8.532980e+01	-5.400902e+01	1.031659e+02
3.288907e+06	-4.343643e+01	-9.275004e+01	-3.064476e+01	-6.972464e+00	-1.016257e+02	1.348995e+02	-5.401086e+01	1.032081e+02
3.288938e+06	-4.343701e+01	-9.273830e+01	-3.064253e+01	-6.994232e+00	-1.027022e+02	1.690871e+02	-5.403253e+01	1.031332e+02
3.288969e+06	-4.343759e+01	-9.272657e+01	-3.064031e+01	-7.015989e+00	-1.008385e+02	-1.600346e+02	-5.405424e+01	1.030579e+02
3.289000e+06	-4.343817e+01	-9.271483e+01	-3.063809e+01	-7.037735e+00	-9.809463e+01	-1.424604e+02	-5.407599e+01	1.029822e+02
3.289032e+06	-4.343874e+01	-9.270309e+01	-3.063586e+01	-7.059469e+00	-9.566122e+01	-1.328839e+02	-5.409778e+01	1.029061e+02
3.289063e+06	-4.343932e+01	-9.269135e+01	-3.063364e+01	-7.081193e+00	-9.364590e+01	-1.271630e+02	-5.411961e+01	1.028297e+02
3.289094e+06	-4.344417e+01	-9.273581e+01	-3.063691e+01	-7.053456e+00	-9.662846e+01	-1.331256e+02	-5.408699e+01	1.030216e+02
3.289126e+06	-4.344902e+01	-9.278033e+01	-3.064018e+01	-7.025697e+00	-1.008426e+02	-1.468873e+02	-5.405439e+01	1.032120e+02
3.289157e+06	-4.345386e+01	-9.282489e+01	-3.064346e+01	-6.997918e+00	-1.056896e+02	1.706445e+02	-5.402182e+01	1.034010e+02
3.289188e+06	-4.345870e+01	-9.286950e+01	-3.064673e+01	-6.970118e+00	-1.029079e+02	1.117273e+02	-5.398927e+01	1.035886e+02
3.289219e+06	-4.346351e+01	-9.291321e+01	-3.064995e+01	-6.942549e+00	-9.812789e+01	9.096837e+01	-5.395716e+01	1.037720e+02
3.289250e+06	-4.346446e+01	-9.283765e+01	-3.064712e+01	-6.946316e+00	-9.787464e+01	1.009050e+02	-5.397430e+01	1.036119e+02
3.289282e+06	-4.346540e+01	-9.276208e+01	-3.064430e+01	-6.950080e+00	-9.739576e+01	1.100313e+02	-5.399140e+01	1.034512e+02
3.289313e+06	-4.346633e+01	-9.268649e+01	-3.064148e+01	-6.953842e+00	-9.675839e+01	1.180492e+02	-5.400848e+01	1.032899e+02
3.289344e+06	-4.346724e+01	-9.261089e+01	-3.063866e+01	-6.957602e+00	-9.602910e+01	1.248937e+02	-5.402551e+01	1.031279e+02
3.289376e+06	-4.346797e+01	-9.253697e+01	-3.063588e+01	-6.961502e+00	-9.528053e+01	1.305253e+02	-5.404204e+01	1.029689e+02
3.289407e+06	-4.345880e+01	-9.256769e+01	-3.063584e+01	-6.974179e+00	-9.579921e+01	1.278607e+02	-5.402974e+01	1.030285e+02
3.289438e+06	-4.344963e+01	-9.259834e+01	-3.063581e+01	-6.986855e+00	-9.632826e+01	1.248541e+02	-5.401745e+01	1.030880e+02
3.289469e+06	-4.344046e+01	-9.262892e+01	-3.063577e+01	-6.999532e+00	-9.686281e+01	1.214555e+02	-5.400516e+01	1.031474e+02
3.289500e+06	-4.343131e+01	-9.265944e+01	-3.063574e+01	-7.012208e+00	-9.739553e+01	1.176119e+02	-5.399288e+01	1.032065e+02
3.289532e+06	-4.342274e+01	-9.269049e+01	-3.063569e+01	-7.024475e+00	-9.798700e+01	1.129156e+02	-5.398119e+01	1.032633e+02
3.289563e+06	-4.343780e+01	-9.274575e+01	-3.063520e+01	-7.020086e+00	-1.011974e+02	8.318920e+01	-5.399289e+01	1.032302e+02
3.289594e+06	-4.345287e+01	-9.280120e+01	-3.063472e+01	-7.015697e+00	-1.009142e+02	3.919597e+01	-5.400461e+01	1.031971e+02
3.289626e+06	-4.346797e+01	-9.285685e+01	-3.063424e+01	-7.011309e+00	-9.758678e+01	1.191608e+01	-5.401634e+01	1.031638e+02
3.289657e+06	-4.348308e+01	-9.291269e+01	-3.063375e+01	-7.006921e+00	-9.448820e+01	-7.177082e-01	-5.402808e+01	1.031304e+02
3.289688e+06	-4.349821e+01	-9.296872e+01	-3.063327e+01	-7.002534e+00	-9.203825e+01	-7.348293e+00	-5.403984e+01	1.030970e+02
3.289719e+06	-4.349596e+01	-9.291929e+01	-3.063657e+01	-7.000751e+00	-9.463442e+01	-8.728258e+00	-5.406852e+01	1.030937e+02
3.289750e+06	-4.349371e+01	-9.286989e+01	-3.063987e+01	-6.998966e+00	-9.833840e+01	-1.157936e+01	-5.409730e+01	1.030904e+02
3.289782e+06	-4.349145e+01	-9.282051e+01	-3.064317e+01	-6.997180e+00	-1.047819e+02	-2.078549e+01	-5.412618e+01	1.030871e+02
3.289813e+06	-4.348919e+01	-9.277116e+01	-3.064647e+01	-6.995393e+00	-1.140578e+02	-1.230019e+02	-5.415515e+01	1.030837e+02
3.289844e+06	-4.348690e+01	-9.272229e+01	-3.064971e+01	-6.993682e+00	-1.023675e+02	-1.706528e+02	-5.418377e+01	1.030799e+02
3.289876e+06	-4.348240e+01	-9.272997e+01	-3.064480e+01	-7.001499e+00	-9.974056e+01	1.551415e+02	-5.415793e+01	1.030121e+02
3.289907e+06	-4.347790e+01	-9.273763e+01	-3.063988e+01	-7.009307e+00	-9.651546e+01	1.384875e+02	-5.413216e+01	1.029447e+02
3.289938e+06	-4.347341e+01	-9.274529e+01	-3.063497e+01	-7.017107e+00	-9.388554e+01	1.300892e+02	-5.410645e+01	1.028777e+02
3.289969e+06	-4.346891e+01	-9.275294e+01	-3.063007e+01	-7.024897e+00	-9.178393e+01	1.252298e+02	-5.408080e+01	1.028111e+02
3.290000e+06	-4.346440e+01	-9.276053e+01	-3.062531e+01	-7.032405e+00	-9.007475e+01	1.220736e+02	-5.405536e+01	1.027488e+02
3.290032e+06	-4.345873e+01	-9.276507e+01	-3.062942e+01	-7.023033e+00	-8.942297e+01	1.179437e+02	-5.403865e+01	1.029248e+02
3.290063e+06	-4.345306e+01	-9.276960e+01	-3.063354e+01	-7.013652e+00	-8.878046e+01	1.143863e+02	-5.402188e+01	1.031001e+02
3.290094e+06	-4.344740e+01	-9.277413e+01	-3.063766e+01	-7.004262e+00	-8.815521e+01	1.113126e+02	-5.400507e+01	1.032748e+02
3.290126e+06	-4.344174e+01	-9.277864e+01	-3.064178e+01	-6.994863e+00	-8.755169e+01	1.086446e+02	-5.398820e+01	1.034488e+02
3.290157e+06	-4.343629e+01	-9.278332e+01	-3.064578e+01	-6.985514e+00	-8.702836e+01	1.061431e+02	-5.397172e+01	1.036208e+02
3.290188e+06	-4.343900e+01	-9.279437e+01	-3.064450e+01	-6.978542e+00	-8.884054e+01	9.441360e+01	-5.397263e+01	1.037409e+02
3.290219e+06	-4.344171e+01	-9.280544e+01	-3.064322e+01	-6.971573e+00	-9.043485e+01	7.690102e+01	-5.397349e+01	1.038610e+02
3.290250e+06	-4.344443e+01	-9.281651e+01	-3.064194e+01	-6.964606e+00	-9.108791e+01	5.396059e+01	-5.397432e+01	1.039811e+02
3.290282e+06	-4.344714e+01	-9.282759e+01	-3.064066e+01	-6.957641e+00	-9.032884e+01	3.131402e+01	-5.397511e+01	1.041013e+02
3.290313e+06	-4.344986e+01	-9.283868e+01	-3.063938e+01	-6.950678e+00	-8.869434e+01	1.431812e+01	-5.397586e+01	1.042215e+02
3.290344e+06	-4.345303e+01	-9.285107e+01	-3.063867e+01	-6.961509e+00	-9.049606e+01	8.310193e+00	-5.402331e+01	1.039943e+02
3.290376e+06	-4.345620e+01	-9.286347e+01	-3.063795e+01	-6.972339e+00	-9.257813e+01	-1.110365e+00	-5.407088e+01	1.037646e+02
3.290407e+06	-4.345936e+01	-9.287588e+01	-3.063724e+01	-6.983167e+00	-9.479532e+01	-1.668592e+01	-5.411856e+01	1.035323e+02
3.290438e+06	-4.346253e+01	-9.288829e+01	-3.063652e+01	-6.993993e+00	-9.639069e+01	-4.129801e+01	-5.416637e+01	1.032975e+02
3.290469e+06	-4.346571e+01	-9.290039e+01	-3.063581e+01	-7.004771e+00	-9.609552e+01	-6.991503e+01	-5.421363e+01	1.030624e+02
3.290500e+06	-4.346986e+01	-9.287172e+01	-3.063611e+01	-7.009761e+00	-9.663310e+01	-6.424117e+01	-5.417894e+01	1.031160e+02
3.290532e+06	-4.347400e+01	-9.284302e+01	-3.063641e+01	-7.014751e+00	-9.710406e+01	-5.786600e+01	-5.414438e+01	1.031692e+02
3.290563e+06	-4.347814e+01	-9.281429e+01	-3.063670e+01	-7.019742e+00	-9.747666e+01	-5.083749e+01	-5.410995e+01	1.032219e+02
3.290594e+06	-4.348228e+01	-9.278553e+01	-3.063700e+01	-7.024733e+00	-9.771942e+01	-4.329007e+01	-5.407565e+01	1.032742e+02
3.290626e+06	-4.348639e+01	-9.275771e+01	-3.063731e+01	-7.029452e+00	-9.782422e+01	-3.540750e+01	-5.404187e+01	1.033271e+02
3.290657e+06	-4.348810e+01	-9.278920e+01	-3.063845e+01	-7.017464e+00	-9.871318e+01	-2.381296e+01	-5.403279e+01	1.034393e+02
3.290688e+06	-4.348982e+01	-9.282070e+01	-3.063958e+01	-7.005473e+00	-9.923638e+01	-1.013484e+01	-5.402369e+01	1.035514e+02
3.290719e+06	-4.349153e+01	-9.285221e+01	-3.064072e+01	-6.993478e+00	-9.923566e+01	4.409440e+00	-5.401456e+01	1.036631e+02
3.290750e+06	-4.349324e+01	-9.288374e+01	-3.064186e+01	-6.981481e+00	-9.871127e+01	1.808335e+01	-5.400541e+01	1.037747e+02
3.290782e+06	-4.349481e+01	-9.291317e+01	-3.064292e+01	-6.970446e+00	-9.792853e+01	2.918896e+01	-5.399637e+01	1.038824e+02
3.290813e+06	-4.349044e+01	-9.285700e+01	-3.064080e+01	-6.998704e+00	-1.020111e+02	1.331711e+01	-5.399255e+01	1.038449e+02
3.290844e+06	-4.348607e+01	-9.280089e+01	-3.063869e+01	-7.026948e+00	-1.059476e+02	-3.019264e+01	-5.398874e+01	1.038073e+02
3.290876e+06	-4.348170e+01	-9.274483e+01	-3.063657e+01	-7.055179e+00	-1.031348e+02	-8.178050e+01	-5.398492e+01	1.037699e+02
3.290907e+06	-4.347732e+01	-9.268883e+01	-3.063445e+01	-7.083395e+00	-9.878031e+01	-1.018602e+02	-5.398109e+01	1.037324e+02
3.290938e+06	-4.347293e+01	-9.263289e+01	-3.063233e+01	-7.111598e+00	-9.557620e+01	-1.101284e+02	-5.397727e+01	1.036950e+02
3.290969e+06	-4.347464e+01	-9.268559e+01	-3.063255e+01	-7.081689e+00	-9.716468e+01	-1.121500e+02	-5.399065e+01	1.036176e+02
3.291000e+06	-4.347635e+01	-9.273831e+01	-3.063277e+01	-7.051779e+00	-9.908989e+01	-1.151803e+02	-5.400403e+01	1.035399e+02
3.291032e+06	-4.347805e+01	-9.279106e+01	-3.063299e+01	-7.021867e+00	-1.015137e+02	-1.201840e+02	-5.401741e+01	1.034621e+02
3.291063e+06	-4.347975e+01	-9.284382e+01	-3.063321e+01	-6.991954e+00	-1.047014e+02	-1.297635e+02	-5.403080e+01	1.033839e+02
3.291094e+06	-4.348138e+01	-9.289589e+01	-3.063341e+01	-6.962351e+00	-1.087958e+02	-1.519881e+02	-5.404401e+01	1.033064e+02
3.291126e+06	-4.347642e+01	-9.285949e+01	-3.063257e+01	-6.971492e+00	-1.155743e+02	-1.217270e+02	-5.403433e+01	1.033376e+02
3.291157e+06	-4.347145e+01	-9.282312e+01	-3.063174e+01	-6.980632e+00	-1.147010e+02	-3.769794e+01	-5.402466e+01	1.033687e+02
3.291188e+06	-4.346648e+01	-9.278681e+01	-3.063090e+01	-6.989769e+00	-1.082256e+02	-1.243449e+01	-5.401499e+01	1.033997e+02
3.291219e+06	-4.346152e+01	-9.275053e+01	-3.063006e+01	-6.998905e+00	-1.042311e+02	-5.088891e+00	-5.400533e+01	1.034307e+02
3.291250e+06	-4.345667e+01	-9.271556e+01	-3.062921e+01	-7.008121e+00	-1.015302e+02	-1.821239e+00	-5.399576e+01	1.034600e+02
3.291282e+06	-4.345931e+01	-9.275860e+01	-3.062821e+01	-7.022349e+00	-1.039758e+02	-6.463270e+00	-5.399092e+01	1.033911e+02
3.291313e+06	-4.346194e+01	-9.280167e+01	-3.062721e+01	-7.036574e+00	-1.072294e+02	-1.543696e+01	-5.398608e+01	1.033223e+02
3.291344e+06	-4.346456e+01	-9.284476e+01	-3.062621e+01	-7.050796e+00	-1.115604e+02	-3.736936e+01	-5.398122e+01	1.032536e+02
3.291376e+06	-4.346718e+01	-9.288788e+01	-3.062521e+01	-7.065014e+00	-1.137671e+02	-8.982146e+01	-5.397635e+01	1.031849e+02
3.291407e+06	-4.346985e+01	-9.292852e+01	-3.062427e+01	-7.078221e+00	-1.100151e+02	-1.290803e+02	-5.397249e+01	1.031164e+02
3.291438e+06	-4.347428e+01	-9.286714e+01	-3.062575e+01	-7.050440e+00	-1.197212e+02	-9.213313e+01	-5.401022e+01	1.030498e+02
3.291469e+06	-4.347871e+01	-9.280571e+01	-3.062724e+01	-7.022650e+00	-1.141909e+02	1.142646e+01	-5.404810e+01	1.029826e+02
3.291500e+06	-4.348313e+01	-9.274421e+01	-3.062872e+01	-6.994850e+00	-1.074003e+02	2.503750e+01	-5.408613e+01	1.029148e+02
3.291532e+06	-4.348754e+01	-9.268264e+01	-3.063020e+01	-6.967041e+00	-1.035434e+02	2.899815e+01	-5.412432e+01	1.028465e+02
3.291563e+06	-4.349194e+01	-9.262102e+01	-3.063168e+01	-6.939222e+00	-1.008674e+02	3.086390e+01	-5.416266e+01	1.027775e+02
3.291594e+06	-4.348754e+01	-9.263522e+01	-3.063136e+01	-6.956250e+00	-9.843604e+01	5.470698e+01	-5.411733e+01	1.030775e+02
3.291626e+06	-4.348314e+01	-9.264940e+01	-3.063104e+01	-6.973277e+00	-9.586898e+01	6.784857e+01	-5.407201e+01	1.033744e+02
3.291657e+06	-4.347874e+01	-9.266357e+01	-3.063071e+01	-6.990303e+00	-9.368055e+01	7.540503e+01	-5.402669e+01	1.036683e+02
3.291688e+06	-4.347435e+01	-9.267772e+01	-3.063039e+01	-7.007328e+00	-9.185629e+01	8.015754e+01	-5.398138e+01	1.039590e+02
3.291719e+06	-4.346997e+01	-9.269213e+01	-3.063007e+01	-7.024227e+00	-9.036451e+01	8.329968e+01	-5.393682e+01	1.042444e+02
3.291750e+06	-4.346748e+01	-9.274000e+01	-3.063063e+01	-7.025708e+00	-9.683806e+01	6.714772e+01	-5.398279e+01	1.042342e+02
3.291782e+06	-4.346499e+01	-9.278785e+01	-3.063119e+01	-7.027189e+00	-1.014706e+02	-2.518617e+01	-5.402900e+01	1.042238e+02
3.291813e+06	-4.346249e+01	-9.283566e+01	-3.063175e+01	-7.028671e+00	-9.290731e+01	-6.464181e+01	-5.407547e+01	1.042134e+02
3.291844e+06	-4.345999e+01	-9.288345e+01	-3.063231e+01	-7.030153e+00	-8.815514e+01	-7.252719e+01	-5.412218e+01	1.042028e+02
3.291876e+06	-4.345753e+01	-9.293046e+01	-3.063284e+01	-7.031469e+00	-8.513642e+01	-7.577666e+01	-5.416734e+01	1.041921e+02
3.291907e+06	-4.345795e+01	-9.293105e+01	-3.063167e+01	-7.022626e+00	-8.801570e+01	-8.464259e+01	-5.410183e+01	1.041813e+02
3.291938e+06	-4.345837e+01	-9.293165e+01	-3.063050e+01	-7.013785e+00	-9.163105e+01	-1.036406e+02	-5.403680e+01	1.041705e+02
3.291969e+06	-4.345879e+01	-9.293224e+01	-3.062933e+01	-7.004947e+00	-9.411529e+01	-1.447135e+02	-5.397227e+01	1.041600e+02
3.292000e+06	-4.345922e+01	-9.293283e+01	-3.062816e+01	-6.996111e+00	-9.166535e+01	1.740157e+02	-5.390820e+01	1.041496e+02
3.292032e+06	-4.345964e+01	-9.293326e+01	-3.062703e+01	-6.987806e+00	-8.817085e+01	1.551958e+02	-5.384738e+01	1.041393e+02
3.292063e+06	-4.346012e+01	-9.292691e+01	-3.062743e+01	-7.001011e+00	-9.036348e+01	1.565110e+02	-5.389952e+01	1.041279e+02
3.292094e+06	-4.346060e+01	-9.292057e+01	-3.062784e+01	-7.014217e+00	-9.329202e+01	1.588831e+02	-5.395198e+01	1.041163e+02
3.292126e+06	-4.346108e+01	-9.291422e+01	-3.062824e+01	-7.027424e+00	-9.768525e+01	1.644009e+02	-5.400475e+01	1.041046e+02
3.292157e+06	-4.346156e+01	-9.290788e+01	-3.062865e+01	-7.040633e+00	-1.059973e+02	-1.710681e+02	-5.405785e+01	1.040927e+02
3.292188e+06	-4.346204e+01	-9.290153e+01	-3.062905e+01	-7.053843e+00	-1.048424e+02	-6.223321e+01	-5.411127e+01	1.040807e+02
3.292219e+06	-4.346841e+01	-9.290859e+01	-3.062960e+01	-7.041312e+00	-1.028845e+02	-3.588336e+01	-5.410624e+01	1.039577e+02
3.292250e+06	-4.347479e+01	-9.291566e+01	-3.063015e+01	-7.028779e+00	-1.003899e+02	-2.046674e+01	-5.410117e+01	1.038348e+02
3.292282e+06	-4.348117e+01	-9.292274e+01	-3.063070e+01	-7.016245e+00	-9.816381e+01	-1.158619e+01	-5.409607e+01	1.037121e+02
3.292313e+06	-4.348756e+01	-9.292983e+01	-3.063125e+01	-7.003709e+00	-9.628750e+01	-6.062218e+00	-5.409093e+01	1.035895e+02
3.292344e+06	-4.349383e+01	-9.293691e+01	-3.063180e+01	-6.991303e+00	-9.472393e+01	-2.346301e+00	-5.408584e+01	1.034683e+02
3.292376e+06	-4.348571e+01	-9.294231e+01	-3.063206e+01	-6.995192e+00	-9.635448e+01	3.163738e+00	-5.409232e+01	1.035119e+02
3.292407e+06	-4.347759e+01	-9.294769e+01	-3.063231e+01	-6.999081e+00	-9.821240e+01	1.141290e+01	-5.409881e+01	1.035556e+02
3.292438e+06	-4.346948e+01	-9.295306e+01	-3.063257e+01	-7.002971e+00	-1.002112e+02	2.433794e+01	-5.410529e+01	1.035993e+02
3.292469e+06	-4.346138e+01	-9.295842e+01	-3.063282e+01	-7.006860e+00	-1.019051e+02	4.434764e+01	-5.411177e+01	1.036431e+02
3.292500e+06	-4.345344e+01	-9.296386e+01	-3.063305e+01	-7.010690e+00	-1.022698e+02	6.970026e+01	-5.411764e+01	1.036894e+02
3.292532e+06	-4.345506e+01	-9.297443e+01	-3.063189e+01	-7.010825e+00	-9.929599e+01	6.590994e+01	-5.408604e+01	1.038844e+02
3.292563e+06	-4.345668e+01	-9.298501e+01	-3.063072e+01	-7.010959e+00	-9.706857e+01	6.382836e+01	-5.405445e+01	1.040780e+02
3.292594e+06	-4.345830e+01	-9.299558e+01	-3.062955e+01	-7.011094e+00	-9.529145e+01	6.251583e+01	-5.402288e+01	1.042702e+02
3.292626e+06	-4.345992e+01	-9.300617e+01	-3.062839e+01	-7.011229e+00	-9.381425e+01	6.161349e+01	-5.399132e+01	1.044610e+02
3.292657e+06	-4.346135e+01	-9.301569e+01	-3.062732e+01	-7.011415e+00	-9.259831e+01	6.121025e+01	-5.396073e+01	1.046408e+02
3.292688e+06	-4.345509e+01	-9.298185e+01	-3.063024e+01	-7.013699e+00	-9.327759e+01	7.216951e+01	-5.396872e+01	1.044266e+02
3.292719e+06	-4.344883e+01	-9.294806e+01	-3.063316e+01	-7.015984e+00	-9.362646e+01	8.452640e+01	-5.397660e+01	1.042121e+02
3.292750e+06	-4.344257e+01	-9.291432e+01	-3.063608e+01	-7.018271e+00	-9.355677e+01	9.729360e+01	-5.398436e+01	1.039972e+02
3.292782e+06	-4.343631e+01	-9.288062e+01	-3.063900e+01	-7.020560e+00	-9.308731e+01	1.092806e+02	-5.399201e+01	1.037820e+02
3.292813e+06	-4.343006e+01	-9.284698e+01	-3.064192e+01	-7.022850e+00	-9.232956e+01	1.196693e+02	-5.399954e+01	1.035663e+02
3.292844e+06	-4.343853e+01	-9.287433e+01	-3.063993e+01	-7.009119e+00	-9.252413e+01	1.246157e+02	-5.402423e+01	1.035710e+02
3.292876e+06	-4.344700e+01	-9.290174e+01	-3.063795e+01	-6.995395e+00	-9.265444e+01	1.297511e+02	-5.404900e+01	1.035757e+02
3.292907e+06	-4.345549e+01	-9.292919e+01	-3.063596e+01	-6.981676e+00	-9.271436e+01	1.350006e+02	-5.407383e+01	1.035804e+02
3.292938e+06	-4.346397e+01	-9.295671e+01	-3.063398e+01	-6.967964e+00	-9.270094e+01	1.402783e+02	-5.409874e+01	1.035852e+02
3.292969e+06	-4.347242e+01	-9.298379e+01	-3.063200e+01	-6.954428e+00	-9.264226e+01	1.453793e+02	-5.412344e+01	1.035893e+02
3.293000e+06	-4.347543e+01	-9.295095e+01	-3.063056e+01	-6.961872e+00	-9.651247e+01	1.305162e+02	-5.411297e+01	1.035095e+02
3.293032e+06	-4.347844e+01	-9.291809e+01	-3.062913e+01	-6.969313e+00	-1.004772e+02	9.130350e+01	-5.410250e+01	1.034300e+02
3.293063e+06	-4.348144e+01	-9.288520e+01	-3.062770e+01	-6.976753e+00	-9.843727e+01	3.920829e+01	-5.409203e+01	1.033506e+02
3.293094e+06	-4.348445e+01	-9.285229e+01	-3.062626e+01	-6.984190e+00	-9.415243e+01	1.681645e+01	-5.408155e+01	1.032714e+02
3.293126e+06	-4.348735e+01	-9.282037e+01	-3.062483e+01	-6.991550e+00	-9.097076e+01	7.841299e+00	-5.407174e+01	1.031942e+02
3.293157e+06	-4.348409e+01	-9.285036e+01	-3.062369e+01	-6.994380e+00	-9.263274e+01	1.759247e+01	-5.410286e+01	1.032252e+02
3.293188e+06	-4.348083e+01	-9.288032e+01	-3.062254e+01	-6.997208e+00	-9.422731e+01	3.185780e+01	-5.413409e+01	1.032565e+02
3.293219e+06	-4.347757e+01	-9.291027e+01	-3.062139e+01	-7.000036e+00	-9.527432e+01	5.136931e+01	-5.416544e+01	1.032879e+02
3.293250e+06	-4.347431e+01	-9.294019e+01	-3.062025e+01	-7.002863e+00	-9.519119e+01	7.328211e+01	-5.419689e+01	1.033196e+02
3.293282e+06	-4.347109e+01	-9.296874e+01	-3.061919e+01	-7.005494e+00	-9.413443e+01	9.157319e+01	-5.422700e+01	1.033544e+02
3.293313e+06	-4.346999e+01	-9.294250e+01	-3.062187e+01	-7.000145e+00	-9.720428e+01	7.987570e+01	-5.419781e+01	1.035038e+02
3.293344e+06	-4.346888e+01	-9.291627e+01	-3.062455e+01	-6.994793e+00	-1.006709e+02	5.438917e+01	-5.416866e+01	1.036522e+02
3.293376e+06	-4.346777e+01	-9.289004e+01	-3.062722e+01	-6.989438e+00	-1.014292e+02	9.972691e+00	-5.413954e+01	1.037996e+02
3.293407e+06	-4.346666e+01	-9.286382e+01	-3.062990e+01	-6.984079e+00	-9.826312e+01	-2.206195e+01	-5.411047e+01	1.039460e+02
3.293438e+06	-4.346555e+01	-9.283761e+01	-3.063258e+01	-6.978717e+00	-9.498490e+01	-3.669272e+01	-5.408144e+01	1.040914e+02
