# Hz S dB R 50.000
3.288594e+06	-4.422306e+01	-9.406612e+01	-3.058431e+01	-7.426754e+00	-9.271334e+01	-8.885486e+01	-5.273366e+01	1.085174e+02
3.288625e+06	-4.421319e+01	-9.405223e+01	-3.058517e+01	-7.407091e+00	-9.545180e+01	-8.534776e+01	-5.273313e+01	1.084280e+02
3.288656e+06	-4.420334e+01	-9.403836e+01	-3.058602e+01	-7.387423e+00	-9.936267e+01	-7.778983e+01	-5.273257e+01	1.083387e+02
3.288688e+06	-4.419350e+01	-9.402453e+01	-3.058687e+01	-7.367752e+00	-1.055511e+02	-5.291024e+01	-5.273200e+01	1.082493e+02
3.288719e+06	-4.418366e+01	-9.401073e+01	-3.058773e+01	-7.348077e+00	-1.067518e+02	2.715775e+01	-5.273140e+01	1.081600e+02
3.288750e+06	-4.417394e+01	-9.399725e+01	-3.058857e+01	-7.328524e+00	-1.002249e+02	5.932862e+01	-5.273088e+01	1.080731e+02
3.288782e+06	-4.417599e+01	-9.402009e+01	-3.058838e+01	-7.324583e+00	-9.847728e+01	7.702182e+01	-5.274153e+01	1.082816e+02
3.288813e+06	-4.417804e+01	-9.404294e+01	-3.058820e+01	-7.320642e+00	-9.656712e+01	8.852765e+01	-5.275208e+01	1.084906e+02
3.288844e+06	-4.418009e+01	-9.406580e+01	-3.058801e+01	-7.316701e+00	-9.481111e+01	9.604270e+01	-5.276252e+01	1.087001e+02
3.288875e+06	-4.418214e+01	-9.408867e+01	-3.058782e+01	-7.312761e+00	-9.326486e+01	1.011731e+02	-5.277287e+01	1.089101e+02
3.288906e+06	-4.418413e+01	-9.411212e+01	-3.058763e+01	-7.308822e+00	-9.197232e+01	1.045980e+02	-5.278323e+01	1.091141e+02
3.288938e+06	-4.418270e+01	-9.417031e+01	-3.058675e+01	-7.304999e+00	-9.471749e+01	8.745724e+01	-5.280119e+01	1.089171e+02
3.288969e+06	-4.418127e+01	-9.422848e+01	-3.058587e+01	-7.301177e+00	-9.666610e+01	5.706349e+01	-5.281909e+01	1.087193e+02
3.289000e+06	-4.417983e+01	-9.428663e+01	-3.058499e+01	-7.297356e+00	-9.570314e+01	2.254048e+01	-5.283692e+01	1.085207e+02
3.289032e+06	-4.417838e+01	-9.434476e+01	-3.058411e+01	-7.293536e+00	-9.302819e+01	6.515196e-01	-5.285468e+01	1.083213e+02
3.289063e+06	-4.417692e+01	-9.440287e+01	-3.058324e+01	-7.289717e+00	-9.044588e+01	-1.109179e+01	-5.287237e+01	1.081211e+02
3.289094e+06	-4.417940e+01	-9.432697e+01	-3.058202e+01	-7.306487e+00	-9.167293e+01	-1.730362e+01	-5.284617e+01	1.081944e+02
3.289125e+06	-4.418190e+01	-9.424994e+01	-3.058079e+01	-7.323419e+00	-9.298048e+01	-2.562546e+01	-5.281969e+01	1.082695e+02
3.289156e+06	-4.418438e+01	-9.417288e+01	-3.057956e+01	-7.340346e+00	-9.422735e+01	-3.682451e+01	-5.279327e+01	1.083441e+02
3.289188e+06	-4.418685e+01	-9.409576e+01	-3.057834e+01	-7.357268e+00	-9.518008e+01	-5.131325e+01	-5.276692e+01	1.084182e+02
3.289219e+06	-4.418930e+01	-9.401861e+01	-3.057711e+01	-7.374186e+00	-9.552551e+01	-6.820240e+01	-5.274063e+01	1.084919e+02
3.289250e+06	-4.418566e+01	-9.408899e+01	-3.057724e+01	-7.369721e+00	-1.021987e+02	-7.194860e+01	-5.276946e+01	1.084815e+02
3.289282e+06	-4.418201e+01	-9.415931e+01	-3.057737e+01	-7.365257e+00	-1.158863e+02	1.509795e+02	-5.279839e+01	1.084710e+02
3.289313e+06	-4.417835e+01	-9.422957e+01	-3.057751e+01	-7.360792e+00	-9.970207e+01	1.202533e+02	-5.282742e+01	1.084604e+02
3.289344e+06	-4.417468e+01	-9.429978e+01	-3.057764e+01	-7.356326e+00	-9.427313e+01	1.178213e+02	-5.285654e+01	1.084497e+02
3.289375e+06	-4.417106e+01	-9.436885e+01	-3.057778e+01	-7.351872e+00	-9.099903e+01	1.169072e+02	-5.288533e+01	1.084380e+02
3.289406e+06	-4.417493e+01	-9.430450e+01	-3.057890e+01	-7.348753e+00	-9.445111e+01	1.111347e+02	-5.286064e+01	1.083015e+02
3.289438e+06	-4.417878e+01	-9.424009e+01	-3.058002e+01	-7.345634e+00	-9.979249e+01	9.506489e+01	-5.283597e+01	1.081657e+02
3.289469e+06	-4.418263e+01	-9.417563e+01	-3.058114e+01	-7.342514e+00	-1.048549e+02	2.857390e+01	-5.281132e+01	1.080307e+02
3.289500e+06	-4.418647e+01	-9.411111e+01	-3.058227e+01	-7.339393e+00	-9.846978e+01	-2.337560e+01	-5.278669e+01	1.078964e+02
3.289532e+06	-4.419018e+01	-9.404795e+01	-3.058336e+01	-7.336375e+00	-9.368342e+01	-3.574891e+01	-5.276230e+01	1.077678e+02
3.289563e+06	-4.418672e+01	-9.407150e+01	-3.058285e+01	-7.339772e+00	-9.320213e+01	-3.563204e+01	-5.275131e+01	1.079344e+02
3.289594e+06	-4.418326e+01	-9.409504e+01	-3.058233e+01	-7.343168e+00	-9.274609e+01	-3.552712e+01	-5.274025e+01	1.081006e+02
3.289625e+06	-4.417979e+01	-9.411855e+01	-3.058182e+01	-7.346564e+00	-9.231278e+01	-3.543242e+01	-5.272914e+01	1.082665e+02
3.289656e+06	-4.417633e+01	-9.414205e+01	-3.058131e+01	-7.349959e+00	-9.190004e+01	-3.534650e+01	-5.271796e+01	1.084318e+02
3.289688e+06	-4.417287e+01	-9.416553e+01	-3.058079e+01	-7.353354e+00	-9.150601e+01	-3.526821e+01	-5.270673e+01	1.085968e+02
3.289719e+06	-4.417356e+01	-9.414804e+01	-3.058007e+01	-7.349020e+00	-9.421431e+01	-3.269833e+01	-5.270278e+01	1.084542e+02
3.289750e+06	-4.417429e+01	-9.413021e+01	-3.057935e+01	-7.344625e+00	-9.815791e+01	-2.711889e+01	-5.269883e+01	1.083093e+02
3.289782e+06	-4.417502e+01	-9.411238e+01	-3.057862e+01	-7.340231e+00	-1.049197e+02	-7.639553e+00	-5.269483e+01	1.081645e+02
3.289813e+06	-4.417574e+01	-9.409455e+01	-3.057790e+01	-7.335837e+00	-1.076734e+02	8.657252e+01	-5.269078e+01	1.080199e+02
3.289844e+06	-4.417647e+01	-9.407671e+01	-3.057717e+01	-7.331444e+00	-9.968782e+01	1.196687e+02	-5.268667e+01	1.078754e+02
3.289875e+06	-4.418394e+01	-9.406582e+01	-3.057825e+01	-7.325624e+00	-9.646761e+01	1.045651e+02	-5.272301e+01	1.079735e+02
3.289906e+06	-4.419142e+01	-9.405492e+01	-3.057933e+01	-7.319803e+00	-9.388869e+01	9.688466e+01	-5.275947e+01	1.080723e+02
3.289938e+06	-4.419891e+01	-9.404399e+01	-3.058040e+01	-7.313980e+00	-9.183006e+01	9.239047e+01	-5.279606e+01	1.081720e+02
3.289969e+06	-4.420640e+01	-9.403305e+01	-3.058148e+01	-7.308156e+00	-9.013843e+01	8.947385e+01	-5.283278e+01	1.082726e+02
3.290000e+06	-4.421379e+01	-9.402278e+01	-3.058253e+01	-7.302482e+00	-8.872359e+01	8.733179e+01	-5.286931e+01	1.083740e+02
3.290032e+06	-4.420697e+01	-9.409893e+01	-3.058065e+01	-7.315649e+00	-8.881564e+01	7.199407e+01	-5.286682e+01	1.084764e+02
3.290063e+06	-4.420015e+01	-9.417496e+01	-3.057877e+01	-7.328810e+00	-8.831266e+01	5.738127e+01	-5.286431e+01	1.085788e+02
3.290094e+06	-4.419332e+01	-9.425087e+01	-3.057689e+01	-7.341965e+00	-8.738615e+01	4.502428e+01	-5.286176e+01	1.086811e+02
3.290125e+06	-4.418647e+01	-9.432667e+01	-3.057501e+01	-7.355114e+00	-8.626050e+01	3.529633e+01	-5.285919e+01	1.087834e+02
3.290156e+06	-4.417970e+01	-9.440030e+01	-3.057317e+01	-7.368091e+00	-8.513429e+01	2.796649e+01	-5.285647e+01	1.088813e+02
3.290188e+06	-4.417780e+01	-9.434869e+01	-3.057393e+01	-7.370778e+00	-8.667938e+01	2.961041e+01	-5.284559e+01	1.087199e+02
3.290219e+06	-4.417590e+01	-9.429710e+01	-3.057469e+01	-7.373465e+00	-8.854695e+01	3.204590e+01	-5.283466e+01	1.085588e+02
3.290250e+06	-4.417399e+01	-9.424553e+01	-3.057545e+01	-7.376153e+00	-9.089573e+01	3.600519e+01	-5.282368e+01	1.083982e+02
3.290282e+06	-4.417207e+01	-9.419399e+01	-3.057621e+01	-7.378841e+00	-9.401230e+01	4.344843e+01	-5.281264e+01	1.082380e+02
3.290313e+06	-4.417015e+01	-9.414246e+01	-3.057697e+01	-7.381529e+00	-9.831497e+01	6.116775e+01	-5.280155e+01	1.080782e+02
3.290344e+06	-4.417018e+01	-9.414746e+01	-3.057750e+01	-7.374525e+00	-9.809689e+01	4.899438e+01	-5.281292e+01	1.081299e+02
3.290375e+06	-4.417023e+01	-9.415291e+01	-3.057803e+01	-7.367441e+00	-9.748449e+01	3.769732e+01	-5.282449e+01	1.081835e+02
3.290406e+06	-4.417027e+01	-9.415836e+01	-3.057855e+01	-7.360356e+00	-9.664584e+01	2.815608e+01	-5.283606e+01	1.082372e+02
3.290438e+06	-4.417032e+01	-9.416382e+01	-3.057908e+01	-7.353270e+00	-9.570186e+01	2.039732e+01	-5.284764e+01	1.082910e+02
3.290469e+06	-4.417037e+01	-9.416927e+01	-3.057960e+01	-7.346184e+00	-9.473479e+01	1.417769e+01	-5.285923e+01	1.083450e+02
3.290500e+06	-4.416898e+01	-9.412390e+01	-3.057972e+01	-7.353874e+00	-9.674705e+01	2.082615e+01	-5.285655e+01	1.084473e+02
3.290532e+06	-4.416758e+01	-9.407854e+01	-3.057984e+01	-7.361565e+00	-9.910924e+01	3.187106e+01	-5.285384e+01	1.085496e+02
3.290563e+06	-4.416617e+01	-9.403320e+01	-3.057996e+01	-7.369255e+00	-1.015516e+02	5.132798e+01	-5.285111e+01	1.086517e+02
3.290594e+06	-4.416476e+01	-9.398787e+01	-3.058007e+01	-7.376946e+00	-1.027512e+02	8.176605e+01	-5.284835e+01	1.087539e+02
3.290625e+06	-4.416349e+01	-9.394353e+01	-3.058021e+01	-7.384500e+00	-1.014325e+02	1.116003e+02	-5.284553e+01	1.088541e+02
3.290656e+06	-4.417925e+01	-9.401955e+01	-3.058298e+01	-7.375032e+00	-1.006212e+02	1.227283e+02	-5.283910e+01	1.087269e+02
3.290688e+06	-4.419503e+01	-9.409584e+01	-3.058574e+01	-7.365557e+00	-9.963539e+01	1.317570e+02	-5.283262e+01	1.085999e+02
3.290719e+06	-4.421081e+01	-9.417242e+01	-3.058851e+01	-7.356076e+00	-9.859621e+01	1.388970e+02	-5.282612e+01	1.084730e+02
3.290750e+06	-4.422662e+01	-9.424927e+01	-3.059128e+01	-7.346589e+00	-9.757271e+01	1.445223e+02	-5.281957e+01	1.083464e+02
3.290782e+06	-4.424177e+01	-9.432399e+01	-3.059396e+01	-7.337252e+00	-9.661529e+01	1.489796e+02	-5.281350e+01	1.082202e+02
3.290813e+06	-4.421609e+01	-9.425034e+01	-3.059169e+01	-7.337514e+00	-9.677311e+01	1.524823e+02	-5.283942e+01	1.081064e+02
3.290844e+06	-4.419047e+01	-9.417713e+01	-3.058941e+01	-7.337775e+00	-9.689969e+01	1.561017e+02	-5.286538e+01	1.079919e+02
3.290875e+06	-4.416491e+01	-9.410435e+01	-3.058714e+01	-7.338037e+00	-9.699208e+01	1.598136e+02	-5.289139e+01	1.078767e+02
3.290906e+06	-4.413941e+01	-9.403200e+01	-3.058486e+01	-7.338298e+00	-9.704800e+01	1.635896e+02	-5.291743e+01	1.077608e+02
3.290938e+06	-4.411397e+01	-9.396006e+01	-3.058259e+01	-7.338559e+00	-9.706599e+01	1.673979e+02	-5.294352e+01	1.076442e+02
3.290969e+06	-4.413127e+01	-9.400392e+01	-3.058166e+01	-7.336521e+00	-9.527441e+01	1.766263e+02	-5.290590e+01	1.076462e+02
3.291000e+06	-4.414895e+01	-9.404889e+01	-3.058074e+01	-7.334466e+00	-9.365050e+01	-1.771307e+02	-5.286792e+01	1.076492e+02
3.291032e+06	-4.416666e+01	-9.409404e+01	-3.057982e+01	-7.332410e+00	-9.222097e+01	-1.727424e+02	-5.283012e+01	1.076521e+02
3.291063e+06	-4.418439e+01	-9.413938e+01	-3.057890e+01	-7.330355e+00	-9.096136e+01	-1.695241e+02	-5.279247e+01	1.076549e+02
3.291094e+06	-4.420216e+01	-9.418490e+01	-3.057798e+01	-7.328301e+00	-8.984314e+01	-1.670770e+02	-5.275499e+01	1.076578e+02
3.291125e+06	-4.420093e+01	-9.418904e+01	-3.057781e+01	-7.318591e+00	-9.405646e+01	-1.629141e+02	-5.276410e+01	1.079457e+02
3.291156e+06	-4.419970e+01	-9.419318e+01	-3.057765e+01	-7.308880e+00	-1.020619e+02	-1.456748e+02	-5.277300e+01	1.082342e+02
3.291188e+06	-4.419848e+01	-9.419731e+01	-3.057748e+01	-7.299171e+00	-1.035170e+02	-2.740768e+01	-5.278169e+01	1.085233e+02
3.291219e+06	-4.419725e+01	-9.420145e+01	-3.057732e+01	-7.289461e+00	-9.468730e+01	-5.271366e+00	-5.279017e+01	1.088129e+02
3.291250e+06	-4.419603e+01	-9.420545e+01	-3.057713e+01	-7.279981e+00	-9.026705e+01	-6.080806e-01	-5.279856e+01	1.090993e+02
3.291282e+06	-4.419553e+01	-9.419255e+01	-3.057460e+01	-7.298807e+00	-9.134718e+01	-6.252784e-02	-5.282196e+01	1.089097e+02
3.291313e+06	-4.419504e+01	-9.417965e+01	-3.057207e+01	-7.317622e+00	-9.257978e+01	6.494683e-01	-5.284534e+01	1.087191e+02
3.291344e+06	-4.419454e+01	-9.416675e+01	-3.056954e+01	-7.336426e+00	-9.401453e+01	1.617422e+00	-5.286868e+01	1.085275e+02
3.291375e+06	-4.419405e+01	-9.415386e+01	-3.056701e+01	-7.355219e+00	-9.572976e+01	3.008576e+00	-5.289198e+01	1.083349e+02
3.291406e+06	-4.419340e+01	-9.414136e+01	-3.056458e+01	-7.373579e+00	-9.784813e+01	5.566817e+00	-5.291475e+01	1.081433e+02
3.291438e+06	-4.418334e+01	-9.415341e+01	-3.056802e+01	-7.365942e+00	-9.843690e+01	3.629347e+01	-5.290668e+01	1.080797e+02
3.291469e+06	-4.417329e+01	-9.416542e+01	-3.057146e+01	-7.358300e+00	-9.677682e+01	6.314340e+01	-5.289861e+01	1.080162e+02
3.291500e+06	-4.416325e+01	-9.417741e+01	-3.057490e+01	-7.350652e+00	-9.438530e+01	7.959989e+01	-5.289053e+01	1.079528e+02
3.291532e+06	-4.415323e+01	-9.418937e+01	-3.057835e+01	-7.342997e+00	-9.217451e+01	8.919982e+01	-5.288245e+01	1.078895e+02
3.291563e+06	-4.414321e+01	-9.420130e+01	-3.058179e+01	-7.335336e+00	-9.028985e+01	9.517359e+01	-5.287436e+01	1.078264e+02
3.291594e+06	-4.414530e+01	-9.418174e+01	-3.058102e+01	-7.335951e+00	-9.262793e+01	8.793963e+01	-5.286479e+01	1.079909e+02
3.291625e+06	-4.414750e+01	-9.416192e+01	-3.058020e+01	-7.336633e+00	-9.551837e+01	7.444584e+01	-5.285515e+01	1.081569e+02
3.291656e+06	-4.414969e+01	-9.414208e+01	-3.057939e+01	-7.337314e+00	-9.835629e+01	4.762260e+01	-5.284544e+01	1.083224e+02
3.291688e+06	-4.415188e+01	-9.412224e+01	-3.057858e+01	-7.337996e+00	-9.847438e+01	8.263923e+00	-5.283567e+01	1.084877e+02
3.291719e+06	-4.415407e+01	-9.410238e+01	-3.057777e+01	-7.338677e+00	-9.570410e+01	-1.959541e+01	-5.282584e+01	1.086525e+02
3.291750e+06	-4.416524e+01	-9.412733e+01	-3.057660e+01	-7.349743e+00	-9.811961e+01	-3.192107e+01	-5.282532e+01	1.085442e+02
3.291782e+06	-4.417643e+01	-9.415234e+01	-3.057544e+01	-7.360806e+00	-1.004605e+02	-5.358162e+01	-5.282478e+01	1.084359e+02
3.291813e+06	-4.418763e+01	-9.417742e+01	-3.057427e+01	-7.371867e+00	-1.011823e+02	-8.526043e+01	-5.282420e+01	1.083276e+02
3.291844e+06	-4.419884e+01	-9.420256e+01	-3.057311e+01	-7.382924e+00	-9.947440e+01	-1.132166e+02	-5.282359e+01	1.082194e+02
3.291875e+06	-4.420993e+01	-9.422780e+01	-3.057196e+01	-7.393893e+00	-9.703492e+01	-1.298625e+02	-5.282312e+01	1.081125e+02
3.291906e+06	-4.420423e+01	-9.425613e+01	-3.057358e+01	-7.394274e+00	-1.009517e+02	-1.161504e+02	-5.284332e+01	1.081714e+02
3.291938e+06	-4.419852e+01	-9.428442e+01	-3.057521e+01	-7.394655e+00	-1.053401e+02	-7.807367e+01	-5.286355e+01	1.082306e+02
3.291969e+06	-4.419281e+01	-9.431267e+01	-3.057683e+01	-7.395037e+00	-1.034981e+02	-2.230078e+01	-5.288382e+01	1.082901e+02
3.292000e+06	-4.418711e+01	-9.434089e+01	-3.057845e+01	-7.395418e+00	-9.897359e+01	1.106730e+00	-5.290413e+01	1.083499e+02
3.292032e+06	-4.418152e+01	-9.436805e+01	-3.058007e+01	-7.395676e+00	-9.562656e+01	9.978723e+00	-5.292419e+01	1.084092e+02
3.292063e+06	-4.418260e+01	-9.433212e+01	-3.058130e+01	-7.388322e+00	-9.405065e+01	-2.622499e+00	-5.292664e+01	1.084230e+02
3.292094e+06	-4.418369e+01	-9.429619e+01	-3.058253e+01	-7.380965e+00	-9.246779e+01	-1.134510e+01	-5.292909e+01	1.084369e+02
3.292125e+06	-4.418477e+01	-9.426025e+01	-3.058376e+01	-7.373607e+00	-9.100807e+01	-1.747803e+01	-5.293153e+01	1.084507e+02
3.292156e+06	-4.418585e+01	-9.422430e+01	-3.058499e+01	-7.366246e+00	-8.969616e+01	-2.193145e+01	-5.293398e+01	1.084645e+02
3.292188e+06	-4.418692e+01	-9.418834e+01	-3.058622e+01	-7.358883e+00	-8.852208e+01	-2.527497e+01	-5.293643e+01	1.084784e+02
3.292219e+06	-4.418543e+01	-9.414338e+01	-3.058565e+01	-7.343085e+00	-8.868324e+01	-3.291302e+01	-5.290094e+01	1.085672e+02
3.292250e+06	-4.418391e+01	-9.409837e+01	-3.058507e+01	-7.327221e+00	-8.869652e+01	-4.075428e+01	-5.286527e+01	1.086560e+02
3.292282e+06	-4.418238e+01	-9.405337e+01	-3.058449e+01	-7.311360e+00	-8.854964e+01	-4.847511e+01	-5.282973e+01	1.087439e+02
3.292313e+06	-4.418085e+01	-9.400839e+01	-3.058391e+01	-7.295500e+00	-8.825794e+01	-5.581362e+01	-5.279431e+01	1.088312e+02
3.292344e+06	-4.417932e+01	-9.396343e+01	-3.058333e+01	-7.279643e+00	-8.784866e+01	-6.258039e+01	-5.275901e+01	1.089178e+02
3.292375e+06	-4.417799e+01	-9.399383e+01	-3.057987e+01	-7.298524e+00	-8.965433e+01	-6.259210e+01	-5.276992e+01	1.087361e+02
3.292406e+06	-4.417667e+01	-9.402422e+01	-3.057641e+01	-7.317391e+00	-9.193662e+01	-6.261085e+01	-5.278075e+01	1.085539e+02
3.292438e+06	-4.417534e+01	-9.405460e+01	-3.057294e+01	-7.336242e+00	-9.504102e+01	-6.264571e+01	-5.279151e+01	1.083713e+02
3.292469e+06	-4.417400e+01	-9.408497e+01	-3.056948e+01	-7.355078e+00	-9.991767e+01	-6.273308e+01	-5.280220e+01	1.081882e+02
3.292500e+06	-4.417267e+01	-9.411517e+01	-3.056608e+01	-7.373629e+00	-1.118904e+02	-6.343676e+01	-5.281266e+01	1.080067e+02
3.292532e+06	-4.417128e+01	-9.412506e+01	-3.056945e+01	-7.358570e+00	-1.160778e+02	-8.478235e+01	-5.280457e+01	1.080841e+02
3.292563e+06	-4.416989e+01	-9.413495e+01	-3.057283e+01	-7.343500e+00	-1.183754e+02	-1.349538e+02	-5.279648e+01	1.081614e+02
3.292594e+06	-4.416850e+01	-9.414483e+01	-3.057621e+01	-7.328418e+00	-1.146471e+02	-1.755961e+02	-5.278838e+01	1.082385e+02
3.292625e+06	-4.416711e+01	-9.415471e+01	-3.057959e+01	-7.313325e+00	-1.107591e+02	1.686793e+02	-5.278027e+01	1.083155e+02
3.292656e+06	-4.416584e+01	-9.416482e+01	-3.058288e+01	-7.298603e+00	-1.081954e+02	1.621096e+02	-5.277264e+01	1.083935e+02
3.292688e+06	-4.417184e+01	-9.418898e+01	-3.058080e+01	-7.307463e+00	-1.062602e+02	-4.347763e+01	-5.279519e+01	1.085422e+02
3.292719e+06	-4.417785e+01	-9.421318e+01	-3.057873e+01	-7.316318e+00	-9.749360e+01	-3.624065e+01	-5.281773e+01	1.086917e+02
3.292750e+06	-4.418387e+01	-9.423741e+01	-3.057666e+01	-7.325169e+00	-9.320166e+01	-3.463544e+01	-5.284028e+01	1.088420e+02
3.292782e+06	-4.418988e+01	-9.426168e+01	-3.057459e+01	-7.334016e+00	-9.033985e+01	-3.393107e+01	-5.286282e+01	1.089931e+02
3.292813e+06	-4.419590e+01	-9.428598e+01	-3.057252e+01	-7.342859e+00	-8.819032e+01	-3.353550e+01	-5.288536e+01	1.091450e+02
3.292844e+06	-4.418922e+01	-9.426047e+01	-3.057271e+01	-7.338148e+00	-9.041140e+01	-2.444211e+01	-5.287554e+01	1.090574e+02
3.292875e+06	-4.418244e+01	-9.423459e+01	-3.057293e+01	-7.333327e+00	-9.291878e+01	-8.480045e+00	-5.286545e+01	1.089680e+02
3.292906e+06	-4.417566e+01	-9.420876e+01	-3.057314e+01	-7.328505e+00	-9.479955e+01	1.863417e+01	-5.285535e+01	1.088789e+02
3.292938e+06	-4.416888e+01	-9.418297e+01	-3.057336e+01	-7.323684e+00	-9.430425e+01	5.094983e+01	-5.284524e+01	1.087900e+02
3.292969e+06	-4.416211e+01	-9.415722e+01	-3.057357e+01	-7.318862e+00	-9.200200e+01	7.374144e+01	-5.283512e+01	1.087013e+02
3.293000e+06	-4.417649e+01	-9.408755e+01	-3.057426e+01	-7.322309e+00	-9.316221e+01	8.114701e+01	-5.284782e+01	1.086171e+02
3.293032e+06	-4.419088e+01	-9.401765e+01	-3.057495e+01	-7.325757e+00	-9.428186e+01	9.079407e+01	-5.286051e+01	1.085326e+02
3.293063e+06	-4.420528e+01	-9.394751e+01	-3.057564e+01	-7.329205e+00	-9.520714e+01	1.030374e+02	-5.287320e+01	1.084478e+02
3.293094e+06	-4.421969e+01	-9.387715e+01	-3.057633e+01	-7.332654e+00	-9.571800e+01	1.175262e+02	-5.288590e+01	1.083628e+02
3.293125e+06	-4.423394e+01	-9.380721e+01	-3.057702e+01	-7.336151e+00	-9.566913e+01	1.326434e+02	-5.289835e+01	1.082795e+02
3.293156e+06	-4.422669e+01	-9.381911e+01	-3.057718e+01	-7.345485e+00	-9.918740e+01	1.297929e+02	-5.288046e+01	1.084292e+02
3.293188e+06	-4.421943e+01	-9.383100e+01	-3.057733e+01	-7.354820e+00	-1.050706e+02	1.213520e+02	-5.286256e+01	1.085783e+02
3.293219e+06	-4.421219e+01	-9.384286e+01	-3.057748e+01	-7.364156e+00	-1.157114e+02	4.168952e+01	-5.284463e+01	1.087267e+02
3.293250e+06	-4.420495e+01	-9.385471e+01	-3.057764e+01	-7.373491e+00	-1.045234e+02	-2.578352e+01	-5.282668e+01	1.088746e+02
3.293282e+06	-4.419776e+01	-9.386771e+01	-3.057777e+01	-7.382510e+00	-9.899058e+01	-3.337242e+01	-5.280922e+01	1.090162e+02
3.293313e+06	-4.419344e+01	-9.395262e+01	-3.057641e+01	-7.371994e+00	-1.008713e+02	-3.289476e+01	-5.282261e+01	1.088092e+02
3.293344e+06	-4.418911e+01	-9.403745e+01	-3.057506e+01	-7.361482e+00	-1.032739e+02	-3.211261e+01	-5.283591e+01	1.086015e+02
3.293375e+06	-4.418476e+01	-9.412220e+01	-3.057370e+01	-7.350972e+00	-1.066019e+02	-3.059953e+01	-5.284912e+01	1.083932e+02
3.293406e+06	-4.418039e+01	-9.420686e+01	-3.057235e+01	-7.340467e+00	-1.120345e+02	-2.644791e+01	-5.286223e+01	1.081843e+02
3.293438e+06	-4.417601e+01	-9.429143e+01	-3.057099e+01	-7.329964e+00	-1.263812e+02	1.844621e+01	-5.287525e+01	1.079748e+02
3.293469e+06	-4.417158e+01	-9.428050e+01	-3.057080e+01	-7.338795e+00	-1.157289e+02	-9.900245e+00	-5.286645e+01	1.080893e+02
3.293500e+06	-4.416716e+01	-9.426881e+01	-3.057061e+01	-7.347782e+00	-1.108013e+02	-1.461796e+01	-5.285746e+01	1.082061e+02
3.293532e+06	-4.416274e+01	-9.425713e+01	-3.057043e+01	-7.356768e+00	-1.076604e+02	-1.647958e+01	-5.284843e+01	1.083228e+02
3.293563e+06	-4.415833e+01	-9.424546e+01	-3.057024e+01	-7.365754e+00	-1.053548e+02	-1.747387e+01	-5.283939e+01	1.084392e+02
3.293594e+06	-4.415391e+01	-9.423380e+01	-3.057006e+01	-7.374740e+00	-1.035333e+02	-1.809209e+01	-5.283031e+01	1.085553e+02
