# Hz S dB R 50.000
3.288594e+06	-4.334311e+01	-9.482551e+01	-3.060592e+01	-6.687971e+00	-8.950548e+01	1.366365e+02	-5.474796e+01	8.757009e+01
3.288625e+06	-4.334465e+01	-9.481528e+01	-3.060256e+01	-6.708428e+00	-9.254358e+01	1.369653e+02	-5.479698e+01	8.745027e+01
3.288656e+06	-4.334619e+01	-9.480505e+01	-3.059919e+01	-6.728869e+00	-9.725509e+01	1.377678e+02	-5.484623e+01	8.732909e+01
3.288688e+06	-4.334773e+01	-9.479481e+01	-3.059583e+01	-6.749294e+00	-1.082804e+02	1.426861e+02	-5.489573e+01	8.720652e+01
3.288719e+06	-4.334927e+01	-9.478457e+01	-3.059247e+01	-6.769703e+00	-1.043336e+02	-4.848147e+01	-5.494547e+01	8.708254e+01
3.288750e+06	-4.335077e+01	-9.477460e+01	-3.058916e+01	-6.789773e+00	-9.601029e+01	-4.591522e+01	-5.499528e+01	8.696118e+01
3.288782e+06	-4.334689e+01	-9.479776e+01	-3.059282e+01	-6.769663e+00	-9.824401e+01	-6.395624e+01	-5.502396e+01	8.734251e+01
3.288813e+06	-4.334301e+01	-9.482090e+01	-3.059649e+01	-6.749535e+00	-9.947138e+01	-9.142792e+01	-5.505234e+01	8.772635e+01
3.288844e+06	-4.333913e+01	-9.484402e+01	-3.060016e+01	-6.729391e+00	-9.854072e+01	-1.199398e+02	-5.508042e+01	8.811270e+01
3.288875e+06	-4.333525e+01	-9.486712e+01	-3.060382e+01	-6.709229e+00	-9.636754e+01	-1.394464e+02	-5.510819e+01	8.850153e+01
3.288906e+06	-4.333150e+01	-9.488872e+01	-3.060740e+01	-6.689546e+00	-9.421790e+01	-1.508768e+02	-5.513555e+01	8.888742e+01
3.288938e+06	-4.333589e+01	-9.481959e+01	-3.060528e+01	-6.700311e+00	-9.762162e+01	-1.479388e+02	-5.515685e+01	8.894083e+01
3.288969e+06	-4.334028e+01	-9.475038e+01	-3.060316e+01	-6.711071e+00	-1.031742e+02	-1.396748e+02	-5.517819e+01	8.899451e+01
3.289000e+06	-4.334465e+01	-9.468111e+01	-3.060104e+01	-6.721825e+00	-1.136453e+02	-7.425626e+01	-5.519958e+01	8.904845e+01
3.289032e+06	-4.334901e+01	-9.461176e+01	-3.059892e+01	-6.732574e+00	-1.038268e+02	4.360880e+00	-5.522101e+01	8.910265e+01
3.289063e+06	-4.335337e+01	-9.454235e+01	-3.059681e+01	-6.743318e+00	-9.797291e+01	1.364582e+01	-5.524249e+01	8.915712e+01
3.289094e+06	-4.335233e+01	-9.458127e+01	-3.059656e+01	-6.741401e+00	-9.991503e+01	1.703071e+01	-5.517326e+01	8.919422e+01
3.289125e+06	-4.335125e+01	-9.462105e+01	-3.059633e+01	-6.739382e+00	-1.024344e+02	2.269898e+01	-5.510386e+01	8.923060e+01
3.289156e+06	-4.335016e+01	-9.466083e+01	-3.059610e+01	-6.737363e+00	-1.057472e+02	3.384425e+01	-5.503501e+01	8.926640e+01
3.289188e+06	-4.334907e+01	-9.470059e+01	-3.059587e+01	-6.735345e+00	-1.097547e+02	6.052322e+01	-5.496669e+01	8.930164e+01
3.289219e+06	-4.334797e+01	-9.474035e+01	-3.059564e+01	-6.733326e+00	-1.104774e+02	1.112391e+02	-5.489890e+01	8.933633e+01
3.289250e+06	-4.334089e+01	-9.472357e+01	-3.059639e+01	-6.728493e+00	-1.075054e+02	7.378403e+01	-5.493946e+01	8.927363e+01
3.289282e+06	-4.333381e+01	-9.470682e+01	-3.059713e+01	-6.723660e+00	-1.039851e+02	5.704595e+01	-5.498021e+01	8.921033e+01
3.289313e+06	-4.332674e+01	-9.469010e+01	-3.059788e+01	-6.718825e+00	-1.012194e+02	4.901748e+01	-5.502113e+01	8.914644e+01
3.289344e+06	-4.331967e+01	-9.467341e+01	-3.059862e+01	-6.713990e+00	-9.904911e+01	4.447948e+01	-5.506224e+01	8.908195e+01
3.289375e+06	-4.331270e+01	-9.465707e+01	-3.059934e+01	-6.709256e+00	-9.728767e+01	4.150974e+01	-5.510285e+01	8.901844e+01
3.289406e+06	-4.331702e+01	-9.468149e+01	-3.059646e+01	-6.717149e+00	-9.584748e+01	3.031902e+01	-5.505944e+01	8.915222e+01
3.289438e+06	-4.332133e+01	-9.470593e+01	-3.059358e+01	-6.725036e+00	-9.440685e+01	2.231208e+01	-5.501619e+01	8.928468e+01
3.289469e+06	-4.332565e+01	-9.473040e+01	-3.059070e+01	-6.732918e+00	-9.306489e+01	1.650890e+01	-5.497311e+01	8.941583e+01
3.289500e+06	-4.332996e+01	-9.475489e+01	-3.058783e+01	-6.740795e+00	-9.184479e+01	1.219142e+01	-5.493020e+01	8.954569e+01
3.289532e+06	-4.333424e+01	-9.477895e+01	-3.058501e+01	-6.748503e+00	-9.080243e+01	8.983116e+00	-5.488837e+01	8.966963e+01
3.289563e+06	-4.333594e+01	-9.477488e+01	-3.058555e+01	-6.746152e+00	-9.407856e+01	1.338955e+01	-5.490243e+01	8.950701e+01
3.289594e+06	-4.333764e+01	-9.477080e+01	-3.058609e+01	-6.743800e+00	-9.915339e+01	2.498197e+01	-5.491646e+01	8.934385e+01
3.289625e+06	-4.333935e+01	-9.476672e+01	-3.058663e+01	-6.741448e+00	-1.063905e+02	8.100310e+01	-5.493043e+01	8.918017e+01
3.289656e+06	-4.334105e+01	-9.476264e+01	-3.058717e+01	-6.739096e+00	-1.002102e+02	1.504801e+02	-5.494435e+01	8.901596e+01
3.289688e+06	-4.334276e+01	-9.475855e+01	-3.058772e+01	-6.736743e+00	-9.470475e+01	1.645977e+02	-5.495823e+01	8.885123e+01
3.289719e+06	-4.334251e+01	-9.472588e+01	-3.058719e+01	-6.728387e+00	-9.938221e+01	-1.794923e+02	-5.498462e+01	8.888040e+01
3.289750e+06	-4.334224e+01	-9.469299e+01	-3.058665e+01	-6.719984e+00	-1.040685e+02	-1.251676e+02	-5.501119e+01	8.891133e+01
3.289782e+06	-4.334196e+01	-9.466009e+01	-3.058611e+01	-6.711583e+00	-9.938389e+01	-7.082749e+01	-5.503784e+01	8.894244e+01
3.289813e+06	-4.334169e+01	-9.462720e+01	-3.058558e+01	-6.703182e+00	-9.464138e+01	-5.489816e+01	-5.506457e+01	8.897375e+01
3.289844e+06	-4.334141e+01	-9.459431e+01	-3.058504e+01	-6.694782e+00	-9.140377e+01	-4.861101e+01	-5.509138e+01	8.900525e+01
3.289875e+06	-4.333958e+01	-9.456636e+01	-3.058785e+01	-6.703595e+00	-9.203636e+01	-4.698609e+01	-5.509429e+01	8.901728e+01
3.289906e+06	-4.333776e+01	-9.453843e+01	-3.059067e+01	-6.712414e+00	-9.270988e+01	-4.509741e+01	-5.509720e+01	8.902932e+01
3.289938e+06	-4.333593e+01	-9.451050e+01	-3.059348e+01	-6.721238e+00	-9.342801e+01	-4.288038e+01	-5.510011e+01	8.904137e+01
3.289969e+06	-4.333410e+01	-9.448259e+01	-3.059630e+01	-6.730068e+00	-9.419402e+01	-4.024998e+01	-5.510302e+01	8.905343e+01
3.290000e+06	-4.333228e+01	-9.445552e+01	-3.059907e+01	-6.738836e+00	-9.502383e+01	-3.699636e+01	-5.510596e+01	8.906346e+01
3.290032e+06	-4.333279e+01	-9.453190e+01	-3.059685e+01	-6.739149e+00	-9.746394e+01	-1.578156e+01	-5.511254e+01	8.882128e+01
3.290063e+06	-4.333329e+01	-9.460830e+01	-3.059462e+01	-6.739463e+00	-9.834971e+01	1.627057e+01	-5.511897e+01	8.857874e+01
3.290094e+06	-4.333377e+01	-9.468470e+01	-3.059239e+01	-6.739776e+00	-9.667062e+01	4.524164e+01	-5.512524e+01	8.833584e+01
3.290125e+06	-4.333423e+01	-9.476111e+01	-3.059017e+01	-6.740089e+00	-9.412996e+01	6.257798e+01	-5.513136e+01	8.809259e+01
3.290156e+06	-4.333467e+01	-9.483650e+01	-3.058799e+01	-6.740330e+00	-9.189096e+01	7.206225e+01	-5.513724e+01	8.785245e+01
3.290188e+06	-4.333440e+01	-9.484880e+01	-3.058875e+01	-6.736149e+00	-9.526500e+01	5.351792e+01	-5.513696e+01	8.782375e+01
3.290219e+06	-4.333414e+01	-9.486110e+01	-3.058952e+01	-6.731968e+00	-9.761412e+01	1.559045e+01	-5.513669e+01	8.779506e+01
3.290250e+06	-4.333387e+01	-9.487340e+01	-3.059028e+01	-6.727785e+00	-9.562055e+01	-2.422719e+01	-5.513641e+01	8.776636e+01
3.290282e+06	-4.333361e+01	-9.488570e+01	-3.059104e+01	-6.723602e+00	-9.221684e+01	-4.434760e+01	-5.513613e+01	8.773767e+01
3.290313e+06	-4.333334e+01	-9.489800e+01	-3.059180e+01	-6.719418e+00	-8.938724e+01	-5.400963e+01	-5.513585e+01	8.770898e+01
3.290344e+06	-4.333125e+01	-9.490485e+01	-3.059057e+01	-6.718049e+00	-9.037411e+01	-3.886199e+01	-5.512724e+01	8.803123e+01
3.290375e+06	-4.332915e+01	-9.491165e+01	-3.058931e+01	-6.716703e+00	-9.070493e+01	-2.090092e+01	-5.511829e+01	8.835566e+01
3.290406e+06	-4.332705e+01	-9.491845e+01	-3.058806e+01	-6.715357e+00	-9.018813e+01	-3.332890e+00	-5.510907e+01	8.867941e+01
3.290438e+06	-4.332494e+01	-9.492524e+01	-3.058680e+01	-6.714011e+00	-8.906660e+01	1.114182e+01	-5.509958e+01	8.900246e+01
3.290469e+06	-4.332284e+01	-9.493203e+01	-3.058555e+01	-6.712666e+00	-8.770408e+01	2.196523e+01	-5.508983e+01	8.932480e+01
3.290500e+06	-4.331898e+01	-9.481828e+01	-3.058666e+01	-6.720140e+00	-8.814117e+01	2.034081e+01	-5.509403e+01	8.931460e+01
3.290532e+06	-4.331509e+01	-9.470463e+01	-3.058777e+01	-6.727616e+00	-8.859327e+01	1.854123e+01	-5.509823e+01	8.930438e+01
3.290563e+06	-4.331116e+01	-9.459108e+01	-3.058888e+01	-6.735094e+00	-8.906014e+01	1.654074e+01	-5.510243e+01	8.929416e+01
3.290594e+06	-4.330721e+01	-9.447763e+01	-3.058999e+01	-6.742574e+00	-8.954104e+01	1.430950e+01	-5.510663e+01	8.928392e+01
3.290625e+06	-4.330328e+01	-9.436571e+01	-3.059109e+01	-6.750002e+00	-9.004259e+01	1.180192e+01	-5.511081e+01	8.927331e+01
3.290656e+06	-4.330661e+01	-9.442930e+01	-3.059116e+01	-6.750781e+00	-9.166955e+01	6.901910e+00	-5.511161e+01	8.921729e+01
3.290688e+06	-4.330994e+01	-9.449293e+01	-3.059122e+01	-6.751559e+00	-9.355336e+01	-4.499686e-01	-5.511241e+01	8.916125e+01
3.290719e+06	-4.331325e+01	-9.455662e+01	-3.059129e+01	-6.752338e+00	-9.566382e+01	-1.214331e+01	-5.511320e+01	8.910521e+01
3.290750e+06	-4.331656e+01	-9.462035e+01	-3.059135e+01	-6.753116e+00	-9.766065e+01	-3.112147e+01	-5.511399e+01	8.904916e+01
3.290782e+06	-4.331983e+01	-9.468389e+01	-3.059144e+01	-6.753886e+00	-9.851236e+01	-5.772624e+01	-5.511441e+01	8.899464e+01
3.290813e+06	-4.332141e+01	-9.473238e+01	-3.059277e+01	-6.754122e+00	-9.856348e+01	-7.385738e+01	-5.509342e+01	8.903490e+01
3.290844e+06	-4.332298e+01	-9.478090e+01	-3.059410e+01	-6.754359e+00	-9.796920e+01	-8.898647e+01	-5.507247e+01	8.907496e+01
3.290875e+06	-4.332455e+01	-9.482943e+01	-3.059543e+01	-6.754596e+00	-9.694449e+01	-1.014966e+02	-5.505157e+01	8.911484e+01
3.290906e+06	-4.332611e+01	-9.487798e+01	-3.059676e+01	-6.754832e+00	-9.574091e+01	-1.111447e+02	-5.503071e+01	8.915452e+01
3.290938e+06	-4.332767e+01	-9.492655e+01	-3.059809e+01	-6.755069e+00	-9.451943e+01	-1.184277e+02	-5.500990e+01	8.919401e+01
3.290969e+06	-4.332483e+01	-9.484216e+01	-3.059755e+01	-6.758371e+00	-1.012373e+02	-1.216378e+02	-5.504458e+01	8.899859e+01
3.291000e+06	-4.332194e+01	-9.475675e+01	-3.059699e+01	-6.761697e+00	-1.146674e+02	9.282070e+01	-5.507974e+01	8.879967e+01
3.291032e+06	-4.331904e+01	-9.467139e+01	-3.059643e+01	-6.765022e+00	-9.848587e+01	6.847811e+01	-5.511495e+01	8.859914e+01
3.291063e+06	-4.331611e+01	-9.458610e+01	-3.059587e+01	-6.768347e+00	-9.309707e+01	6.650663e+01	-5.515019e+01	8.839697e+01
3.291094e+06	-4.331317e+01	-9.450086e+01	-3.059531e+01	-6.771672e+00	-8.979390e+01	6.578200e+01	-5.518546e+01	8.819315e+01
3.291125e+06	-4.331846e+01	-9.454678e+01	-3.059373e+01	-6.759886e+00	-9.115413e+01	5.889839e+01	-5.516116e+01	8.824638e+01
3.291156e+06	-4.332375e+01	-9.459276e+01	-3.059216e+01	-6.748105e+00	-9.256035e+01	4.941247e+01	-5.513692e+01	8.829931e+01
3.291188e+06	-4.332903e+01	-9.463879e+01	-3.059058e+01	-6.736327e+00	-9.384628e+01	3.642798e+01	-5.511274e+01	8.835195e+01
3.291219e+06	-4.333431e+01	-9.468488e+01	-3.058900e+01	-6.724555e+00	-9.468216e+01	1.975795e+01	-5.508863e+01	8.840429e+01
3.291250e+06	-4.333954e+01	-9.473041e+01	-3.058743e+01	-6.712913e+00	-9.472245e+01	1.547657e+00	-5.506497e+01	8.845651e+01
3.291282e+06	-4.333796e+01	-9.469974e+01	-3.058637e+01	-6.717005e+00	-9.536505e+01	1.791593e+01	-5.509124e+01	8.852878e+01
3.291313e+06	-4.333638e+01	-9.466908e+01	-3.058532e+01	-6.721096e+00	-9.524981e+01	3.534053e+01	-5.511759e+01	8.860149e+01
3.291344e+06	-4.333480e+01	-9.463843e+01	-3.058426e+01	-6.725186e+00	-9.443034e+01	5.093931e+01	-5.514399e+01	8.867465e+01
3.291375e+06	-4.333321e+01	-9.460780e+01	-3.058320e+01	-6.729274e+00	-9.321727e+01	6.322555e+01	-5.517047e+01	8.874825e+01
3.291406e+06	-4.333161e+01	-9.457753e+01	-3.058219e+01	-6.733201e+00	-9.190951e+01	7.222408e+01	-5.519658e+01	8.881904e+01
3.291438e+06	-4.332933e+01	-9.456913e+01	-3.058384e+01	-6.727225e+00	-9.178144e+01	7.125064e+01	-5.519629e+01	8.868967e+01
3.291469e+06	-4.332705e+01	-9.456073e+01	-3.058549e+01	-6.721246e+00	-9.165283e+01	7.030554e+01	-5.519597e+01	8.856031e+01
3.291500e+06	-4.332478e+01	-9.455234e+01	-3.058714e+01	-6.715266e+00	-9.152384e+01	6.938806e+01	-5.519560e+01	8.843095e+01
3.291532e+06	-4.332250e+01	-9.454396e+01	-3.058879e+01	-6.709282e+00	-9.139461e+01	6.849746e+01	-5.519518e+01	8.830161e+01
3.291563e+06	-4.332022e+01	-9.453558e+01	-3.059045e+01	-6.703297e+00	-9.126526e+01	6.763298e+01	-5.519472e+01	8.817228e+01
3.291594e+06	-4.332615e+01	-9.457842e+01	-3.059030e+01	-6.725363e+00	-9.205060e+01	6.353318e+01	-5.517276e+01	8.837911e+01
3.291625e+06	-4.333214e+01	-9.462173e+01	-3.059014e+01	-6.747654e+00	-9.286305e+01	5.857133e+01	-5.515057e+01	8.858758e+01
3.291656e+06	-4.333814e+01	-9.466510e+01	-3.058998e+01	-6.769945e+00	-9.367241e+01	5.258747e+01	-5.512832e+01	8.879499e+01
3.291688e+06	-4.334413e+01	-9.470853e+01	-3.058982e+01	-6.792234e+00	-9.443925e+01	4.540723e+01	-5.510601e+01	8.900134e+01
3.291719e+06	-4.335012e+01	-9.475202e+01	-3.058966e+01	-6.814523e+00	-9.510345e+01	3.693226e+01	-5.508365e+01	8.920663e+01
3.291750e+06	-4.334388e+01	-9.479090e+01	-3.058896e+01	-6.800391e+00	-9.442662e+01	2.966826e+01	-5.509933e+01	8.925799e+01
3.291782e+06	-4.333763e+01	-9.482972e+01	-3.058825e+01	-6.786262e+00	-9.368854e+01	2.350082e+01	-5.511504e+01	8.930954e+01
3.291813e+06	-4.333139e+01	-9.486849e+01	-3.058755e+01	-6.772135e+00	-9.293003e+01	1.831245e+01	-5.513077e+01	8.936127e+01
3.291844e+06	-4.332515e+01	-9.490720e+01	-3.058684e+01	-6.758010e+00	-9.217729e+01	1.395439e+01	-5.514652e+01	8.941319e+01
3.291875e+06	-4.331899e+01	-9.494506e+01	-3.058613e+01	-6.743996e+00	-9.145946e+01	1.039698e+01	-5.516211e+01	8.946481e+01
3.291906e+06	-4.332298e+01	-9.488417e+01	-3.058519e+01	-6.743349e+00	-9.234753e+01	2.267964e+01	-5.515536e+01	8.945617e+01
3.291938e+06	-4.332696e+01	-9.482321e+01	-3.058426e+01	-6.742703e+00	-9.281623e+01	3.708028e+01	-5.514861e+01	8.944754e+01
3.291969e+06	-4.333093e+01	-9.476221e+01	-3.058332e+01	-6.742056e+00	-9.270969e+01	5.210818e+01	-5.514187e+01	8.943893e+01
3.292000e+06	-4.333490e+01	-9.470114e+01	-3.058238e+01	-6.741410e+00	-9.206637e+01	6.586748e+01	-5.513514e+01	8.943033e+01
3.292032e+06	-4.333875e+01	-9.464156e+01	-3.058148e+01	-6.740657e+00	-9.111682e+01	7.708437e+01	-5.512857e+01	8.942116e+01
3.292063e+06	-4.333646e+01	-9.467630e+01	-3.058266e+01	-6.733375e+00	-9.230355e+01	7.748833e+01	-5.513186e+01	8.937620e+01
3.292094e+06	-4.333417e+01	-9.471103e+01	-3.058384e+01	-6.726090e+00	-9.367779e+01	7.803081e+01	-5.513514e+01	8.933121e+01
3.292125e+06	-4.333188e+01	-9.474573e+01	-3.058501e+01	-6.718803e+00	-9.530975e+01	7.879766e+01	-5.513842e+01	8.928618e+01
3.292156e+06	-4.332958e+01	-9.478042e+01	-3.058619e+01	-6.711514e+00	-9.731798e+01	7.996375e+01	-5.514169e+01	8.924112e+01
3.292188e+06	-4.332728e+01	-9.481509e+01	-3.058737e+01	-6.704223e+00	-9.992646e+01	8.194813e+01	-5.514496e+01	8.919602e+01
3.292219e+06	-4.333093e+01	-9.475437e+01	-3.058827e+01	-6.707221e+00	-9.740358e+01	8.173331e+01	-5.511166e+01	8.919707e+01
3.292250e+06	-4.333463e+01	-9.469283e+01	-3.058916e+01	-6.710302e+00	-9.542220e+01	8.159187e+01	-5.507818e+01	8.919848e+01
3.292282e+06	-4.333831e+01	-9.463124e+01	-3.059005e+01	-6.713384e+00	-9.380988e+01	8.149836e+01	-5.504484e+01	8.919988e+01
3.292313e+06	-4.334199e+01	-9.456960e+01	-3.059095e+01	-6.716466e+00	-9.245049e+01	8.143195e+01	-5.501162e+01	8.920127e+01
3.292344e+06	-4.334566e+01	-9.450790e+01	-3.059184e+01	-6.719549e+00	-9.127533e+01	8.138234e+01	-5.497853e+01	8.920265e+01
3.292375e+06	-4.333598e+01	-9.454924e+01	-3.058835e+01	-6.724438e+00	-9.199059e+01	7.731230e+01	-5.503844e+01	8.907587e+01
3.292406e+06	-4.332630e+01	-9.459049e+01	-3.058486e+01	-6.729323e+00	-9.271352e+01	7.250775e+01	-5.509871e+01	8.894731e+01
3.292438e+06	-4.331663e+01	-9.463165e+01	-3.058137e+01	-6.734204e+00	-9.342330e+01	6.683900e+01	-5.515937e+01	8.881696e+01
3.292469e+06	-4.330697e+01	-9.467271e+01	-3.057789e+01	-6.739082e+00	-9.408752e+01	6.019465e+01	-5.522040e+01	8.868477e+01
3.292500e+06	-4.329750e+01	-9.471322e+01	-3.057445e+01	-6.743918e+00	-9.465154e+01	5.256508e+01	-5.528084e+01	8.855361e+01
3.292532e+06	-4.331122e+01	-9.469608e+01	-3.057711e+01	-6.744171e+00	-9.403603e+01	4.935212e+01	-5.522016e+01	8.878086e+01
3.292563e+06	-4.332496e+01	-9.467888e+01	-3.057976e+01	-6.744424e+00	-9.343903e+01	4.655814e+01	-5.515977e+01	8.900496e+01
3.292594e+06	-4.333872e+01	-9.466163e+01	-3.058242e+01	-6.744677e+00	-9.286352e+01	4.411720e+01	-5.509966e+01	8.922597e+01
3.292625e+06	-4.335250e+01	-9.464432e+01	-3.058507e+01	-6.744930e+00	-9.231077e+01	4.197375e+01	-5.503984e+01	8.944396e+01
3.292656e+06	-4.336595e+01	-9.462752e+01	-3.058767e+01	-6.745133e+00	-9.182172e+01	4.007574e+01	-5.498209e+01	8.965410e+01
3.292688e+06	-4.335785e+01	-9.464506e+01	-3.058660e+01	-6.742256e+00	-9.412313e+01	3.726860e+01	-5.503412e+01	8.956268e+01
3.292719e+06	-4.334976e+01	-9.466256e+01	-3.058552e+01	-6.739380e+00	-9.720757e+01	3.204483e+01	-5.508645e+01	8.947015e+01
3.292750e+06	-4.334167e+01	-9.468003e+01	-3.058445e+01	-6.736504e+00	-1.017325e+02	1.941576e+01	-5.513906e+01	8.937650e+01
3.292782e+06	-4.333360e+01	-9.469747e+01	-3.058337e+01	-6.733629e+00	-1.075324e+02	-2.645253e+01	-5.519198e+01	8.928171e+01
3.292813e+06	-4.332552e+01	-9.471487e+01	-3.058230e+01	-6.730755e+00	-1.037829e+02	-9.179900e+01	-5.524519e+01	8.918575e+01
3.292844e+06	-4.332807e+01	-9.473117e+01	-3.058590e+01	-6.722732e+00	-1.114722e+02	-8.374622e+01	-5.519864e+01	8.912997e+01
3.292875e+06	-4.333070e+01	-9.474747e+01	-3.058955e+01	-6.714661e+00	-1.166171e+02	5.622889e+01	-5.515152e+01	8.907512e+01
3.292906e+06	-4.333333e+01	-9.476377e+01	-3.059319e+01	-6.706584e+00	-1.055422e+02	7.519042e+01	-5.510466e+01	8.902085e+01
3.292938e+06	-4.333596e+01	-9.478009e+01	-3.059684e+01	-6.698499e+00	-1.007406e+02	7.818470e+01	-5.505803e+01	8.896717e+01
3.292969e+06	-4.333859e+01	-9.479642e+01	-3.060049e+01	-6.690408e+00	-9.765967e+01	7.939251e+01	-5.501165e+01	8.891406e+01
3.293000e+06	-4.332978e+01	-9.475216e+01	-3.059909e+01	-6.694853e+00	-1.008523e+02	7.257150e+01	-5.501047e+01	8.897046e+01
3.293032e+06	-4.332097e+01	-9.470799e+01	-3.059768e+01	-6.699297e+00	-1.054143e+02	5.571215e+01	-5.500929e+01	8.902684e+01
3.293063e+06	-4.331217e+01	-9.466391e+01	-3.059628e+01	-6.703740e+00	-1.095454e+02	3.618665e+00	-5.500810e+01	8.908320e+01
3.293094e+06	-4.330337e+01	-9.461991e+01	-3.059488e+01	-6.708181e+00	-1.053380e+02	-4.783530e+01	-5.500690e+01	8.913956e+01
3.293125e+06	-4.329469e+01	-9.457687e+01	-3.059348e+01	-6.712643e+00	-1.008161e+02	-6.435117e+01	-5.500589e+01	8.919435e+01
3.293156e+06	-4.330028e+01	-9.464055e+01	-3.059242e+01	-6.719858e+00	-9.936182e+01	-6.351547e+01	-5.502940e+01	8.905722e+01
3.293188e+06	-4.330586e+01	-9.470431e+01	-3.059135e+01	-6.727071e+00	-9.811527e+01	-6.290311e+01	-5.505292e+01	8.891934e+01
3.293219e+06	-4.331143e+01	-9.476815e+01	-3.059028e+01	-6.734282e+00	-9.702470e+01	-6.243522e+01	-5.507646e+01	8.878072e+01
3.293250e+06	-4.331699e+01	-9.483207e+01	-3.058922e+01	-6.741492e+00	-9.605550e+01	-6.206611e+01	-5.510001e+01	8.864134e+01
3.293282e+06	-4.332246e+01	-9.489390e+01	-3.058815e+01	-6.748507e+00	-9.522711e+01	-6.165785e+01	-5.512291e+01	8.850371e+01
3.293313e+06	-4.332229e+01	-9.482172e+01	-3.058695e+01	-6.743705e+00	-9.726546e+01	-5.257919e+01	-5.510514e+01	8.852015e+01
3.293344e+06	-4.332211e+01	-9.474955e+01	-3.058576e+01	-6.738904e+00	-9.945272e+01	-3.770715e+01	-5.508740e+01	8.853652e+01
3.293375e+06	-4.332191e+01	-9.467738e+01	-3.058456e+01	-6.734104e+00	-1.011171e+02	-1.413562e+01	-5.506970e+01	8.855282e+01
3.293406e+06	-4.332170e+01	-9.460522e+01	-3.058337e+01	-6.729305e+00	-1.010038e+02	1.442445e+01	-5.505204e+01	8.856905e+01
3.293438e+06	-4.332148e+01	-9.453306e+01	-3.058217e+01	-6.724508e+00	-9.922412e+01	3.703458e+01	-5.503441e+01	8.858522e+01
3.293469e+06	-4.333141e+01	-9.456825e+01	-3.058487e+01	-6.740347e+00	-1.055200e+02	1.723685e+01	-5.504033e+01	8.888361e+01
3.293500e+06	-4.334143e+01	-9.460439e+01	-3.058761e+01	-6.756362e+00	-1.084610e+02	-6.891057e+01	-5.504620e+01	8.918468e+01
3.293532e+06	-4.335146e+01	-9.464062e+01	-3.059034e+01	-6.772387e+00	-1.009859e+02	-1.052087e+02	-5.505183e+01	8.948615e+01
3.293563e+06	-4.336150e+01	-9.467693e+01	-3.059308e+01	-6.788423e+00	-9.649039e+01	-1.137895e+02	-5.505723e+01	8.978801e+01
3.293594e+06	-4.337154e+01	-9.471332e+01	-3.059581e+01	-6.804468e+00	-9.348446e+01	-1.173962e+02	-5.506239e+01	9.009023e+01
3.293625e+06	-4.336178e+01	-9.472372e+01	-3.059306e+01	-6.788371e+00	-9.347267e+01	-1.088252e+02	-5.510827e+01	8.970528e+01
