# Hz S dB R 50.000
3.288594e+06	-4.420726e+01	-9.390825e+01	-3.059196e+01	-7.547907e+00	-1.009547e+02	-1.025987e+02	-5.253184e+01	1.086636e+02
3.288625e+06	-4.421071e+01	-9.395136e+01	-3.059069e+01	-7.544822e+00	-1.055866e+02	-9.176570e+01	-5.252437e+01	1.088895e+02
3.288656e+06	-4.421415e+01	-9.399450e+01	-3.058942e+01	-7.541738e+00	-1.123887e+02	-4.725610e+01	-5.251678e+01	1.091149e+02
3.288688e+06	-4.421759e+01	-9.403768e+01	-3.058814e+01	-7.538654e+00	-1.083293e+02	2.675870e+01	-5.250906e+01	1.093400e+02
3.288719e+06	-4.422103e+01	-9.408089e+01	-3.058687e+01	-7.535572e+00	-1.026445e+02	4.500403e+01	-5.250121e+01	1.095646e+02
3.288750e+06	-4.422443e+01	-9.412375e+01	-3.058562e+01	-7.532465e+00	-9.906173e+01	5.124701e+01	-5.249346e+01	1.097859e+02
3.288782e+06	-4.422399e+01	-9.411824e+01	-3.058678e+01	-7.526180e+00	-9.912493e+01	6.533969e+01	-5.251348e+01	1.096393e+02
3.288813e+06	-4.422355e+01	-9.411273e+01	-3.058794e+01	-7.519894e+00	-9.868458e+01	7.882198e+01	-5.253348e+01	1.094920e+02
3.288844e+06	-4.422311e+01	-9.410722e+01	-3.058910e+01	-7.513606e+00	-9.787077e+01	9.046412e+01	-5.255348e+01	1.093440e+02
3.288875e+06	-4.422267e+01	-9.410171e+01	-3.059027e+01	-7.507316e+00	-9.686084e+01	9.987888e+01	-5.257346e+01	1.091954e+02
3.288906e+06	-4.422220e+01	-9.409585e+01	-3.059137e+01	-7.501337e+00	-9.582910e+01	1.068381e+02	-5.259306e+01	1.090482e+02
3.288938e+06	-4.421988e+01	-9.406865e+01	-3.058861e+01	-7.514608e+00	-9.655443e+01	8.352430e+01	-5.259012e+01	1.090341e+02
3.288969e+06	-4.421757e+01	-9.404145e+01	-3.058586e+01	-7.527871e+00	-9.580466e+01	6.027987e+01	-5.258719e+01	1.090201e+02
3.289000e+06	-4.421524e+01	-9.401427e+01	-3.058311e+01	-7.541125e+00	-9.413128e+01	4.290758e+01	-5.258425e+01	1.090061e+02
3.289032e+06	-4.421292e+01	-9.398711e+01	-3.058035e+01	-7.554371e+00	-9.227966e+01	3.143026e+01	-5.258131e+01	1.089921e+02
3.289063e+06	-4.421060e+01	-9.395996e+01	-3.057760e+01	-7.567608e+00	-9.056105e+01	2.384994e+01	-5.257837e+01	1.089781e+02
3.289094e+06	-4.420444e+01	-9.392344e+01	-3.057800e+01	-7.539012e+00	-9.308801e+01	2.074237e+01	-5.258117e+01	1.091148e+02
3.289125e+06	-4.419825e+01	-9.388691e+01	-3.057843e+01	-7.510075e+00	-9.665197e+01	1.450823e+01	-5.258396e+01	1.092528e+02
3.289156e+06	-4.419206e+01	-9.385042e+01	-3.057885e+01	-7.481135e+00	-1.022051e+02	-3.563372e+00	-5.258671e+01	1.093909e+02
3.289188e+06	-4.418587e+01	-9.381399e+01	-3.057927e+01	-7.452193e+00	-1.063511e+02	-7.492478e+01	-5.258940e+01	1.095291e+02
3.289219e+06	-4.417968e+01	-9.377761e+01	-3.057969e+01	-7.423248e+00	-9.978308e+01	-1.207301e+02	-5.259205e+01	1.096674e+02
3.289250e+06	-4.419391e+01	-9.381502e+01	-3.057962e+01	-7.434775e+00	-1.101590e+02	3.187146e+01	-5.259277e+01	1.095059e+02
3.289282e+06	-4.420816e+01	-9.385255e+01	-3.057955e+01	-7.446301e+00	-9.590511e+01	4.899658e+01	-5.259343e+01	1.093443e+02
3.289313e+06	-4.422243e+01	-9.389020e+01	-3.057949e+01	-7.457827e+00	-9.072418e+01	5.079743e+01	-5.259402e+01	1.091828e+02
3.289344e+06	-4.423672e+01	-9.392798e+01	-3.057942e+01	-7.469353e+00	-8.749906e+01	5.148152e+01	-5.259453e+01	1.090212e+02
3.289375e+06	-4.425091e+01	-9.396510e+01	-3.057935e+01	-7.480890e+00	-8.517545e+01	5.185925e+01	-5.259482e+01	1.088615e+02
3.289406e+06	-4.425146e+01	-9.390489e+01	-3.057984e+01	-7.493753e+00	-8.608061e+01	5.460547e+01	-5.257448e+01	1.089334e+02
3.289438e+06	-4.425200e+01	-9.384467e+01	-3.058032e+01	-7.506617e+00	-8.706334e+01	5.801913e+01	-5.255417e+01	1.090050e+02
3.289469e+06	-4.425252e+01	-9.378444e+01	-3.058080e+01	-7.519483e+00	-8.812728e+01	6.234138e+01	-5.253389e+01	1.090762e+02
3.289500e+06	-4.425304e+01	-9.372421e+01	-3.058129e+01	-7.532350e+00	-8.926678e+01	6.791522e+01	-5.251365e+01	1.091471e+02
3.289532e+06	-4.425363e+01	-9.366630e+01	-3.058176e+01	-7.544796e+00	-9.045152e+01	7.499248e+01	-5.249383e+01	1.092160e+02
3.289563e+06	-4.425901e+01	-9.375220e+01	-3.058196e+01	-7.531204e+00	-9.152389e+01	6.905565e+01	-5.249785e+01	1.091764e+02
3.289594e+06	-4.426438e+01	-9.383820e+01	-3.058215e+01	-7.517613e+00	-9.261003e+01	6.143514e+01	-5.250186e+01	1.091367e+02
3.289625e+06	-4.426974e+01	-9.392430e+01	-3.058234e+01	-7.504020e+00	-9.362622e+01	5.170976e+01	-5.250587e+01	1.090971e+02
3.289656e+06	-4.427508e+01	-9.401051e+01	-3.058254e+01	-7.490427e+00	-9.442603e+01	3.969244e+01	-5.250988e+01	1.090574e+02
3.289688e+06	-4.428040e+01	-9.409683e+01	-3.058273e+01	-7.476834e+00	-9.482364e+01	2.586592e+01	-5.251389e+01	1.090176e+02
3.289719e+06	-4.427104e+01	-9.405608e+01	-3.058363e+01	-7.490287e+00	-9.344135e+01	2.929858e+01	-5.250550e+01	1.089876e+02
3.289750e+06	-4.426156e+01	-9.401440e+01	-3.058454e+01	-7.503962e+00	-9.221759e+01	3.194654e+01	-5.249703e+01	1.089577e+02
3.289782e+06	-4.425210e+01	-9.397281e+01	-3.058545e+01	-7.517639e+00	-9.113257e+01	3.397613e+01	-5.248856e+01	1.089279e+02
3.289813e+06	-4.424264e+01	-9.393131e+01	-3.058636e+01	-7.531320e+00	-9.016047e+01	3.557759e+01	-5.248009e+01	1.088982e+02
3.289844e+06	-4.423318e+01	-9.388990e+01	-3.058727e+01	-7.545003e+00	-8.928134e+01	3.687160e+01	-5.247163e+01	1.088685e+02
3.289875e+06	-4.422883e+01	-9.391954e+01	-3.058621e+01	-7.536354e+00	-9.162145e+01	3.135384e+01	-5.248815e+01	1.090209e+02
3.289906e+06	-4.422447e+01	-9.394915e+01	-3.058515e+01	-7.527708e+00	-9.461898e+01	2.111413e+01	-5.250463e+01	1.091739e+02
3.289938e+06	-4.422012e+01	-9.397873e+01	-3.058409e+01	-7.519063e+00	-9.822859e+01	-1.242552e+00	-5.252109e+01	1.093275e+02
3.289969e+06	-4.421577e+01	-9.400828e+01	-3.058303e+01	-7.510421e+00	-9.983649e+01	-4.515507e+01	-5.253751e+01	1.094816e+02
3.290000e+06	-4.421143e+01	-9.403741e+01	-3.058197e+01	-7.501774e+00	-9.693612e+01	-8.139009e+01	-5.255377e+01	1.096346e+02
3.290032e+06	-4.420901e+01	-9.401871e+01	-3.058113e+01	-7.492226e+00	-1.034312e+02	-9.609491e+01	-5.255404e+01	1.095773e+02
3.290063e+06	-4.420659e+01	-9.400002e+01	-3.058028e+01	-7.482680e+00	-1.088170e+02	1.693078e+02	-5.255429e+01	1.095199e+02
3.290094e+06	-4.420417e+01	-9.398134e+01	-3.057943e+01	-7.473136e+00	-9.975791e+01	1.285372e+02	-5.255454e+01	1.094626e+02
3.290125e+06	-4.420174e+01	-9.396267e+01	-3.057858e+01	-7.463594e+00	-9.490548e+01	1.209733e+02	-5.255478e+01	1.094052e+02
3.290156e+06	-4.419952e+01	-9.394388e+01	-3.057777e+01	-7.454572e+00	-9.184031e+01	1.180987e+02	-5.255521e+01	1.093487e+02
3.290188e+06	-4.420952e+01	-9.391696e+01	-3.057871e+01	-7.477465e+00	-9.382252e+01	1.259508e+02	-5.256781e+01	1.093439e+02
3.290219e+06	-4.421953e+01	-9.388999e+01	-3.057965e+01	-7.500363e+00	-9.604005e+01	1.387513e+02	-5.258043e+01	1.093390e+02
3.290250e+06	-4.422955e+01	-9.386295e+01	-3.058059e+01	-7.523266e+00	-9.803829e+01	1.598500e+02	-5.259307e+01	1.093341e+02
3.290282e+06	-4.423958e+01	-9.383584e+01	-3.058153e+01	-7.546174e+00	-9.855861e+01	-1.713951e+02	-5.260572e+01	1.093292e+02
3.290313e+06	-4.424962e+01	-9.380868e+01	-3.058247e+01	-7.569087e+00	-9.708479e+01	-1.458609e+02	-5.261840e+01	1.093243e+02
3.290344e+06	-4.425014e+01	-9.384271e+01	-3.058093e+01	-7.561407e+00	-9.957756e+01	-1.677024e+02	-5.263447e+01	1.092947e+02
3.290375e+06	-4.425057e+01	-9.387724e+01	-3.057938e+01	-7.553484e+00	-1.003736e+02	1.587457e+02	-5.265060e+01	1.092647e+02
3.290406e+06	-4.425100e+01	-9.391178e+01	-3.057782e+01	-7.545564e+00	-9.847685e+01	1.296081e+02	-5.266675e+01	1.092346e+02
3.290438e+06	-4.425143e+01	-9.394632e+01	-3.057626e+01	-7.537647e+00	-9.583404e+01	1.128271e+02	-5.268293e+01	1.092043e+02
3.290469e+06	-4.425186e+01	-9.398086e+01	-3.057470e+01	-7.529732e+00	-9.348093e+01	1.034790e+02	-5.269914e+01	1.091740e+02
3.290500e+06	-4.424725e+01	-9.396591e+01	-3.057748e+01	-7.531670e+00	-9.780713e+01	8.604432e+01	-5.269684e+01	1.091322e+02
3.290532e+06	-4.424265e+01	-9.395098e+01	-3.058027e+01	-7.533610e+00	-1.014924e+02	3.714105e+01	-5.269453e+01	1.090904e+02
3.290563e+06	-4.423804e+01	-9.393607e+01	-3.058306e+01	-7.535551e+00	-9.784242e+01	-1.203040e+01	-5.269222e+01	1.090486e+02
3.290594e+06	-4.423344e+01	-9.392117e+01	-3.058584e+01	-7.537493e+00	-9.350697e+01	-2.959263e+01	-5.268991e+01	1.090069e+02
3.290625e+06	-4.422890e+01	-9.390659e+01	-3.058860e+01	-7.539246e+00	-9.040424e+01	-3.683093e+01	-5.268743e+01	1.089671e+02
3.290656e+06	-4.423077e+01	-9.392925e+01	-3.058771e+01	-7.517318e+00	-9.041056e+01	-2.871403e+01	-5.266434e+01	1.091709e+02
3.290688e+06	-4.423264e+01	-9.395192e+01	-3.058681e+01	-7.495396e+00	-9.024589e+01	-2.074473e+01	-5.264120e+01	1.093737e+02
3.290719e+06	-4.423452e+01	-9.397460e+01	-3.058591e+01	-7.473477e+00	-8.992850e+01	-1.320825e+01	-5.261802e+01	1.095753e+02
3.290750e+06	-4.423639e+01	-9.399729e+01	-3.058502e+01	-7.451564e+00	-8.948952e+01	-6.303474e+00	-5.259479e+01	1.097759e+02
3.290782e+06	-4.423818e+01	-9.401933e+01	-3.058415e+01	-7.430151e+00	-8.899202e+01	-1.257152e-01	-5.257211e+01	1.099724e+02
3.290813e+06	-4.423479e+01	-9.400120e+01	-3.058560e+01	-7.439279e+00	-9.020075e+01	6.689523e+00	-5.258577e+01	1.099839e+02
3.290844e+06	-4.423141e+01	-9.398308e+01	-3.058705e+01	-7.448410e+00	-9.141461e+01	1.571318e+01	-5.259945e+01	1.099954e+02
3.290875e+06	-4.422803e+01	-9.396498e+01	-3.058849e+01	-7.457544e+00	-9.249671e+01	2.750151e+01	-5.261315e+01	1.100070e+02
3.290906e+06	-4.422465e+01	-9.394689e+01	-3.058994e+01	-7.466681e+00	-9.321372e+01	4.205681e+01	-5.262687e+01	1.100186e+02
3.290938e+06	-4.422127e+01	-9.392881e+01	-3.059139e+01	-7.475821e+00	-9.332490e+01	5.810563e+01	-5.264061e+01	1.100303e+02
3.290969e+06	-4.422161e+01	-9.395163e+01	-3.058610e+01	-7.480171e+00	-9.568711e+01	4.477849e+01	-5.261793e+01	1.098385e+02
3.291000e+06	-4.422197e+01	-9.397477e+01	-3.058077e+01	-7.484477e+00	-9.780083e+01	2.165059e+01	-5.259491e+01	1.096461e+02
3.291032e+06	-4.422234e+01	-9.399791e+01	-3.057544e+01	-7.488777e+00	-9.809305e+01	-9.557351e+00	-5.257186e+01	1.094547e+02
3.291063e+06	-4.422271e+01	-9.402106e+01	-3.057011e+01	-7.493073e+00	-9.624223e+01	-3.521760e+01	-5.254878e+01	1.092644e+02
3.291094e+06	-4.422307e+01	-9.404421e+01	-3.056478e+01	-7.497363e+00	-9.383815e+01	-5.060382e+01	-5.252566e+01	1.090750e+02
3.291125e+06	-4.422421e+01	-9.402467e+01	-3.056760e+01	-7.502737e+00	-9.430819e+01	-3.309265e+01	-5.255630e+01	1.091530e+02
3.291156e+06	-4.422535e+01	-9.400513e+01	-3.057042e+01	-7.508114e+00	-9.394368e+01	-1.536038e+01	-5.258703e+01	1.092315e+02
3.291188e+06	-4.422649e+01	-9.398558e+01	-3.057324e+01	-7.513495e+00	-9.291895e+01	-3.168938e-01	-5.261785e+01	1.093105e+02
3.291219e+06	-4.422762e+01	-9.396602e+01	-3.057606e+01	-7.518879e+00	-9.159386e+01	1.110497e+01	-5.264876e+01	1.093901e+02
3.291250e+06	-4.422882e+01	-9.394689e+01	-3.057886e+01	-7.524197e+00	-9.024497e+01	1.945998e+01	-5.267935e+01	1.094697e+02
3.291282e+06	-4.423716e+01	-9.398007e+01	-3.057829e+01	-7.520771e+00	-9.158852e+01	2.873179e+01	-5.265810e+01	1.094683e+02
3.291313e+06	-4.424551e+01	-9.401332e+01	-3.057773e+01	-7.517346e+00	-9.281241e+01	4.123705e+01	-5.263691e+01	1.094670e+02
3.291344e+06	-4.425387e+01	-9.404663e+01	-3.057717e+01	-7.513921e+00	-9.362415e+01	5.712249e+01	-5.261577e+01	1.094656e+02
3.291375e+06	-4.426223e+01	-9.408001e+01	-3.057660e+01	-7.510497e+00	-9.370572e+01	7.478224e+01	-5.259467e+01	1.094643e+02
3.291406e+06	-4.427033e+01	-9.411167e+01	-3.057607e+01	-7.507034e+00	-9.301886e+01	9.093304e+01	-5.257424e+01	1.094619e+02
3.291438e+06	-4.426225e+01	-9.403417e+01	-3.057738e+01	-7.501176e+00	-9.210979e+01	8.846124e+01	-5.259083e+01	1.093918e+02
3.291469e+06	-4.425416e+01	-9.395681e+01	-3.057868e+01	-7.495315e+00	-9.127489e+01	8.643929e+01	-5.260744e+01	1.093215e+02
3.291500e+06	-4.424606e+01	-9.387959e+01	-3.057999e+01	-7.489453e+00	-9.050501e+01	8.475854e+01	-5.262406e+01	1.092509e+02
3.291532e+06	-4.423796e+01	-9.380252e+01	-3.058129e+01	-7.483590e+00	-8.979204e+01	8.334163e+01	-5.264071e+01	1.091800e+02
3.291563e+06	-4.422984e+01	-9.372559e+01	-3.058260e+01	-7.477724e+00	-8.912898e+01	8.213234e+01	-5.265738e+01	1.091089e+02
3.291594e+06	-4.423609e+01	-9.376040e+01	-3.058108e+01	-7.476625e+00	-9.020634e+01	8.679954e+01	-5.264463e+01	1.092760e+02
3.291625e+06	-4.424245e+01	-9.379616e+01	-3.057954e+01	-7.475565e+00	-9.136645e+01	9.290683e+01	-5.263159e+01	1.094446e+02
3.291656e+06	-4.424881e+01	-9.383198e+01	-3.057800e+01	-7.474505e+00	-9.255502e+01	1.009213e+02	-5.261849e+01	1.096127e+02
3.291688e+06	-4.425517e+01	-9.386784e+01	-3.057646e+01	-7.473445e+00	-9.367312e+01	1.113978e+02	-5.260534e+01	1.097803e+02
3.291719e+06	-4.426153e+01	-9.390376e+01	-3.057492e+01	-7.472386e+00	-9.453522e+01	1.246002e+02	-5.259214e+01	1.099474e+02
3.291750e+06	-4.426702e+01	-9.392676e+01	-3.057399e+01	-7.475989e+00	-9.388112e+01	1.179187e+02	-5.256917e+01	1.098773e+02
3.291782e+06	-4.427252e+01	-9.394979e+01	-3.057306e+01	-7.479591e+00	-9.317874e+01	1.122067e+02	-5.254624e+01	1.098075e+02
3.291813e+06	-4.427801e+01	-9.397284e+01	-3.057213e+01	-7.483192e+00	-9.246098e+01	1.073586e+02	-5.252336e+01	1.097381e+02
3.291844e+06	-4.428351e+01	-9.399593e+01	-3.057119e+01	-7.486792e+00	-9.174918e+01	1.032475e+02	-5.250053e+01	1.096690e+02
3.291875e+06	-4.428894e+01	-9.401851e+01	-3.057027e+01	-7.490263e+00	-9.108053e+01	9.973447e+01	-5.247816e+01	1.096012e+02
3.291906e+06	-4.428491e+01	-9.397415e+01	-3.057066e+01	-7.477759e+00	-9.378831e+01	9.242270e+01	-5.250665e+01	1.096325e+02
3.291938e+06	-4.428089e+01	-9.392984e+01	-3.057104e+01	-7.465254e+00	-9.728885e+01	7.734682e+01	-5.253522e+01	1.096641e+02
3.291969e+06	-4.427686e+01	-9.388557e+01	-3.057143e+01	-7.452748e+00	-1.006642e+02	4.231514e+01	-5.256389e+01	1.096958e+02
3.292000e+06	-4.427282e+01	-9.384134e+01	-3.057181e+01	-7.440240e+00	-9.937856e+01	-4.584879e+00	-5.259266e+01	1.097278e+02
3.292032e+06	-4.426877e+01	-9.379875e+01	-3.057217e+01	-7.428154e+00	-9.566702e+01	-2.806814e+01	-5.262053e+01	1.097574e+02
3.292063e+06	-4.426403e+01	-9.385439e+01	-3.057076e+01	-7.442044e+00	-9.567653e+01	-7.084937e+00	-5.258777e+01	1.096286e+02
3.292094e+06	-4.425928e+01	-9.390997e+01	-3.056936e+01	-7.455929e+00	-9.466127e+01	1.151395e+01	-5.255509e+01	1.095008e+02
3.292125e+06	-4.425453e+01	-9.396549e+01	-3.056795e+01	-7.469809e+00	-9.314251e+01	2.529645e+01	-5.252249e+01	1.093739e+02
3.292156e+06	-4.424977e+01	-9.402095e+01	-3.056655e+01	-7.483685e+00	-9.154903e+01	3.488045e+01	-5.248998e+01	1.092479e+02
3.292188e+06	-4.424501e+01	-9.407635e+01	-3.056514e+01	-7.497557e+00	-9.005749e+01	4.158330e+01	-5.245754e+01	1.091229e+02
3.292219e+06	-4.425221e+01	-9.405373e+01	-3.056828e+01	-7.505681e+00	-9.258896e+01	4.581909e+01	-5.251035e+01	1.092076e+02
3.292250e+06	-4.425951e+01	-9.403044e+01	-3.057145e+01	-7.513764e+00	-9.609224e+01	5.431669e+01	-5.256416e+01	1.092950e+02
3.292282e+06	-4.426681e+01	-9.400711e+01	-3.057462e+01	-7.521853e+00	-1.010552e+02	7.737363e+01	-5.261828e+01	1.093835e+02
3.292313e+06	-4.427412e+01	-9.398374e+01	-3.057779e+01	-7.529948e+00	-1.031427e+02	1.392450e+02	-5.267273e+01	1.094731e+02
3.292344e+06	-4.428144e+01	-9.396033e+01	-3.058097e+01	-7.538049e+00	-9.806545e+01	1.779321e+02	-5.272749e+01	1.095639e+02
3.292375e+06	-4.427660e+01	-9.392349e+01	-3.057888e+01	-7.512884e+00	-1.002108e+02	1.698539e+02	-5.269573e+01	1.097986e+02
3.292406e+06	-4.427176e+01	-9.388669e+01	-3.057680e+01	-7.487730e+00	-1.026600e+02	1.560561e+02	-5.266395e+01	1.100317e+02
3.292438e+06	-4.426692e+01	-9.384993e+01	-3.057471e+01	-7.462589e+00	-1.048235e+02	1.321263e+02	-5.263214e+01	1.102630e+02
3.292469e+06	-4.426208e+01	-9.381321e+01	-3.057262e+01	-7.437460e+00	-1.050217e+02	9.996170e+01	-5.260030e+01	1.104927e+02
3.292500e+06	-4.425716e+01	-9.377683e+01	-3.057056e+01	-7.412570e+00	-1.030702e+02	7.456662e+01	-5.256891e+01	1.107174e+02
3.292532e+06	-4.424247e+01	-9.377840e+01	-3.057138e+01	-7.415826e+00	-1.059590e+02	9.272606e+01	-5.259500e+01	1.105454e+02
3.292563e+06	-4.422780e+01	-9.377997e+01	-3.057221e+01	-7.419083e+00	-1.078676e+02	1.255079e+02	-5.262109e+01	1.103724e+02
3.292594e+06	-4.421316e+01	-9.378153e+01	-3.057303e+01	-7.422340e+00	-1.065242e+02	1.608070e+02	-5.264718e+01	1.101983e+02
3.292625e+06	-4.419854e+01	-9.378308e+01	-3.057386e+01	-7.425598e+00	-1.036526e+02	-1.783579e+02	-5.267326e+01	1.100232e+02
3.292656e+06	-4.418438e+01	-9.378525e+01	-3.057465e+01	-7.429012e+00	-1.010501e+02	-1.668861e+02	-5.269902e+01	1.098459e+02
3.292688e+06	-4.419702e+01	-9.382523e+01	-3.057325e+01	-7.441992e+00	-9.838367e+01	-1.321163e+02	-5.270438e+01	1.095993e+02
3.292719e+06	-4.420967e+01	-9.386532e+01	-3.057185e+01	-7.454969e+00	-9.511220e+01	-1.153861e+02	-5.270959e+01	1.093525e+02
3.292750e+06	-4.422234e+01	-9.390553e+01	-3.057044e+01	-7.467941e+00	-9.245848e+01	-1.070185e+02	-5.271463e+01	1.091054e+02
3.292782e+06	-4.423501e+01	-9.394586e+01	-3.056904e+01	-7.480909e+00	-9.034407e+01	-1.021973e+02	-5.271952e+01	1.088580e+02
3.292813e+06	-4.424771e+01	-9.398631e+01	-3.056764e+01	-7.493872e+00	-8.861247e+01	-9.910303e+01	-5.272425e+01	1.086104e+02
3.292844e+06	-4.424593e+01	-9.398499e+01	-3.056847e+01	-7.496864e+00	-9.196860e+01	-9.923611e+01	-5.272144e+01	1.089255e+02
3.292875e+06	-4.424404e+01	-9.398333e+01	-3.056931e+01	-7.499777e+00	-9.760853e+01	-9.967215e+01	-5.271831e+01	1.092449e+02
3.292906e+06	-4.424214e+01	-9.398168e+01	-3.057015e+01	-7.502690e+00	-1.188138e+02	-1.093067e+02	-5.271490e+01	1.095641e+02
3.292938e+06	-4.424025e+01	-9.398002e+01	-3.057100e+01	-7.505603e+00	-9.923869e+01	8.234225e+01	-5.271123e+01	1.098830e+02
3.292969e+06	-4.423836e+01	-9.397837e+01	-3.057184e+01	-7.508517e+00	-9.278208e+01	8.176454e+01	-5.270729e+01	1.102017e+02
3.293000e+06	-4.424702e+01	-9.393967e+01	-3.057103e+01	-7.506298e+00	-9.341757e+01	6.487757e+01	-5.268060e+01	1.101332e+02
3.293032e+06	-4.425568e+01	-9.390090e+01	-3.057021e+01	-7.504079e+00	-9.324922e+01	4.702703e+01	-5.265397e+01	1.100652e+02
3.293063e+06	-4.426435e+01	-9.386205e+01	-3.056940e+01	-7.501861e+00	-9.235857e+01	3.128240e+01	-5.262741e+01	1.099976e+02
3.293094e+06	-4.427302e+01	-9.382312e+01	-3.056859e+01	-7.499643e+00	-9.108796e+01	1.906766e+01	-5.260093e+01	1.099304e+02
3.293125e+06	-4.428158e+01	-9.378483e+01	-3.056779e+01	-7.497336e+00	-8.975226e+01	1.016393e+01	-5.257506e+01	1.098640e+02
3.293156e+06	-4.427576e+01	-9.383600e+01	-3.056852e+01	-7.484013e+00	-9.221933e+01	1.395257e+01	-5.261746e+01	1.098515e+02
3.293188e+06	-4.426993e+01	-9.388711e+01	-3.056925e+01	-7.470687e+00	-9.556768e+01	2.136824e+01	-5.266006e+01	1.098389e+02
3.293219e+06	-4.426410e+01	-9.393815e+01	-3.056997e+01	-7.457359e+00	-1.003860e+02	4.066637e+01	-5.270288e+01	1.098262e+02
3.293250e+06	-4.425827e+01	-9.398911e+01	-3.057070e+01	-7.444029e+00	-1.037751e+02	9.890025e+01	-5.274590e+01	1.098133e+02
3.293282e+06	-4.425262e+01	-9.403866e+01	-3.057141e+01	-7.431179e+00	-9.905157e+01	1.447156e+02	-5.278806e+01	1.097995e+02
3.293313e+06	-4.425797e+01	-9.400469e+01	-3.057083e+01	-7.447990e+00	-1.022023e+02	-1.742696e+02	-5.276368e+01	1.097354e+02
3.293344e+06	-4.426332e+01	-9.397067e+01	-3.057025e+01	-7.464798e+00	-9.982727e+01	-1.284165e+02	-5.273936e+01	1.096717e+02
3.293375e+06	-4.426868e+01	-9.393662e+01	-3.056966e+01	-7.481604e+00	-9.591920e+01	-1.080454e+02	-5.271509e+01	1.096084e+02
3.293406e+06	-4.427403e+01	-9.390252e+01	-3.056908e+01	-7.498408e+00	-9.287544e+01	-9.905008e+01	-5.269088e+01	1.095454e+02
3.293438e+06	-4.427939e+01	-9.386838e+01	-3.056849e+01	-7.515210e+00	-9.053720e+01	-9.422341e+01	-5.266673e+01	1.094828e+02
3.293469e+06	-4.427795e+01	-9.383082e+01	-3.056799e+01	-7.505703e+00	-9.560170e+01	-7.943602e+01	-5.266031e+01	1.094029e+02
3.293500e+06	-4.427645e+01	-9.379325e+01	-3.056748e+01	-7.495986e+00	-1.011427e+02	-1.870452e+01	-5.265403e+01	1.093230e+02
3.293532e+06	-4.427495e+01	-9.375569e+01	-3.056697e+01	-7.486269e+00	-9.525365e+01	3.823279e+01	-5.264773e+01	1.092432e+02
3.293563e+06	-4.427345e+01	-9.371814e+01	-3.056647e+01	-7.476554e+00	-9.027064e+01	5.210194e+01	-5.264141e+01	1.091636e+02
3.293594e+06	-4.427194e+01	-9.368060e+01	-3.056596e+01	-7.466840e+00	-8.698806e+01	5.741253e+01	-5.263509e+01	1.090840e+02
3.293625e+06	-4.426591e+01	-9.373824e+01	-3.056703e+01	-7.460919e+00	-8.929829e+01	6.442021e+01	-5.263881e+01	1.091078e+02
