# Hz S dB R 50.000
3.625000e+06	-2.673053e+01	1.737743e+02	-3.126951e+01	-4.303899e+00	-1.046268e+02	-8.482015e+01	-2.574322e+01	1.720057e+02
3.625031e+06	-2.673001e+01	1.737736e+02	-3.126596e+01	-4.337449e+00	-1.031837e+02	-6.575096e+01	-2.574270e+01	1.720045e+02
3.625062e+06	-2.672949e+01	1.737729e+02	-3.126240e+01	-4.370971e+00	-1.013782e+02	-5.276186e+01	-2.574219e+01	1.720034e+02
3.625094e+06	-2.672897e+01	1.737723e+02	-3.125884e+01	-4.404467e+00	-9.963541e+01	-4.417039e+01	-2.574167e+01	1.720022e+02
3.625125e+06	-2.672845e+01	1.737716e+02	-3.125528e+01	-4.437934e+00	-9.807185e+01	-3.831060e+01	-2.574115e+01	1.720011e+02
3.625156e+06	-2.672792e+01	1.737709e+02	-3.125174e+01	-4.471413e+00	-9.671379e+01	-3.417546e+01	-2.574063e+01	1.720000e+02
3.625188e+06	-2.672711e+01	1.737722e+02	-3.125059e+01	-4.509638e+00	-9.830959e+01	-3.540727e+01	-2.573989e+01	1.720068e+02
3.625219e+06	-2.672629e+01	1.737735e+02	-3.124944e+01	-4.547852e+00	-1.002585e+02	-3.726005e+01	-2.573915e+01	1.720137e+02
3.625250e+06	-2.672547e+01	1.737749e+02	-3.124828e+01	-4.586057e+00	-1.027550e+02	-4.035197e+01	-2.573840e+01	1.720205e+02
3.625281e+06	-2.672465e+01	1.737762e+02	-3.124712e+01	-4.624251e+00	-1.061970e+02	-4.648636e+01	-2.573766e+01	1.720273e+02
3.625312e+06	-2.672383e+01	1.737775e+02	-3.124596e+01	-4.662435e+00	-1.114557e+02	-6.340265e+01	-2.573691e+01	1.720342e+02
3.625344e+06	-2.672426e+01	1.737797e+02	-3.124679e+01	-4.677512e+00	-1.121858e+02	9.305409e+01	-2.573791e+01	1.720326e+02
3.625375e+06	-2.672471e+01	1.737820e+02	-3.124766e+01	-4.692216e+00	-1.024961e+02	1.011094e+02	-2.573893e+01	1.720308e+02
3.625406e+06	-2.672516e+01	1.737843e+02	-3.124852e+01	-4.706923e+00	-9.800997e+01	1.026794e+02	-2.573995e+01	1.720291e+02
3.625438e+06	-2.672562e+01	1.737866e+02	-3.124939e+01	-4.721633e+00	-9.506443e+01	1.033467e+02	-2.574097e+01	1.720274e+02
3.625469e+06	-2.672607e+01	1.737889e+02	-3.125025e+01	-4.736345e+00	-9.286830e+01	1.037158e+02	-2.574199e+01	1.720256e+02
3.625500e+06	-2.672637e+01	1.737823e+02	-3.124983e+01	-4.754462e+00	-9.311909e+01	9.273083e+01	-2.574185e+01	1.720244e+02
3.625531e+06	-2.672668e+01	1.737756e+02	-3.124939e+01	-4.772603e+00	-9.305556e+01	8.138877e+01	-2.574170e+01	1.720232e+02
3.625562e+06	-2.672699e+01	1.737689e+02	-3.124896e+01	-4.790743e+00	-9.267264e+01	7.062194e+01	-2.574156e+01	1.720220e+02
3.625594e+06	-2.672729e+01	1.737622e+02	-3.124852e+01	-4.808882e+00	-9.204494e+01	6.104956e+01	-2.574141e+01	1.720208e+02
3.625625e+06	-2.672760e+01	1.737555e+02	-3.124808e+01	-4.827018e+00	-9.126725e+01	5.291775e+01	-2.574126e+01	1.720196e+02
3.625656e+06	-2.672645e+01	1.737634e+02	-3.124936e+01	-4.829381e+00	-9.068232e+01	6.406574e+01	-2.574126e+01	1.720102e+02
3.625688e+06	-2.672530e+01	1.737713e+02	-3.125065e+01	-4.831745e+00	-8.987226e+01	7.354307e+01	-2.574126e+01	1.720007e+02
3.625719e+06	-2.672414e+01	1.737792e+02	-3.125193e+01	-4.834109e+00	-8.895294e+01	8.129771e+01	-2.574127e+01	1.719913e+02
3.625750e+06	-2.672299e+01	1.737871e+02	-3.125322e+01	-4.836474e+00	-8.800524e+01	8.754577e+01	-2.574127e+01	1.719819e+02
3.625781e+06	-2.672186e+01	1.737949e+02	-3.125450e+01	-4.838986e+00	-8.709310e+01	9.253824e+01	-2.574126e+01	1.719725e+02
3.625812e+06	-2.672333e+01	1.737927e+02	-3.125517e+01	-4.859608e+00	-8.848688e+01	9.233178e+01	-2.574054e+01	1.719744e+02
3.625844e+06	-2.672479e+01	1.737905e+02	-3.125585e+01	-4.880233e+00	-9.014769e+01	9.203830e+01	-2.573982e+01	1.719763e+02
3.625875e+06	-2.672626e+01	1.737883e+02	-3.125653e+01	-4.900861e+00	-9.220252e+01	9.158815e+01	-2.573910e+01	1.719781e+02
3.625906e+06	-2.672772e+01	1.737861e+02	-3.125720e+01	-4.921492e+00	-9.489797e+01	9.081032e+01	-2.573838e+01	1.719800e+02
3.625938e+06	-2.672919e+01	1.737839e+02	-3.125788e+01	-4.942127e+00	-9.882163e+01	8.914350e+01	-2.573766e+01	1.719819e+02
3.625969e+06	-2.672948e+01	1.737763e+02	-3.125938e+01	-4.935522e+00	-9.663474e+01	1.022367e+02	-2.573779e+01	1.719884e+02
3.626000e+06	-2.672975e+01	1.737686e+02	-3.126089e+01	-4.928471e+00	-9.458297e+01	1.103122e+02	-2.573794e+01	1.719949e+02
3.626031e+06	-2.673002e+01	1.737609e+02	-3.126240e+01	-4.921418e+00	-9.283259e+01	1.155147e+02	-2.573808e+01	1.720015e+02
3.626062e+06	-2.673029e+01	1.737532e+02	-3.126391e+01	-4.914362e+00	-9.133483e+01	1.190915e+02	-2.573822e+01	1.720081e+02
3.626094e+06	-2.673056e+01	1.737455e+02	-3.126542e+01	-4.907304e+00	-9.003658e+01	1.216831e+02	-2.573837e+01	1.720146e+02
3.626125e+06	-2.673105e+01	1.737461e+02	-3.126789e+01	-4.900820e+00	-9.288883e+01	1.241390e+02	-2.573802e+01	1.720123e+02
3.626156e+06	-2.673155e+01	1.737467e+02	-3.127037e+01	-4.894336e+00	-9.717124e+01	1.297406e+02	-2.573767e+01	1.720099e+02
3.626188e+06	-2.673205e+01	1.737474e+02	-3.127285e+01	-4.887848e+00	-1.050534e+02	1.530710e+02	-2.573732e+01	1.720075e+02
3.626219e+06	-2.673254e+01	1.737480e+02	-3.127533e+01	-4.881357e+00	-1.048874e+02	-1.012519e+02	-2.573696e+01	1.720051e+02
3.626250e+06	-2.673304e+01	1.737487e+02	-3.127781e+01	-4.874862e+00	-9.708931e+01	-7.861531e+01	-2.573661e+01	1.720027e+02
3.626281e+06	-2.673205e+01	1.737561e+02	-3.127777e+01	-4.894419e+00	-9.624470e+01	-1.543722e+02	-2.573700e+01	1.720017e+02
3.626312e+06	-2.673106e+01	1.737635e+02	-3.127773e+01	-4.913976e+00	-9.030044e+01	1.792937e+02	-2.573739e+01	1.720006e+02
3.626344e+06	-2.673008e+01	1.737709e+02	-3.127769e+01	-4.933533e+00	-8.641558e+01	1.710683e+02	-2.573778e+01	1.719996e+02
3.626375e+06	-2.672909e+01	1.737784e+02	-3.127764e+01	-4.953089e+00	-8.367954e+01	1.672406e+02	-2.573817e+01	1.719985e+02
3.626406e+06	-2.672811e+01	1.737857e+02	-3.127759e+01	-4.972517e+00	-8.161416e+01	1.650651e+02	-2.573857e+01	1.719975e+02
3.626438e+06	-2.672823e+01	1.737819e+02	-3.127610e+01	-4.976042e+00	-8.367615e+01	1.657664e+02	-2.573962e+01	1.719970e+02
3.626469e+06	-2.672835e+01	1.737781e+02	-3.127461e+01	-4.979565e+00	-8.638218e+01	1.669807e+02	-2.574068e+01	1.719965e+02
3.626500e+06	-2.672846e+01	1.737743e+02	-3.127311e+01	-4.983087e+00	-9.032075e+01	1.695908e+02	-2.574173e+01	1.719960e+02
3.626531e+06	-2.672858e+01	1.737705e+02	-3.127162e+01	-4.986607e+00	-9.757359e+01	1.790987e+02	-2.574279e+01	1.719955e+02
3.626562e+06	-2.672870e+01	1.737667e+02	-3.127013e+01	-4.990127e+00	-1.041577e+02	-5.524023e+01	-2.574384e+01	1.719950e+02
3.626594e+06	-2.672788e+01	1.737681e+02	-3.127018e+01	-5.000522e+00	-1.002792e+02	-7.324783e+01	-2.574225e+01	1.719932e+02
3.626625e+06	-2.672705e+01	1.737697e+02	-3.127024e+01	-5.011030e+00	-9.735964e+01	-8.251571e+01	-2.574060e+01	1.719913e+02
3.626656e+06	-2.672621e+01	1.737713e+02	-3.127031e+01	-5.021538e+00	-9.508147e+01	-8.759461e+01	-2.573896e+01	1.719894e+02
3.626688e+06	-2.672538e+01	1.737728e+02	-3.127037e+01	-5.032046e+00	-9.324388e+01	-9.075422e+01	-2.573732e+01	1.719876e+02
3.626719e+06	-2.672455e+01	1.737744e+02	-3.127044e+01	-5.042554e+00	-9.171292e+01	-9.289754e+01	-2.573568e+01	1.719857e+02
3.626750e+06	-2.672592e+01	1.737789e+02	-3.127004e+01	-5.042545e+00	-9.497933e+01	-8.679178e+01	-2.573812e+01	1.719875e+02
3.626781e+06	-2.672731e+01	1.737834e+02	-3.126964e+01	-5.042451e+00	-9.988774e+01	-7.078175e+01	-2.574059e+01	1.719892e+02
3.626812e+06	-2.672870e+01	1.737879e+02	-3.126924e+01	-5.042357e+00	-1.046924e+02	-1.323494e+01	-2.574306e+01	1.719910e+02
3.626844e+06	-2.673009e+01	1.737925e+02	-3.126884e+01	-5.042264e+00	-9.951896e+01	4.073937e+01	-2.574554e+01	1.719928e+02
3.626875e+06	-2.673148e+01	1.737970e+02	-3.126844e+01	-5.042170e+00	-9.473757e+01	5.563652e+01	-2.574801e+01	1.719946e+02
3.626906e+06	-2.673050e+01	1.737945e+02	-3.127075e+01	-5.027860e+00	-9.421674e+01	6.349480e+01	-2.574711e+01	1.719977e+02
3.626938e+06	-2.672952e+01	1.737920e+02	-3.127306e+01	-5.013543e+00	-9.359030e+01	7.037571e+01	-2.574621e+01	1.720007e+02
3.626969e+06	-2.672854e+01	1.737895e+02	-3.127537e+01	-4.999217e+00	-9.290543e+01	7.628870e+01	-2.574531e+01	1.720038e+02
3.627000e+06	-2.672755e+01	1.737870e+02	-3.127768e+01	-4.984885e+00	-9.219745e+01	8.132315e+01	-2.574441e+01	1.720069e+02
3.627031e+06	-2.672659e+01	1.737845e+02	-3.127997e+01	-4.970604e+00	-9.149948e+01	8.547477e+01	-2.574352e+01	1.720099e+02
3.627062e+06	-2.672793e+01	1.737874e+02	-3.127965e+01	-4.963727e+00	-9.179453e+01	7.338426e+01	-2.574365e+01	1.720084e+02
3.627094e+06	-2.672927e+01	1.737903e+02	-3.127933e+01	-4.956851e+00	-9.169203e+01	6.101851e+01	-2.574377e+01	1.720069e+02
3.627125e+06	-2.673061e+01	1.737931e+02	-3.127901e+01	-4.949976e+00	-9.121807e+01	4.945815e+01	-2.574390e+01	1.720054e+02
3.627156e+06	-2.673196e+01	1.737960e+02	-3.127869e+01	-4.943101e+00	-9.047772e+01	3.942290e+01	-2.574402e+01	1.720039e+02
3.627188e+06	-2.673330e+01	1.737989e+02	-3.127838e+01	-4.936226e+00	-8.959182e+01	3.111453e+01	-2.574415e+01	1.720024e+02
3.627219e+06	-2.673286e+01	1.737928e+02	-3.128051e+01	-4.941060e+00	-9.095412e+01	2.646035e+01	-2.574278e+01	1.719985e+02
3.627250e+06	-2.673239e+01	1.737865e+02	-3.128268e+01	-4.946087e+00	-9.252601e+01	1.998175e+01	-2.574139e+01	1.719945e+02
3.627281e+06	-2.673192e+01	1.737803e+02	-3.128486e+01	-4.951116e+00	-9.424454e+01	1.049621e+01	-2.574000e+01	1.719906e+02
3.627312e+06	-2.673144e+01	1.737741e+02	-3.128704e+01	-4.956148e+00	-9.593893e+01	-3.633503e+00	-2.573861e+01	1.719866e+02
3.627344e+06	-2.673097e+01	1.737678e+02	-3.128921e+01	-4.961183e+00	-9.711550e+01	-2.349460e+01	-2.573722e+01	1.719826e+02
3.627375e+06	-2.673035e+01	1.737693e+02	-3.128685e+01	-4.977945e+00	-9.713485e+01	-2.707328e+01	-2.573898e+01	1.719872e+02
3.627406e+06	-2.672973e+01	1.737708e+02	-3.128445e+01	-4.994793e+00	-9.711804e+01	-3.049991e+01	-2.574076e+01	1.719918e+02
3.627438e+06	-2.672911e+01	1.737724e+02	-3.128204e+01	-5.011631e+00	-9.707049e+01	-3.390120e+01	-2.574254e+01	1.719964e+02
3.627469e+06	-2.672849e+01	1.737739e+02	-3.127964e+01	-5.028460e+00	-9.699320e+01	-3.725390e+01	-2.574432e+01	1.720010e+02
3.627500e+06	-2.672787e+01	1.737754e+02	-3.127724e+01	-5.045280e+00	-9.688773e+01	-4.053672e+01	-2.574610e+01	1.720056e+02
3.627531e+06	-2.672743e+01	1.737898e+02	-3.128031e+01	-5.059260e+00	-1.016365e+02	-6.214846e+01	-2.574613e+01	1.720031e+02
3.627562e+06	-2.672699e+01	1.738042e+02	-3.128338e+01	-5.073251e+00	-1.041546e+02	-1.203913e+02	-2.574616e+01	1.720006e+02
3.627594e+06	-2.672654e+01	1.738186e+02	-3.128646e+01	-5.087251e+00	-9.942355e+01	-1.616186e+02	-2.574619e+01	1.719981e+02
3.627625e+06	-2.672610e+01	1.738330e+02	-3.128953e+01	-5.101261e+00	-9.528807e+01	-1.753552e+02	-2.574622e+01	1.719956e+02
3.627656e+06	-2.672566e+01	1.738472e+02	-3.129260e+01	-5.115024e+00	-9.237363e+01	1.785749e+02	-2.574624e+01	1.719931e+02
3.627688e+06	-2.672531e+01	1.738337e+02	-3.129522e+01	-5.096867e+00	-9.425956e+01	1.668187e+02	-2.574545e+01	1.719954e+02
3.627719e+06	-2.672497e+01	1.738203e+02	-3.129784e+01	-5.078699e+00	-9.594689e+01	1.489140e+02	-2.574465e+01	1.719977e+02
3.627750e+06	-2.672463e+01	1.738068e+02	-3.130047e+01	-5.060521e+00	-9.664041e+01	1.250613e+02	-2.574385e+01	1.720000e+02
3.627781e+06	-2.672428e+01	1.737934e+02	-3.130309e+01	-5.042331e+00	-9.581000e+01	1.016042e+02	-2.574306e+01	1.720024e+02
3.627812e+06	-2.672394e+01	1.737799e+02	-3.130571e+01	-5.024130e+00	-9.407495e+01	8.437087e+01	-2.574226e+01	1.720047e+02
3.627844e+06	-2.672456e+01	1.737781e+02	-3.129988e+01	-5.024671e+00	-9.482154e+01	8.273065e+01	-2.574154e+01	1.720129e+02
3.627875e+06	-2.672520e+01	1.737764e+02	-3.129391e+01	-5.025515e+00	-9.568211e+01	8.098982e+01	-2.574083e+01	1.720212e+02
3.627906e+06	-2.672584e+01	1.737748e+02	-3.128795e+01	-5.026358e+00	-9.662640e+01	7.884677e+01	-2.574011e+01	1.720296e+02
3.627938e+06	-2.672648e+01	1.737732e+02	-3.128200e+01	-5.027200e+00	-9.766876e+01	7.615262e+01	-2.573939e+01	1.720379e+02
3.627969e+06	-2.672712e+01	1.737715e+02	-3.127605e+01	-5.028040e+00	-9.882514e+01	7.268153e+01	-2.573868e+01	1.720462e+02
3.628000e+06	-2.672919e+01	1.737677e+02	-3.127683e+01	-5.031293e+00	-1.013042e+02	1.139005e+02	-2.574001e+01	1.720407e+02
3.628031e+06	-2.673127e+01	1.737640e+02	-3.127767e+01	-5.034565e+00	-9.879513e+01	1.553254e+02	-2.574136e+01	1.720351e+02
3.628062e+06	-2.673334e+01	1.737602e+02	-3.127851e+01	-5.037838e+00	-9.515081e+01	1.743393e+02	-2.574271e+01	1.720295e+02
3.628094e+06	-2.673542e+01	1.737564e+02	-3.127935e+01	-5.041112e+00	-9.225889e+01	-1.768303e+02	-2.574406e+01	1.720239e+02
3.628125e+06	-2.673750e+01	1.737526e+02	-3.128019e+01	-5.044386e+00	-9.000435e+01	-1.719611e+02	-2.574541e+01	1.720183e+02
3.628156e+06	-2.673540e+01	1.737627e+02	-3.128010e+01	-5.048330e+00	-9.379217e+01	-1.712413e+02	-2.574550e+01	1.720113e+02
3.628188e+06	-2.673330e+01	1.737727e+02	-3.128002e+01	-5.052275e+00	-1.006531e+02	-1.687877e+02	-2.574558e+01	1.720044e+02
3.628219e+06	-2.673121e+01	1.737828e+02	-3.127993e+01	-5.056219e+00	-1.137197e+02	-1.390892e+01	-2.574567e+01	1.719974e+02
3.628250e+06	-2.672911e+01	1.737928e+02	-3.127985e+01	-5.060163e+00	-9.763844e+01	3.551057e+00	-2.574575e+01	1.719904e+02
3.628281e+06	-2.672704e+01	1.738028e+02	-3.127976e+01	-5.064066e+00	-9.232349e+01	4.892779e+00	-2.574583e+01	1.719835e+02
3.628312e+06	-2.672839e+01	1.737999e+02	-3.128000e+01	-5.062846e+00	-9.211387e+01	-8.718338e+00	-2.574494e+01	1.719884e+02
3.628344e+06	-2.672974e+01	1.737969e+02	-3.128023e+01	-5.061625e+00	-9.147709e+01	-2.104475e+01	-2.574404e+01	1.719932e+02
3.628375e+06	-2.673108e+01	1.737940e+02	-3.128047e+01	-5.060404e+00	-9.057074e+01	-3.134066e+01	-2.574315e+01	1.719980e+02
3.628406e+06	-2.673243e+01	1.737911e+02	-3.128070e+01	-5.059183e+00	-8.954634e+01	-3.956841e+01	-2.574225e+01	1.720028e+02
3.628438e+06	-2.673378e+01	1.737881e+02	-3.128094e+01	-5.057963e+00	-8.850329e+01	-4.604491e+01	-2.574135e+01	1.720076e+02
3.628469e+06	-2.673216e+01	1.737909e+02	-3.127912e+01	-5.062303e+00	-9.002227e+01	-3.689416e+01	-2.574137e+01	1.720173e+02
3.628500e+06	-2.673050e+01	1.737938e+02	-3.127727e+01	-5.066731e+00	-9.151532e+01	-2.351968e+01	-2.574140e+01	1.720270e+02
3.628531e+06	-2.672883e+01	1.737967e+02	-3.127542e+01	-5.071158e+00	-9.254508e+01	-5.504194e+00	-2.574143e+01	1.720368e+02
3.628562e+06	-2.672717e+01	1.737995e+02	-3.127357e+01	-5.075583e+00	-9.261117e+01	1.503584e+01	-2.574146e+01	1.720465e+02
3.628594e+06	-2.672550e+01	1.738024e+02	-3.127171e+01	-5.080006e+00	-9.167340e+01	3.353920e+01	-2.574149e+01	1.720562e+02
3.628625e+06	-2.672647e+01	1.737997e+02	-3.127341e+01	-5.066387e+00	-9.375525e+01	3.111306e+01	-2.574050e+01	1.720548e+02
3.628656e+06	-2.672746e+01	1.737969e+02	-3.127513e+01	-5.052617e+00	-9.650108e+01	2.661166e+01	-2.573951e+01	1.720533e+02
3.628688e+06	-2.672845e+01	1.737941e+02	-3.127685e+01	-5.038842e+00	-1.003568e+02	1.695033e+01	-2.573852e+01	1.720517e+02
3.628719e+06	-2.672944e+01	1.737914e+02	-3.127857e+01	-5.025062e+00	-1.058372e+02	-1.249902e+01	-2.573752e+01	1.720502e+02
3.628750e+06	-2.673043e+01	1.737886e+02	-3.128029e+01	-5.011276e+00	-1.058989e+02	-8.102882e+01	-2.573653e+01	1.720487e+02
3.628781e+06	-2.673097e+01	1.737892e+02	-3.128021e+01	-5.019799e+00	-1.133731e+02	-1.317230e+02	-2.573657e+01	1.720461e+02
3.628812e+06	-2.673150e+01	1.737898e+02	-3.128013e+01	-5.028321e+00	-1.078110e+02	1.536297e+02	-2.573661e+01	1.720434e+02
3.628844e+06	-2.673204e+01	1.737905e+02	-3.128006e+01	-5.036844e+00	-1.021060e+02	1.383488e+02	-2.573665e+01	1.720408e+02
3.628875e+06	-2.673258e+01	1.737911e+02	-3.127998e+01	-5.045366e+00	-9.854925e+01	1.331428e+02	-2.573669e+01	1.720381e+02
3.628906e+06	-2.673310e+01	1.737918e+02	-3.127990e+01	-5.053824e+00	-9.603667e+01	1.302153e+02	-2.573674e+01	1.720355e+02
3.628938e+06	-2.673186e+01	1.738015e+02	-3.127946e+01	-5.054380e+00	-9.483931e+01	8.602721e+01	-2.573789e+01	1.720391e+02
3.628969e+06	-2.673062e+01	1.738113e+02	-3.127903e+01	-5.054935e+00	-9.129792e+01	6.220315e+01	-2.573904e+01	1.720426e+02
3.629000e+06	-2.672938e+01	1.738210e+02	-3.127859e+01	-5.055490e+00	-8.826921e+01	5.127468e+01	-2.574019e+01	1.720462e+02
3.629031e+06	-2.672814e+01	1.738307e+02	-3.127816e+01	-5.056045e+00	-8.589721e+01	4.543162e+01	-2.574134e+01	1.720497e+02
3.629062e+06	-2.672690e+01	1.738404e+02	-3.127773e+01	-5.056600e+00	-8.399145e+01	4.186481e+01	-2.574249e+01	1.720532e+02
3.629094e+06	-2.672668e+01	1.738304e+02	-3.127699e+01	-5.056461e+00	-8.564972e+01	4.202855e+01	-2.574374e+01	1.720450e+02
3.629125e+06	-2.672648e+01	1.738201e+02	-3.127624e+01	-5.056311e+00	-8.778186e+01	4.235883e+01	-2.574499e+01	1.720365e+02
3.629156e+06	-2.672627e+01	1.738097e+02	-3.127550e+01	-5.056161e+00	-9.061310e+01	4.294368e+01	-2.574623e+01	1.720280e+02
3.629188e+06	-2.672607e+01	1.737993e+02	-3.127475e+01	-5.056010e+00	-9.483733e+01	4.426147e+01	-2.574748e+01	1.720195e+02
3.629219e+06	-2.672586e+01	1.737890e+02	-3.127401e+01	-5.055860e+00	-1.033346e+02	4.997108e+01	-2.574873e+01	1.720111e+02
3.629250e+06	-2.672692e+01	1.737856e+02	-3.127448e+01	-5.043538e+00	-1.000155e+02	3.562980e+01	-2.574831e+01	1.720149e+02
3.629281e+06	-2.672799e+01	1.737823e+02	-3.127496e+01	-5.031116e+00	-9.733626e+01	2.847477e+01	-2.574788e+01	1.720189e+02
3.629312e+06	-2.672906e+01	1.737790e+02	-3.127544e+01	-5.018693e+00	-9.522991e+01	2.435782e+01	-2.574745e+01	1.720228e+02
3.629344e+06	-2.673013e+01	1.737756e+02	-3.127592e+01	-5.006269e+00	-9.351222e+01	2.170838e+01	-2.574702e+01	1.720268e+02
3.629375e+06	-2.673120e+01	1.737723e+02	-3.127640e+01	-4.993843e+00	-9.206784e+01	1.986773e+01	-2.574659e+01	1.720307e+02
3.629406e+06	-2.673122e+01	1.737812e+02	-3.127613e+01	-4.996047e+00	-9.191856e+01	2.277047e+01	-2.574590e+01	1.720309e+02
3.629438e+06	-2.673125e+01	1.737902e+02	-3.127587e+01	-4.998251e+00	-9.175067e+01	2.556903e+01	-2.574520e+01	1.720311e+02
3.629469e+06	-2.673127e+01	1.737991e+02	-3.127560e+01	-5.000455e+00	-9.156644e+01	2.825634e+01	-2.574451e+01	1.720312e+02
3.629500e+06	-2.673130e+01	1.738080e+02	-3.127533e+01	-5.002658e+00	-9.136814e+01	3.082778e+01	-2.574382e+01	1.720314e+02
3.629531e+06	-2.673132e+01	1.738169e+02	-3.127508e+01	-5.004932e+00	-9.116967e+01	3.327582e+01	-2.574312e+01	1.720316e+02
3.629562e+06	-2.673085e+01	1.738146e+02	-3.127656e+01	-5.015950e+00	-9.251647e+01	3.531734e+01	-2.574243e+01	1.720283e+02
3.629594e+06	-2.673039e+01	1.738124e+02	-3.127803e+01	-5.026971e+00	-9.409257e+01	3.817616e+01	-2.574173e+01	1.720250e+02
3.629625e+06	-2.672993e+01	1.738101e+02	-3.127951e+01	-5.037996e+00	-9.597928e+01	4.243751e+01	-2.574103e+01	1.720217e+02
3.629656e+06	-2.672947e+01	1.738079e+02	-3.128098e+01	-5.049025e+00	-9.829010e+01	4.935710e+01	-2.574034e+01	1.720184e+02
3.629688e+06	-2.672901e+01	1.738056e+02	-3.128246e+01	-5.060057e+00	-1.011190e+02	6.193190e+01	-2.573964e+01	1.720151e+02
3.629719e+06	-2.672918e+01	1.738019e+02	-3.128177e+01	-5.032001e+00	-1.001286e+02	5.888535e+01	-2.574077e+01	1.720229e+02
3.629750e+06	-2.672935e+01	1.737981e+02	-3.128106e+01	-5.003313e+00	-9.916475e+01	5.620314e+01	-2.574194e+01	1.720310e+02
3.629781e+06	-2.672953e+01	1.737943e+02	-3.128033e+01	-4.974631e+00	-9.828336e+01	5.403455e+01	-2.574310e+01	1.720391e+02
3.629812e+06	-2.672971e+01	1.737905e+02	-3.127961e+01	-4.945953e+00	-9.747389e+01	5.224970e+01	-2.574426e+01	1.720472e+02
3.629844e+06	-2.672989e+01	1.737867e+02	-3.127889e+01	-4.917279e+00	-9.672700e+01	5.075772e+01	-2.574542e+01	1.720552e+02
3.629875e+06	-2.672964e+01	1.737970e+02	-3.127832e+01	-4.948856e+00	-9.695077e+01	4.015966e+01	-2.574576e+01	1.720598e+02
3.629906e+06	-2.672939e+01	1.738073e+02	-3.127776e+01	-4.980913e+00	-9.687539e+01	2.929277e+01	-2.574610e+01	1.720643e+02
3.629938e+06	-2.672914e+01	1.738177e+02	-3.127720e+01	-5.012967e+00	-9.650724e+01	1.897293e+01	-2.574644e+01	1.720688e+02
3.629969e+06	-2.672889e+01	1.738280e+02	-3.127663e+01	-5.045017e+00	-9.591258e+01	9.745919e+00	-2.574677e+01	1.720733e+02
3.630000e+06	-2.672864e+01	1.738384e+02	-3.127606e+01	-5.077062e+00	-9.517520e+01	1.839878e+00	-2.574711e+01	1.720778e+02
3.630031e+06	-2.672865e+01	1.738385e+02	-3.127699e+01	-5.059680e+00	-9.491626e+01	1.570803e+01	-2.574553e+01	1.720661e+02
3.630062e+06	-2.672866e+01	1.738386e+02	-3.127792e+01	-5.042295e+00	-9.422410e+01	2.811349e+01	-2.574394e+01	1.720544e+02
