# Hz S dB R 50.000
3.627031e+06	-2.674181e+01	1.735518e+02	-3.128569e+01	-4.582407e+00	-9.582988e+01	2.953859e+01	-2.583573e+01	1.719918e+02
3.627062e+06	-2.674085e+01	1.735454e+02	-3.128319e+01	-4.602436e+00	-9.432718e+01	4.338798e+01	-2.583469e+01	1.719907e+02
3.627094e+06	-2.673988e+01	1.735389e+02	-3.128070e+01	-4.622454e+00	-9.274120e+01	5.304443e+01	-2.583365e+01	1.719896e+02
3.627125e+06	-2.673892e+01	1.735325e+02	-3.127820e+01	-4.642460e+00	-9.125253e+01	5.980580e+01	-2.583261e+01	1.719885e+02
3.627156e+06	-2.673796e+01	1.735261e+02	-3.127570e+01	-4.662455e+00	-8.990675e+01	6.467916e+01	-2.583157e+01	1.719874e+02
3.627187e+06	-2.673699e+01	1.735197e+02	-3.127320e+01	-4.682439e+00	-8.870084e+01	6.831002e+01	-2.583052e+01	1.719863e+02
3.627218e+06	-2.673703e+01	1.735162e+02	-3.127522e+01	-4.666400e+00	-8.852441e+01	5.399374e+01	-2.583051e+01	1.719793e+02
3.627250e+06	-2.673709e+01	1.735128e+02	-3.127735e+01	-4.649468e+00	-8.786804e+01	4.057238e+01	-2.583052e+01	1.719721e+02
3.627281e+06	-2.673715e+01	1.735094e+02	-3.127948e+01	-4.632527e+00	-8.689146e+01	2.948358e+01	-2.583052e+01	1.719648e+02
3.627312e+06	-2.673721e+01	1.735060e+02	-3.128161e+01	-4.615578e+00	-8.578310e+01	2.078208e+01	-2.583053e+01	1.719576e+02
3.627344e+06	-2.673727e+01	1.735027e+02	-3.128375e+01	-4.598620e+00	-8.466217e+01	1.406075e+01	-2.583054e+01	1.719504e+02
3.627375e+06	-2.673764e+01	1.735117e+02	-3.128355e+01	-4.599463e+00	-8.656813e+01	2.053079e+01	-2.583131e+01	1.719585e+02
3.627406e+06	-2.673801e+01	1.735210e+02	-3.128331e+01	-4.600594e+00	-8.883664e+01	3.138101e+01	-2.583210e+01	1.719668e+02
3.627437e+06	-2.673839e+01	1.735303e+02	-3.128307e+01	-4.601726e+00	-9.116492e+01	5.001752e+01	-2.583289e+01	1.719751e+02
3.627468e+06	-2.673876e+01	1.735396e+02	-3.128283e+01	-4.602857e+00	-9.239185e+01	7.878071e+01	-2.583368e+01	1.719834e+02
3.627500e+06	-2.673914e+01	1.735489e+02	-3.128259e+01	-4.603989e+00	-9.129270e+01	1.080110e+02	-2.583446e+01	1.719917e+02
3.627531e+06	-2.673966e+01	1.735449e+02	-3.128278e+01	-4.598041e+00	-9.363620e+01	1.028668e+02	-2.583397e+01	1.719837e+02
3.627562e+06	-2.674018e+01	1.735409e+02	-3.128297e+01	-4.592036e+00	-9.670983e+01	9.276490e+01	-2.583346e+01	1.719754e+02
3.627594e+06	-2.674070e+01	1.735368e+02	-3.128317e+01	-4.586030e+00	-1.004828e+02	7.007159e+01	-2.583296e+01	1.719672e+02
3.627625e+06	-2.674122e+01	1.735327e+02	-3.128336e+01	-4.580024e+00	-1.021193e+02	2.408549e+01	-2.583246e+01	1.719590e+02
3.627656e+06	-2.674174e+01	1.735286e+02	-3.128355e+01	-4.574018e+00	-9.889277e+01	-1.270310e+01	-2.583195e+01	1.719508e+02
3.627687e+06	-2.674081e+01	1.735270e+02	-3.128359e+01	-4.590972e+00	-1.018753e+02	-2.843511e+01	-2.583175e+01	1.719578e+02
3.627718e+06	-2.673989e+01	1.735253e+02	-3.128362e+01	-4.607927e+00	-1.043959e+02	-5.915988e+01	-2.583154e+01	1.719649e+02
3.627750e+06	-2.673896e+01	1.735237e+02	-3.128366e+01	-4.624881e+00	-1.036386e+02	-9.790918e+01	-2.583134e+01	1.719719e+02
3.627781e+06	-2.673804e+01	1.735221e+02	-3.128369e+01	-4.641836e+00	-1.006701e+02	-1.219626e+02	-2.583114e+01	1.719789e+02
3.627812e+06	-2.673711e+01	1.735204e+02	-3.128373e+01	-4.658791e+00	-9.786071e+01	-1.340596e+02	-2.583093e+01	1.719859e+02
3.627844e+06	-2.673734e+01	1.735193e+02	-3.128560e+01	-4.647368e+00	-9.744475e+01	-1.190743e+02	-2.583118e+01	1.719813e+02
3.627875e+06	-2.673760e+01	1.735183e+02	-3.128752e+01	-4.635242e+00	-9.657060e+01	-1.055963e+02	-2.583143e+01	1.719764e+02
3.627906e+06	-2.673786e+01	1.735172e+02	-3.128944e+01	-4.623110e+00	-9.543028e+01	-9.494529e+01	-2.583169e+01	1.719714e+02
3.627937e+06	-2.673812e+01	1.735161e+02	-3.129136e+01	-4.610974e+00	-9.421916e+01	-8.684007e+01	-2.583194e+01	1.719665e+02
3.627968e+06	-2.673838e+01	1.735150e+02	-3.129328e+01	-4.598831e+00	-9.303983e+01	-8.069359e+01	-2.583220e+01	1.719616e+02
3.628000e+06	-2.673823e+01	1.735208e+02	-3.129192e+01	-4.600573e+00	-9.669099e+01	-9.807343e+01	-2.583164e+01	1.719621e+02
3.628031e+06	-2.673808e+01	1.735266e+02	-3.129051e+01	-4.602539e+00	-9.965672e+01	-1.389739e+02	-2.583108e+01	1.719627e+02
3.628062e+06	-2.673793e+01	1.735325e+02	-3.128910e+01	-4.604505e+00	-9.728696e+01	1.764988e+02	-2.583051e+01	1.719634e+02
3.628094e+06	-2.673777e+01	1.735383e+02	-3.128769e+01	-4.606471e+00	-9.346912e+01	1.563812e+02	-2.582995e+01	1.719640e+02
3.628125e+06	-2.673762e+01	1.735442e+02	-3.128628e+01	-4.608435e+00	-9.046950e+01	1.473543e+02	-2.582938e+01	1.719646e+02
3.628156e+06	-2.673783e+01	1.735405e+02	-3.128776e+01	-4.620753e+00	-9.176042e+01	1.639591e+02	-2.582965e+01	1.719738e+02
3.628187e+06	-2.673804e+01	1.735367e+02	-3.128927e+01	-4.633159e+00	-9.223798e+01	-1.752460e+02	-2.582993e+01	1.719831e+02
3.628218e+06	-2.673824e+01	1.735330e+02	-3.129078e+01	-4.645569e+00	-9.157302e+01	-1.549147e+02	-2.583020e+01	1.719924e+02
3.628250e+06	-2.673845e+01	1.735292e+02	-3.129228e+01	-4.657983e+00	-9.016271e+01	-1.390358e+02	-2.583048e+01	1.720017e+02
3.628281e+06	-2.673866e+01	1.735255e+02	-3.129379e+01	-4.670402e+00	-8.854316e+01	-1.279059e+02	-2.583075e+01	1.720110e+02
3.628312e+06	-2.673978e+01	1.735346e+02	-3.129457e+01	-4.666650e+00	-9.119555e+01	-1.176605e+02	-2.583082e+01	1.720095e+02
3.628344e+06	-2.674089e+01	1.735437e+02	-3.129535e+01	-4.662897e+00	-9.420717e+01	-9.769695e+01	-2.583090e+01	1.720081e+02
3.628375e+06	-2.674201e+01	1.735528e+02	-3.129612e+01	-4.659143e+00	-9.586383e+01	-6.193681e+01	-2.583097e+01	1.720066e+02
3.628406e+06	-2.674313e+01	1.735619e+02	-3.129690e+01	-4.655389e+00	-9.399858e+01	-2.714990e+01	-2.583104e+01	1.720052e+02
3.628437e+06	-2.674424e+01	1.735710e+02	-3.129768e+01	-4.651634e+00	-9.098702e+01	-8.159305e+00	-2.583112e+01	1.720037e+02
3.628468e+06	-2.674453e+01	1.735697e+02	-3.129539e+01	-4.649247e+00	-9.161423e+01	-5.964624e+00	-2.583125e+01	1.720036e+02
3.628500e+06	-2.674479e+01	1.735682e+02	-3.129303e+01	-4.646894e+00	-9.237802e+01	-3.684648e+00	-2.583139e+01	1.720035e+02
3.628531e+06	-2.674506e+01	1.735667e+02	-3.129066e+01	-4.644543e+00	-9.319732e+01	-9.485268e-01	-2.583152e+01	1.720034e+02
3.628562e+06	-2.674532e+01	1.735652e+02	-3.128830e+01	-4.642193e+00	-9.407531e+01	2.378675e+00	-2.583165e+01	1.720033e+02
3.628594e+06	-2.674559e+01	1.735637e+02	-3.128594e+01	-4.639845e+00	-9.501176e+01	6.480035e+00	-2.583179e+01	1.720032e+02
3.628625e+06	-2.674428e+01	1.735591e+02	-3.128706e+01	-4.645952e+00	-9.615478e+01	-1.350350e+01	-2.583249e+01	1.720052e+02
3.628656e+06	-2.674296e+01	1.735544e+02	-3.128825e+01	-4.652198e+00	-9.606419e+01	-3.662748e+01	-2.583320e+01	1.720072e+02
3.628687e+06	-2.674163e+01	1.735496e+02	-3.128943e+01	-4.658447e+00	-9.479672e+01	-5.625344e+01	-2.583392e+01	1.720092e+02
3.628718e+06	-2.674031e+01	1.735449e+02	-3.129062e+01	-4.664696e+00	-9.306248e+01	-7.000646e+01	-2.583463e+01	1.720113e+02
3.628750e+06	-2.673898e+01	1.735402e+02	-3.129180e+01	-4.670948e+00	-9.133451e+01	-7.918915e+01	-2.583534e+01	1.720133e+02
3.628781e+06	-2.673913e+01	1.735503e+02	-3.129159e+01	-4.660642e+00	-9.382579e+01	-7.000909e+01	-2.583442e+01	1.720130e+02
3.628812e+06	-2.673929e+01	1.735605e+02	-3.129137e+01	-4.650203e+00	-9.675204e+01	-5.240277e+01	-2.583348e+01	1.720127e+02
3.628844e+06	-2.673944e+01	1.735706e+02	-3.129115e+01	-4.639765e+00	-9.881611e+01	-1.990369e+01	-2.583254e+01	1.720125e+02
3.628875e+06	-2.673960e+01	1.735808e+02	-3.129093e+01	-4.629327e+00	-9.757795e+01	1.631595e+01	-2.583161e+01	1.720122e+02
3.628906e+06	-2.673976e+01	1.735910e+02	-3.129071e+01	-4.618890e+00	-9.466951e+01	3.782090e+01	-2.583067e+01	1.720119e+02
3.628937e+06	-2.674023e+01	1.735851e+02	-3.128967e+01	-4.603970e+00	-9.550919e+01	2.255373e+01	-2.583003e+01	1.720098e+02
3.628968e+06	-2.674070e+01	1.735792e+02	-3.128864e+01	-4.589053e+00	-9.567383e+01	5.360366e+00	-2.582938e+01	1.720076e+02
3.629000e+06	-2.674118e+01	1.735733e+02	-3.128760e+01	-4.574140e+00	-9.508857e+01	-1.099678e+01	-2.582874e+01	1.720055e+02
3.629031e+06	-2.674165e+01	1.735674e+02	-3.128656e+01	-4.559230e+00	-9.399643e+01	-2.442144e+01	-2.582809e+01	1.720034e+02
3.629062e+06	-2.674212e+01	1.735615e+02	-3.128552e+01	-4.544324e+00	-9.270389e+01	-3.458317e+01	-2.582745e+01	1.720013e+02
3.629094e+06	-2.674185e+01	1.735637e+02	-3.128702e+01	-4.553051e+00	-9.765625e+01	-3.749023e+01	-2.582874e+01	1.720087e+02
3.629125e+06	-2.674156e+01	1.735660e+02	-3.128858e+01	-4.562363e+00	-1.106168e+02	-5.987130e+01	-2.583008e+01	1.720164e+02
3.629156e+06	-2.674127e+01	1.735683e+02	-3.129013e+01	-4.571679e+00	-1.019684e+02	1.588514e+02	-2.583142e+01	1.720240e+02
3.629187e+06	-2.674098e+01	1.735706e+02	-3.129169e+01	-4.580998e+00	-9.473421e+01	1.530838e+02	-2.583276e+01	1.720317e+02
3.629218e+06	-2.674069e+01	1.735730e+02	-3.129325e+01	-4.590320e+00	-9.082724e+01	1.514870e+02	-2.583410e+01	1.720394e+02
3.629250e+06	-2.674068e+01	1.735742e+02	-3.129228e+01	-4.601365e+00	-9.274926e+01	1.427624e+02	-2.583308e+01	1.720375e+02
3.629281e+06	-2.674068e+01	1.735755e+02	-3.129128e+01	-4.612437e+00	-9.490817e+01	1.284283e+02	-2.583203e+01	1.720356e+02
3.629312e+06	-2.674067e+01	1.735768e+02	-3.129028e+01	-4.623505e+00	-9.661550e+01	1.056986e+02	-2.583098e+01	1.720336e+02
3.629344e+06	-2.674067e+01	1.735780e+02	-3.128928e+01	-4.634571e+00	-9.665529e+01	7.750381e+01	-2.582993e+01	1.720316e+02
3.629375e+06	-2.674066e+01	1.735793e+02	-3.128828e+01	-4.645635e+00	-9.498912e+01	5.443774e+01	-2.582888e+01	1.720296e+02
3.629406e+06	-2.673923e+01	1.735765e+02	-3.128876e+01	-4.630311e+00	-9.539041e+01	5.474473e+01	-2.582942e+01	1.720225e+02
3.629437e+06	-2.673779e+01	1.735738e+02	-3.128925e+01	-4.614773e+00	-9.583257e+01	5.525109e+01	-2.582997e+01	1.720154e+02
3.629468e+06	-2.673634e+01	1.735710e+02	-3.128975e+01	-4.599233e+00	-9.629765e+01	5.581319e+01	-2.583052e+01	1.720083e+02
3.629500e+06	-2.673490e+01	1.735682e+02	-3.129024e+01	-4.583691e+00	-9.678806e+01	5.644067e+01	-2.583108e+01	1.720012e+02
3.629531e+06	-2.673346e+01	1.735654e+02	-3.129073e+01	-4.568148e+00	-9.730658e+01	5.714543e+01	-2.583163e+01	1.719941e+02
3.629562e+06	-2.673433e+01	1.735554e+02	-3.129029e+01	-4.573880e+00	-9.397554e+01	4.879215e+01	-2.583180e+01	1.719975e+02
3.629594e+06	-2.673520e+01	1.735455e+02	-3.128984e+01	-4.579612e+00	-9.150211e+01	4.452148e+01	-2.583197e+01	1.720010e+02
3.629625e+06	-2.673606e+01	1.735355e+02	-3.128940e+01	-4.585344e+00	-8.955591e+01	4.195548e+01	-2.583214e+01	1.720044e+02
3.629656e+06	-2.673693e+01	1.735255e+02	-3.128895e+01	-4.591074e+00	-8.795731e+01	4.024965e+01	-2.583231e+01	1.720079e+02
3.629687e+06	-2.673780e+01	1.735155e+02	-3.128851e+01	-4.596804e+00	-8.660300e+01	3.903553e+01	-2.583249e+01	1.720113e+02
3.629718e+06	-2.673803e+01	1.735311e+02	-3.128923e+01	-4.590740e+00	-8.920070e+01	5.084923e+01	-2.583344e+01	1.720093e+02
3.629750e+06	-2.673825e+01	1.735472e+02	-3.128998e+01	-4.584385e+00	-9.198671e+01	7.393017e+01	-2.583441e+01	1.720072e+02
3.629781e+06	-2.673846e+01	1.735634e+02	-3.129072e+01	-4.578028e+00	-9.280663e+01	1.103550e+02	-2.583539e+01	1.720051e+02
3.629812e+06	-2.673867e+01	1.735796e+02	-3.129147e+01	-4.571670e+00	-9.057784e+01	1.406772e+02	-2.583636e+01	1.720030e+02
3.629844e+06	-2.673889e+01	1.735957e+02	-3.129222e+01	-4.565312e+00	-8.772852e+01	1.570188e+02	-2.583733e+01	1.720008e+02
3.629875e+06	-2.673852e+01	1.735875e+02	-3.129085e+01	-4.580224e+00	-8.850142e+01	1.501240e+02	-2.583632e+01	1.719974e+02
3.629906e+06	-2.673815e+01	1.735789e+02	-3.128944e+01	-4.595476e+00	-8.923698e+01	1.415117e+02	-2.583527e+01	1.719940e+02
3.629937e+06	-2.673778e+01	1.735702e+02	-3.128803e+01	-4.610724e+00	-8.979141e+01	1.315074e+02	-2.583422e+01	1.719906e+02
3.629968e+06	-2.673741e+01	1.735616e+02	-3.128662e+01	-4.625967e+00	-9.007239e+01	1.204809e+02	-2.583317e+01	1.719872e+02
3.630000e+06	-2.673703e+01	1.735530e+02	-3.128521e+01	-4.641205e+00	-9.002232e+01	1.091536e+02	-2.583212e+01	1.719837e+02
3.630031e+06	-2.673731e+01	1.735569e+02	-3.128348e+01	-4.634161e+00	-9.310258e+01	8.922522e+01	-2.583284e+01	1.719879e+02
3.630062e+06	-2.673759e+01	1.735610e+02	-3.128174e+01	-4.626940e+00	-9.485329e+01	5.258639e+01	-2.583357e+01	1.719922e+02
3.630094e+06	-2.673787e+01	1.735651e+02	-3.128000e+01	-4.619722e+00	-9.289405e+01	1.695190e+01	-2.583430e+01	1.719965e+02
3.630125e+06	-2.673815e+01	1.735691e+02	-3.127827e+01	-4.612507e+00	-8.979264e+01	-2.034714e+00	-2.583504e+01	1.720007e+02
3.630156e+06	-2.673843e+01	1.735732e+02	-3.127653e+01	-4.605295e+00	-8.713743e+01	-1.168846e+01	-2.583577e+01	1.720050e+02
3.630187e+06	-2.673930e+01	1.735781e+02	-3.127739e+01	-4.601381e+00	-8.808330e+01	-1.704051e+01	-2.583518e+01	1.720066e+02
3.630218e+06	-2.674016e+01	1.735830e+02	-3.127825e+01	-4.597465e+00	-8.903838e+01	-2.370729e+01	-2.583459e+01	1.720081e+02
3.630250e+06	-2.674103e+01	1.735879e+02	-3.127912e+01	-4.593549e+00	-8.994690e+01	-3.197958e+01	-2.583400e+01	1.720097e+02
3.630281e+06	-2.674189e+01	1.735928e+02	-3.127998e+01	-4.589633e+00	-9.071530e+01	-4.203016e+01	-2.583341e+01	1.720112e+02
3.630312e+06	-2.674276e+01	1.735977e+02	-3.128084e+01	-4.585715e+00	-9.121835e+01	-5.368572e+01	-2.583282e+01	1.720128e+02
3.630344e+06	-2.674159e+01	1.735872e+02	-3.128084e+01	-4.576275e+00	-9.253418e+01	-5.627103e+01	-2.583310e+01	1.720126e+02
3.630375e+06	-2.674036e+01	1.735763e+02	-3.128081e+01	-4.566700e+00	-9.409230e+01	-5.953647e+01	-2.583340e+01	1.720124e+02
3.630406e+06	-2.673914e+01	1.735654e+02	-3.128079e+01	-4.557124e+00	-9.594043e+01	-6.437301e+01	-2.583370e+01	1.720123e+02
3.630437e+06	-2.673791e+01	1.735545e+02	-3.128076e+01	-4.547549e+00	-9.816159e+01	-7.211417e+01	-2.583400e+01	1.720121e+02
3.630468e+06	-2.673669e+01	1.735436e+02	-3.128074e+01	-4.537973e+00	-1.007643e+02	-8.568941e+01	-2.583431e+01	1.720119e+02
3.630500e+06	-2.673659e+01	1.735454e+02	-3.128085e+01	-4.557861e+00	-9.949029e+01	-8.818125e+01	-2.583374e+01	1.720137e+02
3.630531e+06	-2.673651e+01	1.735474e+02	-3.128097e+01	-4.578229e+00	-9.832068e+01	-8.986021e+01	-2.583316e+01	1.720155e+02
3.630562e+06	-2.673642e+01	1.735494e+02	-3.128108e+01	-4.598597e+00	-9.728489e+01	-9.116262e+01	-2.583258e+01	1.720173e+02
3.630594e+06	-2.673634e+01	1.735515e+02	-3.128119e+01	-4.618965e+00	-9.635635e+01	-9.220139e+01	-2.583200e+01	1.720191e+02
3.630625e+06	-2.673626e+01	1.735535e+02	-3.128130e+01	-4.639334e+00	-9.551545e+01	-9.304869e+01	-2.583141e+01	1.720209e+02
3.630656e+06	-2.673683e+01	1.735559e+02	-3.127949e+01	-4.647633e+00	-1.030398e+02	-9.061249e+01	-2.583263e+01	1.720107e+02
3.630687e+06	-2.673741e+01	1.735582e+02	-3.127767e+01	-4.655832e+00	-1.109563e+02	7.465334e+01	-2.583387e+01	1.720005e+02
3.630718e+06	-2.673799e+01	1.735606e+02	-3.127585e+01	-4.664026e+00	-9.798666e+01	8.282567e+01	-2.583510e+01	1.719902e+02
3.630750e+06	-2.673857e+01	1.735630e+02	-3.127403e+01	-4.672218e+00	-9.298846e+01	8.385487e+01	-2.583634e+01	1.719800e+02
3.630781e+06	-2.673915e+01	1.735654e+02	-3.127221e+01	-4.680406e+00	-8.983528e+01	8.425751e+01	-2.583757e+01	1.719697e+02
3.630812e+06	-2.673910e+01	1.735699e+02	-3.127360e+01	-4.668743e+00	-9.071562e+01	8.288326e+01	-2.583495e+01	1.719823e+02
3.630844e+06	-2.673905e+01	1.735743e+02	-3.127500e+01	-4.657077e+00	-9.168844e+01	8.118211e+01	-2.583232e+01	1.719949e+02
3.630875e+06	-2.673900e+01	1.735788e+02	-3.127639e+01	-4.645407e+00	-9.277310e+01	7.902606e+01	-2.582970e+01	1.720075e+02
3.630906e+06	-2.673895e+01	1.735832e+02	-3.127778e+01	-4.633733e+00	-9.399431e+01	7.621402e+01	-2.582708e+01	1.720200e+02
3.630937e+06	-2.673890e+01	1.735877e+02	-3.127918e+01	-4.622055e+00	-9.538248e+01	7.241531e+01	-2.582445e+01	1.720326e+02
3.630968e+06	-2.673748e+01	1.735914e+02	-3.127935e+01	-4.624074e+00	-9.389325e+01	7.218504e+01	-2.582635e+01	1.720291e+02
3.631000e+06	-2.673602e+01	1.735951e+02	-3.127950e+01	-4.626431e+00	-9.256692e+01	7.209433e+01	-2.582837e+01	1.720253e+02
3.631031e+06	-2.673457e+01	1.735988e+02	-3.127965e+01	-4.628787e+00	-9.141654e+01	7.202612e+01	-2.583038e+01	1.720215e+02
3.631062e+06	-2.673311e+01	1.736025e+02	-3.127979e+01	-4.631143e+00	-9.040084e+01	7.197296e+01	-2.583239e+01	1.720176e+02
3.631094e+06	-2.673165e+01	1.736061e+02	-3.127994e+01	-4.633499e+00	-8.949157e+01	7.193037e+01	-2.583441e+01	1.720138e+02
3.631125e+06	-2.673226e+01	1.736012e+02	-3.127912e+01	-4.633121e+00	-8.990630e+01	7.532276e+01	-2.583471e+01	1.720102e+02
3.631156e+06	-2.673289e+01	1.735961e+02	-3.127829e+01	-4.632698e+00	-9.032832e+01	7.912623e+01	-2.583499e+01	1.720066e+02
3.631187e+06	-2.673353e+01	1.735910e+02	-3.127747e+01	-4.632275e+00	-9.072764e+01	8.330757e+01	-2.583526e+01	1.720031e+02
3.631218e+06	-2.673417e+01	1.735859e+02	-3.127664e+01	-4.631853e+00	-9.109322e+01	8.787460e+01	-2.583554e+01	1.719995e+02
3.631250e+06	-2.673480e+01	1.735808e+02	-3.127581e+01	-4.631430e+00	-9.141250e+01	9.281720e+01	-2.583582e+01	1.719959e+02
3.631281e+06	-2.673509e+01	1.735769e+02	-3.127532e+01	-4.617420e+00	-9.313626e+01	7.563026e+01	-2.583419e+01	1.720025e+02
3.631312e+06	-2.673538e+01	1.735729e+02	-3.127484e+01	-4.603302e+00	-9.395406e+01	5.205575e+01	-2.583256e+01	1.720091e+02
3.631344e+06	-2.673566e+01	1.735690e+02	-3.127436e+01	-4.589185e+00	-9.323860e+01	2.818456e+01	-2.583092e+01	1.720157e+02
3.631375e+06	-2.673595e+01	1.735650e+02	-3.127388e+01	-4.575070e+00	-9.153744e+01	1.034242e+01	-2.582928e+01	1.720224e+02
3.631406e+06	-2.673623e+01	1.735611e+02	-3.127340e+01	-4.560956e+00	-8.964665e+01	-1.347863e+00	-2.582764e+01	1.720290e+02
3.631437e+06	-2.673622e+01	1.735605e+02	-3.127443e+01	-4.570081e+00	-8.996610e+01	1.220574e+01	-2.582937e+01	1.720293e+02
3.631468e+06	-2.673620e+01	1.735599e+02	-3.127547e+01	-4.579209e+00	-8.978722e+01	2.598480e+01	-2.583109e+01	1.720296e+02
3.631500e+06	-2.673619e+01	1.735594e+02	-3.127650e+01	-4.588339e+00	-8.916535e+01	3.852960e+01	-2.583282e+01	1.720299e+02
3.631531e+06	-2.673617e+01	1.735588e+02	-3.127753e+01	-4.597471e+00	-8.825976e+01	4.902615e+01	-2.583455e+01	1.720302e+02
3.631562e+06	-2.673616e+01	1.735582e+02	-3.127857e+01	-4.606605e+00	-8.722812e+01	5.740729e+01	-2.583628e+01	1.720305e+02
3.631594e+06	-2.673552e+01	1.735553e+02	-3.127794e+01	-4.612335e+00	-8.845494e+01	5.676978e+01	-2.583563e+01	1.720329e+02
3.631625e+06	-2.673486e+01	1.735524e+02	-3.127726e+01	-4.617982e+00	-8.995482e+01	5.562344e+01	-2.583492e+01	1.720354e+02
3.631656e+06	-2.673420e+01	1.735494e+02	-3.127659e+01	-4.623627e+00	-9.176262e+01	5.394568e+01	-2.583421e+01	1.720380e+02
3.631687e+06	-2.673355e+01	1.735465e+02	-3.127592e+01	-4.629271e+00	-9.403283e+01	5.126202e+01	-2.583350e+01	1.720405e+02
3.631718e+06	-2.673289e+01	1.735435e+02	-3.127525e+01	-4.634915e+00	-9.706478e+01	4.631645e+01	-2.583279e+01	1.720430e+02
3.631750e+06	-2.673438e+01	1.735568e+02	-3.127410e+01	-4.626588e+00	-9.669029e+01	3.672733e+01	-2.583475e+01	1.720335e+02
3.631781e+06	-2.673591e+01	1.735703e+02	-3.127294e+01	-4.618036e+00	-9.606728e+01	2.820584e+01	-2.583676e+01	1.720238e+02
3.631812e+06	-2.673744e+01	1.735838e+02	-3.127178e+01	-4.609487e+00	-9.533257e+01	2.092475e+01	-2.583876e+01	1.720141e+02
3.631844e+06	-2.673896e+01	1.735973e+02	-3.127062e+01	-4.600940e+00	-9.454644e+01	1.481803e+01	-2.584077e+01	1.720044e+02
3.631875e+06	-2.674049e+01	1.736108e+02	-3.126946e+01	-4.592395e+00	-9.374998e+01	9.731448e+00	-2.584277e+01	1.719947e+02
3.631906e+06	-2.674071e+01	1.736063e+02	-3.127124e+01	-4.598309e+00	-9.464024e+01	1.904022e+01	-2.584253e+01	1.719979e+02
3.631937e+06	-2.674092e+01	1.736016e+02	-3.127305e+01	-4.604342e+00	-9.533400e+01	3.037817e+01	-2.584227e+01	1.720011e+02
3.631968e+06	-2.674112e+01	1.735969e+02	-3.127486e+01	-4.610377e+00	-9.567178e+01	4.316863e+01	-2.584201e+01	1.720044e+02
3.632000e+06	-2.674133e+01	1.735923e+02	-3.127666e+01	-4.616415e+00	-9.556262e+01	5.630624e+01	-2.584175e+01	1.720077e+02
3.632031e+06	-2.674154e+01	1.735876e+02	-3.127847e+01	-4.622455e+00	-9.503753e+01	6.850392e+01	-2.584149e+01	1.720110e+02
3.632062e+06	-2.674114e+01	1.735847e+02	-3.127721e+01	-4.621159e+00	-9.607871e+01	5.299561e+01	-2.583991e+01	1.720159e+02
3.632094e+06	-2.674074e+01	1.735817e+02	-3.127595e+01	-4.619863e+00	-9.641403e+01	3.473780e+01	-2.583832e+01	1.720208e+02
