# Hz S dB R 50.000
3.625625e+06	-2.673341e+01	1.736541e+02	-3.124387e+01	-4.637666e+00	-1.008798e+02	4.074430e+01	-2.576834e+01	1.719433e+02
3.625656e+06	-2.673286e+01	1.736536e+02	-3.124474e+01	-4.664568e+00	-9.902732e+01	4.134814e+01	-2.576933e+01	1.719464e+02
3.625688e+06	-2.673230e+01	1.736531e+02	-3.124561e+01	-4.691475e+00	-9.750077e+01	4.175737e+01	-2.577032e+01	1.719494e+02
3.625719e+06	-2.673175e+01	1.736526e+02	-3.124647e+01	-4.718387e+00	-9.620256e+01	4.205299e+01	-2.577131e+01	1.719525e+02
3.625750e+06	-2.673119e+01	1.736521e+02	-3.124734e+01	-4.745305e+00	-9.507323e+01	4.227653e+01	-2.577230e+01	1.719556e+02
3.625781e+06	-2.673065e+01	1.736516e+02	-3.124821e+01	-4.772101e+00	-9.408904e+01	4.246543e+01	-2.577328e+01	1.719586e+02
3.625812e+06	-2.673158e+01	1.736537e+02	-3.125039e+01	-4.783075e+00	-9.508775e+01	4.459995e+01	-2.577306e+01	1.719551e+02
3.625844e+06	-2.673252e+01	1.736559e+02	-3.125258e+01	-4.794055e+00	-9.619890e+01	4.732174e+01	-2.577284e+01	1.719517e+02
3.625875e+06	-2.673345e+01	1.736580e+02	-3.125476e+01	-4.805041e+00	-9.744357e+01	5.089252e+01	-2.577262e+01	1.719482e+02
3.625906e+06	-2.673439e+01	1.736601e+02	-3.125695e+01	-4.816032e+00	-9.884286e+01	5.573646e+01	-2.577240e+01	1.719448e+02
3.625938e+06	-2.673533e+01	1.736623e+02	-3.125914e+01	-4.827028e+00	-1.004060e+02	6.255712e+01	-2.577218e+01	1.719414e+02
3.625969e+06	-2.673482e+01	1.736650e+02	-3.126108e+01	-4.820764e+00	-1.020563e+02	9.082762e+01	-2.577147e+01	1.719479e+02
3.626000e+06	-2.673428e+01	1.736677e+02	-3.126302e+01	-4.814217e+00	-1.012293e+02	1.225200e+02	-2.577076e+01	1.719547e+02
3.626031e+06	-2.673375e+01	1.736705e+02	-3.126496e+01	-4.807666e+00	-9.884334e+01	1.437995e+02	-2.577004e+01	1.719614e+02
3.626062e+06	-2.673322e+01	1.736732e+02	-3.126689e+01	-4.801113e+00	-9.642466e+01	1.558472e+02	-2.576932e+01	1.719682e+02
3.626094e+06	-2.673268e+01	1.736760e+02	-3.126883e+01	-4.794556e+00	-9.435136e+01	1.629959e+02	-2.576861e+01	1.719749e+02
3.626125e+06	-2.673260e+01	1.736686e+02	-3.126908e+01	-4.804712e+00	-9.248283e+01	1.555779e+02	-2.576886e+01	1.719653e+02
3.626156e+06	-2.673251e+01	1.736612e+02	-3.126931e+01	-4.815003e+00	-9.086132e+01	1.505430e+02	-2.576912e+01	1.719556e+02
3.626188e+06	-2.673243e+01	1.736537e+02	-3.126955e+01	-4.825294e+00	-8.945500e+01	1.469924e+02	-2.576939e+01	1.719459e+02
3.626219e+06	-2.673234e+01	1.736463e+02	-3.126978e+01	-4.835586e+00	-8.822356e+01	1.443724e+02	-2.576965e+01	1.719361e+02
3.626250e+06	-2.673226e+01	1.736388e+02	-3.127001e+01	-4.845878e+00	-8.713294e+01	1.423673e+02	-2.576991e+01	1.719264e+02
3.626281e+06	-2.673241e+01	1.736460e+02	-3.126957e+01	-4.841292e+00	-8.872720e+01	1.344822e+02	-2.576992e+01	1.719324e+02
3.626312e+06	-2.673256e+01	1.736532e+02	-3.126913e+01	-4.836706e+00	-9.038243e+01	1.229787e+02	-2.576992e+01	1.719385e+02
3.626344e+06	-2.673271e+01	1.736604e+02	-3.126869e+01	-4.832120e+00	-9.180054e+01	1.064744e+02	-2.576993e+01	1.719445e+02
3.626375e+06	-2.673286e+01	1.736676e+02	-3.126826e+01	-4.827535e+00	-9.240141e+01	8.547081e+01	-2.576993e+01	1.719506e+02
3.626406e+06	-2.673300e+01	1.736747e+02	-3.126783e+01	-4.823076e+00	-9.181138e+01	6.468226e+01	-2.576994e+01	1.719566e+02
3.626438e+06	-2.673227e+01	1.736717e+02	-3.126938e+01	-4.834259e+00	-9.115973e+01	7.372397e+01	-2.577053e+01	1.719512e+02
3.626469e+06	-2.673154e+01	1.736687e+02	-3.127093e+01	-4.845446e+00	-9.038280e+01	8.138544e+01	-2.577112e+01	1.719458e+02
3.626500e+06	-2.673081e+01	1.736658e+02	-3.127247e+01	-4.856637e+00	-8.955100e+01	8.774568e+01	-2.577171e+01	1.719404e+02
3.626531e+06	-2.673007e+01	1.736628e+02	-3.127402e+01	-4.867832e+00	-8.871112e+01	9.298896e+01	-2.577229e+01	1.719350e+02
3.626562e+06	-2.672934e+01	1.736598e+02	-3.127557e+01	-4.879031e+00	-8.789037e+01	9.731788e+01	-2.577288e+01	1.719296e+02
3.626594e+06	-2.672979e+01	1.736584e+02	-3.127358e+01	-4.888425e+00	-8.857926e+01	8.782433e+01	-2.577209e+01	1.719317e+02
3.626625e+06	-2.673026e+01	1.736570e+02	-3.127154e+01	-4.897785e+00	-8.904681e+01	7.669458e+01	-2.577128e+01	1.719339e+02
3.626656e+06	-2.673073e+01	1.736556e+02	-3.126949e+01	-4.907140e+00	-8.917085e+01	6.476924e+01	-2.577046e+01	1.719361e+02
3.626688e+06	-2.673121e+01	1.736541e+02	-3.126745e+01	-4.916491e+00	-8.892185e+01	5.301669e+01	-2.576965e+01	1.719383e+02
3.626719e+06	-2.673168e+01	1.736527e+02	-3.126541e+01	-4.925838e+00	-8.835736e+01	4.232787e+01	-2.576884e+01	1.719405e+02
3.626750e+06	-2.673175e+01	1.736587e+02	-3.126666e+01	-4.899690e+00	-8.890910e+01	4.088610e+01	-2.576994e+01	1.719397e+02
3.626781e+06	-2.673183e+01	1.736648e+02	-3.126793e+01	-4.873248e+00	-8.950346e+01	3.931824e+01	-2.577107e+01	1.719388e+02
3.626812e+06	-2.673190e+01	1.736709e+02	-3.126920e+01	-4.846798e+00	-9.013343e+01	3.751298e+01	-2.577219e+01	1.719380e+02
3.626844e+06	-2.673198e+01	1.736769e+02	-3.127047e+01	-4.820340e+00	-9.080187e+01	3.541652e+01	-2.577332e+01	1.719371e+02
3.626875e+06	-2.673205e+01	1.736830e+02	-3.127174e+01	-4.793875e+00	-9.151126e+01	3.295947e+01	-2.577444e+01	1.719363e+02
3.626906e+06	-2.673223e+01	1.736868e+02	-3.127470e+01	-4.816621e+00	-9.485719e+01	3.203027e+01	-2.577309e+01	1.719364e+02
3.626938e+06	-2.673241e+01	1.736906e+02	-3.127766e+01	-4.839383e+00	-1.003586e+02	2.945632e+01	-2.577174e+01	1.719365e+02
3.626969e+06	-2.673260e+01	1.736944e+02	-3.128062e+01	-4.862161e+00	-1.171219e+02	-6.196153e+00	-2.577039e+01	1.719367e+02
3.627000e+06	-2.673278e+01	1.736981e+02	-3.128358e+01	-4.884954e+00	-1.024876e+02	-1.380569e+02	-2.576905e+01	1.719368e+02
3.627031e+06	-2.673296e+01	1.737019e+02	-3.128650e+01	-4.907632e+00	-9.597976e+01	-1.419704e+02	-2.576772e+01	1.719369e+02
3.627062e+06	-2.673347e+01	1.737020e+02	-3.128493e+01	-4.914188e+00	-9.692531e+01	-1.721169e+02	-2.576888e+01	1.719412e+02
3.627094e+06	-2.673397e+01	1.737021e+02	-3.128336e+01	-4.920741e+00	-9.550624e+01	1.594867e+02	-2.577003e+01	1.719455e+02
3.627125e+06	-2.673447e+01	1.737023e+02	-3.128180e+01	-4.927292e+00	-9.311846e+01	1.416196e+02	-2.577119e+01	1.719498e+02
3.627156e+06	-2.673498e+01	1.737024e+02	-3.128023e+01	-4.933841e+00	-9.085239e+01	1.312762e+02	-2.577234e+01	1.719540e+02
3.627188e+06	-2.673548e+01	1.737025e+02	-3.127867e+01	-4.940387e+00	-8.891536e+01	1.249224e+02	-2.577350e+01	1.719583e+02
3.627219e+06	-2.673513e+01	1.737015e+02	-3.128051e+01	-4.932997e+00	-9.234108e+01	1.230171e+02	-2.577427e+01	1.719575e+02
3.627250e+06	-2.673476e+01	1.737005e+02	-3.128241e+01	-4.925378e+00	-9.824499e+01	1.175646e+02	-2.577504e+01	1.719566e+02
3.627281e+06	-2.673440e+01	1.736995e+02	-3.128431e+01	-4.917754e+00	-1.126307e+02	3.831993e+01	-2.577580e+01	1.719557e+02
3.627312e+06	-2.673403e+01	1.736984e+02	-3.128621e+01	-4.910128e+00	-9.823094e+01	-4.044763e+01	-2.577657e+01	1.719548e+02
3.627344e+06	-2.673366e+01	1.736974e+02	-3.128811e+01	-4.902498e+00	-9.233386e+01	-4.588683e+01	-2.577733e+01	1.719539e+02
3.627375e+06	-2.673418e+01	1.736971e+02	-3.128697e+01	-4.894539e+00	-9.548441e+01	-3.187813e+01	-2.577591e+01	1.719498e+02
3.627406e+06	-2.673470e+01	1.736968e+02	-3.128580e+01	-4.886580e+00	-9.866619e+01	-1.303506e+00	-2.577446e+01	1.719457e+02
3.627438e+06	-2.673522e+01	1.736965e+02	-3.128464e+01	-4.878622e+00	-9.820094e+01	4.275808e+01	-2.577302e+01	1.719415e+02
3.627469e+06	-2.673575e+01	1.736962e+02	-3.128347e+01	-4.870667e+00	-9.482845e+01	6.931338e+01	-2.577157e+01	1.719374e+02
3.627500e+06	-2.673627e+01	1.736959e+02	-3.128230e+01	-4.862714e+00	-9.174646e+01	8.159043e+01	-2.577013e+01	1.719333e+02
3.627531e+06	-2.673533e+01	1.736951e+02	-3.128272e+01	-4.869491e+00	-9.360269e+01	7.395870e+01	-2.577084e+01	1.719422e+02
3.627562e+06	-2.673439e+01	1.736942e+02	-3.128314e+01	-4.876268e+00	-9.564999e+01	6.194430e+01	-2.577155e+01	1.719510e+02
3.627594e+06	-2.673345e+01	1.736934e+02	-3.128356e+01	-4.883046e+00	-9.752113e+01	4.286818e+01	-2.577226e+01	1.719599e+02
3.627625e+06	-2.673250e+01	1.736925e+02	-3.128397e+01	-4.889824e+00	-9.822963e+01	1.677441e+01	-2.577297e+01	1.719687e+02
3.627656e+06	-2.673158e+01	1.736917e+02	-3.128440e+01	-4.896600e+00	-9.716062e+01	-7.741385e+00	-2.577367e+01	1.719775e+02
3.627688e+06	-2.673262e+01	1.736908e+02	-3.128502e+01	-4.902950e+00	-9.481572e+01	1.852452e+01	-2.577379e+01	1.719737e+02
3.627719e+06	-2.673366e+01	1.736899e+02	-3.128565e+01	-4.909301e+00	-9.215705e+01	3.292837e+01	-2.577391e+01	1.719699e+02
3.627750e+06	-2.673469e+01	1.736891e+02	-3.128628e+01	-4.915653e+00	-8.987955e+01	4.102927e+01	-2.577403e+01	1.719662e+02
3.627781e+06	-2.673573e+01	1.736882e+02	-3.128691e+01	-4.922006e+00	-8.798969e+01	4.603272e+01	-2.577415e+01	1.719624e+02
3.627812e+06	-2.673677e+01	1.736873e+02	-3.128754e+01	-4.928360e+00	-8.640134e+01	4.938280e+01	-2.577427e+01	1.719587e+02
3.627844e+06	-2.673452e+01	1.736865e+02	-3.128792e+01	-4.919430e+00	-8.735239e+01	4.113468e+01	-2.577327e+01	1.719560e+02
3.627875e+06	-2.673221e+01	1.736857e+02	-3.128830e+01	-4.910250e+00	-8.820797e+01	3.070961e+01	-2.577225e+01	1.719534e+02
3.627906e+06	-2.672990e+01	1.736850e+02	-3.128867e+01	-4.901070e+00	-8.878022e+01	1.839500e+01	-2.577123e+01	1.719508e+02
3.627938e+06	-2.672759e+01	1.736842e+02	-3.128905e+01	-4.891889e+00	-8.892713e+01	4.998440e+00	-2.577022e+01	1.719481e+02
3.627969e+06	-2.672528e+01	1.736834e+02	-3.128943e+01	-4.882706e+00	-8.860548e+01	-8.126490e+00	-2.576920e+01	1.719455e+02
3.628000e+06	-2.672725e+01	1.736798e+02	-3.128891e+01	-4.887357e+00	-8.972750e+01	-7.884100e+00	-2.577077e+01	1.719498e+02
3.628031e+06	-2.672925e+01	1.736761e+02	-3.128838e+01	-4.892119e+00	-9.103272e+01	-7.427112e+00	-2.577237e+01	1.719542e+02
3.628062e+06	-2.673125e+01	1.736725e+02	-3.128786e+01	-4.896881e+00	-9.256844e+01	-6.793306e+00	-2.577396e+01	1.719585e+02
3.628094e+06	-2.673326e+01	1.736688e+02	-3.128733e+01	-4.901642e+00	-9.443333e+01	-5.855750e+00	-2.577555e+01	1.719628e+02
3.628125e+06	-2.673526e+01	1.736652e+02	-3.128681e+01	-4.906402e+00	-9.680630e+01	-4.328458e+00	-2.577715e+01	1.719672e+02
3.628156e+06	-2.673446e+01	1.736671e+02	-3.128734e+01	-4.904703e+00	-9.854864e+01	1.315788e+01	-2.577595e+01	1.719662e+02
3.628188e+06	-2.673365e+01	1.736689e+02	-3.128788e+01	-4.903004e+00	-9.935269e+01	3.691373e+01	-2.577475e+01	1.719652e+02
3.628219e+06	-2.673285e+01	1.736708e+02	-3.128841e+01	-4.901305e+00	-9.860738e+01	6.084082e+01	-2.577355e+01	1.719643e+02
3.628250e+06	-2.673205e+01	1.736727e+02	-3.128894e+01	-4.899605e+00	-9.688514e+01	7.861559e+01	-2.577235e+01	1.719633e+02
3.628281e+06	-2.673125e+01	1.736745e+02	-3.128948e+01	-4.897924e+00	-9.504192e+01	9.012268e+01	-2.577116e+01	1.719623e+02
3.628312e+06	-2.673156e+01	1.736725e+02	-3.129042e+01	-4.898498e+00	-1.029111e+02	8.229989e+01	-2.577123e+01	1.719592e+02
3.628344e+06	-2.673187e+01	1.736704e+02	-3.129136e+01	-4.899072e+00	-1.078990e+02	-6.096938e+01	-2.577130e+01	1.719561e+02
3.628375e+06	-2.673218e+01	1.736684e+02	-3.129230e+01	-4.899647e+00	-9.681119e+01	-7.820538e+01	-2.577138e+01	1.719530e+02
3.628406e+06	-2.673249e+01	1.736664e+02	-3.129324e+01	-4.900221e+00	-9.202272e+01	-8.093573e+01	-2.577145e+01	1.719499e+02
3.628438e+06	-2.673280e+01	1.736643e+02	-3.129417e+01	-4.900796e+00	-8.894817e+01	-8.203963e+01	-2.577152e+01	1.719467e+02
3.628469e+06	-2.673207e+01	1.736648e+02	-3.129170e+01	-4.899281e+00	-8.966726e+01	-8.241088e+01	-2.577098e+01	1.719524e+02
3.628500e+06	-2.673133e+01	1.736654e+02	-3.128916e+01	-4.897733e+00	-9.051450e+01	-8.284979e+01	-2.577043e+01	1.719583e+02
3.628531e+06	-2.673059e+01	1.736659e+02	-3.128663e+01	-4.896185e+00	-9.145270e+01	-8.338887e+01	-2.576988e+01	1.719641e+02
3.628562e+06	-2.672985e+01	1.736665e+02	-3.128410e+01	-4.894639e+00	-9.250356e+01	-8.406668e+01	-2.576933e+01	1.719699e+02
3.628594e+06	-2.672911e+01	1.736670e+02	-3.128157e+01	-4.893093e+00	-9.369747e+01	-8.494439e+01	-2.576878e+01	1.719758e+02
3.628625e+06	-2.673019e+01	1.736736e+02	-3.128283e+01	-4.903871e+00	-9.560285e+01	-8.626761e+01	-2.576971e+01	1.719727e+02
3.628656e+06	-2.673129e+01	1.736803e+02	-3.128412e+01	-4.914751e+00	-9.804282e+01	-8.845178e+01	-2.577065e+01	1.719695e+02
3.628688e+06	-2.673239e+01	1.736870e+02	-3.128542e+01	-4.925635e+00	-1.014118e+02	-9.271784e+01	-2.577158e+01	1.719664e+02
3.628719e+06	-2.673349e+01	1.736937e+02	-3.128671e+01	-4.936522e+00	-1.067403e+02	-1.043997e+02	-2.577252e+01	1.719632e+02
3.628750e+06	-2.673459e+01	1.737004e+02	-3.128800e+01	-4.947412e+00	-1.142734e+02	-1.672905e+02	-2.577346e+01	1.719601e+02
3.628781e+06	-2.673297e+01	1.736986e+02	-3.128670e+01	-4.940234e+00	-1.045197e+02	1.747628e+02	-2.577374e+01	1.719694e+02
3.628812e+06	-2.673135e+01	1.736968e+02	-3.128540e+01	-4.933058e+00	-9.994408e+01	1.713693e+02	-2.577402e+01	1.719786e+02
3.628844e+06	-2.672973e+01	1.736950e+02	-3.128409e+01	-4.925884e+00	-9.695374e+01	1.699498e+02	-2.577430e+01	1.719879e+02
3.628875e+06	-2.672812e+01	1.736932e+02	-3.128279e+01	-4.918712e+00	-9.473116e+01	1.691709e+02	-2.577458e+01	1.719971e+02
3.628906e+06	-2.672652e+01	1.736913e+02	-3.128150e+01	-4.911533e+00	-9.299346e+01	1.687314e+02	-2.577487e+01	1.720063e+02
3.628938e+06	-2.672798e+01	1.736813e+02	-3.128164e+01	-4.903106e+00	-9.558928e+01	1.770693e+02	-2.577599e+01	1.720040e+02
3.628969e+06	-2.672944e+01	1.736712e+02	-3.128179e+01	-4.894678e+00	-9.876149e+01	-1.665683e+02	-2.577711e+01	1.720017e+02
3.629000e+06	-2.673089e+01	1.736612e+02	-3.128193e+01	-4.886251e+00	-1.013888e+02	-1.332519e+02	-2.577822e+01	1.719995e+02
3.629031e+06	-2.673235e+01	1.736511e+02	-3.128207e+01	-4.877823e+00	-1.002229e+02	-9.271727e+01	-2.577934e+01	1.719972e+02
3.629062e+06	-2.673381e+01	1.736411e+02	-3.128222e+01	-4.869395e+00	-9.698760e+01	-6.966603e+01	-2.578046e+01	1.719949e+02
3.629094e+06	-2.673269e+01	1.736512e+02	-3.128152e+01	-4.879449e+00	-9.986347e+01	-7.886985e+01	-2.577872e+01	1.719897e+02
3.629125e+06	-2.673152e+01	1.736617e+02	-3.128082e+01	-4.889802e+00	-1.035356e+02	-9.976572e+01	-2.577693e+01	1.719844e+02
3.629156e+06	-2.673036e+01	1.736722e+02	-3.128011e+01	-4.900153e+00	-1.055697e+02	-1.432366e+02	-2.577514e+01	1.719791e+02
3.629188e+06	-2.672919e+01	1.736826e+02	-3.127940e+01	-4.910502e+00	-1.027176e+02	1.779966e+02	-2.577335e+01	1.719737e+02
3.629219e+06	-2.672803e+01	1.736931e+02	-3.127870e+01	-4.920850e+00	-9.915216e+01	1.605937e+02	-2.577156e+01	1.719684e+02
3.629250e+06	-2.672812e+01	1.736872e+02	-3.128043e+01	-4.910466e+00	-1.020942e+02	1.488121e+02	-2.577287e+01	1.719674e+02
3.629281e+06	-2.672822e+01	1.736812e+02	-3.128218e+01	-4.899911e+00	-1.054136e+02	1.238984e+02	-2.577420e+01	1.719665e+02
3.629312e+06	-2.672833e+01	1.736752e+02	-3.128393e+01	-4.889351e+00	-1.062164e+02	8.128100e+01	-2.577554e+01	1.719655e+02
3.629344e+06	-2.672843e+01	1.736691e+02	-3.128568e+01	-4.878787e+00	-1.032619e+02	4.937465e+01	-2.577687e+01	1.719646e+02
3.629375e+06	-2.672853e+01	1.736631e+02	-3.128743e+01	-4.868219e+00	-1.000607e+02	3.429342e+01	-2.577820e+01	1.719636e+02
3.629406e+06	-2.672895e+01	1.736655e+02	-3.128820e+01	-4.871482e+00	-9.832030e+01	3.733727e+01	-2.577815e+01	1.719623e+02
3.629438e+06	-2.672938e+01	1.736680e+02	-3.128897e+01	-4.874746e+00	-9.685674e+01	3.944162e+01	-2.577810e+01	1.719609e+02
3.629469e+06	-2.672980e+01	1.736704e+02	-3.128974e+01	-4.878010e+00	-9.559719e+01	4.097949e+01	-2.577804e+01	1.719596e+02
3.629500e+06	-2.673022e+01	1.736729e+02	-3.129051e+01	-4.881275e+00	-9.449316e+01	4.215092e+01	-2.577799e+01	1.719582e+02
3.629531e+06	-2.673064e+01	1.736753e+02	-3.129126e+01	-4.884555e+00	-9.352313e+01	4.320649e+01	-2.577793e+01	1.719569e+02
3.629562e+06	-2.673127e+01	1.736788e+02	-3.128886e+01	-4.889683e+00	-9.365271e+01	6.139058e+01	-2.577697e+01	1.719595e+02
3.629594e+06	-2.673189e+01	1.736823e+02	-3.128647e+01	-4.894808e+00	-9.295998e+01	7.839705e+01	-2.577600e+01	1.719621e+02
3.629625e+06	-2.673252e+01	1.736857e+02	-3.128407e+01	-4.899930e+00	-9.175195e+01	9.198835e+01	-2.577504e+01	1.719646e+02
3.629656e+06	-2.673314e+01	1.736892e+02	-3.128167e+01	-4.905049e+00	-9.037206e+01	1.020348e+02	-2.577407e+01	1.719672e+02
3.629688e+06	-2.673377e+01	1.736926e+02	-3.127928e+01	-4.910165e+00	-8.901221e+01	1.093458e+02	-2.577311e+01	1.719698e+02
3.629719e+06	-2.673321e+01	1.736882e+02	-3.127870e+01	-4.896210e+00	-9.278268e+01	1.132341e+02	-2.577217e+01	1.719728e+02
3.629750e+06	-2.673264e+01	1.736837e+02	-3.127814e+01	-4.881946e+00	-9.954385e+01	1.263140e+02	-2.577124e+01	1.719759e+02
3.629781e+06	-2.673206e+01	1.736792e+02	-3.127759e+01	-4.867684e+00	-1.054325e+02	-1.298393e+02	-2.577030e+01	1.719789e+02
3.629812e+06	-2.673149e+01	1.736747e+02	-3.127704e+01	-4.853424e+00	-9.553530e+01	-9.210370e+01	-2.576937e+01	1.719820e+02
3.629844e+06	-2.673091e+01	1.736701e+02	-3.127648e+01	-4.839166e+00	-9.063552e+01	-8.570719e+01	-2.576844e+01	1.719851e+02
3.629875e+06	-2.673084e+01	1.736745e+02	-3.127744e+01	-4.866534e+00	-9.383132e+01	-9.279013e+01	-2.577000e+01	1.719839e+02
3.629906e+06	-2.673077e+01	1.736789e+02	-3.127841e+01	-4.894244e+00	-9.846651e+01	-1.107606e+02	-2.577158e+01	1.719827e+02
3.629938e+06	-2.673071e+01	1.736833e+02	-3.127937e+01	-4.921960e+00	-1.022373e+02	-1.650592e+02	-2.577316e+01	1.719814e+02
3.629969e+06	-2.673064e+01	1.736878e+02	-3.128034e+01	-4.949683e+00	-9.779755e+01	1.461878e+02	-2.577475e+01	1.719802e+02
3.630000e+06	-2.673057e+01	1.736922e+02	-3.128130e+01	-4.977411e+00	-9.336031e+01	1.304891e+02	-2.577633e+01	1.719790e+02
3.630031e+06	-2.673070e+01	1.736956e+02	-3.128352e+01	-4.958590e+00	-9.493316e+01	1.173163e+02	-2.577667e+01	1.719814e+02
3.630062e+06	-2.673083e+01	1.736990e+02	-3.128573e+01	-4.939759e+00	-9.607657e+01	9.916328e+01	-2.577702e+01	1.719837e+02
3.630094e+06	-2.673097e+01	1.737024e+02	-3.128795e+01	-4.920919e+00	-9.622904e+01	7.795960e+01	-2.577736e+01	1.719861e+02
3.630125e+06	-2.673110e+01	1.737058e+02	-3.129016e+01	-4.902069e+00	-9.529311e+01	5.866113e+01	-2.577771e+01	1.719885e+02
3.630156e+06	-2.673123e+01	1.737092e+02	-3.129233e+01	-4.883359e+00	-9.382154e+01	4.431565e+01	-2.577805e+01	1.719908e+02
3.630188e+06	-2.673157e+01	1.737093e+02	-3.128911e+01	-4.883195e+00	-9.825855e+01	4.332882e+01	-2.577819e+01	1.719938e+02
3.630219e+06	-2.673190e+01	1.737094e+02	-3.128589e+01	-4.883032e+00	-1.077627e+02	3.841058e+01	-2.577833e+01	1.719969e+02
3.630250e+06	-2.673224e+01	1.737095e+02	-3.128267e+01	-4.882869e+00	-1.076862e+02	-1.268854e+02	-2.577848e+01	1.719999e+02
3.630281e+06	-2.673257e+01	1.737096e+02	-3.127945e+01	-4.882706e+00	-9.823266e+01	-1.317459e+02	-2.577862e+01	1.720029e+02
3.630312e+06	-2.673290e+01	1.737097e+02	-3.127623e+01	-4.882544e+00	-9.380599e+01	-1.327280e+02	-2.577876e+01	1.720060e+02
3.630344e+06	-2.673187e+01	1.737168e+02	-3.127482e+01	-4.872167e+00	-9.726073e+01	-1.390752e+02	-2.577772e+01	1.720016e+02
3.630375e+06	-2.673082e+01	1.737240e+02	-3.127345e+01	-4.861627e+00	-1.027661e+02	-1.575412e+02	-2.577666e+01	1.719972e+02
3.630406e+06	-2.672976e+01	1.737312e+02	-3.127207e+01	-4.851091e+00	-1.067298e+02	1.320281e+02	-2.577560e+01	1.719927e+02
3.630438e+06	-2.672870e+01	1.737384e+02	-3.127069e+01	-4.840558e+00	-1.003186e+02	8.672309e+01	-2.577455e+01	1.719883e+02
3.630469e+06	-2.672765e+01	1.737455e+02	-3.126931e+01	-4.830028e+00	-9.571915e+01	7.518015e+01	-2.577349e+01	1.719838e+02
3.630500e+06	-2.672807e+01	1.737327e+02	-3.127178e+01	-4.859127e+00	-9.804261e+01	7.618205e+01	-2.577332e+01	1.719884e+02
3.630531e+06	-2.672851e+01	1.737197e+02	-3.127428e+01	-4.888563e+00	-1.013031e+02	7.821333e+01	-2.577315e+01	1.719930e+02
3.630562e+06	-2.672894e+01	1.737068e+02	-3.127678e+01	-4.918015e+00	-1.065304e+02	8.361730e+01	-2.577298e+01	1.719976e+02
3.630594e+06	-2.672938e+01	1.736938e+02	-3.127928e+01	-4.947485e+00	-1.185421e+02	1.268785e+02	-2.577282e+01	1.720022e+02
3.630625e+06	-2.672981e+01	1.736808e+02	-3.128177e+01	-4.976971e+00	-1.093621e+02	-1.248301e+02	-2.577265e+01	1.720068e+02
3.630656e+06	-2.673101e+01	1.736804e+02	-3.128005e+01	-4.959372e+00	-1.036883e+02	-1.059690e+02	-2.577288e+01	1.720069e+02
3.630688e+06	-2.673220e+01	1.736801e+02	-3.127833e+01	-4.941781e+00	-1.000690e+02	-9.960202e+01	-2.577310e+01	1.720070e+02
