# Hz S dB R 50.000
3.627656e+06	-2.674417e+01	1.735765e+02	-3.129245e+01	-4.553559e+00	-1.087475e+02	-8.778080e+01	-2.586067e+01	1.719716e+02
3.627687e+06	-2.674439e+01	1.735805e+02	-3.128916e+01	-4.548538e+00	-1.087580e+02	-4.325923e+01	-2.586084e+01	1.719652e+02
3.627718e+06	-2.674460e+01	1.735845e+02	-3.128586e+01	-4.543521e+00	-1.054396e+02	-1.463199e+01	-2.586100e+01	1.719589e+02
3.627750e+06	-2.674482e+01	1.735886e+02	-3.128257e+01	-4.538507e+00	-1.022808e+02	-1.494664e+00	-2.586117e+01	1.719525e+02
3.627781e+06	-2.674503e+01	1.735926e+02	-3.127928e+01	-4.533498e+00	-9.978755e+01	5.314817e+00	-2.586134e+01	1.719461e+02
3.627812e+06	-2.674524e+01	1.735966e+02	-3.127599e+01	-4.528492e+00	-9.779419e+01	9.371079e+00	-2.586151e+01	1.719398e+02
3.627844e+06	-2.674377e+01	1.735847e+02	-3.127768e+01	-4.515836e+00	-1.033339e+02	6.382337e+01	-2.586136e+01	1.719413e+02
3.627875e+06	-2.674226e+01	1.735724e+02	-3.127948e+01	-4.502987e+00	-9.814884e+01	1.244988e+02	-2.586120e+01	1.719431e+02
3.627906e+06	-2.674075e+01	1.735601e+02	-3.128129e+01	-4.490132e+00	-9.306406e+01	1.400009e+02	-2.586104e+01	1.719449e+02
3.627937e+06	-2.673924e+01	1.735479e+02	-3.128310e+01	-4.477272e+00	-8.971223e+01	1.458084e+02	-2.586088e+01	1.719467e+02
3.627968e+06	-2.673772e+01	1.735356e+02	-3.128491e+01	-4.464407e+00	-8.726507e+01	1.487834e+02	-2.586072e+01	1.719485e+02
3.628000e+06	-2.673893e+01	1.735417e+02	-3.128645e+01	-4.473310e+00	-8.916379e+01	1.490293e+02	-2.586091e+01	1.719465e+02
3.628031e+06	-2.674018e+01	1.735481e+02	-3.128799e+01	-4.482571e+00	-9.170052e+01	1.493866e+02	-2.586110e+01	1.719445e+02
3.628062e+06	-2.674144e+01	1.735545e+02	-3.128953e+01	-4.491834e+00	-9.529772e+01	1.501105e+02	-2.586129e+01	1.719425e+02
3.628094e+06	-2.674269e+01	1.735609e+02	-3.129107e+01	-4.501101e+00	-1.015396e+02	1.523581e+02	-2.586148e+01	1.719405e+02
3.628125e+06	-2.674394e+01	1.735673e+02	-3.129261e+01	-4.510372e+00	-1.220082e+02	-8.576909e+01	-2.586167e+01	1.719385e+02
3.628156e+06	-2.674356e+01	1.735735e+02	-3.129255e+01	-4.522934e+00	-1.022028e+02	-7.105072e+00	-2.586150e+01	1.719394e+02
3.628187e+06	-2.674317e+01	1.735796e+02	-3.129248e+01	-4.535523e+00	-9.625952e+01	-4.070435e+00	-2.586132e+01	1.719403e+02
3.628218e+06	-2.674278e+01	1.735857e+02	-3.129241e+01	-4.548111e+00	-9.275815e+01	-3.047859e+00	-2.586115e+01	1.719412e+02
3.628250e+06	-2.674238e+01	1.735919e+02	-3.129234e+01	-4.560699e+00	-9.026857e+01	-2.534843e+00	-2.586097e+01	1.719421e+02
3.628281e+06	-2.674199e+01	1.735980e+02	-3.129227e+01	-4.573287e+00	-8.833556e+01	-2.226526e+00	-2.586080e+01	1.719430e+02
3.628312e+06	-2.674072e+01	1.735899e+02	-3.129116e+01	-4.559997e+00	-8.976718e+01	9.632571e+00	-2.586124e+01	1.719472e+02
3.628344e+06	-2.673945e+01	1.735819e+02	-3.129005e+01	-4.546711e+00	-9.087745e+01	2.561668e+01	-2.586168e+01	1.719514e+02
3.628375e+06	-2.673818e+01	1.735738e+02	-3.128894e+01	-4.533428e+00	-9.123192e+01	4.464000e+01	-2.586213e+01	1.719556e+02
3.628406e+06	-2.673691e+01	1.735657e+02	-3.128783e+01	-4.520149e+00	-9.064015e+01	6.313176e+01	-2.586257e+01	1.719598e+02
3.628437e+06	-2.673564e+01	1.735577e+02	-3.128672e+01	-4.506873e+00	-8.940496e+01	7.802419e+01	-2.586301e+01	1.719640e+02
3.628468e+06	-2.673632e+01	1.735681e+02	-3.128696e+01	-4.505011e+00	-8.834900e+01	6.969268e+01	-2.586323e+01	1.719603e+02
3.628500e+06	-2.673706e+01	1.735789e+02	-3.128724e+01	-4.503430e+00	-8.726920e+01	6.275485e+01	-2.586344e+01	1.719565e+02
3.628531e+06	-2.673779e+01	1.735897e+02	-3.128751e+01	-4.501849e+00	-8.621979e+01	5.733047e+01	-2.586365e+01	1.719526e+02
3.628562e+06	-2.673852e+01	1.736005e+02	-3.128779e+01	-4.500268e+00	-8.522839e+01	5.304433e+01	-2.586386e+01	1.719487e+02
3.628594e+06	-2.673925e+01	1.736113e+02	-3.128807e+01	-4.498687e+00	-8.430347e+01	4.960792e+01	-2.586408e+01	1.719449e+02
3.628625e+06	-2.673965e+01	1.736116e+02	-3.128675e+01	-4.494356e+00	-8.607134e+01	4.878385e+01	-2.586443e+01	1.719507e+02
3.628656e+06	-2.674005e+01	1.736118e+02	-3.128542e+01	-4.489981e+00	-8.835442e+01	4.752652e+01	-2.586479e+01	1.719566e+02
3.628687e+06	-2.674046e+01	1.736119e+02	-3.128408e+01	-4.485607e+00	-9.144918e+01	4.519076e+01	-2.586514e+01	1.719626e+02
3.628718e+06	-2.674086e+01	1.736121e+02	-3.128275e+01	-4.481235e+00	-9.623920e+01	3.939264e+01	-2.586550e+01	1.719685e+02
3.628750e+06	-2.674126e+01	1.736122e+02	-3.128141e+01	-4.476864e+00	-1.060141e+02	6.685680e+00	-2.586586e+01	1.719745e+02
3.628781e+06	-2.674075e+01	1.736053e+02	-3.128343e+01	-4.480859e+00	-1.221655e+02	-9.186991e+01	-2.586550e+01	1.719666e+02
3.628812e+06	-2.674024e+01	1.735984e+02	-3.128548e+01	-4.484924e+00	-1.053220e+02	-1.574601e+02	-2.586514e+01	1.719587e+02
3.628844e+06	-2.673973e+01	1.735915e+02	-3.128752e+01	-4.488991e+00	-9.954369e+01	-1.613211e+02	-2.586478e+01	1.719508e+02
3.628875e+06	-2.673922e+01	1.735845e+02	-3.128957e+01	-4.493059e+00	-9.609499e+01	-1.626547e+02	-2.586441e+01	1.719428e+02
3.628906e+06	-2.673871e+01	1.735776e+02	-3.129162e+01	-4.497130e+00	-9.363121e+01	-1.633299e+02	-2.586405e+01	1.719349e+02
3.628937e+06	-2.673770e+01	1.735808e+02	-3.129287e+01	-4.501769e+00	-9.801911e+01	-1.578243e+02	-2.586328e+01	1.719381e+02
3.628968e+06	-2.673669e+01	1.735839e+02	-3.129412e+01	-4.506409e+00	-1.063153e+02	-1.334146e+02	-2.586252e+01	1.719414e+02
3.629000e+06	-2.673568e+01	1.735871e+02	-3.129536e+01	-4.511051e+00	-1.052158e+02	-2.456381e+01	-2.586175e+01	1.719446e+02
3.629031e+06	-2.673467e+01	1.735903e+02	-3.129661e+01	-4.515693e+00	-9.749623e+01	-4.513227e+00	-2.586098e+01	1.719479e+02
3.629062e+06	-2.673365e+01	1.735934e+02	-3.129786e+01	-4.520338e+00	-9.330647e+01	4.791493e-01	-2.586022e+01	1.719511e+02
3.629094e+06	-2.673472e+01	1.735932e+02	-3.129581e+01	-4.503216e+00	-9.261612e+01	1.711667e+00	-2.585968e+01	1.719495e+02
3.629125e+06	-2.673585e+01	1.735929e+02	-3.129368e+01	-4.485568e+00	-9.202919e+01	2.746522e+00	-2.585915e+01	1.719478e+02
3.629156e+06	-2.673697e+01	1.735926e+02	-3.129155e+01	-4.467929e+00	-9.147710e+01	3.654183e+00	-2.585861e+01	1.719461e+02
3.629187e+06	-2.673809e+01	1.735923e+02	-3.128942e+01	-4.450298e+00	-9.095620e+01	4.456358e+00	-2.585808e+01	1.719443e+02
3.629218e+06	-2.673921e+01	1.735920e+02	-3.128729e+01	-4.432676e+00	-9.046334e+01	5.170162e+00	-2.585755e+01	1.719426e+02
3.629250e+06	-2.673951e+01	1.735982e+02	-3.128834e+01	-4.434882e+00	-9.100937e+01	5.141775e+00	-2.585950e+01	1.719458e+02
3.629281e+06	-2.673979e+01	1.736045e+02	-3.128944e+01	-4.437411e+00	-9.161074e+01	5.096310e+00	-2.586149e+01	1.719490e+02
3.629312e+06	-2.674007e+01	1.736108e+02	-3.129054e+01	-4.439941e+00	-9.225686e+01	5.043822e+00	-2.586348e+01	1.719522e+02
3.629344e+06	-2.674036e+01	1.736171e+02	-3.129164e+01	-4.442471e+00	-9.295492e+01	4.982549e+00	-2.586547e+01	1.719554e+02
3.629375e+06	-2.674064e+01	1.736234e+02	-3.129274e+01	-4.445002e+00	-9.371401e+01	4.910084e+00	-2.586746e+01	1.719587e+02
3.629406e+06	-2.674008e+01	1.736215e+02	-3.129236e+01	-4.457826e+00	-9.280023e+01	9.141240e+00	-2.586739e+01	1.719557e+02
3.629437e+06	-2.673951e+01	1.736194e+02	-3.129197e+01	-4.470733e+00	-9.192650e+01	1.261012e+01	-2.586730e+01	1.719526e+02
3.629468e+06	-2.673895e+01	1.736173e+02	-3.129158e+01	-4.483638e+00	-9.110877e+01	1.546463e+01	-2.586721e+01	1.719495e+02
3.629500e+06	-2.673838e+01	1.736153e+02	-3.129119e+01	-4.496542e+00	-9.034497e+01	1.784366e+01	-2.586712e+01	1.719465e+02
3.629531e+06	-2.673782e+01	1.736132e+02	-3.129080e+01	-4.509445e+00	-8.963128e+01	1.985039e+01	-2.586703e+01	1.719434e+02
3.629562e+06	-2.673829e+01	1.736129e+02	-3.129012e+01	-4.507026e+00	-9.067442e+01	2.160762e+01	-2.586710e+01	1.719501e+02
3.629594e+06	-2.673876e+01	1.736126e+02	-3.128944e+01	-4.504607e+00	-9.184807e+01	2.387598e+01	-2.586716e+01	1.719569e+02
3.629625e+06	-2.673922e+01	1.736123e+02	-3.128876e+01	-4.502188e+00	-9.318420e+01	2.690491e+01	-2.586723e+01	1.719636e+02
3.629656e+06	-2.673969e+01	1.736120e+02	-3.128808e+01	-4.499770e+00	-9.472337e+01	3.112427e+01	-2.586729e+01	1.719704e+02
3.629687e+06	-2.674016e+01	1.736117e+02	-3.128741e+01	-4.497352e+00	-9.650967e+01	3.731829e+01	-2.586736e+01	1.719771e+02
3.629718e+06	-2.673978e+01	1.736067e+02	-3.128564e+01	-4.497838e+00	-9.510216e+01	4.872622e+01	-2.586650e+01	1.719793e+02
3.629750e+06	-2.673937e+01	1.736015e+02	-3.128384e+01	-4.498396e+00	-9.361658e+01	5.690059e+01	-2.586562e+01	1.719813e+02
3.629781e+06	-2.673897e+01	1.735964e+02	-3.128204e+01	-4.498953e+00	-9.223868e+01	6.276962e+01	-2.586474e+01	1.719833e+02
3.629812e+06	-2.673857e+01	1.735912e+02	-3.128024e+01	-4.499510e+00	-9.099104e+01	6.710416e+01	-2.586386e+01	1.719853e+02
3.629844e+06	-2.673817e+01	1.735861e+02	-3.127845e+01	-4.500067e+00	-8.986695e+01	7.040164e+01	-2.586297e+01	1.719874e+02
3.629875e+06	-2.673806e+01	1.735919e+02	-3.127964e+01	-4.500082e+00	-9.197608e+01	7.412013e+01	-2.586293e+01	1.719887e+02
3.629906e+06	-2.673797e+01	1.735978e+02	-3.128087e+01	-4.500088e+00	-9.476230e+01	8.069996e+01	-2.586290e+01	1.719901e+02
3.629937e+06	-2.673787e+01	1.736038e+02	-3.128211e+01	-4.500094e+00	-9.849939e+01	9.475360e+01	-2.586288e+01	1.719914e+02
3.629968e+06	-2.673777e+01	1.736098e+02	-3.128334e+01	-4.500100e+00	-1.025020e+02	1.310492e+02	-2.586285e+01	1.719927e+02
3.630000e+06	-2.673767e+01	1.736158e+02	-3.128458e+01	-4.500106e+00	-1.010335e+02	-1.765328e+02	-2.586282e+01	1.719941e+02
3.630031e+06	-2.673949e+01	1.736088e+02	-3.128602e+01	-4.488476e+00	-1.161071e+02	-6.287851e+01	-2.586352e+01	1.719911e+02
3.630062e+06	-2.674132e+01	1.736016e+02	-3.128747e+01	-4.476748e+00	-9.946943e+01	-1.198147e+01	-2.586422e+01	1.719881e+02
3.630094e+06	-2.674315e+01	1.735945e+02	-3.128892e+01	-4.465016e+00	-9.384633e+01	-8.552106e+00	-2.586492e+01	1.719851e+02
3.630125e+06	-2.674499e+01	1.735874e+02	-3.129036e+01	-4.453280e+00	-9.045369e+01	-7.338160e+00	-2.586563e+01	1.719820e+02
3.630156e+06	-2.674682e+01	1.735803e+02	-3.129181e+01	-4.441540e+00	-8.801873e+01	-6.717583e+00	-2.586633e+01	1.719790e+02
3.630187e+06	-2.674606e+01	1.735890e+02	-3.129146e+01	-4.444306e+00	-8.798594e+01	-7.566841e+00	-2.586646e+01	1.719777e+02
3.630218e+06	-2.674530e+01	1.735976e+02	-3.129111e+01	-4.447071e+00	-8.795139e+01	-8.409540e+00	-2.586658e+01	1.719765e+02
3.630250e+06	-2.674453e+01	1.736063e+02	-3.129076e+01	-4.449837e+00	-8.791512e+01	-9.245395e+00	-2.586671e+01	1.719752e+02
3.630281e+06	-2.674377e+01	1.736149e+02	-3.129041e+01	-4.452602e+00	-8.787718e+01	-1.007414e+01	-2.586683e+01	1.719739e+02
3.630312e+06	-2.674301e+01	1.736236e+02	-3.129006e+01	-4.455367e+00	-8.783761e+01	-1.089552e+01	-2.586696e+01	1.719726e+02
3.630344e+06	-2.674226e+01	1.736263e+02	-3.129043e+01	-4.451793e+00	-8.957727e+01	-2.666627e+00	-2.586642e+01	1.719767e+02
3.630375e+06	-2.674152e+01	1.736288e+02	-3.129082e+01	-4.448063e+00	-9.145188e+01	1.021141e+01	-2.586588e+01	1.719809e+02
3.630406e+06	-2.674078e+01	1.736314e+02	-3.129121e+01	-4.444333e+00	-9.299404e+01	2.949813e+01	-2.586533e+01	1.719851e+02
3.630437e+06	-2.674003e+01	1.736339e+02	-3.129160e+01	-4.440603e+00	-9.336901e+01	5.382041e+01	-2.586478e+01	1.719893e+02
3.630468e+06	-2.673929e+01	1.736365e+02	-3.129199e+01	-4.436872e+00	-9.228199e+01	7.612013e+01	-2.586423e+01	1.719935e+02
3.630500e+06	-2.673949e+01	1.736349e+02	-3.129240e+01	-4.463462e+00	-9.472965e+01	6.765395e+01	-2.586317e+01	1.719870e+02
3.630531e+06	-2.673969e+01	1.736332e+02	-3.129281e+01	-4.490547e+00	-9.768603e+01	5.082086e+01	-2.586211e+01	1.719803e+02
3.630562e+06	-2.673990e+01	1.736315e+02	-3.129322e+01	-4.517635e+00	-9.994555e+01	1.895562e+01	-2.586104e+01	1.719736e+02
3.630594e+06	-2.674011e+01	1.736299e+02	-3.129362e+01	-4.544726e+00	-9.888706e+01	-1.836024e+01	-2.585997e+01	1.719669e+02
3.630625e+06	-2.674032e+01	1.736282e+02	-3.129403e+01	-4.571819e+00	-9.594800e+01	-4.085502e+01	-2.585891e+01	1.719602e+02
3.630656e+06	-2.674010e+01	1.736276e+02	-3.129201e+01	-4.555374e+00	-9.489336e+01	-5.153113e+01	-2.585934e+01	1.719576e+02
3.630687e+06	-2.673987e+01	1.736271e+02	-3.128997e+01	-4.538586e+00	-9.375673e+01	-5.980051e+01	-2.585979e+01	1.719550e+02
3.630718e+06	-2.673965e+01	1.736265e+02	-3.128794e+01	-4.521806e+00	-9.262783e+01	-6.616230e+01	-2.586023e+01	1.719525e+02
3.630750e+06	-2.673942e+01	1.736260e+02	-3.128590e+01	-4.505034e+00	-9.155492e+01	-7.109555e+01	-2.586068e+01	1.719499e+02
3.630781e+06	-2.673920e+01	1.736254e+02	-3.128386e+01	-4.488269e+00	-9.055467e+01	-7.497948e+01	-2.586112e+01	1.719474e+02
3.630812e+06	-2.674021e+01	1.736223e+02	-3.128303e+01	-4.479523e+00	-9.346857e+01	-7.546785e+01	-2.586144e+01	1.719495e+02
3.630844e+06	-2.674122e+01	1.736193e+02	-3.128221e+01	-4.470779e+00	-9.788292e+01	-7.660335e+01	-2.586176e+01	1.719516e+02
3.630875e+06	-2.674223e+01	1.736162e+02	-3.128138e+01	-4.462036e+00	-1.072637e+02	-8.217003e+01	-2.586208e+01	1.719537e+02
3.630906e+06	-2.674324e+01	1.736131e+02	-3.128056e+01	-4.453295e+00	-1.074958e+02	1.148905e+02	-2.586240e+01	1.719558e+02
3.630937e+06	-2.674425e+01	1.736101e+02	-3.127973e+01	-4.444556e+00	-9.796184e+01	1.091202e+02	-2.586272e+01	1.719578e+02
3.630968e+06	-2.674294e+01	1.736104e+02	-3.128019e+01	-4.449526e+00	-1.076603e+02	1.288139e+02	-2.586308e+01	1.719543e+02
3.631000e+06	-2.674158e+01	1.736109e+02	-3.128068e+01	-4.454833e+00	-1.044573e+02	-9.914775e+01	-2.586344e+01	1.719507e+02
3.631031e+06	-2.674022e+01	1.736114e+02	-3.128116e+01	-4.460141e+00	-9.644277e+01	-8.736841e+01	-2.586380e+01	1.719471e+02
3.631062e+06	-2.673885e+01	1.736118e+02	-3.128165e+01	-4.465450e+00	-9.229024e+01	-8.448513e+01	-2.586416e+01	1.719434e+02
3.631094e+06	-2.673749e+01	1.736123e+02	-3.128214e+01	-4.470759e+00	-8.948534e+01	-8.319132e+01	-2.586451e+01	1.719398e+02
3.631125e+06	-2.673767e+01	1.736111e+02	-3.128165e+01	-4.458485e+00	-9.067684e+01	-8.349945e+01	-2.586456e+01	1.719538e+02
3.631156e+06	-2.673787e+01	1.736098e+02	-3.128114e+01	-4.445927e+00	-9.213484e+01	-8.394682e+01	-2.586461e+01	1.719681e+02
3.631187e+06	-2.673807e+01	1.736085e+02	-3.128063e+01	-4.433370e+00	-9.388701e+01	-8.459424e+01	-2.586465e+01	1.719824e+02
3.631218e+06	-2.673828e+01	1.736073e+02	-3.128012e+01	-4.420815e+00	-9.608207e+01	-8.561413e+01	-2.586469e+01	1.719968e+02
3.631250e+06	-2.673848e+01	1.736060e+02	-3.127960e+01	-4.408261e+00	-9.901960e+01	-8.745591e+01	-2.586473e+01	1.720111e+02
3.631281e+06	-2.673989e+01	1.736077e+02	-3.127921e+01	-4.420301e+00	-1.019321e+02	-9.410520e+01	-2.586432e+01	1.720098e+02
3.631312e+06	-2.674130e+01	1.736094e+02	-3.127882e+01	-4.432538e+00	-1.058979e+02	-1.089412e+02	-2.586391e+01	1.720084e+02
3.631344e+06	-2.674272e+01	1.736111e+02	-3.127842e+01	-4.444774e+00	-1.100091e+02	-1.494003e+02	-2.586350e+01	1.720069e+02
3.631375e+06	-2.674414e+01	1.736128e+02	-3.127803e+01	-4.457008e+00	-1.077269e+02	1.573741e+02	-2.586309e+01	1.720055e+02
3.631406e+06	-2.674556e+01	1.736145e+02	-3.127763e+01	-4.469242e+00	-1.033337e+02	1.355710e+02	-2.586268e+01	1.720041e+02
3.631437e+06	-2.674536e+01	1.736151e+02	-3.128060e+01	-4.471158e+00	-1.182562e+02	1.117560e+02	-2.586277e+01	1.720052e+02
3.631468e+06	-2.674517e+01	1.736157e+02	-3.128356e+01	-4.473076e+00	-1.065925e+02	-3.225609e+01	-2.586285e+01	1.720063e+02
3.631500e+06	-2.674497e+01	1.736164e+02	-3.128653e+01	-4.474994e+00	-9.967884e+01	-3.622523e+01	-2.586294e+01	1.720074e+02
3.631531e+06	-2.674478e+01	1.736170e+02	-3.128950e+01	-4.476914e+00	-9.587079e+01	-3.737946e+01	-2.586302e+01	1.720086e+02
3.631562e+06	-2.674458e+01	1.736176e+02	-3.129247e+01	-4.478836e+00	-9.323113e+01	-3.792885e+01	-2.586311e+01	1.720097e+02
3.631594e+06	-2.674398e+01	1.736219e+02	-3.128852e+01	-4.472902e+00	-9.266239e+01	-4.510950e+01	-2.586293e+01	1.720034e+02
3.631625e+06	-2.674336e+01	1.736263e+02	-3.128440e+01	-4.466781e+00	-9.204838e+01	-5.155859e+01	-2.586275e+01	1.719970e+02
3.631656e+06	-2.674275e+01	1.736307e+02	-3.128028e+01	-4.460666e+00	-9.138609e+01	-5.712338e+01	-2.586257e+01	1.719906e+02
3.631687e+06	-2.674213e+01	1.736350e+02	-3.127617e+01	-4.454556e+00	-9.070540e+01	-6.188898e+01	-2.586239e+01	1.719842e+02
3.631718e+06	-2.674152e+01	1.736394e+02	-3.127206e+01	-4.448453e+00	-9.002644e+01	-6.596279e+01	-2.586221e+01	1.719778e+02
3.631750e+06	-2.674133e+01	1.736356e+02	-3.127358e+01	-4.446042e+00	-9.170582e+01	-6.235248e+01	-2.586257e+01	1.719818e+02
3.631781e+06	-2.674114e+01	1.736316e+02	-3.127520e+01	-4.443690e+00	-9.377305e+01	-5.659771e+01	-2.586294e+01	1.719860e+02
3.631812e+06	-2.674096e+01	1.736277e+02	-3.127681e+01	-4.441337e+00	-9.628833e+01	-4.681326e+01	-2.586330e+01	1.719902e+02
3.631844e+06	-2.674078e+01	1.736237e+02	-3.127843e+01	-4.438983e+00	-9.913838e+01	-2.844121e+01	-2.586367e+01	1.719944e+02
3.631875e+06	-2.674059e+01	1.736197e+02	-3.128005e+01	-4.436629e+00	-1.009617e+02	4.228835e+00	-2.586404e+01	1.719986e+02
3.631906e+06	-2.674028e+01	1.736305e+02	-3.128026e+01	-4.447798e+00	-1.009513e+02	4.146066e+01	-2.586379e+01	1.719964e+02
3.631937e+06	-2.673998e+01	1.736414e+02	-3.128047e+01	-4.459076e+00	-9.836522e+01	6.814126e+01	-2.586355e+01	1.719943e+02
3.631968e+06	-2.673967e+01	1.736522e+02	-3.128067e+01	-4.470355e+00	-9.558329e+01	8.214735e+01	-2.586330e+01	1.719921e+02
3.632000e+06	-2.673936e+01	1.736631e+02	-3.128088e+01	-4.481635e+00	-9.325448e+01	8.986992e+01	-2.586305e+01	1.719899e+02
3.632031e+06	-2.673905e+01	1.736740e+02	-3.128108e+01	-4.492915e+00	-9.134161e+01	9.459986e+01	-2.586280e+01	1.719877e+02
3.632062e+06	-2.673925e+01	1.736700e+02	-3.128106e+01	-4.488457e+00	-9.350418e+01	8.271356e+01	-2.586340e+01	1.719934e+02
3.632094e+06	-2.673945e+01	1.736659e+02	-3.128104e+01	-4.484000e+00	-9.554873e+01	6.318246e+01	-2.586399e+01	1.719991e+02
3.632125e+06	-2.673965e+01	1.736619e+02	-3.128101e+01	-4.479542e+00	-9.635333e+01	3.553005e+01	-2.586459e+01	1.720048e+02
3.632156e+06	-2.673985e+01	1.736578e+02	-3.128099e+01	-4.475085e+00	-9.515902e+01	9.187038e+00	-2.586519e+01	1.720105e+02
3.632187e+06	-2.674006e+01	1.736538e+02	-3.128097e+01	-4.470627e+00	-9.302263e+01	-8.415442e+00	-2.586579e+01	1.720162e+02
3.632218e+06	-2.673901e+01	1.736520e+02	-3.127918e+01	-4.479263e+00	-9.374173e+01	2.480409e+00	-2.586625e+01	1.720154e+02
3.632250e+06	-2.673794e+01	1.736502e+02	-3.127735e+01	-4.488217e+00	-9.417422e+01	1.571867e+01	-2.586671e+01	1.720144e+02
3.632281e+06	-2.673686e+01	1.736485e+02	-3.127551e+01	-4.497168e+00	-9.412146e+01	2.956004e+01	-2.586717e+01	1.720134e+02
3.632312e+06	-2.673579e+01	1.736467e+02	-3.127368e+01	-4.506115e+00	-9.359992e+01	4.249990e+01	-2.586762e+01	1.720125e+02
3.632344e+06	-2.673472e+01	1.736449e+02	-3.127185e+01	-4.515058e+00	-9.275198e+01	5.352650e+01	-2.586808e+01	1.720115e+02
3.632375e+06	-2.673673e+01	1.736396e+02	-3.127360e+01	-4.510055e+00	-9.215383e+01	5.362408e+01	-2.586645e+01	1.720084e+02
3.632406e+06	-2.673880e+01	1.736343e+02	-3.127541e+01	-4.504823e+00	-9.159900e+01	5.356956e+01	-2.586478e+01	1.720053e+02
3.632437e+06	-2.674086e+01	1.736289e+02	-3.127722e+01	-4.499589e+00	-9.107749e+01	5.352138e+01	-2.586312e+01	1.720022e+02
3.632468e+06	-2.674293e+01	1.736235e+02	-3.127903e+01	-4.494352e+00	-9.058552e+01	5.347851e+01	-2.586145e+01	1.719990e+02
3.632500e+06	-2.674499e+01	1.736181e+02	-3.128084e+01	-4.489114e+00	-9.011993e+01	5.344012e+01	-2.585978e+01	1.719959e+02
3.632531e+06	-2.674480e+01	1.736225e+02	-3.128018e+01	-4.482080e+00	-9.127853e+01	5.029712e+01	-2.586102e+01	1.720082e+02
3.632562e+06	-2.674459e+01	1.736268e+02	-3.127951e+01	-4.475033e+00	-9.259127e+01	4.608293e+01	-2.586228e+01	1.720206e+02
3.632594e+06	-2.674438e+01	1.736312e+02	-3.127884e+01	-4.467987e+00	-9.406104e+01	4.027271e+01	-2.586353e+01	1.720330e+02
3.632625e+06	-2.674417e+01	1.736356e+02	-3.127816e+01	-4.460943e+00	-9.567515e+01	3.197109e+01	-2.586479e+01	1.720454e+02
3.632656e+06	-2.674396e+01	1.736400e+02	-3.127749e+01	-4.453899e+00	-9.732625e+01	1.983283e+01	-2.586605e+01	1.720578e+02
3.632687e+06	-2.674277e+01	1.736424e+02	-3.127891e+01	-4.445700e+00	-9.454049e+01	7.953433e+00	-2.586645e+01	1.720460e+02
3.632718e+06	-2.674159e+01	1.736447e+02	-3.128033e+01	-4.437498e+00	-9.227141e+01	1.348040e+00	-2.586685e+01	1.720341e+02
