# Hz S dB R 50.000
3.628594e+06	-4.369125e+01	-8.865281e+01	-3.082999e+01	-6.943555e+00	-1.047851e+02	-1.023789e+02	-5.612930e+01	9.782593e+01
3.628625e+06	-4.369431e+01	-8.870334e+01	-3.082936e+01	-6.944195e+00	-1.018151e+02	-8.051412e+01	-5.614502e+01	9.787310e+01
3.628656e+06	-4.369736e+01	-8.875390e+01	-3.082874e+01	-6.944835e+00	-9.910257e+01	-6.935122e+01	-5.616077e+01	9.792044e+01
3.628688e+06	-4.370040e+01	-8.880450e+01	-3.082811e+01	-6.945475e+00	-9.689157e+01	-6.304564e+01	-5.617653e+01	9.796795e+01
3.628719e+06	-4.370344e+01	-8.885514e+01	-3.082748e+01	-6.946114e+00	-9.507674e+01	-5.908375e+01	-5.619232e+01	9.801563e+01
3.628750e+06	-4.370644e+01	-8.890525e+01	-3.082686e+01	-6.946720e+00	-9.356637e+01	-5.646591e+01	-5.620786e+01	9.806561e+01
3.628782e+06	-4.370495e+01	-8.888680e+01	-3.082705e+01	-6.943115e+00	-9.380996e+01	-6.424834e+01	-5.618882e+01	9.837767e+01
3.628813e+06	-4.370346e+01	-8.886836e+01	-3.082724e+01	-6.939509e+00	-9.388966e+01	-7.232782e+01	-5.616956e+01	9.868836e+01
3.628844e+06	-4.370197e+01	-8.884992e+01	-3.082743e+01	-6.935903e+00	-9.379635e+01	-8.039457e+01	-5.615009e+01	9.899766e+01
3.628875e+06	-4.370048e+01	-8.883149e+01	-3.082762e+01	-6.932297e+00	-9.354067e+01	-8.814163e+01	-5.613041e+01	9.930558e+01
3.628906e+06	-4.369915e+01	-8.881353e+01	-3.082783e+01	-6.928767e+00	-9.321357e+01	-9.526898e+01	-5.611113e+01	9.960954e+01
3.628938e+06	-4.370786e+01	-8.882418e+01	-3.082903e+01	-6.929897e+00	-9.779652e+01	-1.005273e+02	-5.612854e+01	9.975599e+01
3.628969e+06	-4.371657e+01	-8.883486e+01	-3.083023e+01	-6.931026e+00	-1.069468e+02	-1.269781e+02	-5.614594e+01	9.990304e+01
3.629000e+06	-4.372530e+01	-8.884556e+01	-3.083142e+01	-6.932157e+00	-1.040388e+02	1.190703e+02	-5.616331e+01	1.000507e+02
3.629032e+06	-4.373403e+01	-8.885627e+01	-3.083262e+01	-6.933287e+00	-9.650011e+01	1.031376e+02	-5.618066e+01	1.001989e+02
3.629063e+06	-4.374277e+01	-8.886701e+01	-3.083382e+01	-6.934418e+00	-9.241521e+01	9.900829e+01	-5.619798e+01	1.003477e+02
3.629094e+06	-4.373839e+01	-8.885107e+01	-3.083396e+01	-6.935907e+00	-9.279160e+01	1.052878e+02	-5.620120e+01	1.003107e+02
3.629125e+06	-4.373391e+01	-8.883492e+01	-3.083409e+01	-6.937398e+00	-9.309621e+01	1.121802e+02	-5.620430e+01	1.002721e+02
3.629156e+06	-4.372943e+01	-8.881879e+01	-3.083422e+01	-6.938890e+00	-9.327427e+01	1.194684e+02	-5.620740e+01	1.002335e+02
3.629188e+06	-4.372495e+01	-8.880268e+01	-3.083435e+01	-6.940381e+00	-9.330918e+01	1.269386e+02	-5.621050e+01	1.001949e+02
3.629219e+06	-4.372047e+01	-8.878658e+01	-3.083448e+01	-6.941873e+00	-9.319751e+01	1.343427e+02	-5.621359e+01	1.001563e+02
3.629250e+06	-4.371703e+01	-8.877194e+01	-3.083460e+01	-6.938977e+00	-9.523871e+01	1.263076e+02	-5.619751e+01	9.982104e+01
3.629282e+06	-4.371359e+01	-8.875731e+01	-3.083472e+01	-6.936082e+00	-9.752998e+01	1.129999e+02	-5.618116e+01	9.948704e+01
3.629313e+06	-4.371015e+01	-8.874269e+01	-3.083483e+01	-6.933186e+00	-9.955569e+01	9.076710e+01	-5.616455e+01	9.915429e+01
3.629344e+06	-4.370671e+01	-8.872809e+01	-3.083495e+01	-6.930290e+00	-9.992175e+01	6.087837e+01	-5.614768e+01	9.882283e+01
3.629375e+06	-4.370330e+01	-8.871371e+01	-3.083506e+01	-6.927472e+00	-9.822924e+01	3.556134e+01	-5.613067e+01	9.849525e+01
3.629406e+06	-4.370299e+01	-8.872647e+01	-3.083418e+01	-6.934313e+00	-9.459840e+01	2.726830e+01	-5.612781e+01	9.848951e+01
3.629438e+06	-4.370269e+01	-8.873923e+01	-3.083329e+01	-6.941153e+00	-9.197969e+01	2.324042e+01	-5.612495e+01	9.848376e+01
3.629469e+06	-4.370239e+01	-8.875199e+01	-3.083240e+01	-6.947992e+00	-8.995038e+01	2.088298e+01	-5.612209e+01	9.847802e+01
3.629500e+06	-4.370208e+01	-8.876475e+01	-3.083151e+01	-6.954829e+00	-8.829858e+01	1.934017e+01	-5.611924e+01	9.847228e+01
3.629532e+06	-4.370172e+01	-8.877656e+01	-3.083065e+01	-6.961344e+00	-8.695611e+01	1.842357e+01	-5.611690e+01	9.846804e+01
3.629563e+06	-4.369802e+01	-8.873011e+01	-3.083113e+01	-6.948154e+00	-8.871991e+01	3.044442e+01	-5.614660e+01	9.855562e+01
3.629594e+06	-4.369431e+01	-8.868370e+01	-3.083161e+01	-6.934963e+00	-9.022050e+01	4.809903e+01	-5.617638e+01	9.864380e+01
3.629625e+06	-4.369060e+01	-8.863733e+01	-3.083209e+01	-6.921770e+00	-9.076424e+01	7.066569e+01	-5.620624e+01	9.873258e+01
3.629656e+06	-4.368688e+01	-8.859100e+01	-3.083257e+01	-6.908575e+00	-8.996874e+01	9.255378e+01	-5.623618e+01	9.882199e+01
3.629688e+06	-4.368316e+01	-8.854471e+01	-3.083305e+01	-6.895380e+00	-8.836765e+01	1.089874e+02	-5.626621e+01	9.891201e+01
3.629719e+06	-4.369269e+01	-8.859740e+01	-3.083319e+01	-6.903387e+00	-9.180788e+01	1.081242e+02	-5.625798e+01	9.903540e+01
3.629750e+06	-4.370233e+01	-8.865100e+01	-3.083333e+01	-6.911565e+00	-9.768154e+01	1.052586e+02	-5.624941e+01	9.915882e+01
3.629782e+06	-4.371197e+01	-8.870472e+01	-3.083348e+01	-6.919744e+00	-1.172830e+02	3.537512e+01	-5.624080e+01	9.928199e+01
3.629813e+06	-4.372161e+01	-8.875856e+01	-3.083362e+01	-6.927923e+00	-9.814002e+01	-6.277871e+01	-5.623217e+01	9.940492e+01
3.629844e+06	-4.373126e+01	-8.881252e+01	-3.083376e+01	-6.936102e+00	-9.203896e+01	-6.588127e+01	-5.622350e+01	9.952761e+01
3.629875e+06	-4.373076e+01	-8.880825e+01	-3.083310e+01	-6.946082e+00	-9.306253e+01	-6.401597e+01	-5.618681e+01	9.954832e+01
3.629906e+06	-4.373027e+01	-8.880398e+01	-3.083243e+01	-6.956060e+00	-9.420953e+01	-6.162085e+01	-5.615028e+01	9.956885e+01
3.629938e+06	-4.372977e+01	-8.879971e+01	-3.083177e+01	-6.966037e+00	-9.550796e+01	-5.844622e+01	-5.611390e+01	9.958921e+01
3.629969e+06	-4.372927e+01	-8.879544e+01	-3.083111e+01	-6.976013e+00	-9.699142e+01	-5.407111e+01	-5.607766e+01	9.960940e+01
3.630000e+06	-4.372876e+01	-8.879089e+01	-3.083045e+01	-6.985902e+00	-9.869483e+01	-4.787538e+01	-5.604246e+01	9.962660e+01
3.630032e+06	-4.372688e+01	-8.875254e+01	-3.083062e+01	-6.985248e+00	-1.010916e+02	-5.813528e+01	-5.611648e+01	9.929022e+01
3.630063e+06	-4.372500e+01	-8.871421e+01	-3.083079e+01	-6.984595e+00	-1.036900e+02	-7.659032e+01	-5.619084e+01	9.894804e+01
3.630094e+06	-4.372311e+01	-8.867589e+01	-3.083096e+01	-6.983941e+00	-1.052291e+02	-1.072356e+02	-5.626551e+01	9.859994e+01
3.630125e+06	-4.372122e+01	-8.863759e+01	-3.083113e+01	-6.983287e+00	-1.040339e+02	-1.392616e+02	-5.634051e+01	9.824579e+01
3.630156e+06	-4.371930e+01	-8.860017e+01	-3.083130e+01	-6.982518e+00	-1.016777e+02	-1.589614e+02	-5.641421e+01	9.789348e+01
3.630188e+06	-4.371546e+01	-8.861564e+01	-3.083108e+01	-6.974616e+00	-1.125173e+02	-2.581447e+01	-5.638925e+01	9.803147e+01
3.630219e+06	-4.371162e+01	-8.863109e+01	-3.083086e+01	-6.966715e+00	-9.842456e+01	4.296817e+00	-5.636430e+01	9.816866e+01
3.630250e+06	-4.370778e+01	-8.864653e+01	-3.083065e+01	-6.958814e+00	-9.316648e+01	7.395829e+00	-5.633938e+01	9.830507e+01
3.630282e+06	-4.370395e+01	-8.866196e+01	-3.083043e+01	-6.950914e+00	-8.990791e+01	8.557836e+00	-5.631448e+01	9.844070e+01
3.630313e+06	-4.370011e+01	-8.867738e+01	-3.083021e+01	-6.943014e+00	-8.754239e+01	9.165947e+00	-5.628961e+01	9.857555e+01
3.630344e+06	-4.370627e+01	-8.872049e+01	-3.083012e+01	-6.942740e+00	-8.920424e+01	1.699232e+01	-5.632243e+01	9.851814e+01
3.630375e+06	-4.371251e+01	-8.876389e+01	-3.083002e+01	-6.942528e+00	-9.099493e+01	2.879619e+01	-5.635584e+01	9.845872e+01
3.630406e+06	-4.371875e+01	-8.880735e+01	-3.082993e+01	-6.942316e+00	-9.255346e+01	4.630218e+01	-5.638936e+01	9.839884e+01
3.630438e+06	-4.372499e+01	-8.885087e+01	-3.082983e+01	-6.942103e+00	-9.317216e+01	6.903897e+01	-5.642300e+01	9.833849e+01
3.630469e+06	-4.373123e+01	-8.889446e+01	-3.082974e+01	-6.941891e+00	-9.241093e+01	9.138554e+01	-5.645677e+01	9.827768e+01
3.630500e+06	-4.372656e+01	-8.882618e+01	-3.082874e+01	-6.925140e+00	-9.375337e+01	8.615286e+01	-5.639845e+01	9.836714e+01
3.630532e+06	-4.372188e+01	-8.875797e+01	-3.082774e+01	-6.908393e+00	-9.522176e+01	7.891154e+01	-5.634049e+01	9.845542e+01
3.630563e+06	-4.371718e+01	-8.868984e+01	-3.082674e+01	-6.891650e+00	-9.675014e+01	6.865927e+01	-5.628290e+01	9.854253e+01
3.630594e+06	-4.371248e+01	-8.862178e+01	-3.082573e+01	-6.874911e+00	-9.812654e+01	5.426067e+01	-5.622566e+01	9.862849e+01
3.630625e+06	-4.370780e+01	-8.855459e+01	-3.082476e+01	-6.858344e+00	-9.893380e+01	3.577457e+01	-5.616943e+01	9.871318e+01
3.630656e+06	-4.370594e+01	-8.858522e+01	-3.082757e+01	-6.862643e+00	-1.014767e+02	3.026971e+01	-5.619317e+01	9.877852e+01
3.630688e+06	-4.370408e+01	-8.861583e+01	-3.083038e+01	-6.866944e+00	-1.048478e+02	1.934498e+01	-5.621697e+01	9.884421e+01
3.630719e+06	-4.370222e+01	-8.864644e+01	-3.083319e+01	-6.871248e+00	-1.090118e+02	-7.478081e+00	-5.624081e+01	9.891027e+01
3.630750e+06	-4.370036e+01	-8.867703e+01	-3.083600e+01	-6.875554e+00	-1.097522e+02	-6.000534e+01	-5.626472e+01	9.897669e+01
3.630782e+06	-4.369859e+01	-8.870725e+01	-3.083876e+01	-6.879846e+00	-1.059229e+02	-9.195856e+01	-5.628768e+01	9.903758e+01
3.630813e+06	-4.370265e+01	-8.871541e+01	-3.083833e+01	-6.883048e+00	-1.094003e+02	2.876852e+00	-5.624959e+01	9.873736e+01
3.630844e+06	-4.370672e+01	-8.872358e+01	-3.083790e+01	-6.886250e+00	-1.011199e+02	3.785044e+01	-5.621142e+01	9.843976e+01
3.630875e+06	-4.371079e+01	-8.873175e+01	-3.083747e+01	-6.889451e+00	-9.651825e+01	4.532452e+01	-5.617320e+01	9.814476e+01
3.630906e+06	-4.371486e+01	-8.873993e+01	-3.083704e+01	-6.892653e+00	-9.348262e+01	4.841960e+01	-5.613491e+01	9.785235e+01
3.630938e+06	-4.371893e+01	-8.874812e+01	-3.083661e+01	-6.895853e+00	-9.122691e+01	5.010210e+01	-5.609657e+01	9.756251e+01
3.630969e+06	-4.372385e+01	-8.878219e+01	-3.083428e+01	-6.896651e+00	-9.255700e+01	4.778230e+01	-5.611516e+01	9.802045e+01
3.631000e+06	-4.372878e+01	-8.881651e+01	-3.083193e+01	-6.897430e+00	-9.414012e+01	4.449038e+01	-5.613367e+01	9.848642e+01
3.631032e+06	-4.373371e+01	-8.885086e+01	-3.082958e+01	-6.898208e+00	-9.602415e+01	3.958018e+01	-5.615165e+01	9.895435e+01
3.631063e+06	-4.373864e+01	-8.888526e+01	-3.082723e+01	-6.898985e+00	-9.829761e+01	3.163994e+01	-5.616909e+01	9.942419e+01
3.631094e+06	-4.374357e+01	-8.891969e+01	-3.082488e+01	-6.899762e+00	-1.009660e+02	1.751645e+01	-5.618597e+01	9.989589e+01
3.631125e+06	-4.373943e+01	-8.886074e+01	-3.082583e+01	-6.898816e+00	-9.750286e+01	6.726056e+01	-5.621379e+01	9.959362e+01
3.631156e+06	-4.373528e+01	-8.880185e+01	-3.082677e+01	-6.897869e+00	-9.316420e+01	8.537008e+01	-5.624146e+01	9.928940e+01
3.631188e+06	-4.373112e+01	-8.874301e+01	-3.082772e+01	-6.896922e+00	-9.002308e+01	9.291961e+01	-5.626897e+01	9.898325e+01
3.631219e+06	-4.372696e+01	-8.868423e+01	-3.082866e+01	-6.895976e+00	-8.765980e+01	9.691717e+01	-5.629632e+01	9.867516e+01
3.631250e+06	-4.372272e+01	-8.862583e+01	-3.082961e+01	-6.894951e+00	-8.580858e+01	9.934024e+01	-5.632300e+01	9.837061e+01
3.631282e+06	-4.370970e+01	-8.860818e+01	-3.083136e+01	-6.884368e+00	-8.745665e+01	9.731542e+01	-5.628808e+01	9.874342e+01
3.631313e+06	-4.369670e+01	-8.859058e+01	-3.083310e+01	-6.873781e+00	-8.947153e+01	9.422759e+01	-5.625294e+01	9.911323e+01
3.631344e+06	-4.368372e+01	-8.857304e+01	-3.083485e+01	-6.863189e+00	-9.204176e+01	8.898791e+01	-5.621759e+01	9.948005e+01
3.631375e+06	-4.367076e+01	-8.855554e+01	-3.083659e+01	-6.852593e+00	-9.548700e+01	7.847037e+01	-5.618202e+01	9.984389e+01
3.631406e+06	-4.365817e+01	-8.853936e+01	-3.083829e+01	-6.842211e+00	-9.984991e+01	5.211224e+01	-5.614686e+01	1.001962e+02
3.631438e+06	-4.366704e+01	-8.860076e+01	-3.083694e+01	-6.845243e+00	-1.015283e+02	3.070355e+01	-5.614863e+01	1.000224e+02
3.631469e+06	-4.367591e+01	-8.866228e+01	-3.083560e+01	-6.848275e+00	-1.017330e+02	3.742307e+00	-5.615032e+01	9.984846e+01
3.631500e+06	-4.368477e+01	-8.872393e+01	-3.083425e+01	-6.851306e+00	-1.002780e+02	-1.937446e+01	-5.615193e+01	9.967447e+01
3.631532e+06	-4.369364e+01	-8.878570e+01	-3.083291e+01	-6.854337e+00	-9.822626e+01	-3.457461e+01	-5.615347e+01	9.950043e+01
3.631563e+06	-4.370250e+01	-8.884760e+01	-3.083156e+01	-6.857366e+00	-9.625196e+01	-4.406813e+01	-5.615492e+01	9.932632e+01
3.631594e+06	-4.370265e+01	-8.880386e+01	-3.083052e+01	-6.868579e+00	-9.685081e+01	-3.009515e+01	-5.618256e+01	9.912936e+01
3.631625e+06	-4.370273e+01	-8.875926e+01	-3.082948e+01	-6.879855e+00	-9.690540e+01	-1.478831e+01	-5.621039e+01	9.893094e+01
3.631656e+06	-4.370281e+01	-8.871466e+01	-3.082844e+01	-6.891129e+00	-9.637376e+01	-3.178764e-01	-5.623821e+01	9.873125e+01
3.631688e+06	-4.370288e+01	-8.867006e+01	-3.082740e+01	-6.902400e+00	-9.543385e+01	1.185945e+01	-5.626601e+01	9.853028e+01
3.631719e+06	-4.370294e+01	-8.862546e+01	-3.082636e+01	-6.913668e+00	-9.430641e+01	2.142988e+01	-5.629379e+01	9.832802e+01
3.631750e+06	-4.370631e+01	-8.866713e+01	-3.082507e+01	-6.905183e+00	-9.524446e+01	2.445910e+01	-5.631042e+01	9.846891e+01
3.631782e+06	-4.370968e+01	-8.870883e+01	-3.082378e+01	-6.896700e+00	-9.626191e+01	2.825417e+01	-5.632703e+01	9.861034e+01
3.631813e+06	-4.371305e+01	-8.875056e+01	-3.082248e+01	-6.888220e+00	-9.735906e+01	3.309757e+01	-5.634361e+01	9.875231e+01
3.631844e+06	-4.371641e+01	-8.879233e+01	-3.082119e+01	-6.879742e+00	-9.852212e+01	3.938562e+01	-5.636018e+01	9.889483e+01
3.631875e+06	-4.371973e+01	-8.883358e+01	-3.081991e+01	-6.871306e+00	-9.970352e+01	4.757171e+01	-5.637619e+01	9.903747e+01
3.631906e+06	-4.371805e+01	-8.880680e+01	-3.082048e+01	-6.867695e+00	-1.006643e+02	4.912126e+01	-5.632615e+01	9.912799e+01
3.631938e+06	-4.371637e+01	-8.878004e+01	-3.082104e+01	-6.864083e+00	-1.017356e+02	5.107939e+01	-5.627637e+01	9.921747e+01
3.631969e+06	-4.371469e+01	-8.875329e+01	-3.082161e+01	-6.860470e+00	-1.029427e+02	5.362517e+01	-5.622686e+01	9.930594e+01
3.632000e+06	-4.371301e+01	-8.872655e+01	-3.082217e+01	-6.856858e+00	-1.043180e+02	5.705329e+01	-5.617760e+01	9.939341e+01
3.632032e+06	-4.371134e+01	-8.870051e+01	-3.082272e+01	-6.853314e+00	-1.057384e+02	6.145504e+01	-5.612895e+01	9.947901e+01
3.632063e+06	-4.371088e+01	-8.871702e+01	-3.082238e+01	-6.854056e+00	-9.975432e+01	5.128297e+01	-5.610137e+01	9.950933e+01
3.632094e+06	-4.371041e+01	-8.873352e+01	-3.082203e+01	-6.854797e+00	-9.618401e+01	4.791279e+01	-5.607387e+01	9.953947e+01
3.632125e+06	-4.370995e+01	-8.875003e+01	-3.082168e+01	-6.855539e+00	-9.364997e+01	4.624459e+01	-5.604646e+01	9.956942e+01
3.632156e+06	-4.370948e+01	-8.876653e+01	-3.082133e+01	-6.856281e+00	-9.168717e+01	4.525064e+01	-5.601913e+01	9.959917e+01
3.632188e+06	-4.370901e+01	-8.878303e+01	-3.082098e+01	-6.857022e+00	-9.008575e+01	4.459125e+01	-5.599189e+01	9.962874e+01
3.632219e+06	-4.370479e+01	-8.880564e+01	-3.082103e+01	-6.865027e+00	-9.149387e+01	3.369787e+01	-5.601121e+01	9.937908e+01
3.632250e+06	-4.370054e+01	-8.882827e+01	-3.082108e+01	-6.873091e+00	-9.268656e+01	1.879070e+01	-5.603078e+01	9.912603e+01
3.632282e+06	-4.369629e+01	-8.885089e+01	-3.082113e+01	-6.881154e+00	-9.323321e+01	4.728325e-01	-5.605023e+01	9.887183e+01
3.632313e+06	-4.369204e+01	-8.887348e+01	-3.082118e+01	-6.889218e+00	-9.285831e+01	-1.822426e+01	-5.606954e+01	9.861650e+01
3.632344e+06	-4.368779e+01	-8.889605e+01	-3.082123e+01	-6.897282e+00	-9.175764e+01	-3.391718e+01	-5.608873e+01	9.836004e+01
3.632375e+06	-4.369520e+01	-8.885291e+01	-3.082137e+01	-6.896590e+00	-9.346588e+01	-3.698937e+01	-5.609706e+01	9.850144e+01
3.632406e+06	-4.370261e+01	-8.880970e+01	-3.082152e+01	-6.895897e+00	-9.554509e+01	-4.174394e+01	-5.610534e+01	9.864311e+01
3.632438e+06	-4.371003e+01	-8.876642e+01	-3.082166e+01	-6.895205e+00	-9.814368e+01	-4.990928e+01	-5.611358e+01	9.878505e+01
3.632469e+06	-4.371744e+01	-8.872306e+01	-3.082181e+01	-6.894513e+00	-1.013419e+02	-6.598068e+01	-5.612177e+01	9.892726e+01
3.632500e+06	-4.372480e+01	-8.868026e+01	-3.082197e+01	-6.893799e+00	-1.040823e+02	-9.839672e+01	-5.613027e+01	9.906879e+01
3.632532e+06	-4.372423e+01	-8.871549e+01	-3.082411e+01	-6.890403e+00	-1.027360e+02	-4.246393e+01	-5.618330e+01	9.909415e+01
3.632563e+06	-4.372366e+01	-8.875071e+01	-3.082625e+01	-6.887006e+00	-9.824194e+01	-1.744758e+01	-5.623666e+01	9.911981e+01
3.632594e+06	-4.372309e+01	-8.878592e+01	-3.082839e+01	-6.883607e+00	-9.482820e+01	-7.651185e+00	-5.629034e+01	9.914580e+01
3.632625e+06	-4.372251e+01	-8.882114e+01	-3.083053e+01	-6.880207e+00	-9.228766e+01	-2.733418e+00	-5.634436e+01	9.917211e+01
3.632656e+06	-4.372193e+01	-8.885451e+01	-3.083261e+01	-6.876871e+00	-9.034997e+01	3.348425e-01	-5.639697e+01	9.920038e+01
3.632688e+06	-4.372148e+01	-8.877490e+01	-3.083097e+01	-6.877648e+00	-9.194986e+01	1.480012e+01	-5.634296e+01	9.932839e+01
3.632719e+06	-4.372101e+01	-8.869530e+01	-3.082933e+01	-6.878424e+00	-9.297989e+01	3.456277e+01	-5.628924e+01	9.945482e+01
3.632750e+06	-4.372052e+01	-8.861570e+01	-3.082769e+01	-6.879201e+00	-9.285447e+01	5.660181e+01	-5.623580e+01	9.957970e+01
3.632782e+06	-4.372002e+01	-8.853612e+01	-3.082604e+01	-6.879976e+00	-9.165870e+01	7.540331e+01	-5.618266e+01	9.970306e+01
3.632813e+06	-4.371949e+01	-8.845655e+01	-3.082440e+01	-6.880752e+00	-9.001591e+01	8.884435e+01	-5.612979e+01	9.982492e+01
3.632844e+06	-4.371790e+01	-8.846743e+01	-3.082163e+01	-6.890706e+00	-9.225268e+01	9.698633e+01	-5.613211e+01	9.984960e+01
3.632875e+06	-4.371629e+01	-8.847904e+01	-3.081885e+01	-6.900727e+00	-9.489368e+01	1.113474e+02	-5.613486e+01	9.987353e+01
3.632906e+06	-4.371469e+01	-8.849065e+01	-3.081606e+01	-6.910742e+00	-9.722221e+01	1.374211e+02	-5.613762e+01	9.989746e+01
3.632938e+06	-4.371308e+01	-8.850225e+01	-3.081328e+01	-6.920751e+00	-9.717101e+01	1.722608e+02	-5.614037e+01	9.992141e+01
3.632969e+06	-4.371148e+01	-8.851385e+01	-3.081050e+01	-6.930753e+00	-9.480422e+01	-1.621151e+02	-5.614313e+01	9.994538e+01
3.633000e+06	-4.370752e+01	-8.856966e+01	-3.081129e+01	-6.921668e+00	-9.556731e+01	1.684483e+02	-5.616362e+01	1.000189e+02
3.633032e+06	-4.370355e+01	-8.862541e+01	-3.081209e+01	-6.912581e+00	-9.414155e+01	1.413603e+02	-5.618414e+01	1.000928e+02
3.633063e+06	-4.369958e+01	-8.868112e+01	-3.081288e+01	-6.903492e+00	-9.184210e+01	1.241099e+02	-5.620470e+01	1.001671e+02
3.633094e+06	-4.369560e+01	-8.873677e+01	-3.081367e+01	-6.894402e+00	-8.964795e+01	1.139281e+02	-5.622529e+01	1.002417e+02
3.633125e+06	-4.369169e+01	-8.879157e+01	-3.081447e+01	-6.885277e+00	-8.779625e+01	1.076915e+02	-5.624589e+01	1.003148e+02
3.633156e+06	-4.369743e+01	-8.874680e+01	-3.081557e+01	-6.871977e+00	-9.133532e+01	1.199365e+02	-5.626297e+01	1.001599e+02
3.633188e+06	-4.370317e+01	-8.870197e+01	-3.081667e+01	-6.858674e+00	-9.549425e+01	1.509037e+02	-5.628003e+01	1.000044e+02
3.633219e+06	-4.370891e+01	-8.865708e+01	-3.081776e+01	-6.845368e+00	-9.520371e+01	-1.556558e+02	-5.629705e+01	9.984832e+01
3.633250e+06	-4.371465e+01	-8.861214e+01	-3.081886e+01	-6.832058e+00	-9.100243e+01	-1.270416e+02	-5.631404e+01	9.969162e+01
3.633282e+06	-4.372013e+01	-8.856814e+01	-3.081995e+01	-6.819296e+00	-8.765136e+01	-1.157152e+02	-5.633073e+01	9.953453e+01
3.633313e+06	-4.371034e+01	-8.858605e+01	-3.082034e+01	-6.840405e+00	-9.210618e+01	-1.149320e+02	-5.633089e+01	9.939114e+01
3.633344e+06	-4.370055e+01	-8.860392e+01	-3.082074e+01	-6.861516e+00	-1.017136e+02	-1.109754e+02	-5.633100e+01	9.924776e+01
3.633375e+06	-4.369078e+01	-8.862175e+01	-3.082113e+01	-6.882629e+00	-1.014021e+02	5.741680e+01	-5.633105e+01	9.910437e+01
3.633406e+06	-4.368101e+01	-8.863955e+01	-3.082153e+01	-6.903744e+00	-9.200141e+01	6.118802e+01	-5.633105e+01	9.896098e+01
3.633438e+06	-4.367126e+01	-8.865730e+01	-3.082192e+01	-6.924861e+00	-8.758845e+01	6.195626e+01	-5.633099e+01	9.881759e+01
3.633469e+06	-4.368286e+01	-8.864045e+01	-3.082094e+01	-6.908400e+00	-8.862527e+01	6.215554e+01	-5.631756e+01	9.874813e+01
3.633500e+06	-4.369465e+01	-8.862327e+01	-3.081995e+01	-6.891639e+00	-8.984900e+01	6.241214e+01	-5.630403e+01	9.867949e+01
3.633532e+06	-4.370645e+01	-8.860605e+01	-3.081896e+01	-6.874882e+00	-9.127359e+01	6.276021e+01	-5.629051e+01	9.861106e+01
3.633563e+06	-4.371827e+01	-8.858878e+01	-3.081796e+01	-6.858129e+00	-9.297799e+01	6.325923e+01	-5.627699e+01	9.854285e+01
3.633594e+06	-4.373010e+01	-8.857146e+01	-3.081697e+01	-6.841380e+00	-9.509927e+01	6.403443e+01	-5.626349e+01	9.847484e+01
3.633625e+06	-4.372057e+01	-8.869015e+01	-3.081777e+01	-6.850500e+00	-9.332028e+01	7.493882e+01	-5.624852e+01	9.847196e+01
