# Hz S dB R 50.000
3.623906e+06	-2.672935e+01	1.736963e+02	-3.140017e+01	-4.862032e+00	-9.296290e+01	1.384744e+01	-2.572274e+01	1.720083e+02
3.623937e+06	-2.673060e+01	1.736985e+02	-3.139896e+01	-4.838377e+00	-9.416264e+01	9.024241e+00	-2.572313e+01	1.720054e+02
3.623968e+06	-2.673185e+01	1.737007e+02	-3.139775e+01	-4.814728e+00	-9.545881e+01	2.589501e+00	-2.572352e+01	1.720025e+02
3.624000e+06	-2.673309e+01	1.737029e+02	-3.139654e+01	-4.791086e+00	-9.680610e+01	-6.149790e+00	-2.572390e+01	1.719996e+02
3.624031e+06	-2.673434e+01	1.737051e+02	-3.139532e+01	-4.767451e+00	-9.807402e+01	-1.799795e+01	-2.572429e+01	1.719967e+02
3.624062e+06	-2.673559e+01	1.737073e+02	-3.139411e+01	-4.743822e+00	-9.899464e+01	-3.331458e+01	-2.572468e+01	1.719938e+02
3.624094e+06	-2.673565e+01	1.737012e+02	-3.139024e+01	-4.703881e+00	-1.013770e+02	-9.642013e+00	-2.572492e+01	1.719960e+02
3.624125e+06	-2.673569e+01	1.736948e+02	-3.138630e+01	-4.663574e+00	-1.016687e+02	2.494928e+01	-2.572516e+01	1.719984e+02
3.624156e+06	-2.673572e+01	1.736884e+02	-3.138236e+01	-4.623304e+00	-9.945685e+01	5.202189e+01	-2.572539e+01	1.720007e+02
3.624187e+06	-2.673576e+01	1.736820e+02	-3.137841e+01	-4.583071e+00	-9.680888e+01	6.709768e+01	-2.572563e+01	1.720031e+02
3.624218e+06	-2.673579e+01	1.736756e+02	-3.137446e+01	-4.542874e+00	-9.451440e+01	7.556443e+01	-2.572587e+01	1.720055e+02
3.624250e+06	-2.673485e+01	1.736794e+02	-3.137162e+01	-4.529736e+00	-9.880595e+01	5.288034e+01	-2.572450e+01	1.719989e+02
3.624281e+06	-2.673389e+01	1.736835e+02	-3.136880e+01	-4.517046e+00	-1.007121e+02	-8.775855e-01	-2.572310e+01	1.719922e+02
3.624312e+06	-2.673294e+01	1.736875e+02	-3.136598e+01	-4.504365e+00	-9.655249e+01	-3.935618e+01	-2.572171e+01	1.719855e+02
3.624344e+06	-2.673198e+01	1.736915e+02	-3.136316e+01	-4.491691e+00	-9.267155e+01	-5.363011e+01	-2.572032e+01	1.719788e+02
3.624375e+06	-2.673103e+01	1.736955e+02	-3.136034e+01	-4.479026e+00	-8.981711e+01	-6.014955e+01	-2.571892e+01	1.719721e+02
3.624406e+06	-2.673129e+01	1.736940e+02	-3.135545e+01	-4.472110e+00	-9.333275e+01	-4.600498e+01	-2.572080e+01	1.719786e+02
3.624437e+06	-2.673155e+01	1.736925e+02	-3.135055e+01	-4.465248e+00	-9.700804e+01	-1.149908e+01	-2.572271e+01	1.719853e+02
3.624468e+06	-2.673182e+01	1.736909e+02	-3.134565e+01	-4.458394e+00	-9.587400e+01	3.787914e+01	-2.572462e+01	1.719919e+02
3.624500e+06	-2.673209e+01	1.736894e+02	-3.134075e+01	-4.451548e+00	-9.192128e+01	6.287726e+01	-2.572653e+01	1.719986e+02
3.624531e+06	-2.673236e+01	1.736879e+02	-3.133586e+01	-4.444709e+00	-8.869376e+01	7.353178e+01	-2.572844e+01	1.720053e+02
3.624562e+06	-2.673249e+01	1.736922e+02	-3.133307e+01	-4.446169e+00	-9.046525e+01	7.205599e+01	-2.572814e+01	1.720029e+02
3.624594e+06	-2.673263e+01	1.736965e+02	-3.133027e+01	-4.447628e+00	-9.268130e+01	6.971999e+01	-2.572785e+01	1.720004e+02
3.624625e+06	-2.673276e+01	1.737008e+02	-3.132748e+01	-4.449086e+00	-9.562700e+01	6.548516e+01	-2.572755e+01	1.719980e+02
3.624656e+06	-2.673289e+01	1.737051e+02	-3.132469e+01	-4.450543e+00	-9.993487e+01	5.568487e+01	-2.572725e+01	1.719955e+02
3.624687e+06	-2.673303e+01	1.737094e+02	-3.132190e+01	-4.451999e+00	-1.064332e+02	1.948413e+01	-2.572696e+01	1.719931e+02
3.624718e+06	-2.673226e+01	1.737003e+02	-3.131602e+01	-4.454736e+00	-1.005403e+02	2.559291e+01	-2.572497e+01	1.719896e+02
3.624750e+06	-2.673146e+01	1.736908e+02	-3.131007e+01	-4.457501e+00	-9.690533e+01	2.822818e+01	-2.572294e+01	1.719862e+02
3.624781e+06	-2.673067e+01	1.736814e+02	-3.130412e+01	-4.460263e+00	-9.434381e+01	2.951906e+01	-2.572092e+01	1.719827e+02
3.624812e+06	-2.672988e+01	1.736719e+02	-3.129817e+01	-4.463020e+00	-9.236610e+01	3.028447e+01	-2.571889e+01	1.719793e+02
3.624844e+06	-2.672908e+01	1.736625e+02	-3.129223e+01	-4.465774e+00	-9.075539e+01	3.079085e+01	-2.571686e+01	1.719759e+02
3.624875e+06	-2.672962e+01	1.736685e+02	-3.129037e+01	-4.485251e+00	-9.183539e+01	3.383058e+01	-2.571848e+01	1.719778e+02
3.624906e+06	-2.673019e+01	1.736748e+02	-3.128858e+01	-4.504992e+00	-9.308403e+01	3.787302e+01	-2.572016e+01	1.719799e+02
3.624937e+06	-2.673075e+01	1.736811e+02	-3.128678e+01	-4.524724e+00	-9.447352e+01	4.335393e+01	-2.572184e+01	1.719820e+02
3.624968e+06	-2.673131e+01	1.736874e+02	-3.128498e+01	-4.544449e+00	-9.599410e+01	5.102743e+01	-2.572352e+01	1.719840e+02
3.625000e+06	-2.673188e+01	1.736936e+02	-3.128318e+01	-4.564165e+00	-9.756406e+01	6.201460e+01	-2.572520e+01	1.719861e+02
3.625031e+06	-2.673173e+01	1.736969e+02	-3.127995e+01	-4.604643e+00	-1.006756e+02	2.964808e+01	-2.572421e+01	1.719820e+02
3.625062e+06	-2.673157e+01	1.737002e+02	-3.127670e+01	-4.645257e+00	-9.978827e+01	-1.463247e+01	-2.572321e+01	1.719779e+02
3.625094e+06	-2.673141e+01	1.737034e+02	-3.127345e+01	-4.685842e+00	-9.630602e+01	-3.960384e+01	-2.572221e+01	1.719738e+02
3.625125e+06	-2.673126e+01	1.737067e+02	-3.127020e+01	-4.726396e+00	-9.325231e+01	-5.107780e+01	-2.572120e+01	1.719696e+02
3.625156e+06	-2.673110e+01	1.737099e+02	-3.126694e+01	-4.766919e+00	-9.085445e+01	-5.717385e+01	-2.572020e+01	1.719655e+02
3.625187e+06	-2.673145e+01	1.737071e+02	-3.126531e+01	-4.767732e+00	-9.142061e+01	-5.944935e+01	-2.572097e+01	1.719701e+02
3.625218e+06	-2.673180e+01	1.737042e+02	-3.126367e+01	-4.768544e+00	-9.200949e+01	-6.204870e+01	-2.572175e+01	1.719747e+02
3.625250e+06	-2.673216e+01	1.737014e+02	-3.126204e+01	-4.769356e+00	-9.261916e+01	-6.503297e+01	-2.572252e+01	1.719792e+02
3.625281e+06	-2.673251e+01	1.736985e+02	-3.126040e+01	-4.770167e+00	-9.324557e+01	-6.847415e+01	-2.572330e+01	1.719838e+02
3.625312e+06	-2.673286e+01	1.736957e+02	-3.125877e+01	-4.770979e+00	-9.388155e+01	-7.245444e+01	-2.572407e+01	1.719884e+02
3.625344e+06	-2.673402e+01	1.736882e+02	-3.126123e+01	-4.783695e+00	-9.429793e+01	-5.608291e+01	-2.572288e+01	1.719891e+02
3.625375e+06	-2.673519e+01	1.736807e+02	-3.126379e+01	-4.796712e+00	-9.394815e+01	-3.908828e+01	-2.572164e+01	1.719898e+02
3.625406e+06	-2.673636e+01	1.736731e+02	-3.126635e+01	-4.809736e+00	-9.298505e+01	-2.453499e+01	-2.572040e+01	1.719905e+02
3.625437e+06	-2.673754e+01	1.736656e+02	-3.126891e+01	-4.822768e+00	-9.172765e+01	-1.331388e+01	-2.571916e+01	1.719911e+02
3.625468e+06	-2.673871e+01	1.736580e+02	-3.127147e+01	-4.835808e+00	-9.041187e+01	-4.993861e+00	-2.571792e+01	1.719918e+02
3.625500e+06	-2.673775e+01	1.736654e+02	-3.126808e+01	-4.854426e+00	-9.142525e+01	-2.675757e+00	-2.571963e+01	1.719870e+02
3.625531e+06	-2.673676e+01	1.736729e+02	-3.126460e+01	-4.873119e+00	-9.260037e+01	2.137937e-01	-2.572139e+01	1.719820e+02
3.625562e+06	-2.673577e+01	1.736805e+02	-3.126112e+01	-4.891797e+00	-9.392528e+01	4.068360e+00	-2.572315e+01	1.719771e+02
3.625594e+06	-2.673478e+01	1.736881e+02	-3.125764e+01	-4.910461e+00	-9.542419e+01	9.407451e+00	-2.572491e+01	1.719722e+02
3.625625e+06	-2.673379e+01	1.736956e+02	-3.125416e+01	-4.929109e+00	-9.710296e+01	1.711709e+01	-2.572668e+01	1.719672e+02
3.625656e+06	-2.673341e+01	1.736977e+02	-3.125730e+01	-4.917996e+00	-9.688380e+01	3.215573e+01	-2.572581e+01	1.719740e+02
3.625687e+06	-2.673305e+01	1.736998e+02	-3.126050e+01	-4.906634e+00	-9.613643e+01	4.560035e+01	-2.572492e+01	1.719809e+02
3.625718e+06	-2.673268e+01	1.737018e+02	-3.126371e+01	-4.895265e+00	-9.509064e+01	5.650274e+01	-2.572403e+01	1.719877e+02
3.625750e+06	-2.673231e+01	1.737039e+02	-3.126691e+01	-4.883887e+00	-9.393871e+01	6.494746e+01	-2.572315e+01	1.719946e+02
3.625781e+06	-2.673194e+01	1.737059e+02	-3.127011e+01	-4.872500e+00	-9.279322e+01	7.141985e+01	-2.572226e+01	1.720014e+02
3.625812e+06	-2.673108e+01	1.737007e+02	-3.126742e+01	-4.892776e+00	-9.383749e+01	6.728806e+01	-2.572299e+01	1.720022e+02
3.625844e+06	-2.673023e+01	1.736954e+02	-3.126472e+01	-4.913040e+00	-9.495828e+01	6.198367e+01	-2.572371e+01	1.720030e+02
3.625875e+06	-2.672937e+01	1.736902e+02	-3.126203e+01	-4.933292e+00	-9.613304e+01	5.506779e+01	-2.572444e+01	1.720038e+02
3.625906e+06	-2.672852e+01	1.736850e+02	-3.125934e+01	-4.953530e+00	-9.729843e+01	4.599763e+01	-2.572517e+01	1.720046e+02
3.625937e+06	-2.672766e+01	1.736797e+02	-3.125664e+01	-4.973757e+00	-9.831864e+01	3.429991e+01	-2.572589e+01	1.720054e+02
3.625968e+06	-2.672824e+01	1.736780e+02	-3.125818e+01	-4.979859e+00	-9.446400e+01	4.509762e+01	-2.572465e+01	1.719990e+02
3.626000e+06	-2.672885e+01	1.736763e+02	-3.125981e+01	-4.985617e+00	-9.162333e+01	5.032645e+01	-2.572336e+01	1.719924e+02
3.626031e+06	-2.672946e+01	1.736747e+02	-3.126145e+01	-4.991377e+00	-8.945453e+01	5.326083e+01	-2.572207e+01	1.719858e+02
3.626062e+06	-2.673008e+01	1.736730e+02	-3.126309e+01	-4.997139e+00	-8.770861e+01	5.513009e+01	-2.572078e+01	1.719793e+02
3.626094e+06	-2.673069e+01	1.736713e+02	-3.126472e+01	-5.002903e+00	-8.625017e+01	5.642253e+01	-2.571949e+01	1.719727e+02
3.626125e+06	-2.673111e+01	1.736826e+02	-3.126424e+01	-5.021989e+00	-8.762218e+01	5.443304e+01	-2.572034e+01	1.719759e+02
3.626156e+06	-2.673153e+01	1.736940e+02	-3.126372e+01	-5.041289e+00	-8.929368e+01	5.152980e+01	-2.572123e+01	1.719793e+02
3.626187e+06	-2.673195e+01	1.737054e+02	-3.126320e+01	-5.060587e+00	-9.132207e+01	4.708218e+01	-2.572211e+01	1.719827e+02
3.626218e+06	-2.673237e+01	1.737169e+02	-3.126268e+01	-5.079882e+00	-9.385327e+01	3.954996e+01	-2.572300e+01	1.719861e+02
3.626250e+06	-2.673279e+01	1.737283e+02	-3.126216e+01	-5.099176e+00	-9.700471e+01	2.494445e+01	-2.572388e+01	1.719895e+02
3.626281e+06	-2.673182e+01	1.737235e+02	-3.126329e+01	-5.098673e+00	-9.651129e+01	3.464018e+01	-2.572402e+01	1.719900e+02
3.626312e+06	-2.673083e+01	1.737187e+02	-3.126442e+01	-5.098010e+00	-9.580324e+01	4.326066e+01	-2.572415e+01	1.719905e+02
3.626344e+06	-2.672985e+01	1.737138e+02	-3.126556e+01	-5.097348e+00	-9.499574e+01	5.049282e+01	-2.572429e+01	1.719911e+02
3.626375e+06	-2.672887e+01	1.737089e+02	-3.126669e+01	-5.096685e+00	-9.415200e+01	5.646785e+01	-2.572442e+01	1.719916e+02
3.626406e+06	-2.672789e+01	1.737040e+02	-3.126783e+01	-5.096022e+00	-9.331186e+01	6.138702e+01	-2.572455e+01	1.719921e+02
3.626437e+06	-2.672849e+01	1.737014e+02	-3.126765e+01	-5.088733e+00	-9.624766e+01	6.449684e+01	-2.572481e+01	1.719931e+02
3.626468e+06	-2.672908e+01	1.736987e+02	-3.126746e+01	-5.081445e+00	-1.006164e+02	7.172289e+01	-2.572506e+01	1.719941e+02
3.626500e+06	-2.672968e+01	1.736961e+02	-3.126728e+01	-5.074156e+00	-1.082483e+02	1.017753e+02	-2.572532e+01	1.719951e+02
3.626531e+06	-2.673028e+01	1.736934e+02	-3.126709e+01	-5.066868e+00	-1.066022e+02	-1.642403e+02	-2.572558e+01	1.719962e+02
3.626562e+06	-2.673088e+01	1.736908e+02	-3.126690e+01	-5.059581e+00	-9.968746e+01	-1.423820e+02	-2.572583e+01	1.719972e+02
3.626594e+06	-2.673183e+01	1.736949e+02	-3.126782e+01	-5.077117e+00	-1.030182e+02	1.790759e+02	-2.572510e+01	1.720017e+02
3.626625e+06	-2.673279e+01	1.736993e+02	-3.126877e+01	-5.095267e+00	-1.009494e+02	1.302881e+02	-2.572435e+01	1.720063e+02
3.626656e+06	-2.673375e+01	1.737036e+02	-3.126971e+01	-5.113421e+00	-9.689390e+01	1.084693e+02	-2.572360e+01	1.720110e+02
3.626687e+06	-2.673471e+01	1.737080e+02	-3.127065e+01	-5.131579e+00	-9.374482e+01	9.913720e+01	-2.572285e+01	1.720156e+02
3.626718e+06	-2.673567e+01	1.737123e+02	-3.127159e+01	-5.149740e+00	-9.134552e+01	9.422622e+01	-2.572209e+01	1.720202e+02
3.626750e+06	-2.673462e+01	1.737100e+02	-3.127134e+01	-5.141254e+00	-9.288526e+01	1.078727e+02	-2.572342e+01	1.720152e+02
3.626781e+06	-2.673353e+01	1.737076e+02	-3.127107e+01	-5.132335e+00	-9.398151e+01	1.269862e+02	-2.572478e+01	1.720100e+02
3.626812e+06	-2.673244e+01	1.737052e+02	-3.127080e+01	-5.123417e+00	-9.398486e+01	1.488023e+02	-2.572614e+01	1.720048e+02
3.626844e+06	-2.673136e+01	1.737028e+02	-3.127053e+01	-5.114499e+00	-9.289307e+01	1.679413e+02	-2.572751e+01	1.719996e+02
3.626875e+06	-2.673027e+01	1.737004e+02	-3.127026e+01	-5.105581e+00	-9.129389e+01	-1.781419e+02	-2.572887e+01	1.719943e+02
3.626906e+06	-2.673106e+01	1.737027e+02	-3.127172e+01	-5.109477e+00	-9.415640e+01	-1.763369e+02	-2.572783e+01	1.719913e+02
3.626937e+06	-2.673188e+01	1.737050e+02	-3.127320e+01	-5.113477e+00	-9.850096e+01	-1.723681e+02	-2.572678e+01	1.719882e+02
3.626968e+06	-2.673269e+01	1.737074e+02	-3.127468e+01	-5.117478e+00	-1.070708e+02	-1.545420e+02	-2.572573e+01	1.719851e+02
3.627000e+06	-2.673350e+01	1.737097e+02	-3.127615e+01	-5.121481e+00	-1.071563e+02	-3.056137e+01	-2.572467e+01	1.719821e+02
3.627031e+06	-2.673431e+01	1.737120e+02	-3.127763e+01	-5.125485e+00	-9.853641e+01	-1.247670e+01	-2.572362e+01	1.719790e+02
3.627062e+06	-2.673457e+01	1.737160e+02	-3.127685e+01	-5.129409e+00	-9.817558e+01	-3.473301e+00	-2.572326e+01	1.719851e+02
3.627094e+06	-2.673483e+01	1.737200e+02	-3.127608e+01	-5.133331e+00	-9.764357e+01	4.644340e+00	-2.572290e+01	1.719913e+02
3.627125e+06	-2.673509e+01	1.737241e+02	-3.127530e+01	-5.137254e+00	-9.699881e+01	1.172778e+01	-2.572253e+01	1.719974e+02
3.627156e+06	-2.673535e+01	1.737281e+02	-3.127452e+01	-5.141175e+00	-9.629270e+01	1.778682e+01	-2.572217e+01	1.720035e+02
3.627187e+06	-2.673560e+01	1.737321e+02	-3.127375e+01	-5.145096e+00	-9.556341e+01	2.292022e+01	-2.572181e+01	1.720097e+02
3.627218e+06	-2.673577e+01	1.737300e+02	-3.127434e+01	-5.144515e+00	-9.580273e+01	3.360642e+01	-2.572232e+01	1.720083e+02
3.627250e+06	-2.673593e+01	1.737276e+02	-3.127496e+01	-5.143823e+00	-9.575096e+01	4.470500e+01	-2.572285e+01	1.720068e+02
3.627281e+06	-2.673609e+01	1.737253e+02	-3.127558e+01	-5.143131e+00	-9.539151e+01	5.528433e+01	-2.572339e+01	1.720053e+02
3.627312e+06	-2.673626e+01	1.737230e+02	-3.127620e+01	-5.142439e+00	-9.479226e+01	6.474732e+01	-2.572392e+01	1.720038e+02
3.627344e+06	-2.673642e+01	1.737207e+02	-3.127682e+01	-5.141747e+00	-9.404198e+01	7.283865e+01	-2.572445e+01	1.720023e+02
3.627375e+06	-2.673629e+01	1.737171e+02	-3.127626e+01	-5.137272e+00	-9.474423e+01	4.919346e+01	-2.572450e+01	1.720036e+02
3.627406e+06	-2.673615e+01	1.737134e+02	-3.127568e+01	-5.132736e+00	-9.391471e+01	2.535559e+01	-2.572453e+01	1.720050e+02
3.627437e+06	-2.673602e+01	1.737097e+02	-3.127510e+01	-5.128201e+00	-9.215203e+01	7.905819e+00	-2.572457e+01	1.720064e+02
3.627468e+06	-2.673589e+01	1.737060e+02	-3.127452e+01	-5.123666e+00	-9.024495e+01	-3.428705e+00	-2.572460e+01	1.720077e+02
3.627500e+06	-2.673575e+01	1.737023e+02	-3.127394e+01	-5.119132e+00	-8.849635e+01	-1.084173e+01	-2.572464e+01	1.720091e+02
3.627531e+06	-2.673621e+01	1.736989e+02	-3.127540e+01	-5.127912e+00	-8.851030e+01	-5.087195e+00	-2.572456e+01	1.720139e+02
3.627562e+06	-2.673667e+01	1.736954e+02	-3.127686e+01	-5.136803e+00	-8.844768e+01	7.386165e-01	-2.572449e+01	1.720188e+02
3.627594e+06	-2.673713e+01	1.736919e+02	-3.127833e+01	-5.145696e+00	-8.829857e+01	6.423667e+00	-2.572441e+01	1.720237e+02
3.627625e+06	-2.673759e+01	1.736885e+02	-3.127980e+01	-5.154593e+00	-8.807153e+01	1.186703e+01	-2.572434e+01	1.720286e+02
3.627656e+06	-2.673805e+01	1.736850e+02	-3.128127e+01	-5.163492e+00	-8.777834e+01	1.699307e+01	-2.572426e+01	1.720335e+02
3.627687e+06	-2.673750e+01	1.736944e+02	-3.128069e+01	-5.160023e+00	-8.884855e+01	2.158267e+01	-2.572418e+01	1.720260e+02
3.627718e+06	-2.673695e+01	1.737037e+02	-3.128011e+01	-5.156555e+00	-8.998672e+01	2.750515e+01	-2.572411e+01	1.720185e+02
3.627750e+06	-2.673640e+01	1.737131e+02	-3.127953e+01	-5.153087e+00	-9.115624e+01	3.523969e+01	-2.572403e+01	1.720110e+02
3.627781e+06	-2.673584e+01	1.737224e+02	-3.127895e+01	-5.149619e+00	-9.226799e+01	4.531875e+01	-2.572395e+01	1.720036e+02
3.627812e+06	-2.673529e+01	1.737318e+02	-3.127836e+01	-5.146152e+00	-9.315264e+01	5.804126e+01	-2.572387e+01	1.719961e+02
3.627844e+06	-2.673534e+01	1.737280e+02	-3.127983e+01	-5.140967e+00	-9.299027e+01	6.200694e+01	-2.572396e+01	1.720025e+02
3.627875e+06	-2.673540e+01	1.737239e+02	-3.128135e+01	-5.135737e+00	-9.277686e+01	6.556159e+01	-2.572405e+01	1.720094e+02
3.627906e+06	-2.673546e+01	1.737198e+02	-3.128287e+01	-5.130506e+00	-9.253759e+01	6.893551e+01	-2.572414e+01	1.720162e+02
3.627937e+06	-2.673552e+01	1.737158e+02	-3.128439e+01	-5.125273e+00	-9.227706e+01	7.212058e+01	-2.572423e+01	1.720230e+02
3.627968e+06	-2.673558e+01	1.737117e+02	-3.128591e+01	-5.120038e+00	-9.199962e+01	7.511417e+01	-2.572432e+01	1.720298e+02
3.628000e+06	-2.673592e+01	1.737099e+02	-3.128383e+01	-5.142531e+00	-9.518767e+01	5.757182e+01	-2.572353e+01	1.720312e+02
3.628031e+06	-2.673626e+01	1.737081e+02	-3.128170e+01	-5.165464e+00	-9.757128e+01	2.187062e+01	-2.572272e+01	1.720325e+02
3.628062e+06	-2.673660e+01	1.737064e+02	-3.127957e+01	-5.188386e+00	-9.593594e+01	-1.762795e+01	-2.572191e+01	1.720338e+02
3.628094e+06	-2.673694e+01	1.737047e+02	-3.127744e+01	-5.211297e+00	-9.265345e+01	-3.879459e+01	-2.572110e+01	1.720352e+02
3.628125e+06	-2.673728e+01	1.737029e+02	-3.127531e+01	-5.234196e+00	-8.983540e+01	-4.909953e+01	-2.572030e+01	1.720365e+02
3.628156e+06	-2.673614e+01	1.737125e+02	-3.127528e+01	-5.199317e+00	-9.005016e+01	-4.468132e+01	-2.572123e+01	1.720303e+02
3.628187e+06	-2.673500e+01	1.737221e+02	-3.127528e+01	-5.163972e+00	-9.023554e+01	-3.994358e+01	-2.572217e+01	1.720240e+02
3.628218e+06	-2.673385e+01	1.737318e+02	-3.127526e+01	-5.128627e+00	-9.036208e+01	-3.503219e+01	-2.572311e+01	1.720177e+02
3.628250e+06	-2.673271e+01	1.737414e+02	-3.127525e+01	-5.093282e+00	-9.042434e+01	-3.001260e+01	-2.572406e+01	1.720115e+02
3.628281e+06	-2.673156e+01	1.737511e+02	-3.127523e+01	-5.057937e+00	-9.041949e+01	-2.495964e+01	-2.572500e+01	1.720052e+02
3.628312e+06	-2.673294e+01	1.737446e+02	-3.127686e+01	-5.067487e+00	-9.175014e+01	-1.677811e+01	-2.572554e+01	1.720042e+02
3.628344e+06	-2.673431e+01	1.737381e+02	-3.127849e+01	-5.077041e+00	-9.303586e+01	-5.689146e+00	-2.572608e+01	1.720031e+02
3.628375e+06	-2.673569e+01	1.737316e+02	-3.128013e+01	-5.086598e+00	-9.404331e+01	8.814697e+00	-2.572662e+01	1.720021e+02
3.628406e+06	-2.673706e+01	1.737251e+02	-3.128176e+01	-5.096159e+00	-9.444186e+01	2.593928e+01	-2.572717e+01	1.720011e+02
3.628437e+06	-2.673844e+01	1.737187e+02	-3.128339e+01	-5.105723e+00	-9.405186e+01	4.308124e+01	-2.572771e+01	1.720000e+02
3.628468e+06	-2.673843e+01	1.737121e+02	-3.128381e+01	-5.131441e+00	-9.460186e+01	5.331296e+01	-2.572843e+01	1.720013e+02
3.628500e+06	-2.673839e+01	1.737056e+02	-3.128419e+01	-5.157557e+00	-9.491005e+01	6.448684e+01	-2.572915e+01	1.720026e+02
3.628531e+06	-2.673835e+01	1.736991e+02	-3.128457e+01	-5.183676e+00	-9.487704e+01	7.602525e+01	-2.572987e+01	1.720039e+02
3.628562e+06	-2.673830e+01	1.736926e+02	-3.128495e+01	-5.209797e+00	-9.451023e+01	8.703791e+01	-2.573060e+01	1.720052e+02
3.628594e+06	-2.673826e+01	1.736861e+02	-3.128533e+01	-5.235921e+00	-9.388430e+01	9.684868e+01	-2.573132e+01	1.720065e+02
3.628625e+06	-2.673684e+01	1.736976e+02	-3.128217e+01	-5.225555e+00	-9.476700e+01	8.565199e+01	-2.573099e+01	1.720079e+02
3.628656e+06	-2.673541e+01	1.737093e+02	-3.127895e+01	-5.214604e+00	-9.532000e+01	7.199574e+01	-2.573064e+01	1.720094e+02
3.628687e+06	-2.673397e+01	1.737210e+02	-3.127574e+01	-5.203662e+00	-9.534892e+01	5.737286e+01	-2.573030e+01	1.720109e+02
3.628718e+06	-2.673253e+01	1.737328e+02	-3.127252e+01	-5.192727e+00	-9.484381e+01	4.354606e+01	-2.572995e+01	1.720123e+02
3.628750e+06	-2.673109e+01	1.737445e+02	-3.126931e+01	-5.181800e+00	-9.396053e+01	3.179361e+01	-2.572960e+01	1.720138e+02
3.628781e+06	-2.673138e+01	1.737355e+02	-3.127122e+01	-5.179002e+00	-9.705985e+01	2.574192e+01	-2.572963e+01	1.720105e+02
3.628812e+06	-2.673168e+01	1.737263e+02	-3.127317e+01	-5.176268e+00	-1.015918e+02	1.111393e+01	-2.572966e+01	1.720071e+02
3.628844e+06	-2.673197e+01	1.737172e+02	-3.127512e+01	-5.173532e+00	-1.065716e+02	-3.790786e+01	-2.572968e+01	1.720037e+02
3.628875e+06	-2.673227e+01	1.737080e+02	-3.127708e+01	-5.170796e+00	-1.026029e+02	-9.592019e+01	-2.572971e+01	1.720004e+02
3.628906e+06	-2.673257e+01	1.736988e+02	-3.127903e+01	-5.168058e+00	-9.774685e+01	-1.138030e+02	-2.572974e+01	1.719970e+02
3.628937e+06	-2.673370e+01	1.737008e+02	-3.127855e+01	-5.174583e+00	-1.008027e+02	-3.282825e+01	-2.572918e+01	1.720002e+02
3.628968e+06	-2.673483e+01	1.737029e+02	-3.127807e+01	-5.181107e+00	-9.370238e+01	5.485211e+00	-2.572863e+01	1.720035e+02
