# Hz S dB R 50.000
3.626250e+06	-2.674433e+01	1.735220e+02	-3.127012e+01	-4.725187e+00	-8.773928e+01	5.790905e+01	-2.581303e+01	1.718316e+02
3.626281e+06	-2.674350e+01	1.735262e+02	-3.127104e+01	-4.724152e+00	-8.981321e+01	6.140073e+01	-2.581498e+01	1.718333e+02
3.626312e+06	-2.674266e+01	1.735305e+02	-3.127196e+01	-4.723117e+00	-9.246692e+01	6.742560e+01	-2.581692e+01	1.718350e+02
3.626344e+06	-2.674183e+01	1.735347e+02	-3.127288e+01	-4.722082e+00	-9.600276e+01	7.978502e+01	-2.581887e+01	1.718367e+02
3.626375e+06	-2.674100e+01	1.735389e+02	-3.127380e+01	-4.721046e+00	-1.001272e+02	1.109182e+02	-2.582082e+01	1.718384e+02
3.626406e+06	-2.674017e+01	1.735431e+02	-3.127470e+01	-4.719923e+00	-9.986498e+01	1.635288e+02	-2.582274e+01	1.718400e+02
3.626438e+06	-2.674045e+01	1.735406e+02	-3.127376e+01	-4.707886e+00	-1.059186e+02	1.224336e+02	-2.582187e+01	1.718317e+02
3.626469e+06	-2.674072e+01	1.735381e+02	-3.127282e+01	-4.695853e+00	-1.029550e+02	5.269098e+01	-2.582100e+01	1.718234e+02
3.626500e+06	-2.674100e+01	1.735356e+02	-3.127188e+01	-4.683822e+00	-9.748854e+01	3.187040e+01	-2.582012e+01	1.718151e+02
3.626531e+06	-2.674127e+01	1.735330e+02	-3.127095e+01	-4.671793e+00	-9.388739e+01	2.468166e+01	-2.581925e+01	1.718067e+02
3.626562e+06	-2.674155e+01	1.735305e+02	-3.127001e+01	-4.659767e+00	-9.129923e+01	2.116346e+01	-2.581837e+01	1.717984e+02
3.626594e+06	-2.674101e+01	1.735286e+02	-3.127231e+01	-4.692235e+00	-9.323395e+01	1.797498e+01	-2.581900e+01	1.718070e+02
3.626625e+06	-2.674045e+01	1.735268e+02	-3.127467e+01	-4.725444e+00	-9.577462e+01	1.259385e+01	-2.581966e+01	1.718159e+02
3.626656e+06	-2.673990e+01	1.735249e+02	-3.127702e+01	-4.758671e+00	-9.915166e+01	1.912193e+00	-2.582031e+01	1.718247e+02
3.626688e+06	-2.673935e+01	1.735230e+02	-3.127937e+01	-4.791916e+00	-1.033807e+02	-2.450724e+01	-2.582096e+01	1.718336e+02
3.626719e+06	-2.673879e+01	1.735211e+02	-3.128172e+01	-4.825179e+00	-1.042492e+02	-7.765281e+01	-2.582161e+01	1.718424e+02
3.626750e+06	-2.673928e+01	1.735228e+02	-3.128235e+01	-4.821377e+00	-1.071492e+02	-1.358473e+02	-2.582028e+01	1.718372e+02
3.626781e+06	-2.673978e+01	1.735245e+02	-3.128296e+01	-4.817275e+00	-1.023736e+02	-1.794097e+02	-2.581894e+01	1.718318e+02
3.626812e+06	-2.674028e+01	1.735261e+02	-3.128357e+01	-4.813172e+00	-9.812411e+01	1.664786e+02	-2.581759e+01	1.718265e+02
3.626844e+06	-2.674077e+01	1.735278e+02	-3.128419e+01	-4.809070e+00	-9.511921e+01	1.604075e+02	-2.581625e+01	1.718211e+02
3.626875e+06	-2.674127e+01	1.735295e+02	-3.128480e+01	-4.804966e+00	-9.284983e+01	1.571039e+02	-2.581490e+01	1.718158e+02
3.626906e+06	-2.674134e+01	1.735279e+02	-3.128437e+01	-4.804466e+00	-9.526192e+01	1.525738e+02	-2.581532e+01	1.718098e+02
3.626938e+06	-2.674140e+01	1.735263e+02	-3.128395e+01	-4.803966e+00	-9.846065e+01	1.439072e+02	-2.581573e+01	1.718037e+02
3.626969e+06	-2.674147e+01	1.735248e+02	-3.128352e+01	-4.803466e+00	-1.027345e+02	1.230400e+02	-2.581615e+01	1.717977e+02
3.627000e+06	-2.674153e+01	1.735232e+02	-3.128309e+01	-4.802967e+00	-1.052380e+02	7.202955e+01	-2.581657e+01	1.717917e+02
3.627031e+06	-2.674160e+01	1.735216e+02	-3.128267e+01	-4.802326e+00	-1.013961e+02	3.037369e+01	-2.581698e+01	1.717858e+02
3.627062e+06	-2.674152e+01	1.735215e+02	-3.128216e+01	-4.784249e+00	-9.773759e+01	2.420626e+01	-2.581702e+01	1.717944e+02
3.627094e+06	-2.674144e+01	1.735213e+02	-3.128166e+01	-4.766174e+00	-9.513486e+01	2.121126e+01	-2.581706e+01	1.718030e+02
3.627125e+06	-2.674137e+01	1.735212e+02	-3.128116e+01	-4.748102e+00	-9.312379e+01	1.945099e+01	-2.581711e+01	1.718117e+02
3.627156e+06	-2.674129e+01	1.735210e+02	-3.128065e+01	-4.730031e+00	-9.148746e+01	1.829442e+01	-2.581715e+01	1.718203e+02
3.627188e+06	-2.674121e+01	1.735209e+02	-3.128015e+01	-4.711962e+00	-9.010894e+01	1.747706e+01	-2.581719e+01	1.718290e+02
3.627219e+06	-2.674130e+01	1.735206e+02	-3.128250e+01	-4.727441e+00	-9.138423e+01	2.351929e+01	-2.581707e+01	1.718333e+02
3.627250e+06	-2.674140e+01	1.735203e+02	-3.128490e+01	-4.743474e+00	-9.277317e+01	3.191348e+01	-2.581695e+01	1.718376e+02
3.627281e+06	-2.674150e+01	1.735199e+02	-3.128730e+01	-4.759517e+00	-9.411890e+01	4.345056e+01	-2.581683e+01	1.718419e+02
3.627312e+06	-2.674159e+01	1.735196e+02	-3.128970e+01	-4.775568e+00	-9.515758e+01	5.870948e+01	-2.581670e+01	1.718462e+02
3.627344e+06	-2.674169e+01	1.735193e+02	-3.129210e+01	-4.791627e+00	-9.551494e+01	7.671268e+01	-2.581658e+01	1.718505e+02
3.627375e+06	-2.674166e+01	1.735155e+02	-3.129122e+01	-4.775129e+00	-9.615472e+01	7.289843e+01	-2.581770e+01	1.718442e+02
3.627406e+06	-2.674163e+01	1.735118e+02	-3.129031e+01	-4.758372e+00	-9.679919e+01	6.826653e+01	-2.581883e+01	1.718379e+02
3.627438e+06	-2.674159e+01	1.735080e+02	-3.128940e+01	-4.741618e+00	-9.742419e+01	6.290370e+01	-2.581996e+01	1.718315e+02
3.627469e+06	-2.674156e+01	1.735042e+02	-3.128849e+01	-4.724867e+00	-9.800329e+01	5.674055e+01	-2.582109e+01	1.718252e+02
3.627500e+06	-2.674153e+01	1.735004e+02	-3.128758e+01	-4.708120e+00	-9.850169e+01	4.975959e+01	-2.582222e+01	1.718188e+02
3.627531e+06	-2.674207e+01	1.735139e+02	-3.128728e+01	-4.728267e+00	-1.036183e+02	4.780489e+01	-2.582138e+01	1.718189e+02
3.627562e+06	-2.674261e+01	1.735273e+02	-3.128698e+01	-4.748412e+00	-1.172561e+02	3.061583e+01	-2.582054e+01	1.718191e+02
3.627594e+06	-2.674315e+01	1.735408e+02	-3.128668e+01	-4.768556e+00	-1.078415e+02	-1.206619e+02	-2.581970e+01	1.718192e+02
3.627625e+06	-2.674369e+01	1.735542e+02	-3.128638e+01	-4.788698e+00	-1.005979e+02	-1.247106e+02	-2.581885e+01	1.718194e+02
3.627656e+06	-2.674422e+01	1.735675e+02	-3.128608e+01	-4.808697e+00	-9.676146e+01	-1.257140e+02	-2.581802e+01	1.718195e+02
3.627688e+06	-2.674412e+01	1.735611e+02	-3.128590e+01	-4.811071e+00	-1.029893e+02	-9.546863e+01	-2.581792e+01	1.718232e+02
3.627719e+06	-2.674403e+01	1.735547e+02	-3.128573e+01	-4.813445e+00	-1.025064e+02	-1.806367e+01	-2.581782e+01	1.718269e+02
3.627750e+06	-2.674393e+01	1.735483e+02	-3.128555e+01	-4.815819e+00	-9.641076e+01	9.169167e+00	-2.581772e+01	1.718306e+02
3.627781e+06	-2.674384e+01	1.735419e+02	-3.128538e+01	-4.818193e+00	-9.246151e+01	1.744638e+01	-2.581762e+01	1.718343e+02
3.627812e+06	-2.674374e+01	1.735355e+02	-3.128520e+01	-4.820567e+00	-8.969548e+01	2.125641e+01	-2.581752e+01	1.718380e+02
3.627844e+06	-2.674347e+01	1.735335e+02	-3.128603e+01	-4.803494e+00	-9.081736e+01	2.106630e+01	-2.581754e+01	1.718309e+02
3.627875e+06	-2.674320e+01	1.735315e+02	-3.128688e+01	-4.786102e+00	-9.217974e+01	2.074806e+01	-2.581756e+01	1.718236e+02
3.627906e+06	-2.674293e+01	1.735296e+02	-3.128772e+01	-4.768707e+00	-9.379583e+01	2.029965e+01	-2.581757e+01	1.718162e+02
3.627938e+06	-2.674265e+01	1.735277e+02	-3.128857e+01	-4.751308e+00	-9.578196e+01	1.962077e+01	-2.581759e+01	1.718089e+02
3.627969e+06	-2.674238e+01	1.735257e+02	-3.128941e+01	-4.733905e+00	-9.835843e+01	1.847277e+01	-2.581761e+01	1.718016e+02
3.628000e+06	-2.674275e+01	1.735316e+02	-3.128719e+01	-4.734021e+00	-1.007891e+02	2.982867e+01	-2.581769e+01	1.718130e+02
3.628031e+06	-2.674312e+01	1.735376e+02	-3.128493e+01	-4.734278e+00	-1.032710e+02	5.024544e+01	-2.581778e+01	1.718246e+02
3.628062e+06	-2.674349e+01	1.735436e+02	-3.128268e+01	-4.734535e+00	-1.043373e+02	8.190434e+01	-2.581786e+01	1.718363e+02
3.628094e+06	-2.674386e+01	1.735495e+02	-3.128043e+01	-4.734792e+00	-1.027875e+02	1.116693e+02	-2.581795e+01	1.718479e+02
3.628125e+06	-2.674423e+01	1.735555e+02	-3.127818e+01	-4.735049e+00	-1.002468e+02	1.297279e+02	-2.581803e+01	1.718595e+02
3.628156e+06	-2.674407e+01	1.735586e+02	-3.128010e+01	-4.759524e+00	-1.028489e+02	-1.760124e+02	-2.581825e+01	1.718599e+02
3.628188e+06	-2.674390e+01	1.735617e+02	-3.128201e+01	-4.784010e+00	-9.858701e+01	-1.339077e+02	-2.581847e+01	1.718603e+02
3.628219e+06	-2.674374e+01	1.735648e+02	-3.128393e+01	-4.808507e+00	-9.450809e+01	-1.190360e+02	-2.581869e+01	1.718607e+02
3.628250e+06	-2.674357e+01	1.735678e+02	-3.128584e+01	-4.833015e+00	-9.155526e+01	-1.124770e+02	-2.581890e+01	1.718611e+02
3.628281e+06	-2.674340e+01	1.735708e+02	-3.128774e+01	-4.857201e+00	-8.933159e+01	-1.089100e+02	-2.581912e+01	1.718614e+02
3.628312e+06	-2.674208e+01	1.735638e+02	-3.128827e+01	-4.840210e+00	-9.046781e+01	-1.102194e+02	-2.581908e+01	1.718475e+02
3.628344e+06	-2.674076e+01	1.735568e+02	-3.128880e+01	-4.823217e+00	-9.176836e+01	-1.119531e+02	-2.581905e+01	1.718337e+02
3.628375e+06	-2.673944e+01	1.735498e+02	-3.128932e+01	-4.806222e+00	-9.328542e+01	-1.143513e+02	-2.581901e+01	1.718198e+02
3.628406e+06	-2.673812e+01	1.735428e+02	-3.128985e+01	-4.789225e+00	-9.509714e+01	-1.178709e+02	-2.581898e+01	1.718060e+02
3.628438e+06	-2.673680e+01	1.735358e+02	-3.129037e+01	-4.772226e+00	-9.732122e+01	-1.234774e+02	-2.581894e+01	1.717921e+02
3.628469e+06	-2.673730e+01	1.735425e+02	-3.128926e+01	-4.773624e+00	-9.946589e+01	-1.299140e+02	-2.581809e+01	1.717984e+02
3.628500e+06	-2.673782e+01	1.735495e+02	-3.128812e+01	-4.775320e+00	-1.020462e+02	-1.409760e+02	-2.581724e+01	1.718050e+02
3.628531e+06	-2.673835e+01	1.735564e+02	-3.128698e+01	-4.777016e+00	-1.048209e+02	-1.617961e+02	-2.581638e+01	1.718116e+02
3.628562e+06	-2.673887e+01	1.735634e+02	-3.128584e+01	-4.778711e+00	-1.060795e+02	1.637674e+02	-2.581552e+01	1.718182e+02
3.628594e+06	-2.673940e+01	1.735703e+02	-3.128470e+01	-4.780406e+00	-1.042532e+02	1.317811e+02	-2.581466e+01	1.718247e+02
3.628625e+06	-2.673969e+01	1.735661e+02	-3.128635e+01	-4.785715e+00	-9.504754e+01	1.628075e+02	-2.581539e+01	1.718309e+02
3.628656e+06	-2.673999e+01	1.735618e+02	-3.128803e+01	-4.791055e+00	-9.034597e+01	1.688718e+02	-2.581614e+01	1.718371e+02
3.628688e+06	-2.674028e+01	1.735575e+02	-3.128970e+01	-4.796396e+00	-8.728438e+01	1.713489e+02	-2.581689e+01	1.718433e+02
3.628719e+06	-2.674058e+01	1.735531e+02	-3.129137e+01	-4.801740e+00	-8.501843e+01	1.726900e+02	-2.581763e+01	1.718494e+02
3.628750e+06	-2.674087e+01	1.735488e+02	-3.129305e+01	-4.807086e+00	-8.322055e+01	1.735300e+02	-2.581838e+01	1.718556e+02
3.628781e+06	-2.674045e+01	1.735576e+02	-3.129121e+01	-4.800050e+00	-8.637676e+01	1.712972e+02	-2.581822e+01	1.718520e+02
3.628812e+06	-2.674004e+01	1.735664e+02	-3.128938e+01	-4.793016e+00	-9.132499e+01	1.656131e+02	-2.581806e+01	1.718484e+02
3.628844e+06	-2.673962e+01	1.735751e+02	-3.128754e+01	-4.785986e+00	-1.018445e+02	1.296131e+02	-2.581789e+01	1.718448e+02
3.628875e+06	-2.673920e+01	1.735839e+02	-3.128570e+01	-4.778958e+00	-9.540343e+01	1.966940e+01	-2.581773e+01	1.718413e+02
3.628906e+06	-2.673880e+01	1.735926e+02	-3.128389e+01	-4.771886e+00	-8.855762e+01	7.983893e+00	-2.581757e+01	1.718377e+02
3.628938e+06	-2.673981e+01	1.735944e+02	-3.128564e+01	-4.758883e+00	-8.815705e+01	4.581980e+00	-2.581817e+01	1.718387e+02
3.628969e+06	-2.674082e+01	1.735962e+02	-3.128739e+01	-4.745875e+00	-8.774746e+01	1.483336e+00	-2.581876e+01	1.718397e+02
3.629000e+06	-2.674184e+01	1.735980e+02	-3.128913e+01	-4.732862e+00	-8.733423e+01	-1.335010e+00	-2.581935e+01	1.718408e+02
3.629031e+06	-2.674285e+01	1.735998e+02	-3.129088e+01	-4.719844e+00	-8.692152e+01	-3.897526e+00	-2.581994e+01	1.718418e+02
3.629062e+06	-2.674386e+01	1.736016e+02	-3.129262e+01	-4.706820e+00	-8.651242e+01	-6.228575e+00	-2.582053e+01	1.718428e+02
3.629094e+06	-2.674333e+01	1.735962e+02	-3.129103e+01	-4.712713e+00	-8.783821e+01	-8.948922e-01	-2.582028e+01	1.718454e+02
3.629125e+06	-2.674277e+01	1.735906e+02	-3.128938e+01	-4.718912e+00	-8.931096e+01	6.652367e+00	-2.582002e+01	1.718480e+02
3.629156e+06	-2.674221e+01	1.735851e+02	-3.128774e+01	-4.725108e+00	-9.082511e+01	1.732799e+01	-2.581975e+01	1.718506e+02
3.629188e+06	-2.674165e+01	1.735796e+02	-3.128609e+01	-4.731301e+00	-9.214570e+01	3.220465e+01	-2.581949e+01	1.718533e+02
3.629219e+06	-2.674108e+01	1.735740e+02	-3.128444e+01	-4.737492e+00	-9.282783e+01	5.106827e+01	-2.581922e+01	1.718559e+02
3.629250e+06	-2.674273e+01	1.735698e+02	-3.128435e+01	-4.753832e+00	-9.346595e+01	5.599835e+01	-2.581943e+01	1.718549e+02
3.629281e+06	-2.674439e+01	1.735655e+02	-3.128426e+01	-4.770254e+00	-9.408242e+01	6.155497e+01	-2.581963e+01	1.718538e+02
3.629312e+06	-2.674605e+01	1.735613e+02	-3.128417e+01	-4.786675e+00	-9.464508e+01	6.792265e+01	-2.581984e+01	1.718528e+02
3.629344e+06	-2.674772e+01	1.735571e+02	-3.128409e+01	-4.803096e+00	-9.511734e+01	7.510008e+01	-2.582005e+01	1.718517e+02
3.629375e+06	-2.674938e+01	1.735528e+02	-3.128400e+01	-4.819516e+00	-9.545844e+01	8.298637e+01	-2.582026e+01	1.718507e+02
3.629406e+06	-2.674871e+01	1.735595e+02	-3.128224e+01	-4.801947e+00	-9.533841e+01	8.396966e+01	-2.581988e+01	1.718481e+02
3.629438e+06	-2.674803e+01	1.735662e+02	-3.128049e+01	-4.784385e+00	-9.521756e+01	8.492604e+01	-2.581951e+01	1.718455e+02
3.629469e+06	-2.674736e+01	1.735729e+02	-3.127873e+01	-4.766830e+00	-9.509605e+01	8.585611e+01	-2.581913e+01	1.718428e+02
3.629500e+06	-2.674669e+01	1.735796e+02	-3.127697e+01	-4.749282e+00	-9.497401e+01	8.676046e+01	-2.581875e+01	1.718402e+02
3.629531e+06	-2.674601e+01	1.735861e+02	-3.127524e+01	-4.731910e+00	-9.487744e+01	8.759681e+01	-2.581838e+01	1.718376e+02
3.629562e+06	-2.674458e+01	1.735762e+02	-3.127622e+01	-4.735587e+00	-9.866558e+01	8.060438e+01	-2.581830e+01	1.718388e+02
3.629594e+06	-2.674314e+01	1.735662e+02	-3.127720e+01	-4.739265e+00	-1.046603e+02	5.855133e+01	-2.581823e+01	1.718401e+02
3.629625e+06	-2.674171e+01	1.735563e+02	-3.127819e+01	-4.742943e+00	-1.069991e+02	-1.998418e+01	-2.581815e+01	1.718413e+02
3.629656e+06	-2.674028e+01	1.735463e+02	-3.127917e+01	-4.746622e+00	-1.003034e+02	-5.638807e+01	-2.581808e+01	1.718425e+02
3.629688e+06	-2.673884e+01	1.735364e+02	-3.128015e+01	-4.750302e+00	-9.595023e+01	-6.596224e+01	-2.581800e+01	1.718438e+02
3.629719e+06	-2.674047e+01	1.735404e+02	-3.128076e+01	-4.758795e+00	-9.657234e+01	-8.765833e+01	-2.581695e+01	1.718439e+02
3.629750e+06	-2.674214e+01	1.735446e+02	-3.128137e+01	-4.767367e+00	-9.595372e+01	-1.097905e+02	-2.581588e+01	1.718440e+02
3.629781e+06	-2.674381e+01	1.735488e+02	-3.128197e+01	-4.775940e+00	-9.444100e+01	-1.269341e+02	-2.581481e+01	1.718440e+02
3.629812e+06	-2.674548e+01	1.735530e+02	-3.128257e+01	-4.784515e+00	-9.269593e+01	-1.386218e+02	-2.581375e+01	1.718441e+02
3.629844e+06	-2.674716e+01	1.735573e+02	-3.128318e+01	-4.793090e+00	-9.103757e+01	-1.464905e+02	-2.581268e+01	1.718442e+02
3.629875e+06	-2.674598e+01	1.735630e+02	-3.128437e+01	-4.786380e+00	-9.125739e+01	-1.416308e+02	-2.581377e+01	1.718422e+02
3.629906e+06	-2.674479e+01	1.735687e+02	-3.128557e+01	-4.779544e+00	-9.142863e+01	-1.364435e+02	-2.581487e+01	1.718402e+02
3.629938e+06	-2.674359e+01	1.735744e+02	-3.128678e+01	-4.772706e+00	-9.152842e+01	-1.310912e+02	-2.581598e+01	1.718381e+02
3.629969e+06	-2.674240e+01	1.735802e+02	-3.128798e+01	-4.765867e+00	-9.155165e+01	-1.256624e+02	-2.581708e+01	1.718361e+02
3.630000e+06	-2.674120e+01	1.735859e+02	-3.128918e+01	-4.759025e+00	-9.149710e+01	-1.202532e+02	-2.581819e+01	1.718341e+02
3.630031e+06	-2.674143e+01	1.735822e+02	-3.128958e+01	-4.748584e+00	-9.354945e+01	-1.186541e+02	-2.581781e+01	1.718353e+02
3.630062e+06	-2.674167e+01	1.735786e+02	-3.128999e+01	-4.738142e+00	-9.622596e+01	-1.158971e+02	-2.581742e+01	1.718366e+02
3.630094e+06	-2.674190e+01	1.735749e+02	-3.129039e+01	-4.727699e+00	-1.000481e+02	-1.100634e+02	-2.581704e+01	1.718378e+02
3.630125e+06	-2.674214e+01	1.735712e+02	-3.129079e+01	-4.717255e+00	-1.063898e+02	-9.094400e+01	-2.581665e+01	1.718391e+02
3.630156e+06	-2.674237e+01	1.735676e+02	-3.129117e+01	-4.706927e+00	-1.096709e+02	-4.891102e+00	-2.581627e+01	1.718403e+02
3.630188e+06	-2.674273e+01	1.735640e+02	-3.128838e+01	-4.711000e+00	-1.009551e+02	-3.653380e+00	-2.581640e+01	1.718440e+02
3.630219e+06	-2.674309e+01	1.735604e+02	-3.128559e+01	-4.715070e+00	-9.669273e+01	-3.375610e+00	-2.581653e+01	1.718477e+02
3.630250e+06	-2.674345e+01	1.735568e+02	-3.128280e+01	-4.719138e+00	-9.384604e+01	-3.253083e+00	-2.581666e+01	1.718513e+02
3.630281e+06	-2.674381e+01	1.735532e+02	-3.128001e+01	-4.723203e+00	-9.170557e+01	-3.184079e+00	-2.581679e+01	1.718550e+02
3.630312e+06	-2.674417e+01	1.735497e+02	-3.127722e+01	-4.727266e+00	-8.998967e+01	-3.139815e+00	-2.581692e+01	1.718586e+02
3.630344e+06	-2.674367e+01	1.735456e+02	-3.127955e+01	-4.719973e+00	-9.119973e+01	4.379036e+00	-2.581715e+01	1.718532e+02
3.630375e+06	-2.674316e+01	1.735416e+02	-3.128195e+01	-4.712491e+00	-9.242493e+01	1.454536e+01	-2.581739e+01	1.718477e+02
3.630406e+06	-2.674264e+01	1.735376e+02	-3.128436e+01	-4.705005e+00	-9.343610e+01	2.774462e+01	-2.581763e+01	1.718421e+02
3.630438e+06	-2.674213e+01	1.735336e+02	-3.128676e+01	-4.697514e+00	-9.395669e+01	4.355025e+01	-2.581787e+01	1.718365e+02
3.630469e+06	-2.674161e+01	1.735295e+02	-3.128917e+01	-4.690020e+00	-9.378278e+01	6.001743e+01	-2.581811e+01	1.718309e+02
3.630500e+06	-2.674127e+01	1.735307e+02	-3.128759e+01	-4.701540e+00	-9.344805e+01	6.822314e+01	-2.581714e+01	1.718369e+02
3.630531e+06	-2.674092e+01	1.735320e+02	-3.128599e+01	-4.713209e+00	-9.297384e+01	7.564226e+01	-2.581616e+01	1.718429e+02
3.630562e+06	-2.674058e+01	1.735332e+02	-3.128438e+01	-4.724873e+00	-9.240177e+01	8.221546e+01	-2.581518e+01	1.718489e+02
3.630594e+06	-2.674023e+01	1.735345e+02	-3.128277e+01	-4.736533e+00	-9.177158e+01	8.793594e+01	-2.581420e+01	1.718549e+02
3.630625e+06	-2.673989e+01	1.735357e+02	-3.128116e+01	-4.748189e+00	-9.111433e+01	9.286626e+01	-2.581322e+01	1.718609e+02
3.630656e+06	-2.673926e+01	1.735348e+02	-3.128123e+01	-4.772612e+00	-9.455696e+01	9.661212e+01	-2.581506e+01	1.718636e+02
3.630688e+06	-2.673863e+01	1.735339e+02	-3.128130e+01	-4.797036e+00	-1.001400e+02	1.072542e+02	-2.581691e+01	1.718663e+02
3.630719e+06	-2.673800e+01	1.735331e+02	-3.128138e+01	-4.821461e+00	-1.086634e+02	1.768023e+02	-2.581875e+01	1.718691e+02
3.630750e+06	-2.673737e+01	1.735322e+02	-3.128144e+01	-4.845885e+00	-9.997762e+01	-1.163277e+02	-2.582060e+01	1.718718e+02
3.630781e+06	-2.673675e+01	1.735313e+02	-3.128151e+01	-4.869888e+00	-9.452680e+01	-1.059028e+02	-2.582242e+01	1.718744e+02
3.630812e+06	-2.673762e+01	1.735326e+02	-3.128112e+01	-4.841492e+00	-9.789856e+01	-8.000331e+01	-2.582104e+01	1.718659e+02
3.630844e+06	-2.673849e+01	1.735339e+02	-3.128072e+01	-4.813098e+00	-9.851005e+01	-3.629889e+01	-2.581966e+01	1.718574e+02
3.630875e+06	-2.673936e+01	1.735352e+02	-3.128032e+01	-4.784707e+00	-9.539542e+01	-5.104507e+00	-2.581828e+01	1.718489e+02
3.630906e+06	-2.674023e+01	1.735365e+02	-3.127993e+01	-4.756319e+00	-9.217831e+01	9.364670e+00	-2.581690e+01	1.718404e+02
3.630938e+06	-2.674110e+01	1.735378e+02	-3.127953e+01	-4.727933e+00	-8.961963e+01	1.674764e+01	-2.581552e+01	1.718319e+02
3.630969e+06	-2.674108e+01	1.735356e+02	-3.127988e+01	-4.734766e+00	-9.256850e+01	1.307495e+01	-2.581521e+01	1.718377e+02
3.631000e+06	-2.674106e+01	1.735333e+02	-3.128025e+01	-4.742172e+00	-9.709600e+01	3.968484e+00	-2.581492e+01	1.718436e+02
3.631031e+06	-2.674103e+01	1.735311e+02	-3.128062e+01	-4.749579e+00	-1.044317e+02	-3.436501e+01	-2.581462e+01	1.718496e+02
3.631062e+06	-2.674101e+01	1.735289e+02	-3.128099e+01	-4.756986e+00	-1.011817e+02	-1.174627e+02	-2.581433e+01	1.718555e+02
3.631094e+06	-2.674098e+01	1.735266e+02	-3.128136e+01	-4.764394e+00	-9.500904e+01	-1.370664e+02	-2.581403e+01	1.718615e+02
3.631125e+06	-2.674114e+01	1.735404e+02	-3.128106e+01	-4.756634e+00	-1.036446e+02	-1.258174e+02	-2.581462e+01	1.718626e+02
3.631156e+06	-2.674131e+01	1.735543e+02	-3.128075e+01	-4.748752e+00	-1.049293e+02	1.565433e+01	-2.581522e+01	1.718637e+02
3.631188e+06	-2.674147e+01	1.735681e+02	-3.128045e+01	-4.740871e+00	-9.540029e+01	2.960605e+01	-2.581581e+01	1.718649e+02
3.631219e+06	-2.674164e+01	1.735820e+02	-3.128014e+01	-4.732990e+00	-9.090480e+01	3.235565e+01	-2.581640e+01	1.718660e+02
3.631250e+06	-2.674180e+01	1.735959e+02	-3.127984e+01	-4.725110e+00	-8.795124e+01	3.352160e+01	-2.581700e+01	1.718671e+02
3.631281e+06	-2.674101e+01	1.735901e+02	-3.128128e+01	-4.737070e+00	-8.862489e+01	3.438446e+01	-2.581705e+01	1.718715e+02
3.631312e+06	-2.674022e+01	1.735844e+02	-3.128273e+01	-4.749035e+00	-8.935270e+01	3.539841e+01	-2.581710e+01	1.718758e+02
