!CETC41,AV3656A,ZGL00048,1.3.2
!Calibration ON (Full Solt 2-Port(Omit Isolation))
!Measurements: S11 S21 S12 S22
!2025-04-18 03:32
# Hz  S  dB  R 50.000
9.990000e+006	-3.572071e+001	1.565043e+002	-3.055633e+001	-2.627486e+001	-9.378877e+001	1.655167e+002	-3.269429e+001	1.387240e+002
9.990005e+006	-3.570380e+001	1.564417e+002	-3.054108e+001	-2.627793e+001	-9.074524e+001	1.605498e+002	-3.269202e+001	1.388269e+002
9.990009e+006	-3.571620e+001	1.566468e+002	-3.055235e+001	-2.631895e+001	-8.836779e+001	1.443707e+002	-3.270469e+001	1.388673e+002
9.990014e+006	-3.569864e+001	1.564671e+002	-3.055098e+001	-2.637202e+001	-9.165139e+001	5.172901e+001	-3.268366e+001	1.389508e+002
9.990019e+006	-3.570148e+001	1.564922e+002	-3.054129e+001	-2.646337e+001	-9.852489e+001	7.797637e+001	-3.268274e+001	1.390085e+002
9.990023e+006	-3.571250e+001	1.564465e+002	-3.054843e+001	-2.640249e+001	-8.764172e+001	1.289283e+002	-3.267969e+001	1.389571e+002
9.990028e+006	-3.570987e+001	1.563494e+002	-3.055227e+001	-2.643032e+001	-8.834977e+001	1.598581e+002	-3.269239e+001	1.389192e+002
9.990033e+006	-3.570591e+001	1.565191e+002	-3.055158e+001	-2.637299e+001	-1.110762e+002	-4.469266e+001	-3.268344e+001	1.388535e+002
9.990038e+006	-3.571009e+001	1.564332e+002	-3.055597e+001	-2.633128e+001	-9.552810e+001	1.719097e+001	-3.269115e+001	1.388736e+002
9.990042e+006	-3.570585e+001	1.564548e+002	-3.054839e+001	-2.633747e+001	-9.666448e+001	8.206637e+001	-3.270735e+001	1.388880e+002
9.990047e+006	-3.571320e+001	1.565288e+002	-3.055178e+001	-2.631301e+001	-9.954817e+001	-9.711935e+001	-3.269341e+001	1.388710e+002
9.990052e+006	-3.570692e+001	1.565467e+002	-3.054605e+001	-2.632965e+001	-9.414039e+001	-1.216671e+002	-3.270449e+001	1.388861e+002
9.990056e+006	-3.572045e+001	1.565325e+002	-3.055719e+001	-2.635792e+001	-9.954472e+001	5.030534e+001	-3.270364e+001	1.388922e+002
9.990061e+006	-3.571561e+001	1.564528e+002	-3.055112e+001	-2.633094e+001	-9.447877e+001	1.318556e+002	-3.269382e+001	1.388789e+002
9.990066e+006	-3.572396e+001	1.565367e+002	-3.053935e+001	-2.636640e+001	-9.614000e+001	-6.389171e+001	-3.269099e+001	1.388676e+002
9.990070e+006	-3.572124e+001	1.564732e+002	-3.055611e+001	-2.631805e+001	-9.619954e+001	-2.932158e+001	-3.269361e+001	1.388719e+002
9.990075e+006	-3.572152e+001	1.564736e+002	-3.055878e+001	-2.629184e+001	-1.050585e+002	1.070489e+002	-3.269495e+001	1.389649e+002
9.990080e+006	-3.570690e+001	1.564834e+002	-3.055710e+001	-2.640967e+001	-8.896429e+001	1.126027e+002	-3.270399e+001	1.389077e+002
9.990084e+006	-3.568526e+001	1.565164e+002	-3.055655e+001	-2.632613e+001	-9.016348e+001	2.185958e-001	-3.268344e+001	1.389326e+002
9.990089e+006	-3.571563e+001	1.564385e+002	-3.054557e+001	-2.635982e+001	-8.778221e+001	4.680372e+001	-3.268823e+001	1.389795e+002
9.990094e+006	-3.571220e+001	1.564988e+002	-3.054907e+001	-2.629752e+001	-9.598947e+001	4.615035e+001	-3.268632e+001	1.388996e+002
9.990098e+006	-3.568533e+001	1.564242e+002	-3.054249e+001	-2.634606e+001	-9.322456e+001	1.647418e+002	-3.269511e+001	1.388784e+002
9.990103e+006	-3.570330e+001	1.564989e+002	-3.054187e+001	-2.636119e+001	-8.870369e+001	8.546115e+001	-3.269384e+001	1.388991e+002
9.990108e+006	-3.571794e+001	1.564226e+002	-3.055525e+001	-2.632332e+001	-8.962624e+001	1.080564e+002	-3.269279e+001	1.388907e+002
9.990113e+006	-3.569643e+001	1.564614e+002	-3.055766e+001	-2.635045e+001	-9.359062e+001	5.767253e+001	-3.269060e+001	1.389199e+002
9.990117e+006	-3.568742e+001	1.564256e+002	-3.054440e+001	-2.633108e+001	-8.801137e+001	1.428686e+002	-3.269370e+001	1.389207e+002
9.990122e+006	-3.570764e+001	1.565741e+002	-3.055024e+001	-2.641244e+001	-8.833242e+001	3.946544e+001	-3.267713e+001	1.389993e+002
9.990127e+006	-3.570035e+001	1.565558e+002	-3.055418e+001	-2.634707e+001	-9.338717e+001	1.055551e+002	-3.269986e+001	1.388574e+002
9.990131e+006	-3.572660e+001	1.565320e+002	-3.054027e+001	-2.637821e+001	-9.733161e+001	2.886967e+001	-3.267659e+001	1.389318e+002
9.990136e+006	-3.571849e+001	1.565853e+002	-3.055206e+001	-2.638641e+001	-1.000190e+002	1.179325e+002	-3.269902e+001	1.389578e+002
9.990141e+006	-3.570742e+001	1.564456e+002	-3.054810e+001	-2.634506e+001	-9.020151e+001	7.945352e+001	-3.270932e+001	1.388390e+002
9.990145e+006	-3.570337e+001	1.564360e+002	-3.055849e+001	-2.632562e+001	-9.850610e+001	3.082767e+001	-3.269827e+001	1.389295e+002
9.990150e+006	-3.570545e+001	1.565433e+002	-3.054466e+001	-2.637608e+001	-9.969268e+001	8.882572e+001	-3.268723e+001	1.389690e+002
9.990155e+006	-3.569469e+001	1.564730e+002	-3.055566e+001	-2.634135e+001	-1.015756e+002	1.312023e+002	-3.268432e+001	1.389196e+002
9.990159e+006	-3.571068e+001	1.565460e+002	-3.055012e+001	-2.631862e+001	-1.010216e+002	7.607059e+001	-3.269327e+001	1.388743e+002
9.990164e+006	-3.572114e+001	1.564298e+002	-3.054636e+001	-2.633536e+001	-1.053158e+002	7.959002e+001	-3.270088e+001	1.389250e+002
9.990169e+006	-3.570218e+001	1.564801e+002	-3.054024e+001	-2.629362e+001	-9.564529e+001	7.367677e+001	-3.268735e+001	1.388882e+002
9.990173e+006	-3.569738e+001	1.564916e+002	-3.054769e+001	-2.632105e+001	-8.842774e+001	7.195920e+001	-3.269031e+001	1.388778e+002
9.990178e+006	-3.569678e+001	1.564751e+002	-3.055302e+001	-2.632468e+001	-9.399115e+001	-6.600039e+001	-3.269410e+001	1.389828e+002
9.990183e+006	-3.572182e+001	1.565294e+002	-3.054438e+001	-2.635894e+001	-9.346605e+001	9.506037e+001	-3.269387e+001	1.388755e+002
9.990188e+006	-3.571896e+001	1.564541e+002	-3.055194e+001	-2.625141e+001	-8.783032e+001	1.738124e+002	-3.268874e+001	1.388108e+002
9.990192e+006	-3.572980e+001	1.565316e+002	-3.054484e+001	-2.637998e+001	-9.229025e+001	-1.695298e+002	-3.269705e+001	1.388770e+002
9.990197e+006	-3.570717e+001	1.565360e+002	-3.054535e+001	-2.633630e+001	-1.045937e+002	9.757407e+001	-3.270110e+001	1.389482e+002
9.990202e+006	-3.570262e+001	1.565362e+002	-3.055154e+001	-2.635993e+001	-1.024898e+002	-1.724894e+002	-3.269611e+001	1.389206e+002
9.990206e+006	-3.571289e+001	1.565850e+002	-3.055158e+001	-2.636568e+001	-9.349721e+001	3.583880e+001	-3.269655e+001	1.388659e+002
9.990211e+006	-3.572646e+001	1.565481e+002	-3.055752e+001	-2.637043e+001	-9.284473e+001	1.579632e+002	-3.269590e+001	1.389609e+002
9.990216e+006	-3.570268e+001	1.565370e+002	-3.055451e+001	-2.632388e+001	-9.951287e+001	-3.793412e+001	-3.269323e+001	1.389029e+002
9.990220e+006	-3.570384e+001	1.564228e+002	-3.054979e+001	-2.635141e+001	-9.687249e+001	1.120648e+002	-3.268776e+001	1.389057e+002
9.990225e+006	-3.570801e+001	1.565219e+002	-3.054134e+001	-2.633086e+001	-8.686302e+001	1.233181e+002	-3.268258e+001	1.388934e+002
9.990230e+006	-3.570729e+001	1.564530e+002	-3.054493e+001	-2.628536e+001	-9.753764e+001	-1.536426e+002	-3.269614e+001	1.389695e+002
9.990234e+006	-3.571358e+001	1.564927e+002	-3.053503e+001	-2.638159e+001	-9.512498e+001	1.351770e+002	-3.267994e+001	1.387923e+002
9.990239e+006	-3.570968e+001	1.565212e+002	-3.055790e+001	-2.635545e+001	-9.312861e+001	1.256392e+002	-3.268786e+001	1.388553e+002
9.990244e+006	-3.570827e+001	1.563781e+002	-3.054928e+001	-2.622836e+001	-1.224666e+002	-2.529469e+001	-3.270321e+001	1.388900e+002
9.990248e+006	-3.572219e+001	1.565158e+002	-3.053896e+001	-2.636472e+001	-8.994839e+001	8.803594e+001	-3.268864e+001	1.388082e+002
9.990253e+006	-3.571329e+001	1.565593e+002	-3.055419e+001	-2.632292e+001	-9.406980e+001	1.044708e+002	-3.268821e+001	1.388913e+002
9.990258e+006	-3.570932e+001	1.564673e+002	-3.054812e+001	-2.634862e+001	-9.762584e+001	-1.821564e+001	-3.270263e+001	1.389460e+002
9.990263e+006	-3.570960e+001	1.564583e+002	-3.054418e+001	-2.633013e+001	-9.606667e+001	-1.466554e+002	-3.269235e+001	1.388259e+002
9.990267e+006	-3.571128e+001	1.565333e+002	-3.054886e+001	-2.637542e+001	-9.174489e+001	-4.421943e+001	-3.268770e+001	1.388349e+002
9.990272e+006	-3.570538e+001	1.565758e+002	-3.053447e+001	-2.627361e+001	-9.838177e+001	4.871077e+001	-3.270255e+001	1.388927e+002
9.990277e+006	-3.571941e+001	1.565217e+002	-3.054329e+001	-2.634238e+001	-9.040676e+001	3.283691e+001	-3.268752e+001	1.388879e+002
9.990281e+006	-3.571247e+001	1.565043e+002	-3.054557e+001	-2.636003e+001	-9.365918e+001	1.267441e+002	-3.268705e+001	1.389149e+002
9.990286e+006	-3.570556e+001	1.565046e+002	-3.054150e+001	-2.641091e+001	-9.178613e+001	-2.975057e+001	-3.268487e+001	1.389182e+002
9.990291e+006	-3.572485e+001	1.564818e+002	-3.053657e+001	-2.632757e+001	-1.047265e+002	5.390856e+001	-3.268035e+001	1.388901e+002
9.990295e+006	-3.570979e+001	1.565276e+002	-3.055865e+001	-2.639337e+001	-1.103152e+002	9.096239e+001	-3.269613e+001	1.388465e+002
9.990300e+006	-3.569573e+001	1.564499e+002	-3.055619e+001	-2.626030e+001	-9.096620e+001	1.478261e+002	-3.269163e+001	1.388158e+002
9.990305e+006	-3.570756e+001	1.563966e+002	-3.054413e+001	-2.629875e+001	-8.655139e+001	1.612207e+002	-3.269465e+001	1.388819e+002
9.990309e+006	-3.569679e+001	1.564819e+002	-3.055009e+001	-2.631913e+001	-1.014504e+002	-9.228620e+001	-3.269934e+001	1.388764e+002
9.990314e+006	-3.568692e+001	1.565861e+002	-3.054253e+001	-2.626872e+001	-9.586474e+001	1.449951e+002	-3.268905e+001	1.388708e+002
9.990319e+006	-3.571480e+001	1.564846e+002	-3.055179e+001	-2.636607e+001	-9.706904e+001	1.652717e+000	-3.269002e+001	1.389410e+002
9.990323e+006	-3.571182e+001	1.565482e+002	-3.053459e+001	-2.634702e+001	-8.718730e+001	9.133085e+001	-3.268865e+001	1.389333e+002
9.990328e+006	-3.569491e+001	1.563587e+002	-3.053680e+001	-2.639258e+001	-9.130579e+001	5.940957e+001	-3.268422e+001	1.388880e+002
9.990333e+006	-3.570695e+001	1.564081e+002	-3.054864e+001	-2.636351e+001	-8.872032e+001	8.792920e+001	-3.269978e+001	1.389460e+002
9.990338e+006	-3.569438e+001	1.565696e+002	-3.055033e+001	-2.634041e+001	-9.082824e+001	6.157470e+001	-3.269186e+001	1.389679e+002
9.990342e+006	-3.570962e+001	1.565961e+002	-3.054015e+001	-2.632592e+001	-8.859398e+001	1.165190e+002	-3.268395e+001	1.388917e+002
9.990347e+006	-3.570690e+001	1.565139e+002	-3.054689e+001	-2.637649e+001	-9.178164e+001	6.304681e+001	-3.268825e+001	1.389368e+002
9.990352e+006	-3.570687e+001	1.565603e+002	-3.054582e+001	-2.632370e+001	-1.189557e+002	1.484070e+002	-3.269937e+001	1.388964e+002
9.990356e+006	-3.570931e+001	1.564349e+002	-3.054790e+001	-2.632678e+001	-9.137817e+001	-1.438151e+002	-3.268790e+001	1.388876e+002
9.990361e+006	-3.571842e+001	1.565171e+002	-3.054691e+001	-2.632292e+001	-8.704796e+001	7.928346e+001	-3.268775e+001	1.389287e+002
9.990366e+006	-3.570237e+001	1.564601e+002	-3.053216e+001	-2.626614e+001	-9.046602e+001	1.407053e+002	-3.269172e+001	1.388610e+002
9.990370e+006	-3.570904e+001	1.564923e+002	-3.054362e+001	-2.641740e+001	-9.278584e+001	1.642468e+002	-3.270098e+001	1.388783e+002
9.990375e+006	-3.570134e+001	1.564557e+002	-3.054640e+001	-2.635385e+001	-8.982192e+001	-1.430759e+002	-3.268365e+001	1.388888e+002
9.990380e+006	-3.572066e+001	1.565894e+002	-3.055188e+001	-2.632896e+001	-9.015544e+001	6.363883e+001	-3.270025e+001	1.389202e+002
9.990384e+006	-3.570686e+001	1.564604e+002	-3.055017e+001	-2.628822e+001	-9.317386e+001	8.038884e+001	-3.269436e+001	1.388758e+002
9.990389e+006	-3.571537e+001	1.565835e+002	-3.055635e+001	-2.626670e+001	-8.593562e+001	1.468326e+002	-3.270258e+001	1.389422e+002
9.990394e+006	-3.571365e+001	1.564072e+002	-3.054097e+001	-2.639315e+001	-8.518282e+001	1.368736e+002	-3.268646e+001	1.389012e+002
9.990398e+006	-3.569788e+001	1.565773e+002	-3.053924e+001	-2.631083e+001	-1.143274e+002	-3.572850e+001	-3.269293e+001	1.388970e+002
9.990403e+006	-3.570691e+001	1.564570e+002	-3.054495e+001	-2.636625e+001	-9.359027e+001	1.119948e+002	-3.268467e+001	1.389415e+002
9.990408e+006	-3.571544e+001	1.563290e+002	-3.055319e+001	-2.626678e+001	-9.348124e+001	2.664537e+001	-3.269064e+001	1.388360e+002
9.990413e+006	-3.569581e+001	1.565308e+002	-3.053711e+001	-2.637117e+001	-8.977093e+001	1.339628e+002	-3.269944e+001	1.389141e+002
9.990417e+006	-3.571125e+001	1.565144e+002	-3.054941e+001	-2.631383e+001	-8.780948e+001	1.488885e+002	-3.268883e+001	1.388850e+002
9.990422e+006	-3.572993e+001	1.564330e+002	-3.052967e+001	-2.637545e+001	-8.988830e+001	9.707005e+001	-3.268284e+001	1.388612e+002
9.990427e+006	-3.571332e+001	1.565061e+002	-3.055545e+001	-2.635605e+001	-9.209683e+001	1.183264e+002	-3.268725e+001	1.389247e+002
9.990431e+006	-3.570402e+001	1.565148e+002	-3.053937e+001	-2.637375e+001	-9.501716e+001	-1.240954e+002	-3.268536e+001	1.389747e+002
9.990436e+006	-3.570952e+001	1.565126e+002	-3.055514e+001	-2.633790e+001	-9.427735e+001	1.019233e+002	-3.270008e+001	1.389146e+002
9.990441e+006	-3.570129e+001	1.565653e+002	-3.052820e+001	-2.629027e+001	-9.262023e+001	9.399951e+001	-3.268951e+001	1.388342e+002
9.990445e+006	-3.570769e+001	1.566190e+002	-3.055078e+001	-2.638996e+001	-9.287785e+001	1.204842e+002	-3.269387e+001	1.388503e+002
9.990450e+006	-3.571439e+001	1.564209e+002	-3.052780e+001	-2.634320e+001	-9.493410e+001	1.615702e+002	-3.269530e+001	1.389226e+002
9.990455e+006	-3.571149e+001	1.564240e+002	-3.054628e+001	-2.625597e+001	-9.472788e+001	4.130472e+001	-3.269418e+001	1.389757e+002
9.990459e+006	-3.571423e+001	1.565373e+002	-3.053805e+001	-2.637882e+001	-9.219372e+001	1.681394e+001	-3.270973e+001	1.388929e+002
9.990464e+006	-3.571651e+001	1.564577e+002	-3.054842e+001	-2.619909e+001	-9.209279e+001	1.400800e+001	-3.269780e+001	1.388961e+002
9.990469e+006	-3.571660e+001	1.565191e+002	-3.053137e+001	-2.635470e+001	-1.091495e+002	1.180384e+002	-3.269131e+001	1.388789e+002
9.990473e+006	-3.571054e+001	1.565131e+002	-3.056259e+001	-2.628356e+001	-9.858516e+001	-5.239739e+001	-3.270065e+001	1.388781e+002
9.990478e+006	-3.572442e+001	1.565121e+002	-3.052208e+001	-2.631405e+001	-1.163730e+002	-7.461775e+001	-3.268704e+001	1.388721e+002
9.990483e+006	-3.569869e+001	1.565370e+002	-3.054105e+001	-2.623195e+001	-8.962240e+001	1.299545e+002	-3.270219e+001	1.389437e+002
9.990488e+006	-3.570521e+001	1.564735e+002	-3.054093e+001	-2.633676e+001	-8.371696e+001	6.213254e+001	-3.269199e+001	1.388622e+002
9.990492e+006	-3.571597e+001	1.564742e+002	-3.053298e+001	-2.636993e+001	-9.065318e+001	1.385378e+002	-3.268570e+001	1.388683e+002
9.990497e+006	-3.570566e+001	1.565831e+002	-3.053571e+001	-2.629178e+001	-9.240025e+001	-4.804451e+001	-3.270102e+001	1.388817e+002
9.990502e+006	-3.570007e+001	1.564736e+002	-3.054998e+001	-2.637791e+001	-9.835981e+001	3.353280e+001	-3.268481e+001	1.389348e+002
9.990506e+006	-3.570582e+001	1.564901e+002	-3.053570e+001	-2.627817e+001	-9.915602e+001	1.194366e+002	-3.269724e+001	1.389684e+002
9.990511e+006	-3.570474e+001	1.564836e+002	-3.055700e+001	-2.631665e+001	-8.802866e+001	6.162694e+001	-3.270390e+001	1.388997e+002
9.990516e+006	-3.572458e+001	1.564600e+002	-3.055311e+001	-2.641242e+001	-9.275189e+001	1.408259e+002	-3.269057e+001	1.389687e+002
9.990520e+006	-3.572821e+001	1.565457e+002	-3.052933e+001	-2.637179e+001	-9.575340e+001	6.937132e+000	-3.269260e+001	1.389133e+002
9.990525e+006	-3.571797e+001	1.565510e+002	-3.054857e+001	-2.629561e+001	-9.841359e+001	-3.404866e+001	-3.268811e+001	1.389171e+002
9.990530e+006	-3.571414e+001	1.564595e+002	-3.052054e+001	-2.624926e+001	-9.601657e+001	-1.468407e+002	-3.269469e+001	1.388549e+002
9.990534e+006	-3.571224e+001	1.564348e+002	-3.053610e+001	-2.631327e+001	-9.429386e+001	8.890675e+001	-3.269367e+001	1.388006e+002
9.990539e+006	-3.570101e+001	1.566243e+002	-3.055755e+001	-2.639413e+001	-9.162211e+001	1.288695e+002	-3.269333e+001	1.388991e+002
9.990544e+006	-3.570739e+001	1.564170e+002	-3.054248e+001	-2.641762e+001	-9.308970e+001	2.868956e+001	-3.270385e+001	1.388693e+002
9.990548e+006	-3.571045e+001	1.565256e+002	-3.054356e+001	-2.624285e+001	-9.785773e+001	-1.452943e+002	-3.267719e+001	1.389219e+002
9.990553e+006	-3.570709e+001	1.565031e+002	-3.055740e+001	-2.631399e+001	-1.035817e+002	8.434334e+001	-3.270048e+001	1.388778e+002
9.990558e+006	-3.571589e+001	1.564690e+002	-3.055958e+001	-2.642540e+001	-9.112306e+001	1.665549e+002	-3.269579e+001	1.389425e+002
9.990563e+006	-3.570953e+001	1.565107e+002	-3.052934e+001	-2.624019e+001	-8.774812e+001	8.484379e+001	-3.269679e+001	1.389496e+002
9.990567e+006	-3.569916e+001	1.565103e+002	-3.052855e+001	-2.627819e+001	-9.834901e+001	1.650967e+002	-3.269461e+001	1.387974e+002
9.990572e+006	-3.571304e+001	1.565170e+002	-3.055492e+001	-2.631593e+001	-9.830314e+001	1.431704e+002	-3.269674e+001	1.389743e+002
9.990577e+006	-3.569743e+001	1.565426e+002	-3.053877e+001	-2.636620e+001	-9.019651e+001	1.586927e+002	-3.270675e+001	1.389236e+002
9.990581e+006	-3.570354e+001	1.565131e+002	-3.054387e+001	-2.625245e+001	-8.566458e+001	8.814167e+001	-3.268353e+001	1.388496e+002
9.990586e+006	-3.570532e+001	1.564672e+002	-3.055657e+001	-2.630446e+001	-9.418679e+001	5.584258e+001	-3.269456e+001	1.389318e+002
9.990591e+006	-3.570277e+001	1.565148e+002	-3.055153e+001	-2.637855e+001	-9.053518e+001	9.030709e+001	-3.268526e+001	1.388770e+002
9.990595e+006	-3.570978e+001	1.565038e+002	-3.056119e+001	-2.628775e+001	-8.652451e+001	6.270742e+001	-3.268990e+001	1.389232e+002
9.990600e+006	-3.571701e+001	1.564540e+002	-3.052571e+001	-2.632190e+001	-8.893724e+001	7.211188e+001	-3.270129e+001	1.389339e+002
9.990605e+006	-3.570851e+001	1.565183e+002	-3.052232e+001	-2.634208e+001	-9.274010e+001	1.355621e+002	-3.269006e+001	1.388679e+002
9.990609e+006	-3.571493e+001	1.564355e+002	-3.056305e+001	-2.630114e+001	-1.096640e+002	1.013107e+002	-3.269338e+001	1.389703e+002
9.990614e+006	-3.569946e+001	1.565485e+002	-3.055716e+001	-2.634269e+001	-8.941501e+001	9.726274e+001	-3.269468e+001	1.389468e+002
9.990619e+006	-3.571716e+001	1.564801e+002	-3.055621e+001	-2.644135e+001	-9.471214e+001	1.272234e+002	-3.269380e+001	1.389704e+002
9.990623e+006	-3.571592e+001	1.564340e+002	-3.054216e+001	-2.626490e+001	-9.313097e+001	8.756394e+001	-3.269334e+001	1.388732e+002
9.990628e+006	-3.572732e+001	1.565180e+002	-3.055968e+001	-2.637518e+001	-8.919201e+001	-3.638324e+001	-3.268984e+001	1.389556e+002
9.990633e+006	-3.570969e+001	1.564630e+002	-3.050650e+001	-2.633402e+001	-9.946607e+001	6.892223e+001	-3.269526e+001	1.388789e+002
9.990638e+006	-3.574115e+001	1.565103e+002	-3.052717e+001	-2.630004e+001	-9.633907e+001	-1.522344e+002	-3.268588e+001	1.388944e+002
9.990642e+006	-3.570656e+001	1.564806e+002	-3.054899e+001	-2.622209e+001	-9.159299e+001	1.472283e+002	-3.268426e+001	1.388997e+002
9.990647e+006	-3.569402e+001	1.564556e+002	-3.056467e+001	-2.641647e+001	-9.320416e+001	-1.444629e+002	-3.268317e+001	1.389283e+002
9.990652e+006	-3.571320e+001	1.565637e+002	-3.052341e+001	-2.635820e+001	-1.107964e+002	7.511449e+001	-3.269357e+001	1.388994e+002
9.990656e+006	-3.570522e+001	1.565023e+002	-3.055503e+001	-2.621043e+001	-9.395841e+001	9.306289e+001	-3.269991e+001	1.388988e+002
9.990661e+006	-3.571484e+001	1.564623e+002	-3.054663e+001	-2.649239e+001	-9.714120e+001	1.098506e+002	-3.269003e+001	1.389298e+002
9.990666e+006	-3.570012e+001	1.564788e+002	-3.054419e+001	-2.643572e+001	-9.076327e+001	9.895829e+001	-3.269715e+001	1.388900e+002
9.990670e+006	-3.571666e+001	1.564342e+002	-3.057203e+001	-2.653053e+001	-1.123410e+002	3.810925e+001	-3.269333e+001	1.389157e+002
9.990675e+006	-3.570171e+001	1.565912e+002	-3.053261e+001	-2.649069e+001	-9.170825e+001	6.214549e+001	-3.270114e+001	1.388885e+002
9.990680e+006	-3.572318e+001	1.565219e+002	-3.052556e+001	-2.646450e+001	-9.638772e+001	1.416424e+002	-3.268889e+001	1.388540e+002
9.990684e+006	-3.570582e+001	1.564047e+002	-3.053209e+001	-2.611464e+001	-1.004074e+002	1.711366e+002	-3.269704e+001	1.388689e+002
9.990689e+006	-3.571793e+001	1.565998e+002	-3.056241e+001	-2.620585e+001	-1.265678e+002	6.553429e+001	-3.269088e+001	1.388652e+002
9.990694e+006	-3.571071e+001	1.564173e+002	-3.055231e+001	-2.617414e+001	-9.403354e+001	3.593414e+001	-3.269074e+001	1.389034e+002
9.990698e+006	-3.570096e+001	1.564670e+002	-3.054604e+001	-2.622321e+001	-8.857503e+001	8.115808e+000	-3.267555e+001	1.388342e+002
