!CETC41,AV3656A,ZGL00048,1.3.2
!Calibration ON (Full Solt 2-Port(Omit Isolation))
!Measurements: S11 S21 S12 S22
!2025-04-18 00:07
# Hz  S  dB  R 50.000
9.990000e+006	-3.574309e+001	1.571195e+002	-3.054831e+001	-2.432518e+001	-8.978507e+001	9.069468e+001	-3.317579e+001	1.390384e+002
9.990005e+006	-3.575980e+001	1.572235e+002	-3.055918e+001	-2.426213e+001	-9.993218e+001	-1.185005e+002	-3.319874e+001	1.390436e+002
9.990009e+006	-3.574665e+001	1.570838e+002	-3.055130e+001	-2.425025e+001	-8.996010e+001	-3.480778e+000	-3.320112e+001	1.389562e+002
9.990014e+006	-3.575842e+001	1.571590e+002	-3.056570e+001	-2.427541e+001	-9.278220e+001	-2.149564e+001	-3.320003e+001	1.388241e+002
9.990019e+006	-3.576049e+001	1.571750e+002	-3.055800e+001	-2.426920e+001	-8.772301e+001	9.782907e+001	-3.320557e+001	1.387776e+002
9.990023e+006	-3.575884e+001	1.571496e+002	-3.055407e+001	-2.431396e+001	-1.037577e+002	9.640676e+001	-3.320735e+001	1.387844e+002
9.990028e+006	-3.574120e+001	1.570752e+002	-3.054874e+001	-2.423848e+001	-9.612785e+001	4.217939e+001	-3.319048e+001	1.387403e+002
9.990033e+006	-3.576323e+001	1.571319e+002	-3.054860e+001	-2.431241e+001	-9.131326e+001	1.328876e+002	-3.319270e+001	1.388913e+002
9.990038e+006	-3.576033e+001	1.570147e+002	-3.055452e+001	-2.431458e+001	-9.156147e+001	1.248511e+002	-3.318696e+001	1.389061e+002
9.990042e+006	-3.575582e+001	1.571868e+002	-3.056348e+001	-2.426055e+001	-9.805944e+001	1.019948e+002	-3.318160e+001	1.388848e+002
9.990047e+006	-3.575098e+001	1.571836e+002	-3.056532e+001	-2.431220e+001	-9.088766e+001	9.702774e+001	-3.316945e+001	1.388796e+002
9.990052e+006	-3.576914e+001	1.571091e+002	-3.055417e+001	-2.423882e+001	-9.262500e+001	-1.429503e+002	-3.318422e+001	1.388984e+002
9.990056e+006	-3.574745e+001	1.570982e+002	-3.056514e+001	-2.430176e+001	-9.616690e+001	2.726411e+001	-3.316916e+001	1.389209e+002
9.990061e+006	-3.574774e+001	1.572249e+002	-3.055709e+001	-2.425874e+001	-8.877623e+001	1.461730e+002	-3.318384e+001	1.389432e+002
9.990066e+006	-3.575359e+001	1.571230e+002	-3.053828e+001	-2.423959e+001	-9.096531e+001	1.003490e+002	-3.317424e+001	1.389532e+002
9.990070e+006	-3.572937e+001	1.571170e+002	-3.054947e+001	-2.433021e+001	-1.063710e+002	-3.703991e+000	-3.317640e+001	1.390321e+002
9.990075e+006	-3.575606e+001	1.571352e+002	-3.055441e+001	-2.434900e+001	-9.003753e+001	1.133141e+002	-3.319371e+001	1.388897e+002
9.990080e+006	-3.575628e+001	1.571747e+002	-3.055208e+001	-2.434295e+001	-9.184875e+001	1.424991e+002	-3.319035e+001	1.389839e+002
9.990084e+006	-3.575725e+001	1.571594e+002	-3.054529e+001	-2.429314e+001	-9.215116e+001	1.320118e+002	-3.318999e+001	1.389670e+002
9.990089e+006	-3.574962e+001	1.571373e+002	-3.056036e+001	-2.431123e+001	-1.010064e+002	-5.859425e+001	-3.319113e+001	1.389833e+002
9.990094e+006	-3.574062e+001	1.570435e+002	-3.055469e+001	-2.429334e+001	-9.097816e+001	1.614501e+002	-3.318173e+001	1.388518e+002
9.990098e+006	-3.573551e+001	1.571443e+002	-3.055531e+001	-2.434222e+001	-9.165651e+001	1.178458e+002	-3.318667e+001	1.389369e+002
9.990103e+006	-3.574876e+001	1.571529e+002	-3.055256e+001	-2.440456e+001	-9.832778e+001	6.394877e+001	-3.320140e+001	1.389456e+002
9.990108e+006	-3.575863e+001	1.571571e+002	-3.055314e+001	-2.439254e+001	-8.826312e+001	5.622190e+001	-3.318960e+001	1.389019e+002
9.990113e+006	-3.574215e+001	1.571934e+002	-3.055698e+001	-2.432735e+001	-8.988392e+001	-1.708672e+002	-3.318556e+001	1.389190e+002
9.990117e+006	-3.575913e+001	1.571980e+002	-3.056151e+001	-2.441293e+001	-9.178437e+001	-1.311894e+000	-3.318597e+001	1.389960e+002
9.990122e+006	-3.576670e+001	1.570681e+002	-3.055826e+001	-2.440541e+001	-9.067237e+001	5.492899e+001	-3.317268e+001	1.389487e+002
9.990127e+006	-3.575722e+001	1.571920e+002	-3.056313e+001	-2.444196e+001	-9.387387e+001	1.331795e+002	-3.318417e+001	1.389568e+002
9.990131e+006	-3.576558e+001	1.570534e+002	-3.056077e+001	-2.443633e+001	-9.572515e+001	8.555040e+001	-3.318494e+001	1.389060e+002
9.990136e+006	-3.574085e+001	1.572298e+002	-3.056310e+001	-2.443092e+001	-9.892511e+001	-1.186045e+001	-3.318807e+001	1.388513e+002
9.990141e+006	-3.577849e+001	1.570534e+002	-3.056930e+001	-2.442051e+001	-9.757593e+001	1.793639e+002	-3.318293e+001	1.387903e+002
9.990145e+006	-3.575562e+001	1.572193e+002	-3.057093e+001	-2.446128e+001	-8.688502e+001	1.329728e+002	-3.317084e+001	1.388844e+002
9.990150e+006	-3.573975e+001	1.571785e+002	-3.056695e+001	-2.439037e+001	-9.575034e+001	1.552068e+002	-3.318570e+001	1.388265e+002
9.990155e+006	-3.575301e+001	1.572696e+002	-3.057702e+001	-2.437870e+001	-9.441837e+001	1.684063e+002	-3.319879e+001	1.389457e+002
9.990159e+006	-3.574899e+001	1.571865e+002	-3.057861e+001	-2.434791e+001	-8.677965e+001	6.205175e+001	-3.319559e+001	1.389361e+002
9.990164e+006	-3.575659e+001	1.571001e+002	-3.057639e+001	-2.443575e+001	-9.908936e+001	1.099193e+002	-3.319248e+001	1.389499e+002
9.990169e+006	-3.574698e+001	1.571863e+002	-3.056388e+001	-2.440822e+001	-8.944819e+001	1.783060e+002	-3.319704e+001	1.389099e+002
9.990173e+006	-3.575429e+001	1.571212e+002	-3.056435e+001	-2.430127e+001	-9.494027e+001	7.312861e+001	-3.318562e+001	1.390207e+002
9.990178e+006	-3.574386e+001	1.570857e+002	-3.057215e+001	-2.426513e+001	-9.091148e+001	5.218598e+001	-3.319858e+001	1.388461e+002
9.990183e+006	-3.575146e+001	1.571490e+002	-3.056812e+001	-2.422598e+001	-9.174205e+001	1.423836e+002	-3.318478e+001	1.389300e+002
9.990188e+006	-3.575385e+001	1.571197e+002	-3.055791e+001	-2.425571e+001	-9.735400e+001	1.210634e+002	-3.319766e+001	1.389094e+002
9.990192e+006	-3.574728e+001	1.570998e+002	-3.055008e+001	-2.420726e+001	-9.991974e+001	-9.598426e+001	-3.319256e+001	1.388131e+002
9.990197e+006	-3.575553e+001	1.572595e+002	-3.055310e+001	-2.420939e+001	-9.748739e+001	9.453339e+001	-3.319427e+001	1.389525e+002
9.990202e+006	-3.574693e+001	1.573265e+002	-3.054714e+001	-2.440311e+001	-9.192349e+001	3.885356e+001	-3.320184e+001	1.388586e+002
9.990206e+006	-3.574972e+001	1.571206e+002	-3.055614e+001	-2.436432e+001	-9.561489e+001	1.656101e+002	-3.317857e+001	1.388566e+002
9.990211e+006	-3.575040e+001	1.571566e+002	-3.056800e+001	-2.427695e+001	-9.332411e+001	-1.147518e+002	-3.319754e+001	1.389047e+002
9.990216e+006	-3.576051e+001	1.571856e+002	-3.056757e+001	-2.436533e+001	-9.120842e+001	8.497181e+001	-3.318440e+001	1.389676e+002
9.990220e+006	-3.575914e+001	1.571149e+002	-3.055672e+001	-2.431008e+001	-9.356144e+001	5.533598e+001	-3.318876e+001	1.389551e+002
9.990225e+006	-3.576422e+001	1.571204e+002	-3.055683e+001	-2.425273e+001	-8.786049e+001	4.140127e+001	-3.318570e+001	1.389057e+002
9.990230e+006	-3.576415e+001	1.570940e+002	-3.055971e+001	-2.428297e+001	-9.423482e+001	3.038898e+001	-3.318772e+001	1.389246e+002
9.990234e+006	-3.574847e+001	1.571519e+002	-3.056006e+001	-2.426648e+001	-9.500932e+001	1.584065e+002	-3.319240e+001	1.388995e+002
9.990239e+006	-3.573303e+001	1.571979e+002	-3.054697e+001	-2.430724e+001	-9.698262e+001	7.632935e+001	-3.317505e+001	1.390053e+002
9.990244e+006	-3.574388e+001	1.571108e+002	-3.055619e+001	-2.425340e+001	-9.292171e+001	4.177930e+001	-3.319226e+001	1.388896e+002
9.990248e+006	-3.573044e+001	1.571526e+002	-3.055400e+001	-2.421636e+001	-9.592864e+001	5.732882e+001	-3.319641e+001	1.388387e+002
9.990253e+006	-3.574989e+001	1.571349e+002	-3.055322e+001	-2.428467e+001	-9.677735e+001	1.245064e+002	-3.318886e+001	1.388395e+002
9.990258e+006	-3.575679e+001	1.572687e+002	-3.054939e+001	-2.429523e+001	-8.896139e+001	5.903068e+001	-3.317745e+001	1.388743e+002
9.990263e+006	-3.575758e+001	1.571296e+002	-3.056184e+001	-2.429533e+001	-1.000312e+002	-1.380628e+002	-3.318739e+001	1.388645e+002
9.990267e+006	-3.576047e+001	1.571186e+002	-3.056132e+001	-2.429309e+001	-8.493742e+001	1.143528e+002	-3.318543e+001	1.388133e+002
9.990272e+006	-3.576296e+001	1.571156e+002	-3.056275e+001	-2.426507e+001	-8.962286e+001	7.820868e+001	-3.319926e+001	1.388796e+002
9.990277e+006	-3.575630e+001	1.572081e+002	-3.055465e+001	-2.428292e+001	-8.841686e+001	1.267437e+002	-3.319830e+001	1.388566e+002
9.990281e+006	-3.575208e+001	1.571095e+002	-3.055288e+001	-2.431599e+001	-1.003350e+002	-1.359975e+002	-3.318505e+001	1.388664e+002
9.990286e+006	-3.575060e+001	1.571820e+002	-3.056664e+001	-2.426486e+001	-9.229649e+001	3.044228e+001	-3.319457e+001	1.389839e+002
9.990291e+006	-3.573594e+001	1.571988e+002	-3.055514e+001	-2.429365e+001	-9.098670e+001	3.529311e+001	-3.320002e+001	1.388779e+002
9.990295e+006	-3.574682e+001	1.571382e+002	-3.055309e+001	-2.428439e+001	-9.479813e+001	1.421646e+002	-3.319846e+001	1.389162e+002
9.990300e+006	-3.575785e+001	1.570714e+002	-3.056227e+001	-2.429309e+001	-1.001974e+002	-1.384086e+002	-3.317387e+001	1.389174e+002
9.990305e+006	-3.574519e+001	1.571690e+002	-3.054937e+001	-2.427763e+001	-8.932838e+001	1.261796e+002	-3.318403e+001	1.389591e+002
9.990309e+006	-3.575482e+001	1.571871e+002	-3.055604e+001	-2.434731e+001	-9.553988e+001	7.812995e+001	-3.319057e+001	1.389168e+002
9.990314e+006	-3.573551e+001	1.571802e+002	-3.055925e+001	-2.435358e+001	-8.594336e+001	1.416547e+002	-3.320086e+001	1.389477e+002
9.990319e+006	-3.574469e+001	1.571952e+002	-3.055295e+001	-2.427923e+001	-9.077940e+001	-1.290232e+002	-3.319821e+001	1.389125e+002
9.990323e+006	-3.575386e+001	1.571649e+002	-3.055044e+001	-2.427497e+001	-1.019640e+002	-9.992196e+001	-3.317940e+001	1.389129e+002
9.990328e+006	-3.573721e+001	1.571771e+002	-3.054968e+001	-2.425708e+001	-9.250591e+001	5.494930e+001	-3.320114e+001	1.388744e+002
9.990333e+006	-3.574892e+001	1.572368e+002	-3.056056e+001	-2.432115e+001	-9.050579e+001	1.329923e+002	-3.319296e+001	1.389421e+002
9.990338e+006	-3.575935e+001	1.571189e+002	-3.055840e+001	-2.427808e+001	-9.617283e+001	1.288951e+002	-3.317815e+001	1.388805e+002
9.990342e+006	-3.574677e+001	1.572521e+002	-3.054033e+001	-2.426166e+001	-9.301091e+001	1.552379e+002	-3.319364e+001	1.389274e+002
9.990347e+006	-3.574963e+001	1.572553e+002	-3.055220e+001	-2.431941e+001	-9.931987e+001	9.880436e+001	-3.318274e+001	1.388942e+002
9.990352e+006	-3.575910e+001	1.571327e+002	-3.055926e+001	-2.432884e+001	-9.687156e+001	1.372603e+002	-3.319486e+001	1.388741e+002
9.990356e+006	-3.573866e+001	1.571157e+002	-3.055251e+001	-2.430930e+001	-9.359989e+001	1.611583e+002	-3.318748e+001	1.389176e+002
9.990361e+006	-3.574100e+001	1.571688e+002	-3.056543e+001	-2.426371e+001	-8.827029e+001	5.306482e+001	-3.318013e+001	1.389457e+002
9.990366e+006	-3.576029e+001	1.571910e+002	-3.055853e+001	-2.427186e+001	-9.389306e+001	-5.838006e+001	-3.319407e+001	1.389502e+002
9.990370e+006	-3.575548e+001	1.572110e+002	-3.056465e+001	-2.418758e+001	-8.882077e+001	1.273791e+002	-3.318055e+001	1.389450e+002
9.990375e+006	-3.575421e+001	1.570779e+002	-3.055830e+001	-2.426699e+001	-8.562315e+001	5.268005e+001	-3.319080e+001	1.389629e+002
9.990380e+006	-3.574271e+001	1.571090e+002	-3.055833e+001	-2.430526e+001	-9.031741e+001	1.215044e+002	-3.317079e+001	1.389161e+002
9.990384e+006	-3.575715e+001	1.570656e+002	-3.056303e+001	-2.432388e+001	-9.425106e+001	1.759665e+002	-3.318437e+001	1.388907e+002
9.990389e+006	-3.575783e+001	1.570998e+002	-3.056063e+001	-2.428749e+001	-8.921843e+001	-1.719232e+002	-3.318976e+001	1.387355e+002
9.990394e+006	-3.575018e+001	1.570928e+002	-3.055648e+001	-2.430838e+001	-9.605834e+001	9.908258e+001	-3.318792e+001	1.388181e+002
9.990398e+006	-3.573916e+001	1.571659e+002	-3.055534e+001	-2.425350e+001	-9.760129e+001	-5.132987e+001	-3.319934e+001	1.388437e+002
9.990403e+006	-3.576216e+001	1.571446e+002	-3.055451e+001	-2.428321e+001	-9.188757e+001	8.993044e+001	-3.317372e+001	1.388642e+002
9.990408e+006	-3.575301e+001	1.571707e+002	-3.055804e+001	-2.425300e+001	-1.040584e+002	-2.306036e+001	-3.318470e+001	1.389360e+002
9.990413e+006	-3.575181e+001	1.571522e+002	-3.055901e+001	-2.428487e+001	-8.774142e+001	8.465990e+001	-3.319605e+001	1.388943e+002
9.990417e+006	-3.575007e+001	1.571475e+002	-3.055738e+001	-2.426966e+001	-9.493152e+001	-7.566275e+001	-3.318994e+001	1.388882e+002
9.990422e+006	-3.574894e+001	1.571557e+002	-3.055659e+001	-2.421841e+001	-1.032593e+002	1.097060e+002	-3.320057e+001	1.388484e+002
9.990427e+006	-3.574835e+001	1.571472e+002	-3.055731e+001	-2.428511e+001	-9.608867e+001	2.018757e+001	-3.319120e+001	1.389221e+002
9.990431e+006	-3.575325e+001	1.571793e+002	-3.055247e+001	-2.430615e+001	-8.821589e+001	7.564896e+001	-3.319591e+001	1.389244e+002
9.990436e+006	-3.576312e+001	1.570857e+002	-3.055392e+001	-2.432202e+001	-1.008830e+002	-1.435217e+002	-3.319015e+001	1.389378e+002
9.990441e+006	-3.574605e+001	1.571469e+002	-3.055738e+001	-2.435143e+001	-9.793166e+001	4.412355e+001	-3.318375e+001	1.388906e+002
9.990445e+006	-3.575222e+001	1.571287e+002	-3.055460e+001	-2.430354e+001	-9.791254e+001	4.949203e+001	-3.317435e+001	1.389065e+002
9.990450e+006	-3.576285e+001	1.572717e+002	-3.054758e+001	-2.428510e+001	-9.206842e+001	7.870571e+001	-3.320574e+001	1.389550e+002
9.990455e+006	-3.577483e+001	1.570737e+002	-3.056034e+001	-2.430956e+001	-9.609039e+001	5.940573e+001	-3.320415e+001	1.388757e+002
9.990459e+006	-3.574060e+001	1.571612e+002	-3.055005e+001	-2.429028e+001	-1.036011e+002	-1.533733e+002	-3.318087e+001	1.389507e+002
9.990464e+006	-3.575312e+001	1.571646e+002	-3.056832e+001	-2.428278e+001	-9.315797e+001	2.837431e+001	-3.319862e+001	1.389477e+002
9.990469e+006	-3.575450e+001	1.571296e+002	-3.054281e+001	-2.430296e+001	-8.747692e+001	-1.285182e+002	-3.319060e+001	1.389365e+002
9.990473e+006	-3.574071e+001	1.571998e+002	-3.056069e+001	-2.436050e+001	-9.597241e+001	-3.752947e+001	-3.319032e+001	1.389115e+002
9.990478e+006	-3.574814e+001	1.571671e+002	-3.055329e+001	-2.428234e+001	-9.162630e+001	2.032100e+001	-3.319089e+001	1.389423e+002
9.990483e+006	-3.575424e+001	1.571071e+002	-3.056422e+001	-2.430187e+001	-8.750104e+001	8.594091e+001	-3.318941e+001	1.388876e+002
9.990488e+006	-3.574931e+001	1.570437e+002	-3.055218e+001	-2.425411e+001	-9.469984e+001	5.802739e+001	-3.318436e+001	1.388819e+002
9.990492e+006	-3.575338e+001	1.570864e+002	-3.054700e+001	-2.425862e+001	-1.023091e+002	1.621308e+002	-3.318925e+001	1.388987e+002
9.990497e+006	-3.574184e+001	1.571130e+002	-3.055479e+001	-2.428117e+001	-9.618878e+001	1.718640e+002	-3.320211e+001	1.388475e+002
9.990502e+006	-3.575274e+001	1.571616e+002	-3.055207e+001	-2.433672e+001	-9.136518e+001	7.775435e+001	-3.320399e+001	1.388758e+002
9.990506e+006	-3.573253e+001	1.571707e+002	-3.055044e+001	-2.424906e+001	-1.000141e+002	1.254137e+002	-3.319586e+001	1.389610e+002
9.990511e+006	-3.573313e+001	1.570830e+002	-3.055043e+001	-2.429603e+001	-8.602630e+001	1.115667e+002	-3.319161e+001	1.388448e+002
9.990516e+006	-3.575716e+001	1.571763e+002	-3.055008e+001	-2.426533e+001	-9.115275e+001	9.093368e+001	-3.318547e+001	1.389096e+002
9.990520e+006	-3.575284e+001	1.572160e+002	-3.054608e+001	-2.428036e+001	-9.288115e+001	5.067567e+001	-3.321625e+001	1.389548e+002
9.990525e+006	-3.576057e+001	1.571248e+002	-3.056139e+001	-2.425510e+001	-9.157718e+001	1.476592e+002	-3.318904e+001	1.388880e+002
9.990530e+006	-3.575799e+001	1.571636e+002	-3.055300e+001	-2.436041e+001	-9.690169e+001	-1.040673e+002	-3.319087e+001	1.388579e+002
9.990534e+006	-3.576819e+001	1.571672e+002	-3.054691e+001	-2.431192e+001	-1.067468e+002	-5.573620e+001	-3.318963e+001	1.389690e+002
9.990539e+006	-3.575058e+001	1.571733e+002	-3.055931e+001	-2.429389e+001	-9.959261e+001	-2.002887e+001	-3.318033e+001	1.388496e+002
9.990544e+006	-3.574261e+001	1.571694e+002	-3.054575e+001	-2.432986e+001	-9.411316e+001	-2.982325e+000	-3.319152e+001	1.389806e+002
9.990548e+006	-3.574854e+001	1.572056e+002	-3.054894e+001	-2.431159e+001	-9.657835e+001	-2.568734e+001	-3.318976e+001	1.388918e+002
9.990553e+006	-3.575348e+001	1.570919e+002	-3.054959e+001	-2.426106e+001	-8.757476e+001	-1.506815e+002	-3.318473e+001	1.389196e+002
9.990558e+006	-3.575609e+001	1.571650e+002	-3.055223e+001	-2.428036e+001	-9.428060e+001	6.402609e+001	-3.319990e+001	1.388858e+002
9.990563e+006	-3.576536e+001	1.572374e+002	-3.054834e+001	-2.428265e+001	-1.015269e+002	1.555635e+002	-3.318659e+001	1.388429e+002
9.990567e+006	-3.574420e+001	1.570838e+002	-3.055175e+001	-2.433671e+001	-1.025090e+002	2.868916e+001	-3.319790e+001	1.388693e+002
9.990572e+006	-3.576055e+001	1.571183e+002	-3.055962e+001	-2.429815e+001	-1.027136e+002	-9.239604e+001	-3.318931e+001	1.388397e+002
9.990577e+006	-3.575724e+001	1.571351e+002	-3.054764e+001	-2.436345e+001	-9.223654e+001	1.289387e+002	-3.319078e+001	1.389600e+002
9.990581e+006	-3.575371e+001	1.570953e+002	-3.054567e+001	-2.431185e+001	-9.009632e+001	1.565690e+002	-3.317900e+001	1.388766e+002
9.990586e+006	-3.574571e+001	1.570770e+002	-3.055226e+001	-2.431224e+001	-1.196770e+002	1.707388e+002	-3.318887e+001	1.387849e+002
9.990591e+006	-3.574976e+001	1.572014e+002	-3.054539e+001	-2.429023e+001	-9.847501e+001	1.064249e+002	-3.319674e+001	1.389849e+002
9.990595e+006	-3.575224e+001	1.572149e+002	-3.055281e+001	-2.423233e+001	-9.042769e+001	7.704051e+001	-3.319900e+001	1.388946e+002
9.990600e+006	-3.575191e+001	1.571293e+002	-3.055017e+001	-2.428460e+001	-9.117209e+001	-1.456548e+001	-3.319764e+001	1.389208e+002
9.990605e+006	-3.574429e+001	1.571874e+002	-3.054938e+001	-2.429294e+001	-9.249517e+001	2.457687e+001	-3.319047e+001	1.388524e+002
9.990609e+006	-3.575191e+001	1.570809e+002	-3.055831e+001	-2.424813e+001	-8.782230e+001	5.149633e+001	-3.320404e+001	1.388865e+002
9.990614e+006	-3.576080e+001	1.571138e+002	-3.054849e+001	-2.432060e+001	-9.483858e+001	5.176566e+001	-3.317878e+001	1.389060e+002
9.990619e+006	-3.573890e+001	1.572298e+002	-3.054931e+001	-2.422334e+001	-9.273925e+001	6.916277e+000	-3.319071e+001	1.388565e+002
9.990623e+006	-3.575536e+001	1.570740e+002	-3.055910e+001	-2.427080e+001	-8.859234e+001	1.074662e+002	-3.318883e+001	1.389740e+002
9.990628e+006	-3.573959e+001	1.571170e+002	-3.056278e+001	-2.431581e+001	-9.054867e+001	3.487892e+001	-3.318500e+001	1.388741e+002
9.990633e+006	-3.575654e+001	1.572162e+002	-3.055261e+001	-2.427752e+001	-8.814273e+001	4.253437e+001	-3.318781e+001	1.388672e+002
9.990638e+006	-3.576079e+001	1.571469e+002	-3.055082e+001	-2.430910e+001	-9.176964e+001	1.378666e+001	-3.319488e+001	1.389350e+002
9.990642e+006	-3.576891e+001	1.571914e+002	-3.055408e+001	-2.426569e+001	-8.825589e+001	1.715926e+002	-3.318699e+001	1.388598e+002
9.990647e+006	-3.576041e+001	1.570937e+002	-3.053914e+001	-2.429630e+001	-9.375622e+001	4.051693e+001	-3.319101e+001	1.389093e+002
9.990652e+006	-3.574680e+001	1.571837e+002	-3.054952e+001	-2.428879e+001	-9.473348e+001	9.009168e+001	-3.318800e+001	1.389701e+002
9.990656e+006	-3.575680e+001	1.571900e+002	-3.055087e+001	-2.427403e+001	-9.173662e+001	1.965808e+001	-3.319258e+001	1.388906e+002
9.990661e+006	-3.575612e+001	1.571804e+002	-3.054562e+001	-2.432850e+001	-9.375725e+001	1.485222e+002	-3.317568e+001	1.389104e+002
9.990666e+006	-3.575072e+001	1.571449e+002	-3.054350e+001	-2.423612e+001	-9.491619e+001	7.655312e+001	-3.318725e+001	1.388438e+002
9.990670e+006	-3.575965e+001	1.570589e+002	-3.055432e+001	-2.428365e+001	-9.817033e+001	8.889381e+001	-3.320706e+001	1.388800e+002
9.990675e+006	-3.575607e+001	1.572055e+002	-3.053220e+001	-2.433671e+001	-1.062161e+002	8.551242e+001	-3.319597e+001	1.388630e+002
9.990680e+006	-3.574099e+001	1.572218e+002	-3.054802e+001	-2.426132e+001	-1.012593e+002	2.105182e+001	-3.318549e+001	1.388285e+002
9.990684e+006	-3.573573e+001	1.571079e+002	-3.054411e+001	-2.436568e+001	-8.859775e+001	-1.590328e+002	-3.319254e+001	1.388851e+002
9.990689e+006	-3.574094e+001	1.572298e+002	-3.053591e+001	-2.424152e+001	-9.365150e+001	-4.185467e+001	-3.319616e+001	1.389560e+002
9.990694e+006	-3.576410e+001	1.572208e+002	-3.055205e+001	-2.429510e+001	-8.913039e+001	-1.436384e+002	-3.317805e+001	1.389207e+002
9.990698e+006	-3.575298e+001	1.572069e+002	-3.054208e+001	-2.427077e+001	-9.351090e+001	-2.000720e+001	-3.318507e+001	1.388773e+002
