!CETC41,AV3656A,ZGL00048,1.3.2
!Calibration ON (Full Solt 2-Port(Omit Isolation))
!Measurements: S11 S21 S12 S22
!2025-04-18 02:45
# Hz  S  dB  R 50.000
9.990000e+006	-3.557655e+001	1.560672e+002	-3.054567e+001	-2.504755e+001	-9.569647e+001	-8.250671e+000	-3.296861e+001	1.390373e+002
9.990005e+006	-3.556611e+001	1.561013e+002	-3.054723e+001	-2.505094e+001	-9.341280e+001	1.452981e+002	-3.296141e+001	1.391434e+002
9.990009e+006	-3.556065e+001	1.560757e+002	-3.054646e+001	-2.505515e+001	-9.389327e+001	-1.740559e+002	-3.296458e+001	1.392382e+002
9.990014e+006	-3.556507e+001	1.561671e+002	-3.055390e+001	-2.503900e+001	-1.060954e+002	8.916720e+001	-3.296464e+001	1.392600e+002
9.990019e+006	-3.556013e+001	1.560595e+002	-3.054599e+001	-2.512190e+001	-9.423061e+001	9.990124e+001	-3.298072e+001	1.392074e+002
9.990023e+006	-3.556910e+001	1.561172e+002	-3.054945e+001	-2.509267e+001	-9.218628e+001	9.166446e+001	-3.297860e+001	1.392261e+002
9.990028e+006	-3.556921e+001	1.561254e+002	-3.054999e+001	-2.504382e+001	-9.445315e+001	-4.548736e-001	-3.298260e+001	1.392564e+002
9.990033e+006	-3.556663e+001	1.561288e+002	-3.054457e+001	-2.509723e+001	-9.352163e+001	5.809724e+001	-3.297524e+001	1.392265e+002
9.990038e+006	-3.557488e+001	1.560858e+002	-3.053301e+001	-2.509855e+001	-9.609120e+001	-4.256379e+000	-3.297334e+001	1.392440e+002
9.990042e+006	-3.556140e+001	1.560391e+002	-3.054335e+001	-2.503465e+001	-1.040871e+002	-1.495554e+002	-3.298522e+001	1.392947e+002
9.990047e+006	-3.556784e+001	1.561040e+002	-3.054906e+001	-2.504064e+001	-9.097789e+001	-1.789091e+002	-3.297839e+001	1.391842e+002
9.990052e+006	-3.556892e+001	1.561340e+002	-3.055229e+001	-2.510885e+001	-9.849695e+001	5.103231e+001	-3.298139e+001	1.392102e+002
9.990056e+006	-3.555628e+001	1.560723e+002	-3.053288e+001	-2.516335e+001	-8.889480e+001	4.756453e+001	-3.298169e+001	1.392422e+002
9.990061e+006	-3.555810e+001	1.560392e+002	-3.054004e+001	-2.506907e+001	-9.316251e+001	6.910020e+001	-3.296871e+001	1.392380e+002
9.990066e+006	-3.556872e+001	1.559896e+002	-3.054343e+001	-2.509751e+001	-9.550623e+001	1.099875e+002	-3.297628e+001	1.392386e+002
9.990070e+006	-3.557389e+001	1.562044e+002	-3.055036e+001	-2.518633e+001	-9.352379e+001	1.558943e+002	-3.298387e+001	1.392885e+002
9.990075e+006	-3.556305e+001	1.561107e+002	-3.055159e+001	-2.511016e+001	-8.699939e+001	1.064475e+002	-3.298872e+001	1.392257e+002
9.990080e+006	-3.556209e+001	1.560542e+002	-3.054800e+001	-2.509877e+001	-9.130426e+001	-1.725273e+002	-3.298607e+001	1.392549e+002
9.990084e+006	-3.555771e+001	1.560235e+002	-3.056846e+001	-2.507992e+001	-8.892374e+001	6.372876e+001	-3.297419e+001	1.391687e+002
9.990089e+006	-3.556862e+001	1.560986e+002	-3.056986e+001	-2.513930e+001	-9.789528e+001	-1.466576e+002	-3.297857e+001	1.391328e+002
9.990094e+006	-3.555907e+001	1.560310e+002	-3.055713e+001	-2.517164e+001	-8.909822e+001	1.081579e+002	-3.298420e+001	1.392066e+002
9.990098e+006	-3.555696e+001	1.561295e+002	-3.056459e+001	-2.518254e+001	-9.270192e+001	1.359756e+002	-3.297344e+001	1.391800e+002
9.990103e+006	-3.556841e+001	1.561555e+002	-3.055377e+001	-2.523291e+001	-8.444678e+001	9.841927e+001	-3.297683e+001	1.390723e+002
9.990108e+006	-3.556895e+001	1.561752e+002	-3.056694e+001	-2.518391e+001	-9.398044e+001	-1.749228e+002	-3.297459e+001	1.391298e+002
9.990113e+006	-3.559250e+001	1.561185e+002	-3.056822e+001	-2.508606e+001	-1.006217e+002	-1.743042e+002	-3.298152e+001	1.390809e+002
9.990117e+006	-3.556071e+001	1.561053e+002	-3.057011e+001	-2.503494e+001	-9.371555e+001	-1.113160e+002	-3.297838e+001	1.390943e+002
9.990122e+006	-3.556576e+001	1.560217e+002	-3.056323e+001	-2.508010e+001	-8.884257e+001	1.095840e+002	-3.298035e+001	1.391052e+002
9.990127e+006	-3.554373e+001	1.560513e+002	-3.056374e+001	-2.508510e+001	-9.715078e+001	8.554278e+001	-3.298134e+001	1.392419e+002
9.990131e+006	-3.556190e+001	1.560597e+002	-3.056790e+001	-2.506209e+001	-9.653863e+001	1.465016e+002	-3.298472e+001	1.391526e+002
9.990136e+006	-3.556569e+001	1.561123e+002	-3.056860e+001	-2.502200e+001	-9.627920e+001	1.144059e+002	-3.297664e+001	1.392056e+002
9.990141e+006	-3.557369e+001	1.560510e+002	-3.053620e+001	-2.506036e+001	-9.523577e+001	1.618217e+002	-3.297210e+001	1.392469e+002
9.990145e+006	-3.556743e+001	1.560708e+002	-3.055286e+001	-2.504718e+001	-9.443356e+001	-5.697192e+001	-3.297516e+001	1.391588e+002
9.990150e+006	-3.555523e+001	1.559920e+002	-3.055064e+001	-2.501390e+001	-9.994985e+001	1.397557e+002	-3.297025e+001	1.391751e+002
9.990155e+006	-3.558622e+001	1.561082e+002	-3.054874e+001	-2.501259e+001	-9.805509e+001	-5.104070e+001	-3.297705e+001	1.390870e+002
9.990159e+006	-3.557826e+001	1.561246e+002	-3.054753e+001	-2.509631e+001	-9.671756e+001	1.438439e+002	-3.298279e+001	1.390880e+002
9.990164e+006	-3.557317e+001	1.561048e+002	-3.053426e+001	-2.516527e+001	-8.726078e+001	1.018126e+002	-3.298251e+001	1.391854e+002
9.990169e+006	-3.557624e+001	1.560621e+002	-3.055407e+001	-2.510646e+001	-8.346554e+001	9.426285e+001	-3.297723e+001	1.391431e+002
9.990173e+006	-3.556400e+001	1.561973e+002	-3.055221e+001	-2.509242e+001	-9.248850e+001	7.960104e+001	-3.298806e+001	1.391752e+002
9.990178e+006	-3.556554e+001	1.561315e+002	-3.056384e+001	-2.509466e+001	-1.129047e+002	-1.082550e+002	-3.297492e+001	1.393196e+002
9.990183e+006	-3.557879e+001	1.560398e+002	-3.054394e+001	-2.503757e+001	-8.689908e+001	-1.458350e+002	-3.298429e+001	1.391824e+002
9.990188e+006	-3.556901e+001	1.560721e+002	-3.055728e+001	-2.504463e+001	-9.859315e+001	5.892577e+001	-3.297598e+001	1.392091e+002
9.990192e+006	-3.557216e+001	1.561357e+002	-3.055737e+001	-2.504784e+001	-9.104809e+001	2.454342e+001	-3.298463e+001	1.391311e+002
9.990197e+006	-3.556950e+001	1.559577e+002	-3.055536e+001	-2.504482e+001	-9.212439e+001	-1.688945e+002	-3.298309e+001	1.391491e+002
9.990202e+006	-3.555522e+001	1.560805e+002	-3.055029e+001	-2.505976e+001	-9.045940e+001	-1.653193e+002	-3.297861e+001	1.392099e+002
9.990206e+006	-3.558610e+001	1.561415e+002	-3.054196e+001	-2.507018e+001	-9.354508e+001	1.038847e+002	-3.298356e+001	1.392127e+002
9.990211e+006	-3.556246e+001	1.560691e+002	-3.055605e+001	-2.501346e+001	-1.090630e+002	-4.594855e+001	-3.298328e+001	1.391866e+002
9.990216e+006	-3.556449e+001	1.561417e+002	-3.055094e+001	-2.505908e+001	-8.956633e+001	7.171959e+001	-3.297695e+001	1.391706e+002
9.990220e+006	-3.556806e+001	1.560624e+002	-3.055327e+001	-2.506048e+001	-9.317506e+001	-1.174858e+002	-3.298937e+001	1.391549e+002
9.990225e+006	-3.557150e+001	1.561125e+002	-3.055644e+001	-2.504453e+001	-8.990157e+001	-1.745647e+002	-3.298275e+001	1.392377e+002
9.990230e+006	-3.556376e+001	1.561983e+002	-3.054854e+001	-2.505016e+001	-9.193052e+001	1.269242e+002	-3.297134e+001	1.391670e+002
9.990234e+006	-3.556537e+001	1.560810e+002	-3.054808e+001	-2.512098e+001	-9.083112e+001	9.687463e+001	-3.297740e+001	1.392128e+002
9.990239e+006	-3.557236e+001	1.561651e+002	-3.055122e+001	-2.499569e+001	-1.006029e+002	-1.779186e+002	-3.297582e+001	1.390989e+002
9.990244e+006	-3.557795e+001	1.561261e+002	-3.053981e+001	-2.507078e+001	-9.628803e+001	-1.489046e+002	-3.298012e+001	1.391291e+002
9.990248e+006	-3.556527e+001	1.559923e+002	-3.054306e+001	-2.505627e+001	-1.007321e+002	1.110831e+002	-3.297278e+001	1.391881e+002
9.990253e+006	-3.555718e+001	1.561037e+002	-3.054431e+001	-2.501632e+001	-9.624680e+001	1.274129e+002	-3.297970e+001	1.391478e+002
9.990258e+006	-3.555569e+001	1.561501e+002	-3.054556e+001	-2.506359e+001	-9.802891e+001	1.000470e+002	-3.297918e+001	1.392134e+002
9.990263e+006	-3.556423e+001	1.560975e+002	-3.054131e+001	-2.501009e+001	-8.805211e+001	-1.784104e+002	-3.296625e+001	1.391692e+002
9.990267e+006	-3.556257e+001	1.561441e+002	-3.054639e+001	-2.502001e+001	-9.316891e+001	1.158094e+001	-3.297394e+001	1.392105e+002
9.990272e+006	-3.556575e+001	1.560517e+002	-3.054042e+001	-2.507569e+001	-9.079001e+001	1.189313e+002	-3.299245e+001	1.391233e+002
9.990277e+006	-3.555882e+001	1.560211e+002	-3.055013e+001	-2.506750e+001	-1.006319e+002	1.461459e+002	-3.298254e+001	1.391492e+002
9.990281e+006	-3.556276e+001	1.560359e+002	-3.055164e+001	-2.506173e+001	-9.347778e+001	1.030433e+002	-3.297882e+001	1.391619e+002
9.990286e+006	-3.556402e+001	1.561482e+002	-3.054680e+001	-2.512880e+001	-9.266305e+001	8.105331e+001	-3.297743e+001	1.391941e+002
9.990291e+006	-3.558148e+001	1.561190e+002	-3.054873e+001	-2.507845e+001	-1.056029e+002	1.597693e+002	-3.299191e+001	1.390988e+002
9.990295e+006	-3.556918e+001	1.561747e+002	-3.054175e+001	-2.509541e+001	-9.308876e+001	1.677864e+002	-3.297962e+001	1.391527e+002
9.990300e+006	-3.557612e+001	1.560918e+002	-3.054138e+001	-2.507056e+001	-9.778196e+001	7.517701e+001	-3.297682e+001	1.392003e+002
9.990305e+006	-3.557309e+001	1.560634e+002	-3.054980e+001	-2.504862e+001	-8.848546e+001	1.340922e+002	-3.298535e+001	1.391542e+002
9.990309e+006	-3.555130e+001	1.561129e+002	-3.054392e+001	-2.502504e+001	-9.233500e+001	-1.327097e+002	-3.296846e+001	1.391471e+002
9.990314e+006	-3.555796e+001	1.562165e+002	-3.054836e+001	-2.505246e+001	-9.127267e+001	-8.393370e+001	-3.297744e+001	1.391716e+002
9.990319e+006	-3.555956e+001	1.560841e+002	-3.054902e+001	-2.503333e+001	-9.500665e+001	5.928448e+001	-3.299522e+001	1.390863e+002
9.990323e+006	-3.557375e+001	1.560946e+002	-3.054353e+001	-2.511007e+001	-9.352557e+001	4.845708e+001	-3.298747e+001	1.392041e+002
9.990328e+006	-3.557752e+001	1.561659e+002	-3.054587e+001	-2.506100e+001	-8.963975e+001	1.445687e+002	-3.297685e+001	1.392397e+002
9.990333e+006	-3.556349e+001	1.560992e+002	-3.055368e+001	-2.508880e+001	-9.361290e+001	1.560219e+002	-3.298800e+001	1.392223e+002
9.990338e+006	-3.556611e+001	1.560041e+002	-3.054085e+001	-2.506547e+001	-9.332299e+001	-5.471719e+001	-3.297188e+001	1.391674e+002
9.990342e+006	-3.557043e+001	1.561313e+002	-3.054463e+001	-2.503064e+001	-1.000260e+002	2.589878e+001	-3.298649e+001	1.392388e+002
9.990347e+006	-3.557938e+001	1.561627e+002	-3.054917e+001	-2.507781e+001	-9.062385e+001	7.550760e+001	-3.298542e+001	1.391954e+002
9.990352e+006	-3.556529e+001	1.560874e+002	-3.055271e+001	-2.504759e+001	-9.245116e+001	-1.711486e+002	-3.297347e+001	1.390649e+002
9.990356e+006	-3.557309e+001	1.559858e+002	-3.054514e+001	-2.504880e+001	-8.858975e+001	1.464346e+002	-3.298879e+001	1.392522e+002
9.990361e+006	-3.557221e+001	1.560779e+002	-3.054903e+001	-2.507053e+001	-9.510054e+001	-1.204490e+002	-3.297248e+001	1.391545e+002
9.990366e+006	-3.556545e+001	1.561646e+002	-3.054589e+001	-2.504115e+001	-9.610054e+001	-6.011798e+001	-3.296873e+001	1.391820e+002
9.990370e+006	-3.555809e+001	1.562156e+002	-3.054856e+001	-2.504759e+001	-9.276595e+001	3.366031e+001	-3.297991e+001	1.391232e+002
9.990375e+006	-3.556872e+001	1.561282e+002	-3.054372e+001	-2.510155e+001	-9.564867e+001	9.344288e+001	-3.297597e+001	1.391242e+002
9.990380e+006	-3.557277e+001	1.561526e+002	-3.054731e+001	-2.505005e+001	-1.007998e+002	1.130043e+002	-3.297909e+001	1.391665e+002
9.990384e+006	-3.557036e+001	1.560435e+002	-3.055874e+001	-2.505368e+001	-1.007010e+002	-5.750551e+001	-3.297423e+001	1.390875e+002
9.990389e+006	-3.556524e+001	1.560974e+002	-3.054458e+001	-2.510234e+001	-9.071328e+001	1.411863e+002	-3.297292e+001	1.391992e+002
9.990394e+006	-3.557268e+001	1.561396e+002	-3.055819e+001	-2.506180e+001	-9.037287e+001	7.482581e+001	-3.298378e+001	1.391362e+002
9.990398e+006	-3.556706e+001	1.561403e+002	-3.054522e+001	-2.504388e+001	-9.098799e+001	1.542014e+002	-3.298385e+001	1.392182e+002
9.990403e+006	-3.556311e+001	1.560852e+002	-3.055352e+001	-2.508344e+001	-1.026391e+002	1.260650e+002	-3.297032e+001	1.391753e+002
9.990408e+006	-3.555795e+001	1.560531e+002	-3.055482e+001	-2.504215e+001	-9.366188e+001	7.007744e+001	-3.298629e+001	1.391536e+002
9.990413e+006	-3.556394e+001	1.560761e+002	-3.054659e+001	-2.504536e+001	-9.516342e+001	-5.994265e+001	-3.297781e+001	1.391624e+002
9.990417e+006	-3.557011e+001	1.561091e+002	-3.054234e+001	-2.507757e+001	-1.034240e+002	-1.684288e+002	-3.299363e+001	1.392350e+002
9.990422e+006	-3.556721e+001	1.562688e+002	-3.055451e+001	-2.511809e+001	-9.454730e+001	1.339664e+002	-3.298826e+001	1.391407e+002
9.990427e+006	-3.556925e+001	1.561751e+002	-3.055826e+001	-2.504145e+001	-8.703793e+001	3.187199e+001	-3.299398e+001	1.391648e+002
9.990431e+006	-3.556940e+001	1.561875e+002	-3.055413e+001	-2.504629e+001	-9.346684e+001	-7.178915e+001	-3.298523e+001	1.391787e+002
9.990436e+006	-3.557819e+001	1.560942e+002	-3.054544e+001	-2.503791e+001	-9.011248e+001	8.165850e+000	-3.297902e+001	1.391983e+002
9.990441e+006	-3.555987e+001	1.561434e+002	-3.054896e+001	-2.511671e+001	-9.264013e+001	3.538792e+001	-3.297925e+001	1.392131e+002
9.990445e+006	-3.556339e+001	1.561086e+002	-3.054575e+001	-2.509518e+001	-8.986858e+001	1.229388e+002	-3.297491e+001	1.391871e+002
9.990450e+006	-3.556895e+001	1.560051e+002	-3.054716e+001	-2.503011e+001	-9.321942e+001	1.130064e+002	-3.297791e+001	1.391947e+002
9.990455e+006	-3.557564e+001	1.561347e+002	-3.055180e+001	-2.504230e+001	-9.471131e+001	1.283066e+001	-3.298157e+001	1.391351e+002
9.990459e+006	-3.556562e+001	1.561523e+002	-3.054055e+001	-2.503175e+001	-9.505133e+001	-1.404831e+002	-3.298097e+001	1.390825e+002
9.990464e+006	-3.558044e+001	1.560603e+002	-3.054036e+001	-2.504906e+001	-1.009611e+002	-6.949163e+001	-3.298575e+001	1.392096e+002
9.990469e+006	-3.556688e+001	1.561125e+002	-3.054878e+001	-2.509419e+001	-8.700291e+001	4.708492e+001	-3.297978e+001	1.391674e+002
9.990473e+006	-3.556109e+001	1.561455e+002	-3.053982e+001	-2.506030e+001	-8.926811e+001	1.654733e+002	-3.296811e+001	1.391750e+002
9.990478e+006	-3.556649e+001	1.561046e+002	-3.055001e+001	-2.505404e+001	-9.163204e+001	1.747990e+002	-3.297324e+001	1.391036e+002
9.990483e+006	-3.557114e+001	1.561439e+002	-3.055107e+001	-2.508204e+001	-9.802830e+001	1.311331e+002	-3.298546e+001	1.391281e+002
9.990488e+006	-3.555836e+001	1.561161e+002	-3.054556e+001	-2.507494e+001	-1.017565e+002	-8.412521e+000	-3.297167e+001	1.392000e+002
9.990492e+006	-3.556734e+001	1.560750e+002	-3.054436e+001	-2.503800e+001	-8.898571e+001	1.251732e+002	-3.298440e+001	1.391323e+002
9.990497e+006	-3.557008e+001	1.560841e+002	-3.054472e+001	-2.502561e+001	-1.033226e+002	-1.726188e+002	-3.298726e+001	1.391457e+002
9.990502e+006	-3.557412e+001	1.561437e+002	-3.055218e+001	-2.504254e+001	-9.973100e+001	1.283177e+002	-3.296971e+001	1.391193e+002
9.990506e+006	-3.556151e+001	1.561479e+002	-3.054757e+001	-2.498796e+001	-9.717848e+001	1.289513e+000	-3.299187e+001	1.393487e+002
9.990511e+006	-3.556361e+001	1.561522e+002	-3.053870e+001	-2.506661e+001	-8.971363e+001	6.374296e+001	-3.298465e+001	1.391962e+002
9.990516e+006	-3.555975e+001	1.560726e+002	-3.054505e+001	-2.509638e+001	-9.193716e+001	6.114712e+001	-3.296924e+001	1.390265e+002
9.990520e+006	-3.558102e+001	1.559986e+002	-3.055086e+001	-2.504648e+001	-9.522477e+001	5.355997e+001	-3.297747e+001	1.391263e+002
9.990525e+006	-3.555416e+001	1.561310e+002	-3.055635e+001	-2.510290e+001	-1.007171e+002	-1.485129e+002	-3.297342e+001	1.392695e+002
9.990530e+006	-3.556085e+001	1.560512e+002	-3.053603e+001	-2.501062e+001	-9.314132e+001	1.096216e+002	-3.297604e+001	1.391474e+002
9.990534e+006	-3.556785e+001	1.560843e+002	-3.053121e+001	-2.511444e+001	-8.632257e+001	1.072984e+002	-3.298783e+001	1.391252e+002
9.990539e+006	-3.556162e+001	1.561712e+002	-3.055442e+001	-2.505779e+001	-9.931103e+001	3.292267e+001	-3.298099e+001	1.391401e+002
9.990544e+006	-3.556180e+001	1.561327e+002	-3.053913e+001	-2.514363e+001	-9.258356e+001	6.472237e+001	-3.299713e+001	1.391288e+002
9.990548e+006	-3.556772e+001	1.561141e+002	-3.054684e+001	-2.503032e+001	-9.287264e+001	1.206423e+002	-3.298581e+001	1.391591e+002
9.990553e+006	-3.556586e+001	1.560656e+002	-3.054459e+001	-2.502329e+001	-9.920263e+001	-1.476887e+002	-3.299043e+001	1.391987e+002
9.990558e+006	-3.556572e+001	1.561964e+002	-3.054852e+001	-2.503856e+001	-9.011885e+001	1.417705e+002	-3.298544e+001	1.392046e+002
9.990563e+006	-3.557077e+001	1.561557e+002	-3.054045e+001	-2.506745e+001	-9.176157e+001	1.340664e+002	-3.297137e+001	1.391243e+002
9.990567e+006	-3.556297e+001	1.560929e+002	-3.054443e+001	-2.505566e+001	-9.624004e+001	1.790895e+002	-3.297552e+001	1.391425e+002
9.990572e+006	-3.558090e+001	1.561193e+002	-3.055484e+001	-2.498334e+001	-9.977915e+001	-1.483342e+002	-3.298209e+001	1.391768e+002
9.990577e+006	-3.556436e+001	1.560193e+002	-3.053283e+001	-2.515204e+001	-9.109739e+001	6.306087e+001	-3.297192e+001	1.391821e+002
9.990581e+006	-3.556502e+001	1.560348e+002	-3.053865e+001	-2.506134e+001	-9.906229e+001	1.050847e+002	-3.297671e+001	1.391216e+002
9.990586e+006	-3.554796e+001	1.560416e+002	-3.054442e+001	-2.506740e+001	-8.989421e+001	2.802269e+001	-3.296369e+001	1.391605e+002
9.990591e+006	-3.555574e+001	1.560396e+002	-3.054331e+001	-2.507278e+001	-9.665470e+001	2.635401e+001	-3.297600e+001	1.390635e+002
9.990595e+006	-3.557927e+001	1.561760e+002	-3.054463e+001	-2.505556e+001	-1.020783e+002	1.640704e+002	-3.298105e+001	1.392025e+002
9.990600e+006	-3.556757e+001	1.561301e+002	-3.054698e+001	-2.506512e+001	-9.371212e+001	4.042585e+001	-3.298105e+001	1.392776e+002
9.990605e+006	-3.554884e+001	1.560103e+002	-3.053724e+001	-2.508963e+001	-8.865033e+001	1.103783e+002	-3.297939e+001	1.391499e+002
9.990609e+006	-3.557508e+001	1.561853e+002	-3.054417e+001	-2.505302e+001	-9.091764e+001	8.522841e+001	-3.297752e+001	1.391865e+002
9.990614e+006	-3.558412e+001	1.561421e+002	-3.054027e+001	-2.494812e+001	-8.790142e+001	1.173075e+002	-3.298753e+001	1.391676e+002
9.990619e+006	-3.557018e+001	1.561024e+002	-3.054139e+001	-2.505280e+001	-8.878774e+001	2.822469e+001	-3.297510e+001	1.392822e+002
9.990623e+006	-3.556936e+001	1.560300e+002	-3.054436e+001	-2.504444e+001	-9.748148e+001	1.652389e+002	-3.297756e+001	1.391795e+002
9.990628e+006	-3.557356e+001	1.560918e+002	-3.054492e+001	-2.497551e+001	-9.677317e+001	-1.403177e+002	-3.299548e+001	1.391833e+002
9.990633e+006	-3.557025e+001	1.560662e+002	-3.055370e+001	-2.504077e+001	-9.285122e+001	1.496177e+002	-3.298824e+001	1.391758e+002
9.990638e+006	-3.556157e+001	1.561017e+002	-3.054183e+001	-2.510014e+001	-9.061896e+001	-4.504697e+001	-3.297824e+001	1.392116e+002
9.990642e+006	-3.556705e+001	1.561250e+002	-3.053871e+001	-2.503581e+001	-1.036791e+002	-6.778145e+001	-3.298043e+001	1.392022e+002
9.990647e+006	-3.556050e+001	1.561643e+002	-3.054492e+001	-2.510067e+001	-9.007746e+001	1.659240e+002	-3.298505e+001	1.391351e+002
9.990652e+006	-3.555031e+001	1.560775e+002	-3.052926e+001	-2.508811e+001	-8.810667e+001	1.039921e+002	-3.297930e+001	1.391330e+002
9.990656e+006	-3.555915e+001	1.560417e+002	-3.053103e+001	-2.494812e+001	-8.957834e+001	8.714496e+001	-3.298190e+001	1.391203e+002
9.990661e+006	-3.556135e+001	1.560640e+002	-3.055275e+001	-2.509745e+001	-9.263999e+001	8.108563e+001	-3.298138e+001	1.391559e+002
9.990666e+006	-3.557043e+001	1.561302e+002	-3.053729e+001	-2.503515e+001	-9.660929e+001	9.734049e+001	-3.297725e+001	1.391836e+002
9.990670e+006	-3.556493e+001	1.560669e+002	-3.053414e+001	-2.503565e+001	-9.840515e+001	3.731289e+001	-3.296729e+001	1.391900e+002
9.990675e+006	-3.557442e+001	1.561270e+002	-3.054236e+001	-2.505433e+001	-8.659635e+001	8.502141e+001	-3.297874e+001	1.390349e+002
9.990680e+006	-3.556222e+001	1.561628e+002	-3.054933e+001	-2.501401e+001	-9.151429e+001	5.537085e+001	-3.297671e+001	1.392125e+002
9.990684e+006	-3.557226e+001	1.561324e+002	-3.054551e+001	-2.505357e+001	-8.870379e+001	1.390371e+002	-3.297499e+001	1.392962e+002
9.990689e+006	-3.557376e+001	1.561523e+002	-3.053966e+001	-2.508869e+001	-1.014678e+002	7.051714e+001	-3.296953e+001	1.391403e+002
9.990694e+006	-3.557251e+001	1.560964e+002	-3.054564e+001	-2.506366e+001	-8.965843e+001	1.720645e+001	-3.298850e+001	1.391428e+002
