!CETC41,AV3656A,ZGL00048,1.3.2
!Calibration ON (Full Solt 2-Port(Omit Isolation))
!Measurements: S11 S21 S12 S22
!2025-04-18 03:00
# Hz  S  dB  R 50.000
9.990000e+006	-3.559171e+001	1.561263e+002	-3.054747e+001	-2.478106e+001	-9.729119e+001	7.375814e+001	-3.301887e+001	1.387539e+002
9.990005e+006	-3.561113e+001	1.561898e+002	-3.054365e+001	-2.477075e+001	-9.663697e+001	1.024203e+001	-3.299724e+001	1.388295e+002
9.990009e+006	-3.559474e+001	1.561338e+002	-3.054584e+001	-2.479101e+001	-9.608262e+001	-1.396119e+002	-3.301708e+001	1.388643e+002
9.990014e+006	-3.559765e+001	1.561916e+002	-3.054804e+001	-2.483263e+001	-9.276614e+001	1.503902e+002	-3.302428e+001	1.389200e+002
9.990019e+006	-3.558391e+001	1.560201e+002	-3.054884e+001	-2.480292e+001	-8.833293e+001	1.520503e+002	-3.302260e+001	1.388715e+002
9.990023e+006	-3.558262e+001	1.560453e+002	-3.055321e+001	-2.476616e+001	-8.799670e+001	9.553090e+001	-3.303207e+001	1.389186e+002
9.990028e+006	-3.559983e+001	1.559830e+002	-3.054663e+001	-2.476973e+001	-9.433650e+001	1.551160e+002	-3.303474e+001	1.388618e+002
9.990033e+006	-3.558892e+001	1.561514e+002	-3.054401e+001	-2.477340e+001	-9.463441e+001	-8.955685e+001	-3.303467e+001	1.388281e+002
9.990038e+006	-3.559137e+001	1.561167e+002	-3.055460e+001	-2.480158e+001	-1.012885e+002	7.234975e+001	-3.303103e+001	1.387547e+002
9.990042e+006	-3.558751e+001	1.560361e+002	-3.054358e+001	-2.484843e+001	-9.299126e+001	-1.306386e+002	-3.304044e+001	1.387639e+002
9.990047e+006	-3.558072e+001	1.560246e+002	-3.054522e+001	-2.472612e+001	-8.881628e+001	1.113773e+002	-3.303703e+001	1.387547e+002
9.990052e+006	-3.557838e+001	1.560688e+002	-3.055668e+001	-2.476177e+001	-9.816537e+001	5.028753e+001	-3.303088e+001	1.388394e+002
9.990056e+006	-3.558367e+001	1.560941e+002	-3.054568e+001	-2.475732e+001	-9.149536e+001	1.431107e+002	-3.302326e+001	1.388066e+002
9.990061e+006	-3.559799e+001	1.561146e+002	-3.055313e+001	-2.477447e+001	-9.555941e+001	9.877888e+001	-3.302015e+001	1.387356e+002
9.990066e+006	-3.559214e+001	1.559807e+002	-3.054577e+001	-2.472514e+001	-8.837855e+001	6.395725e+001	-3.303090e+001	1.387268e+002
9.990070e+006	-3.559326e+001	1.559776e+002	-3.055659e+001	-2.485504e+001	-8.822711e+001	9.617238e+001	-3.301818e+001	1.388582e+002
9.990075e+006	-3.559354e+001	1.561180e+002	-3.055297e+001	-2.481484e+001	-8.670527e+001	8.907536e+001	-3.303061e+001	1.387342e+002
9.990080e+006	-3.558163e+001	1.560387e+002	-3.055123e+001	-2.478165e+001	-8.965007e+001	1.498829e+002	-3.301404e+001	1.387798e+002
9.990084e+006	-3.560102e+001	1.560564e+002	-3.055348e+001	-2.478913e+001	-8.968356e+001	6.040275e+001	-3.302585e+001	1.387145e+002
9.990089e+006	-3.560027e+001	1.560507e+002	-3.054896e+001	-2.482397e+001	-1.011048e+002	-1.670222e+002	-3.302894e+001	1.387838e+002
9.990094e+006	-3.557910e+001	1.560227e+002	-3.053996e+001	-2.479597e+001	-8.832708e+001	-1.480857e+002	-3.303658e+001	1.387517e+002
9.990098e+006	-3.559327e+001	1.561279e+002	-3.055108e+001	-2.486685e+001	-8.784487e+001	2.151780e+001	-3.301871e+001	1.388570e+002
9.990103e+006	-3.559235e+001	1.560613e+002	-3.055774e+001	-2.485147e+001	-9.116006e+001	2.288171e+001	-3.303875e+001	1.388650e+002
9.990108e+006	-3.559479e+001	1.560998e+002	-3.055145e+001	-2.487517e+001	-9.047735e+001	1.042943e+002	-3.302976e+001	1.388084e+002
9.990113e+006	-3.558168e+001	1.560282e+002	-3.057774e+001	-2.479803e+001	-9.006533e+001	8.633084e+001	-3.303040e+001	1.388089e+002
9.990117e+006	-3.558125e+001	1.561046e+002	-3.056722e+001	-2.481340e+001	-9.757404e+001	7.213530e+001	-3.302025e+001	1.389033e+002
9.990122e+006	-3.558802e+001	1.560236e+002	-3.057007e+001	-2.484855e+001	-9.064446e+001	6.570602e+001	-3.303102e+001	1.388147e+002
9.990127e+006	-3.561274e+001	1.561722e+002	-3.055834e+001	-2.480358e+001	-9.005147e+001	1.327708e+002	-3.301565e+001	1.388935e+002
9.990131e+006	-3.560138e+001	1.559888e+002	-3.056237e+001	-2.486012e+001	-9.763429e+001	7.678470e+001	-3.301897e+001	1.388520e+002
9.990136e+006	-3.557895e+001	1.561453e+002	-3.055675e+001	-2.477231e+001	-9.602166e+001	1.081930e+002	-3.302081e+001	1.387489e+002
9.990141e+006	-3.558074e+001	1.561087e+002	-3.056320e+001	-2.478397e+001	-9.570968e+001	3.701657e+001	-3.302129e+001	1.388943e+002
9.990145e+006	-3.558195e+001	1.559800e+002	-3.057129e+001	-2.474105e+001	-9.435868e+001	1.350717e+002	-3.303112e+001	1.387237e+002
9.990150e+006	-3.558756e+001	1.560247e+002	-3.055612e+001	-2.478177e+001	-9.202122e+001	-1.405879e+002	-3.302941e+001	1.388578e+002
9.990155e+006	-3.560546e+001	1.560738e+002	-3.055239e+001	-2.477863e+001	-1.016488e+002	-3.553057e+001	-3.302221e+001	1.388151e+002
9.990159e+006	-3.559262e+001	1.560333e+002	-3.054669e+001	-2.481922e+001	-1.109261e+002	1.083854e+002	-3.302742e+001	1.387209e+002
9.990164e+006	-3.559871e+001	1.561627e+002	-3.054976e+001	-2.475727e+001	-9.380846e+001	1.575685e+002	-3.302401e+001	1.387586e+002
9.990169e+006	-3.560465e+001	1.560891e+002	-3.055074e+001	-2.471401e+001	-8.821347e+001	1.189910e+002	-3.301952e+001	1.388824e+002
9.990173e+006	-3.559902e+001	1.560550e+002	-3.056047e+001	-2.482222e+001	-1.015986e+002	2.946686e+001	-3.302985e+001	1.387793e+002
9.990178e+006	-3.558942e+001	1.561272e+002	-3.056745e+001	-2.481822e+001	-1.005615e+002	-3.720088e+001	-3.301456e+001	1.387806e+002
9.990183e+006	-3.558683e+001	1.560889e+002	-3.055926e+001	-2.473926e+001	-9.703538e+001	-3.947115e+001	-3.302463e+001	1.388640e+002
9.990188e+006	-3.560307e+001	1.560962e+002	-3.055507e+001	-2.480725e+001	-1.013728e+002	6.555201e+001	-3.301886e+001	1.387696e+002
9.990192e+006	-3.558606e+001	1.561760e+002	-3.054487e+001	-2.476932e+001	-9.808640e+001	1.005035e+002	-3.303143e+001	1.388393e+002
9.990197e+006	-3.560125e+001	1.560071e+002	-3.055075e+001	-2.474092e+001	-9.523594e+001	-6.105154e+001	-3.302884e+001	1.388666e+002
9.990202e+006	-3.558452e+001	1.561183e+002	-3.054532e+001	-2.481243e+001	-9.068518e+001	-3.400984e+001	-3.301457e+001	1.388693e+002
9.990206e+006	-3.560170e+001	1.561138e+002	-3.055547e+001	-2.479288e+001	-9.224873e+001	-8.739663e+001	-3.302890e+001	1.388326e+002
9.990211e+006	-3.560011e+001	1.561875e+002	-3.056171e+001	-2.473566e+001	-9.671217e+001	-2.170797e+001	-3.303104e+001	1.387601e+002
9.990216e+006	-3.559302e+001	1.560383e+002	-3.055177e+001	-2.475732e+001	-9.061231e+001	-1.637169e+002	-3.301279e+001	1.387640e+002
9.990220e+006	-3.559589e+001	1.560922e+002	-3.056096e+001	-2.474313e+001	-9.260931e+001	-1.682580e+002	-3.302426e+001	1.387451e+002
9.990225e+006	-3.559577e+001	1.560948e+002	-3.055224e+001	-2.473476e+001	-9.642298e+001	-1.152193e+002	-3.302746e+001	1.387993e+002
9.990230e+006	-3.558893e+001	1.560539e+002	-3.054356e+001	-2.481779e+001	-9.143152e+001	-6.258959e+000	-3.302070e+001	1.388863e+002
9.990234e+006	-3.558269e+001	1.560178e+002	-3.055049e+001	-2.471687e+001	-9.923641e+001	-1.768182e+002	-3.303052e+001	1.388412e+002
9.990239e+006	-3.559701e+001	1.560968e+002	-3.055468e+001	-2.477337e+001	-9.688929e+001	1.153575e+002	-3.302875e+001	1.387261e+002
9.990244e+006	-3.559090e+001	1.560808e+002	-3.056290e+001	-2.475210e+001	-1.010907e+002	6.755076e+001	-3.302412e+001	1.387979e+002
9.990248e+006	-3.558641e+001	1.561495e+002	-3.055550e+001	-2.475907e+001	-9.479322e+001	-1.482376e+002	-3.302846e+001	1.388206e+002
9.990253e+006	-3.558052e+001	1.561180e+002	-3.054564e+001	-2.474063e+001	-8.770151e+001	3.905598e+001	-3.302611e+001	1.387560e+002
9.990258e+006	-3.559158e+001	1.560402e+002	-3.055674e+001	-2.473212e+001	-9.373729e+001	2.395546e+001	-3.302372e+001	1.388300e+002
9.990263e+006	-3.559848e+001	1.560647e+002	-3.055900e+001	-2.482343e+001	-1.019408e+002	-1.772887e+002	-3.302322e+001	1.388308e+002
9.990267e+006	-3.559494e+001	1.560668e+002	-3.055413e+001	-2.479290e+001	-1.014995e+002	5.608215e+001	-3.302962e+001	1.388259e+002
9.990272e+006	-3.559115e+001	1.560453e+002	-3.055414e+001	-2.476427e+001	-8.923670e+001	1.516822e+002	-3.300602e+001	1.388279e+002
9.990277e+006	-3.557775e+001	1.559555e+002	-3.054588e+001	-2.478429e+001	-9.313085e+001	1.133116e+002	-3.302518e+001	1.387857e+002
9.990281e+006	-3.558646e+001	1.560478e+002	-3.054608e+001	-2.479881e+001	-9.319747e+001	1.387854e+002	-3.302164e+001	1.387875e+002
9.990286e+006	-3.558827e+001	1.560586e+002	-3.054687e+001	-2.477139e+001	-8.410306e+001	7.337824e+001	-3.301259e+001	1.387913e+002
9.990291e+006	-3.559595e+001	1.562494e+002	-3.055001e+001	-2.479789e+001	-9.127560e+001	6.823589e+001	-3.303113e+001	1.388277e+002
9.990295e+006	-3.559580e+001	1.561040e+002	-3.054810e+001	-2.476621e+001	-9.482819e+001	-8.545792e+000	-3.302137e+001	1.387818e+002
9.990300e+006	-3.559243e+001	1.561336e+002	-3.055857e+001	-2.474242e+001	-9.368771e+001	1.050486e+002	-3.301276e+001	1.388620e+002
9.990305e+006	-3.559053e+001	1.561098e+002	-3.054727e+001	-2.478659e+001	-9.271243e+001	1.006003e+002	-3.302018e+001	1.388497e+002
9.990309e+006	-3.560429e+001	1.561114e+002	-3.054330e+001	-2.476609e+001	-8.973526e+001	2.259520e+001	-3.303078e+001	1.387676e+002
9.990314e+006	-3.560198e+001	1.561199e+002	-3.055635e+001	-2.479700e+001	-8.948585e+001	1.046957e+002	-3.301841e+001	1.387719e+002
9.990319e+006	-3.560115e+001	1.560100e+002	-3.053999e+001	-2.476316e+001	-9.347562e+001	4.774988e+001	-3.301922e+001	1.387712e+002
9.990323e+006	-3.559763e+001	1.561021e+002	-3.054790e+001	-2.475614e+001	-1.030676e+002	5.009311e+001	-3.302172e+001	1.387152e+002
9.990328e+006	-3.559715e+001	1.561813e+002	-3.054622e+001	-2.475815e+001	-9.354278e+001	-5.096237e+001	-3.302880e+001	1.389013e+002
9.990333e+006	-3.558528e+001	1.560824e+002	-3.054741e+001	-2.479356e+001	-8.956395e+001	1.398521e+002	-3.302547e+001	1.387601e+002
9.990338e+006	-3.558890e+001	1.561417e+002	-3.053719e+001	-2.477916e+001	-9.262184e+001	-5.178466e+001	-3.302548e+001	1.388469e+002
9.990342e+006	-3.558745e+001	1.560603e+002	-3.053770e+001	-2.484338e+001	-1.050507e+002	-1.643974e+002	-3.302169e+001	1.387320e+002
9.990347e+006	-3.559685e+001	1.560787e+002	-3.054821e+001	-2.476048e+001	-9.682910e+001	1.479364e+002	-3.301808e+001	1.387732e+002
9.990352e+006	-3.559345e+001	1.561226e+002	-3.054783e+001	-2.478022e+001	-9.779972e+001	-1.298341e+002	-3.302376e+001	1.388202e+002
9.990356e+006	-3.560003e+001	1.561403e+002	-3.055031e+001	-2.475474e+001	-9.710951e+001	4.970947e+001	-3.302262e+001	1.388238e+002
9.990361e+006	-3.559374e+001	1.560078e+002	-3.054816e+001	-2.475248e+001	-9.435273e+001	-1.292155e+002	-3.302479e+001	1.388188e+002
9.990366e+006	-3.559133e+001	1.560838e+002	-3.055491e+001	-2.479604e+001	-8.977653e+001	1.314480e+002	-3.302468e+001	1.388907e+002
9.990370e+006	-3.559099e+001	1.560355e+002	-3.055456e+001	-2.476802e+001	-9.410414e+001	-8.126511e+001	-3.301975e+001	1.388281e+002
9.990375e+006	-3.560582e+001	1.560833e+002	-3.055062e+001	-2.470951e+001	-9.554269e+001	8.354511e+001	-3.302239e+001	1.388002e+002
9.990380e+006	-3.559864e+001	1.560034e+002	-3.054674e+001	-2.474566e+001	-9.311399e+001	1.293587e+002	-3.302623e+001	1.387423e+002
9.990384e+006	-3.559208e+001	1.561141e+002	-3.055705e+001	-2.479353e+001	-1.007998e+002	-2.848697e+001	-3.302795e+001	1.387663e+002
9.990389e+006	-3.557971e+001	1.560826e+002	-3.054656e+001	-2.472813e+001	-9.060790e+001	-1.701831e+002	-3.303029e+001	1.388039e+002
9.990394e+006	-3.558271e+001	1.560946e+002	-3.054661e+001	-2.477232e+001	-9.628235e+001	-7.172282e+001	-3.301045e+001	1.388464e+002
9.990398e+006	-3.559562e+001	1.561267e+002	-3.054572e+001	-2.477902e+001	-8.728182e+001	7.368194e+001	-3.302114e+001	1.387601e+002
9.990403e+006	-3.558710e+001	1.560267e+002	-3.054838e+001	-2.480472e+001	-9.163384e+001	3.760792e+000	-3.303348e+001	1.388734e+002
9.990408e+006	-3.561106e+001	1.561307e+002	-3.055307e+001	-2.473289e+001	-9.097101e+001	1.465112e+002	-3.302158e+001	1.388360e+002
9.990413e+006	-3.560158e+001	1.559895e+002	-3.054333e+001	-2.476304e+001	-8.768090e+001	9.443891e+001	-3.300702e+001	1.388710e+002
9.990417e+006	-3.559616e+001	1.561731e+002	-3.054084e+001	-2.483121e+001	-9.754029e+001	9.654997e+001	-3.301634e+001	1.387763e+002
9.990422e+006	-3.560666e+001	1.561531e+002	-3.054231e+001	-2.479771e+001	-9.321873e+001	-1.357731e-001	-3.301290e+001	1.387217e+002
9.990427e+006	-3.559438e+001	1.560486e+002	-3.054954e+001	-2.474236e+001	-9.659163e+001	5.222755e+001	-3.301334e+001	1.387926e+002
9.990431e+006	-3.559062e+001	1.560773e+002	-3.055282e+001	-2.482849e+001	-9.322214e+001	-2.329186e+001	-3.302483e+001	1.388626e+002
9.990436e+006	-3.558760e+001	1.560644e+002	-3.055352e+001	-2.474198e+001	-1.043135e+002	1.283745e+002	-3.301776e+001	1.388202e+002
9.990441e+006	-3.559457e+001	1.560092e+002	-3.055115e+001	-2.469462e+001	-9.291951e+001	8.122553e+001	-3.301346e+001	1.389239e+002
9.990445e+006	-3.560153e+001	1.560938e+002	-3.054120e+001	-2.476020e+001	-9.693994e+001	4.259488e+000	-3.302451e+001	1.388413e+002
9.990450e+006	-3.559429e+001	1.560887e+002	-3.054794e+001	-2.475456e+001	-8.690738e+001	1.005446e+002	-3.301998e+001	1.388657e+002
9.990455e+006	-3.558631e+001	1.560453e+002	-3.054673e+001	-2.482975e+001	-9.700393e+001	6.439103e+001	-3.302186e+001	1.388443e+002
9.990459e+006	-3.558431e+001	1.560961e+002	-3.055167e+001	-2.470677e+001	-9.233104e+001	9.746361e+001	-3.301793e+001	1.388373e+002
9.990464e+006	-3.559679e+001	1.561679e+002	-3.053700e+001	-2.472994e+001	-9.499836e+001	1.636979e+002	-3.302273e+001	1.388066e+002
9.990469e+006	-3.557437e+001	1.559782e+002	-3.054981e+001	-2.481833e+001	-9.767695e+001	1.533688e+002	-3.301662e+001	1.388253e+002
9.990473e+006	-3.558991e+001	1.560522e+002	-3.054973e+001	-2.468819e+001	-9.541425e+001	1.295204e+001	-3.302992e+001	1.387679e+002
9.990478e+006	-3.559032e+001	1.560484e+002	-3.054975e+001	-2.474200e+001	-8.951268e+001	3.597485e+001	-3.302145e+001	1.389232e+002
9.990483e+006	-3.558628e+001	1.560228e+002	-3.054313e+001	-2.474876e+001	-8.776688e+001	4.583695e+001	-3.302816e+001	1.388976e+002
9.990488e+006	-3.560197e+001	1.561005e+002	-3.054183e+001	-2.475263e+001	-8.757772e+001	1.060103e+002	-3.302881e+001	1.388332e+002
9.990492e+006	-3.559840e+001	1.561450e+002	-3.054764e+001	-2.478832e+001	-9.737081e+001	-7.921525e+000	-3.302876e+001	1.387819e+002
9.990497e+006	-3.559113e+001	1.559924e+002	-3.054381e+001	-2.476250e+001	-9.627403e+001	3.951254e+001	-3.302474e+001	1.388453e+002
9.990502e+006	-3.557626e+001	1.560907e+002	-3.054072e+001	-2.468098e+001	-9.855325e+001	1.605837e+002	-3.302765e+001	1.388519e+002
9.990506e+006	-3.558935e+001	1.560260e+002	-3.054274e+001	-2.469801e+001	-9.526287e+001	-7.917795e+001	-3.302005e+001	1.388436e+002
9.990511e+006	-3.559222e+001	1.561092e+002	-3.054609e+001	-2.474939e+001	-9.071896e+001	1.762512e+002	-3.302340e+001	1.388281e+002
9.990516e+006	-3.558660e+001	1.559836e+002	-3.054118e+001	-2.478250e+001	-8.851984e+001	7.401176e+001	-3.302158e+001	1.388153e+002
9.990520e+006	-3.560198e+001	1.560921e+002	-3.054756e+001	-2.477931e+001	-9.156935e+001	1.321200e+002	-3.302563e+001	1.388107e+002
9.990525e+006	-3.560475e+001	1.560790e+002	-3.052938e+001	-2.470483e+001	-9.028748e+001	1.348451e+002	-3.301865e+001	1.388362e+002
9.990530e+006	-3.559811e+001	1.560945e+002	-3.054899e+001	-2.473596e+001	-9.750896e+001	1.383968e+002	-3.303101e+001	1.388287e+002
9.990534e+006	-3.562013e+001	1.561332e+002	-3.053889e+001	-2.481878e+001	-9.789691e+001	1.044470e+002	-3.302263e+001	1.388229e+002
9.990539e+006	-3.558708e+001	1.560092e+002	-3.054431e+001	-2.480517e+001	-9.309601e+001	1.169645e+002	-3.302971e+001	1.388646e+002
9.990544e+006	-3.558974e+001	1.561371e+002	-3.053852e+001	-2.478093e+001	-8.978185e+001	8.769756e+001	-3.301615e+001	1.387520e+002
9.990548e+006	-3.559417e+001	1.560230e+002	-3.054984e+001	-2.480148e+001	-9.359419e+001	1.401057e+002	-3.302133e+001	1.387757e+002
9.990553e+006	-3.559063e+001	1.561652e+002	-3.054102e+001	-2.481447e+001	-9.151084e+001	7.700330e+001	-3.302080e+001	1.388612e+002
9.990558e+006	-3.558392e+001	1.559934e+002	-3.053617e+001	-2.471574e+001	-8.661567e+001	1.040493e+002	-3.301924e+001	1.387925e+002
9.990563e+006	-3.557258e+001	1.559862e+002	-3.055852e+001	-2.477661e+001	-8.534720e+001	1.408321e+002	-3.301533e+001	1.388813e+002
9.990567e+006	-3.558389e+001	1.560584e+002	-3.053536e+001	-2.477445e+001	-8.759187e+001	1.254741e+002	-3.302058e+001	1.387727e+002
9.990572e+006	-3.558982e+001	1.561954e+002	-3.055466e+001	-2.477578e+001	-9.538174e+001	9.862022e+001	-3.303160e+001	1.388166e+002
9.990577e+006	-3.559166e+001	1.560605e+002	-3.054745e+001	-2.484971e+001	-9.834345e+001	-1.785061e+002	-3.302558e+001	1.388402e+002
9.990581e+006	-3.558650e+001	1.561418e+002	-3.054586e+001	-2.468175e+001	-9.442982e+001	-1.506517e+002	-3.302089e+001	1.388754e+002
9.990586e+006	-3.558910e+001	1.560928e+002	-3.054843e+001	-2.479476e+001	-9.593328e+001	-1.769600e+002	-3.302497e+001	1.388240e+002
9.990591e+006	-3.558796e+001	1.561172e+002	-3.053631e+001	-2.484838e+001	-9.352534e+001	-1.769153e+002	-3.302045e+001	1.387874e+002
9.990595e+006	-3.558353e+001	1.560382e+002	-3.054703e+001	-2.470765e+001	-9.404633e+001	-1.501920e+002	-3.302343e+001	1.389385e+002
9.990600e+006	-3.558810e+001	1.560908e+002	-3.055696e+001	-2.479599e+001	-9.639954e+001	1.391920e+002	-3.302769e+001	1.388386e+002
9.990605e+006	-3.559068e+001	1.561362e+002	-3.054294e+001	-2.469157e+001	-9.951106e+001	1.740235e+002	-3.301871e+001	1.387826e+002
9.990609e+006	-3.558502e+001	1.561333e+002	-3.055102e+001	-2.484954e+001	-9.597944e+001	1.398578e+002	-3.302440e+001	1.388553e+002
9.990614e+006	-3.559816e+001	1.561281e+002	-3.054604e+001	-2.472979e+001	-9.316203e+001	-5.109839e+001	-3.302735e+001	1.387866e+002
9.990619e+006	-3.560832e+001	1.560688e+002	-3.055509e+001	-2.478780e+001	-9.151869e+001	-2.147883e+001	-3.301777e+001	1.387666e+002
9.990623e+006	-3.561061e+001	1.560687e+002	-3.055419e+001	-2.482611e+001	-8.830223e+001	-2.567463e+001	-3.301874e+001	1.387478e+002
9.990628e+006	-3.560142e+001	1.561185e+002	-3.053901e+001	-2.468617e+001	-8.872172e+001	1.701605e+002	-3.302370e+001	1.388719e+002
9.990633e+006	-3.559191e+001	1.560273e+002	-3.056288e+001	-2.483732e+001	-9.277954e+001	3.332282e+001	-3.302013e+001	1.387576e+002
9.990638e+006	-3.558114e+001	1.561954e+002	-3.053181e+001	-2.478806e+001	-9.675031e+001	-8.320830e+001	-3.302525e+001	1.388101e+002
9.990642e+006	-3.559578e+001	1.561667e+002	-3.054922e+001	-2.470634e+001	-9.768528e+001	4.984370e+001	-3.303114e+001	1.387410e+002
9.990647e+006	-3.560043e+001	1.561711e+002	-3.054083e+001	-2.483944e+001	-9.625459e+001	7.755162e+001	-3.301732e+001	1.388084e+002
9.990652e+006	-3.558957e+001	1.560067e+002	-3.055783e+001	-2.465809e+001	-9.691979e+001	5.262663e+001	-3.303189e+001	1.388068e+002
9.990656e+006	-3.560260e+001	1.561282e+002	-3.055960e+001	-2.477289e+001	-9.905533e+001	-6.698361e+001	-3.301865e+001	1.388904e+002
9.990661e+006	-3.560759e+001	1.561396e+002	-3.053198e+001	-2.485949e+001	-9.430543e+001	7.202760e+001	-3.302720e+001	1.388239e+002
9.990666e+006	-3.560214e+001	1.560296e+002	-3.055512e+001	-2.479106e+001	-9.846299e+001	-2.632034e+001	-3.300810e+001	1.388439e+002
9.990670e+006	-3.559699e+001	1.561027e+002	-3.053430e+001	-2.479984e+001	-9.332541e+001	1.340486e+002	-3.301447e+001	1.388062e+002
9.990675e+006	-3.559963e+001	1.560258e+002	-3.054415e+001	-2.467084e+001	-1.014006e+002	-5.792060e+001	-3.302920e+001	1.388452e+002
9.990680e+006	-3.559260e+001	1.561124e+002	-3.054364e+001	-2.488600e+001	-9.458027e+001	1.288998e+002	-3.301838e+001	1.387557e+002
9.990684e+006	-3.560478e+001	1.561274e+002	-3.054463e+001	-2.462716e+001	-9.058432e+001	-3.687533e+001	-3.301620e+001	1.388239e+002
9.990689e+006	-3.558738e+001	1.561450e+002	-3.054181e+001	-2.468054e+001	-9.201767e+001	1.217388e+002	-3.301557e+001	1.387676e+002
9.990694e+006	-3.560568e+001	1.561049e+002	-3.055118e+001	-2.473219e+001	-9.439541e+001	3.046969e+001	-3.302390e+001	1.387410e+002
