!CETC41,AV3656A,ZGL00048,1.3.2
!Calibration ON (Full Solt 2-Port(Omit Isolation))
!Measurements: S11 S21 S12 S22
!2025-04-18 00:20
# Hz  S  dB  R 50.000
9.990000e+006	-3.569876e+001	1.577480e+002	-3.056038e+001	-2.446496e+001	-9.918178e+001	5.323004e+001	-3.305907e+001	1.390422e+002
9.990005e+006	-3.570204e+001	1.577147e+002	-3.056039e+001	-2.450888e+001	-9.925379e+001	-3.163255e+001	-3.305751e+001	1.388980e+002
9.990009e+006	-3.571119e+001	1.577189e+002	-3.054674e+001	-2.445670e+001	-8.429496e+001	8.449063e+001	-3.306229e+001	1.388839e+002
9.990014e+006	-3.570222e+001	1.577341e+002	-3.055156e+001	-2.445121e+001	-9.619963e+001	-4.334739e+001	-3.305137e+001	1.389274e+002
9.990019e+006	-3.569641e+001	1.577302e+002	-3.054477e+001	-2.440576e+001	-9.931537e+001	1.217981e+002	-3.306137e+001	1.389312e+002
9.990023e+006	-3.570761e+001	1.577495e+002	-3.054862e+001	-2.442055e+001	-9.274827e+001	-4.422691e+001	-3.307426e+001	1.389162e+002
9.990028e+006	-3.570564e+001	1.577590e+002	-3.053250e+001	-2.437599e+001	-9.338456e+001	-1.644340e+002	-3.306642e+001	1.388320e+002
9.990033e+006	-3.569907e+001	1.577919e+002	-3.055174e+001	-2.447993e+001	-1.002706e+002	1.530602e+002	-3.307197e+001	1.388711e+002
9.990038e+006	-3.571245e+001	1.577214e+002	-3.055206e+001	-2.436008e+001	-9.041545e+001	1.229489e+002	-3.307168e+001	1.388303e+002
9.990042e+006	-3.570546e+001	1.576337e+002	-3.055322e+001	-2.444181e+001	-8.550324e+001	1.452695e+002	-3.304259e+001	1.389267e+002
9.990047e+006	-3.570308e+001	1.577730e+002	-3.055504e+001	-2.434431e+001	-9.627069e+001	6.978328e+001	-3.306268e+001	1.388305e+002
9.990052e+006	-3.569315e+001	1.577622e+002	-3.055268e+001	-2.444245e+001	-8.932986e+001	1.117914e+002	-3.305405e+001	1.388152e+002
9.990056e+006	-3.569072e+001	1.577702e+002	-3.054482e+001	-2.437665e+001	-9.382949e+001	1.571117e+002	-3.304580e+001	1.388041e+002
9.990061e+006	-3.568569e+001	1.576496e+002	-3.055433e+001	-2.446212e+001	-9.498617e+001	9.380341e+001	-3.305496e+001	1.387964e+002
9.990066e+006	-3.570117e+001	1.576221e+002	-3.055515e+001	-2.451202e+001	-9.093894e+001	1.006869e+002	-3.306587e+001	1.389117e+002
9.990070e+006	-3.569582e+001	1.576915e+002	-3.056914e+001	-2.447526e+001	-1.035311e+002	-1.306016e+000	-3.305001e+001	1.388905e+002
9.990075e+006	-3.571037e+001	1.576793e+002	-3.055591e+001	-2.443513e+001	-9.415696e+001	1.058110e+002	-3.306195e+001	1.389176e+002
9.990080e+006	-3.571564e+001	1.578054e+002	-3.054969e+001	-2.446480e+001	-8.972820e+001	1.105385e+002	-3.305553e+001	1.388006e+002
9.990084e+006	-3.570469e+001	1.577460e+002	-3.054908e+001	-2.445639e+001	-9.160487e+001	-1.341019e+002	-3.305622e+001	1.389260e+002
9.990089e+006	-3.570237e+001	1.577642e+002	-3.054875e+001	-2.441547e+001	-9.717702e+001	3.236785e+001	-3.305166e+001	1.388397e+002
9.990094e+006	-3.570274e+001	1.577251e+002	-3.054532e+001	-2.451455e+001	-9.866484e+001	1.074968e+002	-3.306239e+001	1.389096e+002
9.990098e+006	-3.570596e+001	1.577452e+002	-3.055254e+001	-2.451328e+001	-8.987135e+001	-1.797301e+002	-3.306233e+001	1.388780e+002
9.990103e+006	-3.570824e+001	1.577242e+002	-3.054561e+001	-2.443266e+001	-8.931071e+001	2.843997e+001	-3.305544e+001	1.388592e+002
9.990108e+006	-3.572024e+001	1.577247e+002	-3.053921e+001	-2.450281e+001	-9.636284e+001	1.347661e+002	-3.305695e+001	1.389012e+002
9.990113e+006	-3.568974e+001	1.576906e+002	-3.054767e+001	-2.453607e+001	-9.086085e+001	1.352861e+002	-3.305863e+001	1.388971e+002
9.990117e+006	-3.572021e+001	1.576453e+002	-3.055355e+001	-2.458258e+001	-9.850821e+001	1.616604e+002	-3.306571e+001	1.387901e+002
9.990122e+006	-3.568809e+001	1.576944e+002	-3.056060e+001	-2.459583e+001	-9.559428e+001	9.268730e+001	-3.305697e+001	1.388191e+002
9.990127e+006	-3.570681e+001	1.577428e+002	-3.057066e+001	-2.457637e+001	-8.972539e+001	-9.412507e+001	-3.307793e+001	1.389191e+002
9.990131e+006	-3.570632e+001	1.577405e+002	-3.055248e+001	-2.455389e+001	-9.433309e+001	-1.787011e+002	-3.305735e+001	1.388809e+002
9.990136e+006	-3.571207e+001	1.576808e+002	-3.056114e+001	-2.456689e+001	-9.829593e+001	1.038790e+002	-3.305265e+001	1.388470e+002
9.990141e+006	-3.570451e+001	1.576566e+002	-3.057746e+001	-2.443821e+001	-9.513334e+001	1.570898e+002	-3.306631e+001	1.388530e+002
9.990145e+006	-3.569096e+001	1.576885e+002	-3.057161e+001	-2.439135e+001	-9.310220e+001	1.336834e+002	-3.304829e+001	1.388617e+002
9.990150e+006	-3.570246e+001	1.576444e+002	-3.055856e+001	-2.436636e+001	-9.484953e+001	-1.034928e+002	-3.304893e+001	1.389131e+002
9.990155e+006	-3.569489e+001	1.577547e+002	-3.057342e+001	-2.442694e+001	-8.998454e+001	5.938782e+001	-3.305661e+001	1.388566e+002
9.990159e+006	-3.569755e+001	1.577685e+002	-3.057280e+001	-2.444338e+001	-1.011528e+002	6.711716e+001	-3.305060e+001	1.388405e+002
9.990164e+006	-3.570854e+001	1.577381e+002	-3.056367e+001	-2.429803e+001	-9.374453e+001	1.733554e+002	-3.304619e+001	1.388704e+002
9.990169e+006	-3.570327e+001	1.577784e+002	-3.057438e+001	-2.433692e+001	-8.795815e+001	8.353544e+001	-3.306168e+001	1.388478e+002
9.990173e+006	-3.570507e+001	1.577021e+002	-3.055051e+001	-2.436540e+001	-9.680599e+001	1.330269e+002	-3.304793e+001	1.389445e+002
9.990178e+006	-3.572306e+001	1.578637e+002	-3.055751e+001	-2.442810e+001	-9.829439e+001	7.992323e+001	-3.306424e+001	1.389659e+002
9.990183e+006	-3.571239e+001	1.577047e+002	-3.055138e+001	-2.449181e+001	-8.723214e+001	1.271042e+002	-3.306263e+001	1.389234e+002
9.990188e+006	-3.569009e+001	1.577649e+002	-3.055527e+001	-2.443712e+001	-9.722872e+001	1.317574e+002	-3.306402e+001	1.389194e+002
9.990192e+006	-3.571196e+001	1.577809e+002	-3.056013e+001	-2.444607e+001	-1.035700e+002	-1.138089e+002	-3.305742e+001	1.389450e+002
9.990197e+006	-3.570016e+001	1.577150e+002	-3.056678e+001	-2.447364e+001	-9.497820e+001	1.222045e+002	-3.305621e+001	1.389764e+002
9.990202e+006	-3.574066e+001	1.577426e+002	-3.055636e+001	-2.450403e+001	-9.878627e+001	1.583009e+002	-3.305850e+001	1.389016e+002
9.990206e+006	-3.570334e+001	1.576794e+002	-3.056325e+001	-2.440551e+001	-8.939911e+001	9.335836e+001	-3.306236e+001	1.389075e+002
9.990211e+006	-3.571038e+001	1.577741e+002	-3.055270e+001	-2.444879e+001	-9.870053e+001	1.172026e+002	-3.305832e+001	1.389217e+002
9.990216e+006	-3.570762e+001	1.577331e+002	-3.054396e+001	-2.446012e+001	-1.004001e+002	5.476777e+001	-3.305623e+001	1.388873e+002
9.990220e+006	-3.571310e+001	1.577498e+002	-3.055151e+001	-2.449794e+001	-8.790464e+001	8.136471e+001	-3.305143e+001	1.388912e+002
9.990225e+006	-3.569245e+001	1.576489e+002	-3.055708e+001	-2.447666e+001	-8.715237e+001	1.079661e+002	-3.305553e+001	1.389375e+002
9.990230e+006	-3.570345e+001	1.577968e+002	-3.056514e+001	-2.443956e+001	-1.023873e+002	1.526377e+002	-3.305243e+001	1.388242e+002
9.990234e+006	-3.570511e+001	1.577308e+002	-3.056916e+001	-2.437464e+001	-9.467087e+001	1.348883e+002	-3.306369e+001	1.389049e+002
9.990239e+006	-3.570260e+001	1.577319e+002	-3.054844e+001	-2.445329e+001	-9.165500e+001	2.846095e+001	-3.306911e+001	1.388382e+002
9.990244e+006	-3.571341e+001	1.578268e+002	-3.055229e+001	-2.442527e+001	-9.816255e+001	6.355840e+001	-3.307422e+001	1.388858e+002
9.990248e+006	-3.570901e+001	1.577505e+002	-3.055487e+001	-2.449381e+001	-9.075943e+001	-6.489131e+000	-3.305790e+001	1.389025e+002
9.990253e+006	-3.571320e+001	1.576415e+002	-3.055301e+001	-2.443802e+001	-8.508499e+001	1.548032e+002	-3.306540e+001	1.389776e+002
9.990258e+006	-3.571341e+001	1.577805e+002	-3.055068e+001	-2.450367e+001	-1.010036e+002	-1.382136e+002	-3.305950e+001	1.389476e+002
9.990263e+006	-3.569397e+001	1.576656e+002	-3.055918e+001	-2.442080e+001	-9.185061e+001	8.701571e+001	-3.305894e+001	1.388588e+002
9.990267e+006	-3.570268e+001	1.576700e+002	-3.056269e+001	-2.439601e+001	-9.816935e+001	1.340976e+002	-3.304244e+001	1.388970e+002
9.990272e+006	-3.570385e+001	1.577385e+002	-3.055507e+001	-2.446409e+001	-9.658962e+001	3.643511e+001	-3.306554e+001	1.388582e+002
9.990277e+006	-3.572050e+001	1.577645e+002	-3.055953e+001	-2.439390e+001	-9.166242e+001	-1.490191e+002	-3.305885e+001	1.388938e+002
9.990281e+006	-3.570822e+001	1.577723e+002	-3.056735e+001	-2.443710e+001	-8.959383e+001	9.727182e+001	-3.304838e+001	1.388698e+002
9.990286e+006	-3.571255e+001	1.577876e+002	-3.055761e+001	-2.438145e+001	-1.008253e+002	-8.589586e+001	-3.306951e+001	1.387511e+002
9.990291e+006	-3.571794e+001	1.577809e+002	-3.054578e+001	-2.450795e+001	-9.017284e+001	6.970679e+001	-3.307179e+001	1.389730e+002
9.990295e+006	-3.570708e+001	1.576421e+002	-3.054970e+001	-2.444946e+001	-9.060595e+001	1.690748e+002	-3.305570e+001	1.389310e+002
9.990300e+006	-3.570155e+001	1.577397e+002	-3.055527e+001	-2.445825e+001	-9.016031e+001	9.143860e+001	-3.306297e+001	1.388492e+002
9.990305e+006	-3.570418e+001	1.576830e+002	-3.054806e+001	-2.440421e+001	-8.401208e+001	1.305938e+002	-3.304841e+001	1.389702e+002
9.990309e+006	-3.571871e+001	1.577080e+002	-3.055602e+001	-2.445308e+001	-8.687527e+001	1.169123e+002	-3.307480e+001	1.389033e+002
9.990314e+006	-3.571546e+001	1.577487e+002	-3.056034e+001	-2.441481e+001	-9.398170e+001	1.092259e+002	-3.305063e+001	1.388678e+002
9.990319e+006	-3.569798e+001	1.576295e+002	-3.055440e+001	-2.443813e+001	-9.362578e+001	3.114555e+001	-3.305435e+001	1.389498e+002
9.990323e+006	-3.571036e+001	1.576164e+002	-3.054732e+001	-2.444012e+001	-8.762793e+001	-3.436659e+001	-3.305611e+001	1.388743e+002
9.990328e+006	-3.569029e+001	1.578150e+002	-3.053943e+001	-2.441389e+001	-9.523160e+001	1.002830e+002	-3.306156e+001	1.388122e+002
9.990333e+006	-3.569450e+001	1.577297e+002	-3.055918e+001	-2.444223e+001	-8.823564e+001	6.036708e+001	-3.304994e+001	1.389460e+002
9.990338e+006	-3.570259e+001	1.577862e+002	-3.055436e+001	-2.442590e+001	-9.129224e+001	1.529787e+001	-3.305539e+001	1.387785e+002
9.990342e+006	-3.570014e+001	1.576445e+002	-3.056415e+001	-2.448264e+001	-8.880116e+001	8.172267e+001	-3.306059e+001	1.388705e+002
9.990347e+006	-3.570216e+001	1.577427e+002	-3.056140e+001	-2.442234e+001	-1.024371e+002	-7.196196e+001	-3.307409e+001	1.388359e+002
9.990352e+006	-3.571701e+001	1.576777e+002	-3.055496e+001	-2.447201e+001	-9.066080e+001	1.620843e+002	-3.305072e+001	1.388049e+002
9.990356e+006	-3.569218e+001	1.576838e+002	-3.054743e+001	-2.441350e+001	-9.293443e+001	9.553638e+001	-3.305025e+001	1.388347e+002
9.990361e+006	-3.568389e+001	1.577190e+002	-3.055555e+001	-2.448948e+001	-8.968639e+001	1.326119e+002	-3.305927e+001	1.389647e+002
9.990366e+006	-3.572376e+001	1.577000e+002	-3.055758e+001	-2.452828e+001	-1.017241e+002	-7.712367e-001	-3.305312e+001	1.387900e+002
9.990370e+006	-3.570478e+001	1.577347e+002	-3.054779e+001	-2.441144e+001	-9.646945e+001	1.125875e+002	-3.305914e+001	1.389056e+002
9.990375e+006	-3.570367e+001	1.577984e+002	-3.054779e+001	-2.437027e+001	-9.077995e+001	9.837706e+001	-3.305703e+001	1.389545e+002
9.990380e+006	-3.570698e+001	1.577056e+002	-3.055179e+001	-2.454004e+001	-9.315095e+001	9.195301e+001	-3.306461e+001	1.388512e+002
9.990384e+006	-3.570816e+001	1.576629e+002	-3.055592e+001	-2.446773e+001	-9.126844e+001	5.284008e+000	-3.306136e+001	1.389408e+002
9.990389e+006	-3.570512e+001	1.577050e+002	-3.055354e+001	-2.444347e+001	-8.767955e+001	8.940042e+001	-3.305628e+001	1.388553e+002
9.990394e+006	-3.569244e+001	1.576970e+002	-3.055140e+001	-2.441497e+001	-1.012278e+002	-5.228268e+001	-3.306582e+001	1.388537e+002
9.990398e+006	-3.570659e+001	1.576521e+002	-3.054968e+001	-2.450650e+001	-9.818952e+001	-7.941831e+000	-3.306913e+001	1.389177e+002
9.990403e+006	-3.568992e+001	1.577264e+002	-3.055781e+001	-2.443469e+001	-9.483354e+001	-1.871101e+001	-3.304658e+001	1.390080e+002
9.990408e+006	-3.569733e+001	1.577364e+002	-3.053855e+001	-2.451847e+001	-1.106260e+002	-1.099140e+002	-3.306080e+001	1.389130e+002
9.990413e+006	-3.571070e+001	1.577890e+002	-3.055426e+001	-2.442876e+001	-9.705437e+001	-3.314342e+001	-3.305383e+001	1.389457e+002
9.990417e+006	-3.571307e+001	1.577444e+002	-3.054718e+001	-2.441410e+001	-1.028674e+002	1.793602e+002	-3.306591e+001	1.388508e+002
9.990422e+006	-3.569722e+001	1.577767e+002	-3.055899e+001	-2.446111e+001	-9.022803e+001	2.978074e+001	-3.305786e+001	1.388694e+002
9.990427e+006	-3.569947e+001	1.577289e+002	-3.055160e+001	-2.447648e+001	-9.238028e+001	7.991757e+001	-3.306079e+001	1.388384e+002
9.990431e+006	-3.570627e+001	1.577162e+002	-3.055683e+001	-2.443187e+001	-9.002616e+001	1.372615e+002	-3.306536e+001	1.389348e+002
9.990436e+006	-3.571028e+001	1.577450e+002	-3.056226e+001	-2.443807e+001	-9.377365e+001	9.628282e+001	-3.304921e+001	1.390160e+002
9.990441e+006	-3.570130e+001	1.577508e+002	-3.055361e+001	-2.443509e+001	-1.027296e+002	1.582222e+002	-3.304666e+001	1.387958e+002
9.990445e+006	-3.570704e+001	1.578436e+002	-3.054862e+001	-2.447817e+001	-8.689417e+001	1.190842e+002	-3.305101e+001	1.389649e+002
9.990450e+006	-3.569955e+001	1.577299e+002	-3.055658e+001	-2.440107e+001	-9.363543e+001	9.112090e+001	-3.306092e+001	1.389027e+002
9.990455e+006	-3.569058e+001	1.577969e+002	-3.054503e+001	-2.448205e+001	-1.028381e+002	-2.367280e-001	-3.305044e+001	1.388342e+002
9.990459e+006	-3.569511e+001	1.578243e+002	-3.054480e+001	-2.448708e+001	-9.337598e+001	1.094603e+002	-3.305767e+001	1.389140e+002
9.990464e+006	-3.570449e+001	1.576872e+002	-3.054975e+001	-2.440897e+001	-8.900828e+001	1.280391e+001	-3.305568e+001	1.389297e+002
9.990469e+006	-3.569945e+001	1.577967e+002	-3.055001e+001	-2.439548e+001	-9.777614e+001	1.599866e+002	-3.307080e+001	1.389848e+002
9.990473e+006	-3.572798e+001	1.577598e+002	-3.054459e+001	-2.442857e+001	-9.750214e+001	1.201375e+002	-3.305497e+001	1.388899e+002
9.990478e+006	-3.570397e+001	1.576461e+002	-3.055072e+001	-2.438117e+001	-9.598104e+001	-8.096201e+000	-3.306289e+001	1.389371e+002
9.990483e+006	-3.570717e+001	1.577241e+002	-3.054768e+001	-2.447730e+001	-9.350393e+001	6.601149e+001	-3.306822e+001	1.389270e+002
9.990488e+006	-3.571618e+001	1.578006e+002	-3.054688e+001	-2.445674e+001	-9.685509e+001	2.914501e+000	-3.306202e+001	1.389424e+002
9.990492e+006	-3.570397e+001	1.577306e+002	-3.054970e+001	-2.446031e+001	-9.223182e+001	-1.722891e+002	-3.306562e+001	1.389050e+002
9.990497e+006	-3.570499e+001	1.576825e+002	-3.054252e+001	-2.442115e+001	-8.820945e+001	-1.790581e+002	-3.306044e+001	1.388654e+002
9.990502e+006	-3.570319e+001	1.577789e+002	-3.055075e+001	-2.444466e+001	-1.109972e+002	1.113019e+002	-3.306018e+001	1.388422e+002
9.990506e+006	-3.570399e+001	1.577224e+002	-3.054713e+001	-2.449007e+001	-8.568440e+001	1.502693e+002	-3.305314e+001	1.388906e+002
9.990511e+006	-3.569727e+001	1.577268e+002	-3.055534e+001	-2.443900e+001	-1.036234e+002	3.965307e+001	-3.305221e+001	1.389527e+002
9.990516e+006	-3.570203e+001	1.577014e+002	-3.054905e+001	-2.437758e+001	-9.693661e+001	6.067329e+001	-3.306918e+001	1.389064e+002
9.990520e+006	-3.570534e+001	1.576990e+002	-3.055278e+001	-2.441852e+001	-9.827897e+001	1.609088e+002	-3.305298e+001	1.389252e+002
9.990525e+006	-3.570295e+001	1.577534e+002	-3.055244e+001	-2.440294e+001	-9.042367e+001	-3.267711e+001	-3.305189e+001	1.388074e+002
9.990530e+006	-3.570433e+001	1.578191e+002	-3.054259e+001	-2.434006e+001	-9.244958e+001	1.587750e+002	-3.306535e+001	1.388948e+002
9.990534e+006	-3.568873e+001	1.576873e+002	-3.055440e+001	-2.440098e+001	-8.703956e+001	-1.267706e+002	-3.304859e+001	1.388962e+002
9.990539e+006	-3.569856e+001	1.578110e+002	-3.055167e+001	-2.442854e+001	-9.064255e+001	1.262538e+002	-3.305087e+001	1.389443e+002
9.990544e+006	-3.570131e+001	1.576922e+002	-3.055386e+001	-2.455190e+001	-9.482376e+001	1.096240e+002	-3.305675e+001	1.388311e+002
9.990548e+006	-3.571765e+001	1.578242e+002	-3.055237e+001	-2.438244e+001	-1.174867e+002	-3.047611e+001	-3.305378e+001	1.389326e+002
9.990553e+006	-3.570779e+001	1.577673e+002	-3.054021e+001	-2.443911e+001	-9.701756e+001	1.729292e+002	-3.305394e+001	1.389013e+002
9.990558e+006	-3.570961e+001	1.577184e+002	-3.055895e+001	-2.447910e+001	-9.744810e+001	-4.445048e+001	-3.305279e+001	1.388653e+002
9.990563e+006	-3.570414e+001	1.576525e+002	-3.054611e+001	-2.436376e+001	-9.207584e+001	9.682119e+001	-3.304818e+001	1.389451e+002
9.990567e+006	-3.569487e+001	1.577303e+002	-3.055805e+001	-2.445061e+001	-1.131641e+002	2.709687e+001	-3.306129e+001	1.389386e+002
9.990572e+006	-3.571814e+001	1.576785e+002	-3.054398e+001	-2.443058e+001	-9.124986e+001	1.109481e+002	-3.306019e+001	1.389494e+002
9.990577e+006	-3.569522e+001	1.576359e+002	-3.054478e+001	-2.447008e+001	-1.073217e+002	-6.852874e+000	-3.306317e+001	1.388422e+002
9.990581e+006	-3.570486e+001	1.578177e+002	-3.055848e+001	-2.440738e+001	-9.395996e+001	1.576071e+002	-3.305379e+001	1.388735e+002
9.990586e+006	-3.569908e+001	1.578318e+002	-3.055558e+001	-2.447994e+001	-9.902101e+001	1.159002e+002	-3.305478e+001	1.388344e+002
9.990591e+006	-3.572031e+001	1.576831e+002	-3.055118e+001	-2.449194e+001	-9.656807e+001	6.596745e+001	-3.306427e+001	1.388923e+002
9.990595e+006	-3.570012e+001	1.576783e+002	-3.055902e+001	-2.437057e+001	-9.000378e+001	1.692854e+002	-3.306470e+001	1.389165e+002
9.990600e+006	-3.569312e+001	1.577872e+002	-3.054197e+001	-2.445408e+001	-9.280661e+001	6.496549e+001	-3.306161e+001	1.388820e+002
9.990605e+006	-3.569208e+001	1.577048e+002	-3.055312e+001	-2.439193e+001	-8.739724e+001	1.564196e+002	-3.305659e+001	1.389363e+002
9.990609e+006	-3.570616e+001	1.576945e+002	-3.055039e+001	-2.448787e+001	-8.930076e+001	7.766948e+001	-3.306314e+001	1.389359e+002
9.990614e+006	-3.571842e+001	1.577931e+002	-3.054830e+001	-2.440334e+001	-9.345995e+001	1.019047e+002	-3.305264e+001	1.389238e+002
9.990619e+006	-3.570364e+001	1.578136e+002	-3.055754e+001	-2.450408e+001	-9.638828e+001	1.084888e+002	-3.306723e+001	1.389906e+002
9.990623e+006	-3.570433e+001	1.578601e+002	-3.055588e+001	-2.437309e+001	-9.727326e+001	1.426218e+002	-3.305923e+001	1.389824e+002
9.990628e+006	-3.569534e+001	1.576597e+002	-3.055445e+001	-2.447919e+001	-9.258644e+001	5.262601e+001	-3.305477e+001	1.389273e+002
9.990633e+006	-3.571321e+001	1.578213e+002	-3.053821e+001	-2.449702e+001	-9.212371e+001	1.433283e+002	-3.305084e+001	1.389137e+002
9.990638e+006	-3.571757e+001	1.577366e+002	-3.055915e+001	-2.438586e+001	-9.708703e+001	1.002298e+002	-3.304359e+001	1.388255e+002
9.990642e+006	-3.570606e+001	1.577392e+002	-3.053784e+001	-2.445431e+001	-8.706529e+001	1.237776e+002	-3.305229e+001	1.388877e+002
9.990647e+006	-3.570629e+001	1.577469e+002	-3.055232e+001	-2.443582e+001	-9.232858e+001	9.672239e+001	-3.305041e+001	1.388529e+002
9.990652e+006	-3.569903e+001	1.577035e+002	-3.053901e+001	-2.440563e+001	-9.647185e+001	1.110598e+002	-3.306420e+001	1.388856e+002
9.990656e+006	-3.570230e+001	1.577659e+002	-3.054086e+001	-2.436118e+001	-8.980782e+001	8.019332e+001	-3.305945e+001	1.389402e+002
9.990661e+006	-3.572016e+001	1.578207e+002	-3.054665e+001	-2.448897e+001	-1.016283e+002	1.047946e+002	-3.306838e+001	1.388633e+002
9.990666e+006	-3.569224e+001	1.576801e+002	-3.052835e+001	-2.440381e+001	-9.174718e+001	-3.819821e+001	-3.305801e+001	1.388593e+002
9.990670e+006	-3.569195e+001	1.577620e+002	-3.055904e+001	-2.442809e+001	-9.399420e+001	3.782254e+001	-3.305635e+001	1.388957e+002
9.990675e+006	-3.570039e+001	1.577063e+002	-3.054400e+001	-2.447612e+001	-8.995563e+001	1.484675e+002	-3.305401e+001	1.388750e+002
9.990680e+006	-3.573095e+001	1.577814e+002	-3.053696e+001	-2.437779e+001	-1.002501e+002	1.609093e+002	-3.305289e+001	1.388446e+002
9.990684e+006	-3.571710e+001	1.578300e+002	-3.054640e+001	-2.437889e+001	-9.140388e+001	1.494525e+002	-3.308419e+001	1.389309e+002
9.990689e+006	-3.569938e+001	1.577870e+002	-3.054539e+001	-2.450692e+001	-9.373504e+001	1.095956e+002	-3.305259e+001	1.388933e+002
9.990694e+006	-3.571058e+001	1.577302e+002	-3.054265e+001	-2.439473e+001	-9.734190e+001	4.914796e+001	-3.306479e+001	1.389293e+002
9.990698e+006	-3.568378e+001	1.576078e+002	-3.054751e+001	-2.447006e+001	-9.381814e+001	1.133373e+002	-3.306640e+001	1.389876e+002
