!CETC41,AV3656A,ZGL00048,1.3.2
!Calibration ON (Full Solt 2-Port(Omit Isolation))
!Measurements: S11 S21 S12 S22
!2025-04-29 17:50
# Hz  S  dB  R 50.000
9.990000e+006	-4.310542e+001	-8.388913e+001	-3.066820e+001	-1.954140e+001	-8.950829e+001	6.520541e+001	-4.693616e+001	1.130818e+002
9.990005e+006	-4.313247e+001	-8.369001e+001	-3.067146e+001	-1.959838e+001	-9.759765e+001	6.303082e+001	-4.694742e+001	1.129123e+002
9.990009e+006	-4.311361e+001	-8.368559e+001	-3.065227e+001	-1.955174e+001	-1.007530e+002	1.051103e+002	-4.695879e+001	1.123896e+002
9.990014e+006	-4.311224e+001	-8.362939e+001	-3.064277e+001	-1.953190e+001	-9.902230e+001	8.981360e+001	-4.691902e+001	1.126460e+002
9.990019e+006	-4.311292e+001	-8.368645e+001	-3.064296e+001	-1.945584e+001	-9.887356e+001	9.645606e+001	-4.694148e+001	1.123967e+002
9.990023e+006	-4.306946e+001	-8.360800e+001	-3.065188e+001	-1.949314e+001	-8.842228e+001	6.097957e+001	-4.686943e+001	1.129201e+002
9.990028e+006	-4.312068e+001	-8.387193e+001	-3.064202e+001	-1.939418e+001	-8.669326e+001	9.925745e+001	-4.690847e+001	1.123347e+002
9.990033e+006	-4.309273e+001	-8.363395e+001	-3.065147e+001	-1.936818e+001	-9.310765e+001	8.431147e+001	-4.688064e+001	1.124110e+002
9.990038e+006	-4.310729e+001	-8.358264e+001	-3.066001e+001	-1.939860e+001	-9.255634e+001	1.165147e+002	-4.685296e+001	1.127233e+002
9.990042e+006	-4.313703e+001	-8.370694e+001	-3.066906e+001	-1.939416e+001	-1.031403e+002	3.076928e+001	-4.688586e+001	1.125703e+002
9.990047e+006	-4.310635e+001	-8.360190e+001	-3.067004e+001	-1.947106e+001	-1.219718e+002	-1.404408e+002	-4.689041e+001	1.130491e+002
9.990052e+006	-4.312979e+001	-8.372142e+001	-3.066770e+001	-1.950272e+001	-9.187539e+001	1.565068e+002	-4.690321e+001	1.130017e+002
9.990056e+006	-4.311455e+001	-8.398202e+001	-3.066480e+001	-1.951984e+001	-8.650082e+001	1.526054e+002	-4.695789e+001	1.133020e+002
9.990061e+006	-4.311614e+001	-8.345705e+001	-3.065878e+001	-1.955997e+001	-8.621597e+001	1.265194e+002	-4.693175e+001	1.130181e+002
9.990066e+006	-4.311457e+001	-8.378469e+001	-3.066565e+001	-1.954663e+001	-9.244021e+001	1.451300e+002	-4.690007e+001	1.128318e+002
9.990070e+006	-4.314917e+001	-8.380944e+001	-3.065603e+001	-1.950044e+001	-9.596366e+001	1.721581e+002	-4.693702e+001	1.127936e+002
9.990075e+006	-4.314049e+001	-8.364342e+001	-3.064722e+001	-1.963927e+001	-9.670031e+001	1.287760e+002	-4.690239e+001	1.128795e+002
9.990080e+006	-4.315039e+001	-8.364084e+001	-3.065286e+001	-1.962088e+001	-8.951378e+001	1.184386e+002	-4.692588e+001	1.128199e+002
9.990084e+006	-4.313092e+001	-8.356489e+001	-3.064115e+001	-1.951721e+001	-9.704869e+001	1.482089e+002	-4.695551e+001	1.128160e+002
9.990089e+006	-4.313374e+001	-8.384440e+001	-3.064721e+001	-1.954940e+001	-1.035230e+002	-5.889463e+001	-4.688622e+001	1.130212e+002
9.990094e+006	-4.311383e+001	-8.382766e+001	-3.066236e+001	-1.956917e+001	-8.898559e+001	5.025354e+001	-4.690204e+001	1.127272e+002
9.990098e+006	-4.313378e+001	-8.375505e+001	-3.064698e+001	-1.956464e+001	-9.379734e+001	1.634674e+002	-4.684978e+001	1.130581e+002
9.990103e+006	-4.312546e+001	-8.364133e+001	-3.065160e+001	-1.958220e+001	-9.196400e+001	1.291118e+002	-4.691447e+001	1.130265e+002
9.990108e+006	-4.311428e+001	-8.388040e+001	-3.065772e+001	-1.959636e+001	-9.462338e+001	9.988648e+001	-4.687785e+001	1.127127e+002
9.990113e+006	-4.313605e+001	-8.382260e+001	-3.067010e+001	-1.961294e+001	-1.066003e+002	3.383535e+001	-4.683471e+001	1.129419e+002
9.990117e+006	-4.313356e+001	-8.363412e+001	-3.067260e+001	-1.959902e+001	-1.030067e+002	1.747382e+002	-4.696601e+001	1.131148e+002
9.990122e+006	-4.315733e+001	-8.375393e+001	-3.068461e+001	-1.955112e+001	-9.650820e+001	-8.791162e+001	-4.682568e+001	1.127725e+002
9.990127e+006	-4.312885e+001	-8.388870e+001	-3.069063e+001	-1.960720e+001	-9.995797e+001	1.229439e+002	-4.685555e+001	1.131298e+002
9.990131e+006	-4.311781e+001	-8.407207e+001	-3.067724e+001	-1.950953e+001	-9.742209e+001	1.629189e+002	-4.688747e+001	1.132950e+002
9.990136e+006	-4.312605e+001	-8.359477e+001	-3.068038e+001	-1.958741e+001	-1.048205e+002	-4.665025e+001	-4.689438e+001	1.127387e+002
9.990141e+006	-4.312405e+001	-8.364347e+001	-3.069145e+001	-1.939934e+001	-9.810824e+001	1.514631e+002	-4.684304e+001	1.129914e+002
9.990145e+006	-4.312057e+001	-8.374129e+001	-3.066874e+001	-1.942557e+001	-1.000420e+002	6.837593e+001	-4.684843e+001	1.128659e+002
9.990150e+006	-4.317467e+001	-8.355581e+001	-3.067443e+001	-1.939377e+001	-9.400473e+001	5.666893e+001	-4.691843e+001	1.125275e+002
9.990155e+006	-4.312547e+001	-8.397603e+001	-3.067128e+001	-1.939008e+001	-9.113682e+001	1.770258e+002	-4.687620e+001	1.128605e+002
9.990159e+006	-4.313994e+001	-8.358608e+001	-3.067524e+001	-1.937291e+001	-1.044303e+002	1.534881e+002	-4.693952e+001	1.128976e+002
9.990164e+006	-4.313454e+001	-8.371320e+001	-3.067342e+001	-1.934645e+001	-9.481099e+001	1.154154e+002	-4.693967e+001	1.125610e+002
9.990169e+006	-4.312210e+001	-8.377183e+001	-3.067253e+001	-1.945491e+001	-9.663149e+001	-1.557245e+002	-4.695145e+001	1.127515e+002
9.990173e+006	-4.314518e+001	-8.360858e+001	-3.066706e+001	-1.943011e+001	-9.542191e+001	-1.541259e+002	-4.696511e+001	1.128477e+002
9.990178e+006	-4.310360e+001	-8.367733e+001	-3.066155e+001	-1.950418e+001	-1.013429e+002	7.636498e+001	-4.698260e+001	1.127692e+002
9.990183e+006	-4.314710e+001	-8.357162e+001	-3.065346e+001	-1.950858e+001	-1.052506e+002	1.669819e+002	-4.688098e+001	1.126984e+002
9.990188e+006	-4.310904e+001	-8.366471e+001	-3.066208e+001	-1.946876e+001	-9.247243e+001	5.394761e+001	-4.692068e+001	1.124564e+002
9.990192e+006	-4.308457e+001	-8.395297e+001	-3.066093e+001	-1.954034e+001	-9.258608e+001	1.295144e+002	-4.696147e+001	1.131001e+002
9.990197e+006	-4.312167e+001	-8.367485e+001	-3.065780e+001	-1.949175e+001	-9.110487e+001	5.500863e+000	-4.690375e+001	1.130522e+002
9.990202e+006	-4.312259e+001	-8.380064e+001	-3.066772e+001	-1.951279e+001	-9.647422e+001	3.189888e+001	-4.694852e+001	1.126292e+002
9.990206e+006	-4.313066e+001	-8.362686e+001	-3.066983e+001	-1.941508e+001	-8.958799e+001	6.690867e+001	-4.692527e+001	1.129250e+002
9.990211e+006	-4.314381e+001	-8.386176e+001	-3.065899e+001	-1.944746e+001	-8.669085e+001	7.448775e+001	-4.698517e+001	1.128356e+002
9.990216e+006	-4.308590e+001	-8.360853e+001	-3.066444e+001	-1.943977e+001	-9.060761e+001	1.058279e+002	-4.687908e+001	1.131536e+002
9.990220e+006	-4.310655e+001	-8.383469e+001	-3.065801e+001	-1.951243e+001	-9.286011e+001	-1.885767e+001	-4.694936e+001	1.130068e+002
9.990225e+006	-4.310677e+001	-8.343081e+001	-3.065597e+001	-1.945338e+001	-9.745616e+001	1.635912e+002	-4.691441e+001	1.128413e+002
9.990230e+006	-4.312788e+001	-8.387458e+001	-3.065823e+001	-1.940435e+001	-9.385885e+001	1.439085e+002	-4.691451e+001	1.124263e+002
9.990234e+006	-4.309163e+001	-8.360205e+001	-3.065892e+001	-1.955147e+001	-9.425973e+001	7.548727e+001	-4.692616e+001	1.125833e+002
9.990239e+006	-4.313649e+001	-8.370032e+001	-3.067000e+001	-1.945252e+001	-9.005762e+001	1.188341e+002	-4.694770e+001	1.129344e+002
9.990244e+006	-4.309965e+001	-8.388635e+001	-3.065578e+001	-1.952423e+001	-9.598103e+001	-1.192094e+002	-4.693727e+001	1.126507e+002
9.990248e+006	-4.310398e+001	-8.371645e+001	-3.065894e+001	-1.944657e+001	-9.090198e+001	1.713296e+002	-4.690707e+001	1.129605e+002
9.990253e+006	-4.307503e+001	-8.362870e+001	-3.066045e+001	-1.949331e+001	-1.026248e+002	-1.663354e+002	-4.690914e+001	1.127411e+002
9.990258e+006	-4.312633e+001	-8.343719e+001	-3.065517e+001	-1.951969e+001	-1.015700e+002	-1.509130e+002	-4.690919e+001	1.126762e+002
9.990263e+006	-4.313362e+001	-8.363717e+001	-3.065130e+001	-1.943211e+001	-8.855357e+001	4.350542e+001	-4.686817e+001	1.129748e+002
9.990267e+006	-4.313228e+001	-8.376445e+001	-3.065768e+001	-1.943859e+001	-8.765483e+001	3.953548e+001	-4.689330e+001	1.128007e+002
9.990272e+006	-4.311715e+001	-8.359090e+001	-3.065784e+001	-1.947625e+001	-8.949718e+001	1.580299e+002	-4.693479e+001	1.128538e+002
9.990277e+006	-4.312908e+001	-8.366653e+001	-3.065425e+001	-1.947896e+001	-9.671428e+001	-5.508676e+001	-4.691552e+001	1.124365e+002
9.990281e+006	-4.313261e+001	-8.386056e+001	-3.066060e+001	-1.947069e+001	-9.105911e+001	1.674922e+002	-4.689279e+001	1.128488e+002
9.990286e+006	-4.314000e+001	-8.372445e+001	-3.065692e+001	-1.945564e+001	-8.992577e+001	1.603235e+002	-4.687809e+001	1.126751e+002
9.990291e+006	-4.312944e+001	-8.344265e+001	-3.066685e+001	-1.948540e+001	-9.586810e+001	1.689903e+002	-4.690371e+001	1.130002e+002
9.990295e+006	-4.312882e+001	-8.378971e+001	-3.065803e+001	-1.942617e+001	-9.230899e+001	4.663300e+001	-4.694904e+001	1.130130e+002
9.990300e+006	-4.310631e+001	-8.362462e+001	-3.066405e+001	-1.942751e+001	-1.096186e+002	5.142039e+001	-4.690739e+001	1.130147e+002
9.990305e+006	-4.310144e+001	-8.363908e+001	-3.066286e+001	-1.946092e+001	-1.117884e+002	-3.879691e+001	-4.690757e+001	1.132017e+002
9.990309e+006	-4.315274e+001	-8.372122e+001	-3.066519e+001	-1.941888e+001	-9.500496e+001	1.169792e+002	-4.693349e+001	1.131676e+002
9.990314e+006	-4.310203e+001	-8.395541e+001	-3.065812e+001	-1.942691e+001	-9.437236e+001	1.672079e+002	-4.689010e+001	1.128304e+002
9.990319e+006	-4.311647e+001	-8.360236e+001	-3.065288e+001	-1.949919e+001	-8.585259e+001	1.436163e+002	-4.688464e+001	1.127433e+002
9.990323e+006	-4.310872e+001	-8.366683e+001	-3.065293e+001	-1.952406e+001	-8.501725e+001	6.676906e+001	-4.693661e+001	1.128590e+002
9.990328e+006	-4.310298e+001	-8.365651e+001	-3.066854e+001	-1.943042e+001	-1.045178e+002	6.700118e+001	-4.695163e+001	1.128058e+002
9.990333e+006	-4.312894e+001	-8.361980e+001	-3.065355e+001	-1.943259e+001	-9.847332e+001	-7.546171e+001	-4.691489e+001	1.130632e+002
9.990338e+006	-4.313038e+001	-8.376441e+001	-3.066778e+001	-1.945987e+001	-9.149148e+001	1.122052e+002	-4.685813e+001	1.127287e+002
9.990342e+006	-4.314460e+001	-8.363036e+001	-3.066077e+001	-1.949434e+001	-9.613967e+001	6.429260e+001	-4.694313e+001	1.130493e+002
9.990347e+006	-4.309501e+001	-8.358537e+001	-3.067112e+001	-1.944256e+001	-9.804853e+001	-4.567868e+000	-4.690124e+001	1.122155e+002
9.990352e+006	-4.312864e+001	-8.345741e+001	-3.066915e+001	-1.949997e+001	-9.584261e+001	3.905396e+001	-4.691375e+001	1.126451e+002
9.990356e+006	-4.310767e+001	-8.366132e+001	-3.064997e+001	-1.954122e+001	-8.861114e+001	4.785886e+001	-4.691709e+001	1.131339e+002
9.990361e+006	-4.311288e+001	-8.365315e+001	-3.066312e+001	-1.949946e+001	-1.005790e+002	4.430712e+001	-4.692318e+001	1.128701e+002
9.990366e+006	-4.312611e+001	-8.366418e+001	-3.065162e+001	-1.951527e+001	-9.185772e+001	8.013201e+001	-4.692160e+001	1.130206e+002
9.990370e+006	-4.310117e+001	-8.387787e+001	-3.065642e+001	-1.944051e+001	-9.127288e+001	9.151993e+001	-4.688330e+001	1.124868e+002
9.990375e+006	-4.310942e+001	-8.385956e+001	-3.064771e+001	-1.954587e+001	-9.114189e+001	7.439946e+001	-4.696431e+001	1.129835e+002
9.990380e+006	-4.311040e+001	-8.354777e+001	-3.066628e+001	-1.948098e+001	-9.959678e+001	9.206005e+001	-4.689431e+001	1.127860e+002
9.990384e+006	-4.314829e+001	-8.367336e+001	-3.065921e+001	-1.945423e+001	-9.125304e+001	-6.902402e+001	-4.690824e+001	1.131084e+002
9.990389e+006	-4.312297e+001	-8.396583e+001	-3.065818e+001	-1.949258e+001	-8.924626e+001	1.788802e+002	-4.693228e+001	1.128878e+002
9.990394e+006	-4.311758e+001	-8.351200e+001	-3.065550e+001	-1.944559e+001	-9.399121e+001	-1.791178e+002	-4.700347e+001	1.129199e+002
9.990398e+006	-4.308312e+001	-8.363280e+001	-3.064512e+001	-1.944482e+001	-9.120414e+001	1.323361e+002	-4.696640e+001	1.127335e+002
9.990403e+006	-4.312405e+001	-8.366910e+001	-3.065208e+001	-1.946871e+001	-9.483837e+001	4.008321e+001	-4.694329e+001	1.127604e+002
9.990408e+006	-4.315432e+001	-8.349161e+001	-3.065800e+001	-1.943535e+001	-9.646036e+001	6.954256e+001	-4.693909e+001	1.129914e+002
9.990413e+006	-4.312697e+001	-8.382155e+001	-3.065909e+001	-1.949547e+001	-1.056423e+002	8.071033e+001	-4.693278e+001	1.136502e+002
9.990417e+006	-4.309933e+001	-8.352217e+001	-3.066465e+001	-1.944909e+001	-1.065683e+002	6.907860e+001	-4.686702e+001	1.129331e+002
9.990422e+006	-4.310434e+001	-8.362861e+001	-3.066205e+001	-1.941622e+001	-9.437848e+001	8.866475e+001	-4.687955e+001	1.130599e+002
9.990427e+006	-4.313271e+001	-8.369385e+001	-3.065926e+001	-1.946403e+001	-9.211666e+001	-1.161231e+002	-4.689745e+001	1.127874e+002
9.990431e+006	-4.311369e+001	-8.350998e+001	-3.066352e+001	-1.944499e+001	-9.109710e+001	1.599759e+002	-4.686763e+001	1.126217e+002
9.990436e+006	-4.309607e+001	-8.365097e+001	-3.065896e+001	-1.946157e+001	-1.070489e+002	1.342508e+002	-4.683981e+001	1.122350e+002
9.990441e+006	-4.312576e+001	-8.360917e+001	-3.065831e+001	-1.949870e+001	-1.001339e+002	7.012717e+001	-4.696788e+001	1.127689e+002
9.990445e+006	-4.313935e+001	-8.349988e+001	-3.065129e+001	-1.945096e+001	-9.971637e+001	9.849355e+000	-4.694514e+001	1.125153e+002
9.990450e+006	-4.312920e+001	-8.369053e+001	-3.065157e+001	-1.941944e+001	-9.213589e+001	-1.567146e+002	-4.696028e+001	1.129332e+002
9.990455e+006	-4.312891e+001	-8.372336e+001	-3.064510e+001	-1.942664e+001	-9.625196e+001	4.988460e+000	-4.693506e+001	1.131411e+002
9.990459e+006	-4.310338e+001	-8.363153e+001	-3.064125e+001	-1.942196e+001	-9.128093e+001	1.222256e+002	-4.690213e+001	1.126543e+002
9.990464e+006	-4.311111e+001	-8.345183e+001	-3.066306e+001	-1.945140e+001	-8.568667e+001	1.208121e+002	-4.690879e+001	1.130881e+002
9.990469e+006	-4.310261e+001	-8.367795e+001	-3.064170e+001	-1.950704e+001	-9.591696e+001	9.232718e+001	-4.699321e+001	1.129795e+002
9.990473e+006	-4.310237e+001	-8.363774e+001	-3.065679e+001	-1.945874e+001	-8.663701e+001	4.932967e+001	-4.691185e+001	1.128750e+002
9.990478e+006	-4.310403e+001	-8.368860e+001	-3.065860e+001	-1.944061e+001	-8.585639e+001	9.817396e+001	-4.689363e+001	1.129241e+002
9.990483e+006	-4.310619e+001	-8.348810e+001	-3.065097e+001	-1.950658e+001	-8.813713e+001	1.119715e+002	-4.693610e+001	1.127867e+002
9.990488e+006	-4.314567e+001	-8.371057e+001	-3.065011e+001	-1.943164e+001	-9.679142e+001	-1.767821e+002	-4.689445e+001	1.126169e+002
9.990492e+006	-4.312562e+001	-8.353927e+001	-3.064647e+001	-1.956686e+001	-9.534121e+001	8.986959e+001	-4.692292e+001	1.131119e+002
9.990497e+006	-4.310414e+001	-8.356195e+001	-3.065928e+001	-1.944041e+001	-8.890439e+001	9.775213e+001	-4.692992e+001	1.129704e+002
9.990502e+006	-4.312429e+001	-8.352123e+001	-3.066029e+001	-1.939557e+001	-8.677143e+001	1.366206e+002	-4.685935e+001	1.126938e+002
9.990506e+006	-4.311295e+001	-8.372880e+001	-3.063927e+001	-1.943979e+001	-9.025658e+001	7.091816e+001	-4.693176e+001	1.127097e+002
9.990511e+006	-4.314618e+001	-8.370403e+001	-3.065847e+001	-1.948047e+001	-8.922374e+001	1.595255e+002	-4.686175e+001	1.129795e+002
9.990516e+006	-4.312385e+001	-8.349282e+001	-3.065560e+001	-1.949231e+001	-9.762267e+001	1.269012e+002	-4.687734e+001	1.131662e+002
9.990520e+006	-4.313610e+001	-8.359932e+001	-3.065238e+001	-1.947552e+001	-8.793716e+001	1.039358e+002	-4.695954e+001	1.129216e+002
9.990525e+006	-4.311560e+001	-8.381917e+001	-3.065358e+001	-1.946625e+001	-9.377791e+001	1.680702e+002	-4.691250e+001	1.132119e+002
9.990530e+006	-4.315543e+001	-8.369778e+001	-3.066695e+001	-1.949194e+001	-9.900496e+001	9.506626e+001	-4.692489e+001	1.128421e+002
9.990534e+006	-4.313546e+001	-8.362249e+001	-3.065041e+001	-1.950247e+001	-9.703501e+001	2.493949e+000	-4.692975e+001	1.132608e+002
9.990539e+006	-4.311934e+001	-8.376711e+001	-3.065215e+001	-1.947058e+001	-9.250059e+001	-1.410212e+002	-4.692132e+001	1.128037e+002
9.990544e+006	-4.310930e+001	-8.336426e+001	-3.065850e+001	-1.952153e+001	-1.084794e+002	-5.496953e+001	-4.692551e+001	1.129839e+002
9.990548e+006	-4.310075e+001	-8.383883e+001	-3.065251e+001	-1.940530e+001	-8.786848e+001	1.607879e+002	-4.689987e+001	1.129194e+002
9.990553e+006	-4.312886e+001	-8.351432e+001	-3.065378e+001	-1.942636e+001	-9.143615e+001	1.218258e+002	-4.689978e+001	1.129112e+002
9.990558e+006	-4.312254e+001	-8.358362e+001	-3.065577e+001	-1.950893e+001	-9.582356e+001	1.460545e+002	-4.688299e+001	1.130107e+002
9.990563e+006	-4.314174e+001	-8.360794e+001	-3.064989e+001	-1.945390e+001	-9.058507e+001	1.093025e+002	-4.688619e+001	1.128929e+002
9.990567e+006	-4.316219e+001	-8.373780e+001	-3.064795e+001	-1.953331e+001	-8.920760e+001	1.243583e+002	-4.691327e+001	1.128764e+002
9.990572e+006	-4.314249e+001	-8.378597e+001	-3.066104e+001	-1.947126e+001	-8.755422e+001	-3.366275e+001	-4.694762e+001	1.126263e+002
9.990577e+006	-4.313832e+001	-8.348762e+001	-3.066421e+001	-1.952159e+001	-9.302208e+001	1.292539e+002	-4.691425e+001	1.132152e+002
9.990581e+006	-4.311525e+001	-8.365861e+001	-3.065679e+001	-1.944843e+001	-1.020100e+002	6.871809e+001	-4.692378e+001	1.128153e+002
9.990586e+006	-4.313739e+001	-8.376073e+001	-3.066107e+001	-1.947276e+001	-9.298594e+001	1.389641e+002	-4.691328e+001	1.132109e+002
9.990591e+006	-4.315080e+001	-8.360078e+001	-3.065026e+001	-1.946319e+001	-9.304081e+001	1.296145e+002	-4.692467e+001	1.125904e+002
9.990595e+006	-4.314369e+001	-8.391027e+001	-3.066401e+001	-1.943665e+001	-8.899619e+001	1.076282e+002	-4.692346e+001	1.126158e+002
9.990600e+006	-4.312550e+001	-8.351059e+001	-3.065681e+001	-1.942776e+001	-1.036401e+002	7.670533e+001	-4.696064e+001	1.128511e+002
9.990605e+006	-4.310612e+001	-8.379150e+001	-3.066081e+001	-1.950748e+001	-9.652623e+001	-1.222821e+002	-4.690068e+001	1.131349e+002
9.990609e+006	-4.309431e+001	-8.344524e+001	-3.065310e+001	-1.941962e+001	-1.006551e+002	9.832723e+001	-4.694372e+001	1.129465e+002
9.990614e+006	-4.311469e+001	-8.360056e+001	-3.066100e+001	-1.948842e+001	-9.674336e+001	1.772785e+002	-4.685863e+001	1.126183e+002
9.990619e+006	-4.313930e+001	-8.361328e+001	-3.065787e+001	-1.954607e+001	-9.677312e+001	-1.962140e+001	-4.691970e+001	1.130807e+002
9.990623e+006	-4.310459e+001	-8.371966e+001	-3.065370e+001	-1.955148e+001	-8.847074e+001	5.822341e+001	-4.691059e+001	1.130161e+002
9.990628e+006	-4.312548e+001	-8.387289e+001	-3.065816e+001	-1.948277e+001	-1.003336e+002	1.435574e+002	-4.688712e+001	1.130000e+002
9.990633e+006	-4.313246e+001	-8.381664e+001	-3.065389e+001	-1.948415e+001	-8.999236e+001	1.794891e+002	-4.698237e+001	1.128457e+002
9.990638e+006	-4.311973e+001	-8.362947e+001	-3.065600e+001	-1.939760e+001	-8.906060e+001	1.220081e+002	-4.685584e+001	1.129075e+002
9.990642e+006	-4.312281e+001	-8.394981e+001	-3.064703e+001	-1.953881e+001	-9.351056e+001	-7.325952e+001	-4.690841e+001	1.129260e+002
9.990647e+006	-4.312925e+001	-8.370802e+001	-3.064822e+001	-1.945518e+001	-8.886068e+001	1.735366e+001	-4.700306e+001	1.129063e+002
9.990652e+006	-4.309871e+001	-8.359888e+001	-3.066241e+001	-1.950521e+001	-9.032533e+001	1.182198e+002	-4.692435e+001	1.132828e+002
9.990656e+006	-4.312041e+001	-8.357694e+001	-3.064228e+001	-1.940803e+001	-9.516939e+001	6.022518e+001	-4.696741e+001	1.124560e+002
9.990661e+006	-4.310415e+001	-8.347249e+001	-3.065037e+001	-1.953588e+001	-9.791385e+001	-2.358136e+001	-4.689927e+001	1.126531e+002
9.990666e+006	-4.310122e+001	-8.356779e+001	-3.064835e+001	-1.946067e+001	-9.292623e+001	6.766397e+001	-4.697761e+001	1.131301e+002
9.990670e+006	-4.314434e+001	-8.347033e+001	-3.064965e+001	-1.948373e+001	-8.704140e+001	1.224230e+002	-4.693019e+001	1.129037e+002
9.990675e+006	-4.309277e+001	-8.365850e+001	-3.064887e+001	-1.954705e+001	-8.895979e+001	1.136796e+002	-4.690315e+001	1.128380e+002
9.990680e+006	-4.312820e+001	-8.338171e+001	-3.064984e+001	-1.958318e+001	-1.024707e+002	-1.292076e+002	-4.688376e+001	1.125612e+002
9.990684e+006	-4.309791e+001	-8.360624e+001	-3.064318e+001	-1.948055e+001	-8.759031e+001	9.349467e+001	-4.689473e+001	1.132191e+002
9.990689e+006	-4.314449e+001	-8.351440e+001	-3.066605e+001	-1.950844e+001	-9.597369e+001	7.196837e+001	-4.690514e+001	1.128763e+002
