!CETC41,AV3656A,ZGL00048,1.3.2
!Calibration ON (Full Solt 2-Port(Omit Isolation))
!Measurements: S11 S21 S12 S22
!2025-04-18 02:06
# Hz  S  dB  R 50.000
9.990000e+006	-3.577489e+001	1.568118e+002	-3.055262e+001	-2.600079e+001	-9.569762e+001	1.105976e+002	-3.274422e+001	1.391805e+002
9.990005e+006	-3.578753e+001	1.567456e+002	-3.054854e+001	-2.604499e+001	-1.053756e+002	8.530444e+001	-3.273573e+001	1.391881e+002
9.990009e+006	-3.576700e+001	1.567673e+002	-3.055513e+001	-2.612155e+001	-1.062459e+002	6.265079e+001	-3.274372e+001	1.392487e+002
9.990014e+006	-3.577436e+001	1.567359e+002	-3.055798e+001	-2.608882e+001	-9.336056e+001	1.090026e+002	-3.275107e+001	1.392177e+002
9.990019e+006	-3.576278e+001	1.567356e+002	-3.056596e+001	-2.607510e+001	-9.118546e+001	6.795162e+001	-3.273894e+001	1.391752e+002
9.990023e+006	-3.577389e+001	1.566956e+002	-3.055808e+001	-2.607197e+001	-8.986843e+001	6.430658e+001	-3.273338e+001	1.392093e+002
9.990028e+006	-3.578821e+001	1.567700e+002	-3.054474e+001	-2.613300e+001	-9.539045e+001	1.539551e+002	-3.274597e+001	1.391348e+002
9.990033e+006	-3.578406e+001	1.568722e+002	-3.054238e+001	-2.616257e+001	-8.690810e+001	1.521551e+002	-3.273667e+001	1.391312e+002
9.990038e+006	-3.577441e+001	1.567516e+002	-3.055072e+001	-2.607679e+001	-1.039024e+002	2.111081e+001	-3.274024e+001	1.391314e+002
9.990042e+006	-3.578150e+001	1.567307e+002	-3.055710e+001	-2.605744e+001	-8.832484e+001	3.063045e+001	-3.272856e+001	1.391223e+002
9.990047e+006	-3.577160e+001	1.567908e+002	-3.053903e+001	-2.608657e+001	-1.006403e+002	5.657624e+001	-3.273690e+001	1.391640e+002
9.990052e+006	-3.578596e+001	1.568053e+002	-3.055850e+001	-2.608233e+001	-1.014726e+002	1.602252e+002	-3.274522e+001	1.391276e+002
9.990056e+006	-3.577553e+001	1.567578e+002	-3.054806e+001	-2.607352e+001	-9.161819e+001	9.750945e+001	-3.274453e+001	1.392044e+002
9.990061e+006	-3.576955e+001	1.568070e+002	-3.055373e+001	-2.610843e+001	-9.011729e+001	1.708269e+002	-3.273677e+001	1.391955e+002
9.990066e+006	-3.577933e+001	1.567603e+002	-3.055467e+001	-2.607795e+001	-9.068741e+001	9.508638e+001	-3.274244e+001	1.391013e+002
9.990070e+006	-3.576275e+001	1.568023e+002	-3.055359e+001	-2.609348e+001	-9.689058e+001	2.004393e+001	-3.273149e+001	1.391702e+002
9.990075e+006	-3.578522e+001	1.568822e+002	-3.055287e+001	-2.602832e+001	-9.608241e+001	-1.472625e+002	-3.273050e+001	1.391854e+002
9.990080e+006	-3.577907e+001	1.568517e+002	-3.054557e+001	-2.604489e+001	-9.156854e+001	1.269965e+002	-3.271255e+001	1.392124e+002
9.990084e+006	-3.577195e+001	1.567553e+002	-3.055219e+001	-2.612413e+001	-9.705602e+001	-1.537517e+002	-3.274301e+001	1.390730e+002
9.990089e+006	-3.576043e+001	1.566813e+002	-3.055843e+001	-2.609692e+001	-9.188082e+001	1.352285e+002	-3.274156e+001	1.391230e+002
9.990094e+006	-3.578174e+001	1.568324e+002	-3.055284e+001	-2.605201e+001	-8.854718e+001	-7.253574e+000	-3.272759e+001	1.391693e+002
9.990098e+006	-3.577303e+001	1.568261e+002	-3.054658e+001	-2.608957e+001	-1.042329e+002	-4.611251e+001	-3.274185e+001	1.391500e+002
9.990103e+006	-3.577969e+001	1.569106e+002	-3.054473e+001	-2.607870e+001	-8.972907e+001	1.417477e+002	-3.273068e+001	1.391755e+002
9.990108e+006	-3.576545e+001	1.568334e+002	-3.055432e+001	-2.605263e+001	-9.799119e+001	7.013069e+001	-3.274810e+001	1.392208e+002
9.990113e+006	-3.578638e+001	1.568278e+002	-3.055038e+001	-2.612475e+001	-9.388552e+001	6.278033e+001	-3.273974e+001	1.391754e+002
9.990117e+006	-3.578855e+001	1.567203e+002	-3.054658e+001	-2.599023e+001	-1.019227e+002	1.669917e+002	-3.275248e+001	1.391742e+002
9.990122e+006	-3.576348e+001	1.567383e+002	-3.055450e+001	-2.608454e+001	-9.513689e+001	3.375835e+001	-3.274105e+001	1.391651e+002
9.990127e+006	-3.577580e+001	1.567557e+002	-3.054332e+001	-2.605923e+001	-9.480917e+001	-1.375416e+002	-3.274085e+001	1.392135e+002
9.990131e+006	-3.577679e+001	1.568833e+002	-3.054670e+001	-2.609789e+001	-9.151874e+001	1.216955e+002	-3.274115e+001	1.391496e+002
9.990136e+006	-3.577214e+001	1.567925e+002	-3.054646e+001	-2.600271e+001	-9.065502e+001	2.776742e+001	-3.272423e+001	1.391461e+002
9.990141e+006	-3.576017e+001	1.567057e+002	-3.054860e+001	-2.606074e+001	-9.553748e+001	8.139137e+001	-3.272920e+001	1.391289e+002
9.990145e+006	-3.577471e+001	1.567708e+002	-3.054246e+001	-2.604836e+001	-8.952136e+001	6.369273e+001	-3.273432e+001	1.391071e+002
9.990150e+006	-3.578084e+001	1.568058e+002	-3.054261e+001	-2.605531e+001	-8.956947e+001	1.800858e+001	-3.272849e+001	1.391973e+002
9.990155e+006	-3.577441e+001	1.567887e+002	-3.055167e+001	-2.605012e+001	-8.792854e+001	1.302338e+002	-3.274302e+001	1.391989e+002
9.990159e+006	-3.577150e+001	1.568034e+002	-3.055417e+001	-2.601193e+001	-9.565134e+001	5.369081e+001	-3.273506e+001	1.391745e+002
9.990164e+006	-3.579049e+001	1.567580e+002	-3.055170e+001	-2.606400e+001	-8.511487e+001	7.837909e+001	-3.272149e+001	1.392121e+002
9.990169e+006	-3.579572e+001	1.567317e+002	-3.055097e+001	-2.608205e+001	-1.014574e+002	-1.109196e+002	-3.274228e+001	1.391005e+002
9.990173e+006	-3.577270e+001	1.567835e+002	-3.054924e+001	-2.601035e+001	-9.339973e+001	-1.658278e+002	-3.273603e+001	1.391955e+002
9.990178e+006	-3.578639e+001	1.567740e+002	-3.054693e+001	-2.604183e+001	-9.461105e+001	7.813380e+001	-3.272775e+001	1.391548e+002
9.990183e+006	-3.576675e+001	1.567663e+002	-3.054774e+001	-2.608844e+001	-9.699845e+001	4.751973e+001	-3.272243e+001	1.391991e+002
9.990188e+006	-3.576673e+001	1.568271e+002	-3.054919e+001	-2.600227e+001	-8.740054e+001	1.586843e+002	-3.274344e+001	1.392389e+002
9.990192e+006	-3.577129e+001	1.567097e+002	-3.054876e+001	-2.607495e+001	-1.018559e+002	1.413673e+002	-3.273210e+001	1.391917e+002
9.990197e+006	-3.578127e+001	1.568300e+002	-3.054375e+001	-2.600949e+001	-1.004623e+002	1.369946e+002	-3.272923e+001	1.392403e+002
9.990202e+006	-3.577144e+001	1.566924e+002	-3.055319e+001	-2.608879e+001	-9.543590e+001	-2.250717e+001	-3.273560e+001	1.391344e+002
9.990206e+006	-3.577268e+001	1.568559e+002	-3.055164e+001	-2.605357e+001	-9.386199e+001	6.843720e+001	-3.273249e+001	1.392777e+002
9.990211e+006	-3.577416e+001	1.567899e+002	-3.055483e+001	-2.604727e+001	-9.089035e+001	1.357989e+002	-3.274353e+001	1.391953e+002
9.990216e+006	-3.577705e+001	1.568832e+002	-3.055253e+001	-2.602248e+001	-9.674319e+001	-2.447102e+001	-3.273949e+001	1.391300e+002
9.990220e+006	-3.577830e+001	1.567761e+002	-3.054373e+001	-2.608186e+001	-8.964971e+001	1.172651e+002	-3.273210e+001	1.391565e+002
9.990225e+006	-3.577676e+001	1.567605e+002	-3.055417e+001	-2.612712e+001	-9.200684e+001	3.614348e+001	-3.273167e+001	1.391866e+002
9.990230e+006	-3.578114e+001	1.568075e+002	-3.054577e+001	-2.607306e+001	-9.505159e+001	-8.151617e+001	-3.272767e+001	1.392157e+002
9.990234e+006	-3.579724e+001	1.567908e+002	-3.055549e+001	-2.601615e+001	-1.062851e+002	5.654580e+001	-3.273469e+001	1.391032e+002
9.990239e+006	-3.577983e+001	1.567814e+002	-3.054423e+001	-2.608656e+001	-9.569558e+001	-3.390547e+001	-3.273021e+001	1.392270e+002
9.990244e+006	-3.576005e+001	1.567489e+002	-3.054961e+001	-2.611866e+001	-9.299862e+001	2.771604e+001	-3.273624e+001	1.391771e+002
9.990248e+006	-3.577928e+001	1.567309e+002	-3.054389e+001	-2.610182e+001	-9.662430e+001	1.299145e+002	-3.274011e+001	1.391488e+002
9.990253e+006	-3.577613e+001	1.567774e+002	-3.055225e+001	-2.604823e+001	-9.311188e+001	-1.769288e+002	-3.274531e+001	1.391772e+002
9.990258e+006	-3.575309e+001	1.568398e+002	-3.054283e+001	-2.598217e+001	-9.811941e+001	5.213464e+001	-3.272503e+001	1.391718e+002
9.990263e+006	-3.578578e+001	1.568457e+002	-3.054482e+001	-2.607488e+001	-9.638738e+001	9.229425e+001	-3.272854e+001	1.391917e+002
9.990267e+006	-3.575925e+001	1.569153e+002	-3.054349e+001	-2.607414e+001	-9.429302e+001	-1.293549e+002	-3.271935e+001	1.391807e+002
9.990272e+006	-3.577302e+001	1.568821e+002	-3.055372e+001	-2.609366e+001	-8.911954e+001	8.720948e+001	-3.273560e+001	1.391623e+002
9.990277e+006	-3.577705e+001	1.568876e+002	-3.054262e+001	-2.608954e+001	-9.423504e+001	1.006284e+002	-3.274358e+001	1.391031e+002
9.990281e+006	-3.577669e+001	1.567876e+002	-3.053981e+001	-2.607720e+001	-8.904675e+001	9.262771e+001	-3.273453e+001	1.392067e+002
9.990286e+006	-3.576610e+001	1.569387e+002	-3.054708e+001	-2.601153e+001	-1.023611e+002	7.604376e+001	-3.272832e+001	1.392759e+002
9.990291e+006	-3.576817e+001	1.567977e+002	-3.055035e+001	-2.604882e+001	-1.059025e+002	9.733596e+001	-3.274328e+001	1.391596e+002
9.990295e+006	-3.577859e+001	1.568530e+002	-3.053815e+001	-2.603713e+001	-9.404107e+001	-1.040384e+002	-3.274886e+001	1.392492e+002
9.990300e+006	-3.575804e+001	1.568416e+002	-3.055454e+001	-2.602557e+001	-9.325228e+001	1.425186e+002	-3.274106e+001	1.391907e+002
9.990305e+006	-3.577732e+001	1.567699e+002	-3.055745e+001	-2.606716e+001	-9.061251e+001	2.951108e+001	-3.274473e+001	1.391918e+002
9.990309e+006	-3.577707e+001	1.569437e+002	-3.053883e+001	-2.605262e+001	-9.177853e+001	-1.694121e+002	-3.274570e+001	1.391819e+002
9.990314e+006	-3.574576e+001	1.567958e+002	-3.054384e+001	-2.605662e+001	-8.731118e+001	1.408235e+002	-3.273306e+001	1.391805e+002
9.990319e+006	-3.576168e+001	1.569046e+002	-3.055052e+001	-2.605492e+001	-8.803043e+001	9.820957e+001	-3.273703e+001	1.392131e+002
9.990323e+006	-3.576874e+001	1.568239e+002	-3.053090e+001	-2.605981e+001	-9.111953e+001	1.508968e+002	-3.274487e+001	1.392355e+002
9.990328e+006	-3.576348e+001	1.568390e+002	-3.054788e+001	-2.599379e+001	-9.352298e+001	1.789944e+002	-3.273380e+001	1.392078e+002
9.990333e+006	-3.577557e+001	1.566699e+002	-3.054609e+001	-2.603016e+001	-8.825550e+001	1.627361e+002	-3.273617e+001	1.391801e+002
9.990338e+006	-3.576771e+001	1.568143e+002	-3.054680e+001	-2.601623e+001	-8.809663e+001	1.509787e+002	-3.273876e+001	1.391505e+002
9.990342e+006	-3.577802e+001	1.567602e+002	-3.053915e+001	-2.602974e+001	-8.582048e+001	1.602318e+002	-3.273403e+001	1.392465e+002
9.990347e+006	-3.576719e+001	1.568109e+002	-3.055136e+001	-2.604563e+001	-1.013742e+002	9.815990e+001	-3.273657e+001	1.392162e+002
9.990352e+006	-3.576323e+001	1.568329e+002	-3.054541e+001	-2.609159e+001	-8.887048e+001	1.269217e+002	-3.273301e+001	1.392202e+002
9.990356e+006	-3.577881e+001	1.567819e+002	-3.054244e+001	-2.600743e+001	-9.799871e+001	9.565147e+001	-3.273222e+001	1.391950e+002
9.990361e+006	-3.576559e+001	1.569475e+002	-3.055150e+001	-2.611900e+001	-9.672188e+001	1.733728e+002	-3.273385e+001	1.391908e+002
9.990366e+006	-3.577345e+001	1.567977e+002	-3.054127e+001	-2.607019e+001	-9.378352e+001	1.089822e+002	-3.273271e+001	1.391742e+002
9.990370e+006	-3.577704e+001	1.568423e+002	-3.053911e+001	-2.608576e+001	-1.015150e+002	-1.064521e+002	-3.274295e+001	1.392008e+002
9.990375e+006	-3.576766e+001	1.567593e+002	-3.054151e+001	-2.602768e+001	-1.032215e+002	1.384198e+002	-3.275095e+001	1.391851e+002
9.990380e+006	-3.577335e+001	1.568313e+002	-3.053813e+001	-2.603785e+001	-9.210739e+001	1.411185e+002	-3.273660e+001	1.391503e+002
9.990384e+006	-3.577728e+001	1.568379e+002	-3.053985e+001	-2.604344e+001	-1.000840e+002	3.769051e+001	-3.273770e+001	1.391677e+002
9.990389e+006	-3.577116e+001	1.567519e+002	-3.054443e+001	-2.604208e+001	-9.783108e+001	1.525515e+002	-3.274343e+001	1.392382e+002
9.990394e+006	-3.575706e+001	1.567886e+002	-3.054573e+001	-2.605858e+001	-9.141780e+001	9.723091e+000	-3.273813e+001	1.391333e+002
9.990398e+006	-3.575853e+001	1.569199e+002	-3.053598e+001	-2.603661e+001	-9.608995e+001	4.429299e+001	-3.273817e+001	1.391679e+002
9.990403e+006	-3.578020e+001	1.567590e+002	-3.054961e+001	-2.603994e+001	-9.197615e+001	1.461283e+002	-3.274117e+001	1.391548e+002
9.990408e+006	-3.579130e+001	1.568164e+002	-3.055086e+001	-2.613243e+001	-9.624827e+001	4.814257e+001	-3.274266e+001	1.391327e+002
9.990413e+006	-3.578260e+001	1.568633e+002	-3.054433e+001	-2.601817e+001	-9.043705e+001	6.838904e+001	-3.273715e+001	1.392144e+002
9.990417e+006	-3.576851e+001	1.569073e+002	-3.053429e+001	-2.610130e+001	-9.605886e+001	2.367997e+001	-3.272805e+001	1.391772e+002
9.990422e+006	-3.578314e+001	1.568169e+002	-3.054605e+001	-2.601787e+001	-1.024195e+002	1.173613e+002	-3.273529e+001	1.391381e+002
9.990427e+006	-3.578115e+001	1.567411e+002	-3.053069e+001	-2.610112e+001	-9.537530e+001	1.194680e+002	-3.274297e+001	1.391975e+002
9.990431e+006	-3.577205e+001	1.568698e+002	-3.055850e+001	-2.614073e+001	-9.117285e+001	-1.581435e+001	-3.273259e+001	1.391770e+002
9.990436e+006	-3.577197e+001	1.569460e+002	-3.053774e+001	-2.611773e+001	-1.017921e+002	-5.750100e+000	-3.273818e+001	1.392141e+002
9.990441e+006	-3.576949e+001	1.567492e+002	-3.053858e+001	-2.605579e+001	-9.140586e+001	8.809164e+001	-3.272949e+001	1.391432e+002
9.990445e+006	-3.577178e+001	1.568197e+002	-3.053896e+001	-2.600397e+001	-9.597397e+001	1.381660e+002	-3.274688e+001	1.392873e+002
9.990450e+006	-3.577420e+001	1.567903e+002	-3.053797e+001	-2.604154e+001	-1.096353e+002	9.967282e+001	-3.272227e+001	1.391667e+002
9.990455e+006	-3.577119e+001	1.568034e+002	-3.053719e+001	-2.603263e+001	-9.565762e+001	9.607000e+001	-3.274153e+001	1.392576e+002
9.990459e+006	-3.576780e+001	1.568078e+002	-3.054774e+001	-2.599780e+001	-9.493146e+001	4.067923e+001	-3.273752e+001	1.391512e+002
9.990464e+006	-3.578283e+001	1.569005e+002	-3.054178e+001	-2.605427e+001	-9.176512e+001	2.530089e+001	-3.273814e+001	1.392163e+002
9.990469e+006	-3.576602e+001	1.567962e+002	-3.054983e+001	-2.608839e+001	-8.997862e+001	1.402792e+002	-3.273553e+001	1.391827e+002
9.990473e+006	-3.577864e+001	1.568015e+002	-3.053499e+001	-2.605653e+001	-9.952055e+001	1.144871e+002	-3.273906e+001	1.391537e+002
9.990478e+006	-3.577289e+001	1.567753e+002	-3.054945e+001	-2.603061e+001	-8.891439e+001	6.895256e+001	-3.273340e+001	1.392046e+002
9.990483e+006	-3.578208e+001	1.568698e+002	-3.054316e+001	-2.604855e+001	-9.323713e+001	8.266108e+001	-3.274059e+001	1.391904e+002
9.990488e+006	-3.578647e+001	1.568502e+002	-3.054004e+001	-2.597472e+001	-9.094166e+001	1.592083e+002	-3.273075e+001	1.391993e+002
9.990492e+006	-3.577434e+001	1.567954e+002	-3.054139e+001	-2.606394e+001	-9.527812e+001	-9.576605e+001	-3.274261e+001	1.392085e+002
9.990497e+006	-3.578067e+001	1.567714e+002	-3.054402e+001	-2.605336e+001	-8.885525e+001	6.521761e+000	-3.274925e+001	1.391110e+002
9.990502e+006	-3.576401e+001	1.568556e+002	-3.054786e+001	-2.603171e+001	-9.145326e+001	8.383994e+001	-3.273106e+001	1.392247e+002
9.990506e+006	-3.577030e+001	1.568003e+002	-3.054160e+001	-2.607762e+001	-9.870341e+001	3.587228e+001	-3.275102e+001	1.392568e+002
9.990511e+006	-3.577162e+001	1.567689e+002	-3.054687e+001	-2.608059e+001	-1.108648e+002	-1.596048e+002	-3.273351e+001	1.391847e+002
9.990516e+006	-3.578922e+001	1.567511e+002	-3.054561e+001	-2.604449e+001	-9.879391e+001	1.137551e+002	-3.274483e+001	1.392653e+002
9.990520e+006	-3.576213e+001	1.568690e+002	-3.054385e+001	-2.608205e+001	-9.569716e+001	9.663205e+001	-3.273700e+001	1.391540e+002
9.990525e+006	-3.579366e+001	1.567578e+002	-3.053733e+001	-2.607700e+001	-9.904808e+001	7.663857e+001	-3.274318e+001	1.391318e+002
9.990530e+006	-3.576066e+001	1.568802e+002	-3.053483e+001	-2.598950e+001	-9.782289e+001	-2.244661e+001	-3.273567e+001	1.392877e+002
9.990534e+006	-3.576493e+001	1.568658e+002	-3.054122e+001	-2.607550e+001	-1.060853e+002	4.313439e+001	-3.274011e+001	1.392228e+002
9.990539e+006	-3.575957e+001	1.568419e+002	-3.053167e+001	-2.601065e+001	-9.252644e+001	7.493120e+001	-3.272971e+001	1.391734e+002
9.990544e+006	-3.577393e+001	1.567957e+002	-3.053683e+001	-2.608151e+001	-9.821305e+001	-1.258695e+002	-3.273880e+001	1.392035e+002
9.990548e+006	-3.577924e+001	1.567871e+002	-3.052916e+001	-2.601784e+001	-9.153540e+001	1.457799e+002	-3.274421e+001	1.391862e+002
9.990553e+006	-3.577777e+001	1.569121e+002	-3.054171e+001	-2.605139e+001	-8.808153e+001	9.463123e+001	-3.272806e+001	1.391200e+002
9.990558e+006	-3.576581e+001	1.567476e+002	-3.053648e+001	-2.601751e+001	-8.949956e+001	1.363061e+002	-3.273577e+001	1.392180e+002
9.990563e+006	-3.576991e+001	1.568385e+002	-3.054085e+001	-2.609099e+001	-1.053171e+002	5.736907e+001	-3.275215e+001	1.392829e+002
9.990567e+006	-3.577241e+001	1.567992e+002	-3.053298e+001	-2.602783e+001	-1.030536e+002	1.658170e+002	-3.275108e+001	1.391782e+002
9.990572e+006	-3.578067e+001	1.567589e+002	-3.053438e+001	-2.606364e+001	-8.941667e+001	8.633605e+001	-3.273480e+001	1.391894e+002
9.990577e+006	-3.579684e+001	1.568053e+002	-3.053795e+001	-2.602318e+001	-9.520585e+001	-1.738251e+002	-3.272676e+001	1.392603e+002
9.990581e+006	-3.577071e+001	1.567679e+002	-3.054679e+001	-2.610310e+001	-9.843410e+001	1.704448e+002	-3.274396e+001	1.391828e+002
9.990586e+006	-3.575777e+001	1.567816e+002	-3.054181e+001	-2.609232e+001	-8.634824e+001	5.251328e+001	-3.273655e+001	1.391934e+002
9.990591e+006	-3.576676e+001	1.569513e+002	-3.054824e+001	-2.607832e+001	-8.815718e+001	1.009463e+002	-3.273754e+001	1.392481e+002
9.990595e+006	-3.577942e+001	1.568113e+002	-3.053704e+001	-2.606293e+001	-8.958157e+001	1.328241e+002	-3.273435e+001	1.392213e+002
9.990600e+006	-3.576635e+001	1.568648e+002	-3.053953e+001	-2.602874e+001	-9.441580e+001	3.688145e+001	-3.274282e+001	1.391891e+002
9.990605e+006	-3.577097e+001	1.568693e+002	-3.054403e+001	-2.607015e+001	-8.912818e+001	1.291585e+002	-3.273128e+001	1.392476e+002
9.990609e+006	-3.576724e+001	1.568049e+002	-3.054242e+001	-2.609340e+001	-9.360725e+001	7.608821e+001	-3.274639e+001	1.391159e+002
9.990614e+006	-3.576305e+001	1.567536e+002	-3.053315e+001	-2.602480e+001	-9.665147e+001	-7.938182e+001	-3.273469e+001	1.391559e+002
9.990619e+006	-3.578453e+001	1.567472e+002	-3.053997e+001	-2.601721e+001	-9.040761e+001	1.763754e+002	-3.273600e+001	1.392286e+002
9.990623e+006	-3.577985e+001	1.569332e+002	-3.054116e+001	-2.601417e+001	-9.045641e+001	1.178997e+002	-3.274584e+001	1.391211e+002
9.990628e+006	-3.578944e+001	1.569453e+002	-3.054315e+001	-2.602806e+001	-9.562373e+001	2.956327e+001	-3.274390e+001	1.391784e+002
9.990633e+006	-3.576950e+001	1.568262e+002	-3.053403e+001	-2.614448e+001	-9.728484e+001	9.514139e+001	-3.272372e+001	1.391968e+002
9.990638e+006	-3.576315e+001	1.568136e+002	-3.052630e+001	-2.610821e+001	-8.926246e+001	1.788996e+002	-3.274045e+001	1.391650e+002
9.990642e+006	-3.577783e+001	1.568263e+002	-3.053939e+001	-2.600150e+001	-9.589006e+001	-5.390261e+001	-3.273175e+001	1.392197e+002
9.990647e+006	-3.576450e+001	1.569549e+002	-3.053569e+001	-2.598442e+001	-9.012973e+001	1.252906e+002	-3.274077e+001	1.391712e+002
9.990652e+006	-3.576340e+001	1.567120e+002	-3.053862e+001	-2.614250e+001	-8.865005e+001	-6.871270e+000	-3.273189e+001	1.392066e+002
9.990656e+006	-3.574972e+001	1.568542e+002	-3.055513e+001	-2.604503e+001	-1.011508e+002	9.786422e+000	-3.274491e+001	1.391693e+002
9.990661e+006	-3.576712e+001	1.568324e+002	-3.053168e+001	-2.598280e+001	-1.011489e+002	2.496610e+001	-3.273653e+001	1.392011e+002
9.990666e+006	-3.578779e+001	1.567670e+002	-3.053104e+001	-2.603968e+001	-1.052824e+002	-1.613430e+002	-3.275238e+001	1.391148e+002
9.990670e+006	-3.576646e+001	1.569303e+002	-3.054665e+001	-2.606116e+001	-9.288939e+001	2.775676e+001	-3.274054e+001	1.391385e+002
9.990675e+006	-3.576791e+001	1.567907e+002	-3.055229e+001	-2.602350e+001	-8.624188e+001	1.173828e+002	-3.274056e+001	1.391863e+002
9.990680e+006	-3.577702e+001	1.568979e+002	-3.055925e+001	-2.611986e+001	-9.347183e+001	4.799201e+001	-3.274140e+001	1.393042e+002
9.990684e+006	-3.576874e+001	1.568391e+002	-3.054742e+001	-2.618720e+001	-9.595778e+001	3.014554e+001	-3.273901e+001	1.391871e+002
9.990689e+006	-3.577424e+001	1.568260e+002	-3.055043e+001	-2.621292e+001	-9.795377e+001	1.429693e+002	-3.274835e+001	1.391868e+002
9.990694e+006	-3.577414e+001	1.567680e+002	-3.055813e+001	-2.614243e+001	-9.037811e+001	1.190911e+002	-3.273620e+001	1.391814e+002
9.990698e+006	-3.575662e+001	1.568305e+002	-3.056283e+001	-2.607647e+001	-9.430442e+001	4.521400e+001	-3.274229e+001	1.391866e+002
