!CETC41,AV3656A,ZGL00048,1.3.2
!Calibration ON (Full Solt 2-Port(Omit Isolation))
!Measurements: S11 S21 S12 S22
!2025-04-18 02:09
# Hz  S  dB  R 50.000
1.095000e+007	-3.666724e+001	-1.787831e+002	-3.048393e+001	-2.500717e+001	-9.498262e+001	9.057389e+001	-3.396230e+001	1.472992e+002
1.095001e+007	-3.666484e+001	-1.787764e+002	-3.048750e+001	-2.504853e+001	-9.593421e+001	9.672695e+001	-3.397646e+001	1.471616e+002
1.095002e+007	-3.667597e+001	-1.787496e+002	-3.047838e+001	-2.501880e+001	-9.601734e+001	1.131840e+002	-3.395257e+001	1.470500e+002
1.095002e+007	-3.666075e+001	-1.786249e+002	-3.047961e+001	-2.510383e+001	-9.841797e+001	1.066000e+002	-3.394230e+001	1.470711e+002
1.095003e+007	-3.666688e+001	-1.787168e+002	-3.047166e+001	-2.509319e+001	-9.509875e+001	1.107953e+002	-3.393140e+001	1.470983e+002
1.095004e+007	-3.668961e+001	-1.788056e+002	-3.049006e+001	-2.505626e+001	-9.549533e+001	1.071731e+002	-3.392552e+001	1.471660e+002
1.095005e+007	-3.666526e+001	-1.787325e+002	-3.047619e+001	-2.504758e+001	-9.819460e+001	1.154774e+002	-3.393159e+001	1.473145e+002
1.095005e+007	-3.666243e+001	-1.786758e+002	-3.047840e+001	-2.505836e+001	-9.653270e+001	1.013247e+002	-3.393053e+001	1.473714e+002
1.095006e+007	-3.667341e+001	-1.787504e+002	-3.047381e+001	-2.512090e+001	-9.595842e+001	1.052264e+002	-3.394356e+001	1.473425e+002
1.095007e+007	-3.667053e+001	-1.787138e+002	-3.047363e+001	-2.505994e+001	-9.642290e+001	1.013152e+002	-3.394565e+001	1.473818e+002
1.095008e+007	-3.666865e+001	-1.786699e+002	-3.047682e+001	-2.512587e+001	-9.701782e+001	9.075839e+001	-3.396787e+001	1.473754e+002
1.095009e+007	-3.667554e+001	-1.788480e+002	-3.046142e+001	-2.511417e+001	-9.822217e+001	1.037899e+002	-3.397085e+001	1.473633e+002
1.095009e+007	-3.665899e+001	-1.788378e+002	-3.045977e+001	-2.508382e+001	-9.566295e+001	9.666563e+001	-3.396961e+001	1.472469e+002
1.095010e+007	-3.667698e+001	-1.787626e+002	-3.045786e+001	-2.512292e+001	-9.603025e+001	1.049914e+002	-3.397989e+001	1.472951e+002
1.095011e+007	-3.666270e+001	-1.787539e+002	-3.045599e+001	-2.510652e+001	-9.500567e+001	9.087769e+001	-3.396609e+001	1.472233e+002
1.095012e+007	-3.666322e+001	-1.787921e+002	-3.045419e+001	-2.509274e+001	-9.546338e+001	1.122431e+002	-3.396836e+001	1.471745e+002
1.095013e+007	-3.666438e+001	-1.787457e+002	-3.045660e+001	-2.508086e+001	-9.579170e+001	1.059235e+002	-3.397563e+001	1.471798e+002
1.095013e+007	-3.666253e+001	-1.788164e+002	-3.044811e+001	-2.507922e+001	-9.549920e+001	9.139131e+001	-3.396008e+001	1.471986e+002
1.095014e+007	-3.666833e+001	-1.787460e+002	-3.044367e+001	-2.518087e+001	-9.630695e+001	8.619912e+001	-3.395507e+001	1.472236e+002
1.095015e+007	-3.667507e+001	-1.786781e+002	-3.045023e+001	-2.519540e+001	-9.991334e+001	7.221939e+001	-3.397293e+001	1.471681e+002
1.095016e+007	-3.667697e+001	-1.788152e+002	-3.043659e+001	-2.525362e+001	-9.839714e+001	1.018711e+002	-3.397439e+001	1.471839e+002
1.095016e+007	-3.668573e+001	-1.787644e+002	-3.044945e+001	-2.524637e+001	-9.795955e+001	8.455709e+001	-3.396040e+001	1.472222e+002
1.095017e+007	-3.666400e+001	-1.787422e+002	-3.044892e+001	-2.546225e+001	-9.699426e+001	1.046748e+002	-3.398074e+001	1.472106e+002
1.095018e+007	-3.667468e+001	-1.786912e+002	-3.045017e+001	-2.551717e+001	-9.808983e+001	1.051646e+002	-3.396953e+001	1.472558e+002
1.095019e+007	-3.666803e+001	-1.788343e+002	-3.046628e+001	-2.545741e+001	-9.537869e+001	9.375485e+001	-3.397575e+001	1.472794e+002
1.095020e+007	-3.666988e+001	-1.788214e+002	-3.049220e+001	-2.561691e+001	-9.505430e+001	1.198977e+002	-3.393985e+001	1.473882e+002
1.095020e+007	-3.667278e+001	-1.788048e+002	-3.050987e+001	-2.552428e+001	-9.462237e+001	1.118286e+002	-3.394880e+001	1.473784e+002
1.095021e+007	-3.668526e+001	-1.787016e+002	-3.053588e+001	-2.545148e+001	-9.484894e+001	8.448561e+001	-3.393328e+001	1.473980e+002
1.095022e+007	-3.665941e+001	-1.787447e+002	-3.054871e+001	-2.534339e+001	-9.609346e+001	9.369354e+001	-3.394012e+001	1.473592e+002
1.095023e+007	-3.669204e+001	-1.787477e+002	-3.056464e+001	-2.513678e+001	-9.666069e+001	1.008811e+002	-3.391466e+001	1.473049e+002
1.095023e+007	-3.667933e+001	-1.788516e+002	-3.054919e+001	-2.485480e+001	-9.593916e+001	9.562309e+001	-3.392829e+001	1.472178e+002
1.095024e+007	-3.665879e+001	-1.788224e+002	-3.052045e+001	-2.469019e+001	-9.581144e+001	1.040474e+002	-3.391551e+001	1.470891e+002
1.095025e+007	-3.667485e+001	-1.786886e+002	-3.047404e+001	-2.467753e+001	-9.796650e+001	9.942490e+001	-3.393128e+001	1.470339e+002
1.095026e+007	-3.667370e+001	-1.788173e+002	-3.043602e+001	-2.472357e+001	-9.595083e+001	8.192638e+001	-3.395494e+001	1.471124e+002
1.095027e+007	-3.667312e+001	-1.787675e+002	-3.040878e+001	-2.507481e+001	-9.649871e+001	1.083920e+002	-3.397092e+001	1.471587e+002
1.095027e+007	-3.668313e+001	-1.787980e+002	-3.042167e+001	-2.535923e+001	-9.499296e+001	8.270005e+001	-3.396629e+001	1.472852e+002
1.095028e+007	-3.668027e+001	-1.787356e+002	-3.047143e+001	-2.554037e+001	-9.488102e+001	1.056467e+002	-3.395141e+001	1.474515e+002
1.095029e+007	-3.667515e+001	-1.786395e+002	-3.052025e+001	-2.546091e+001	-9.960012e+001	1.208905e+002	-3.393404e+001	1.473670e+002
1.095030e+007	-3.668285e+001	-1.787833e+002	-3.055336e+001	-2.514032e+001	-9.593219e+001	7.458636e+001	-3.392080e+001	1.472465e+002
1.095030e+007	-3.666364e+001	-1.787985e+002	-3.052317e+001	-2.473525e+001	-9.541847e+001	9.430877e+001	-3.392970e+001	1.470469e+002
1.095031e+007	-3.666646e+001	-1.787752e+002	-3.045066e+001	-2.471646e+001	-1.024035e+002	9.593854e+001	-3.394304e+001	1.470771e+002
1.095032e+007	-3.667086e+001	-1.787731e+002	-3.040618e+001	-2.500382e+001	-9.598060e+001	1.029580e+002	-3.395195e+001	1.472662e+002
1.095033e+007	-3.667663e+001	-1.786901e+002	-3.042537e+001	-2.540740e+001	-9.525905e+001	1.062191e+002	-3.394944e+001	1.473372e+002
1.095034e+007	-3.667566e+001	-1.787577e+002	-3.050009e+001	-2.555740e+001	-9.551849e+001	1.079119e+002	-3.391770e+001	1.473665e+002
1.095034e+007	-3.667074e+001	-1.787577e+002	-3.054120e+001	-2.508676e+001	-1.000867e+002	9.745038e+001	-3.391147e+001	1.471290e+002
1.095035e+007	-3.665828e+001	-1.786532e+002	-3.048673e+001	-2.468744e+001	-1.045369e+002	9.995286e+001	-3.394446e+001	1.470497e+002
1.095036e+007	-3.666704e+001	-1.786319e+002	-3.042465e+001	-2.486120e+001	-9.737893e+001	9.748776e+001	-3.397165e+001	1.471482e+002
1.095037e+007	-3.666966e+001	-1.786875e+002	-3.041804e+001	-2.533507e+001	-9.725292e+001	1.001025e+002	-3.394503e+001	1.473100e+002
1.095038e+007	-3.668227e+001	-1.788442e+002	-3.049813e+001	-2.543270e+001	-9.952470e+001	1.007010e+002	-3.394065e+001	1.473463e+002
1.095038e+007	-3.666407e+001	-1.787529e+002	-3.052576e+001	-2.497710e+001	-9.385657e+001	9.484040e+001	-3.392521e+001	1.471471e+002
1.095039e+007	-3.665356e+001	-1.787925e+002	-3.045543e+001	-2.470756e+001	-9.764412e+001	9.215215e+001	-3.394857e+001	1.470636e+002
1.095040e+007	-3.667132e+001	-1.786830e+002	-3.041124e+001	-2.510010e+001	-1.017245e+002	8.029068e+001	-3.396563e+001	1.472490e+002
1.095041e+007	-3.668182e+001	-1.786872e+002	-3.046183e+001	-2.544633e+001	-9.719541e+001	8.777185e+001	-3.393145e+001	1.473524e+002
1.095041e+007	-3.666809e+001	-1.786697e+002	-3.052497e+001	-2.506841e+001	-9.969144e+001	9.060039e+001	-3.393279e+001	1.471961e+002
1.095042e+007	-3.668508e+001	-1.786809e+002	-3.046644e+001	-2.474641e+001	-9.657105e+001	8.529149e+001	-3.397104e+001	1.471040e+002
1.095043e+007	-3.667090e+001	-1.788401e+002	-3.041430e+001	-2.514010e+001	-9.775821e+001	9.364873e+001	-3.394987e+001	1.472924e+002
1.095044e+007	-3.666957e+001	-1.788175e+002	-3.047303e+001	-2.539702e+001	-9.782545e+001	8.092186e+001	-3.392948e+001	1.472349e+002
1.095045e+007	-3.666998e+001	-1.786924e+002	-3.050659e+001	-2.496124e+001	-9.508994e+001	9.407197e+001	-3.392646e+001	1.470738e+002
1.095045e+007	-3.667079e+001	-1.786702e+002	-3.043356e+001	-2.483803e+001	-9.496156e+001	1.125820e+002	-3.396372e+001	1.471794e+002
1.095046e+007	-3.666726e+001	-1.786452e+002	-3.043984e+001	-2.530206e+001	-9.577526e+001	9.041590e+001	-3.394107e+001	1.473276e+002
1.095047e+007	-3.666719e+001	-1.786770e+002	-3.050934e+001	-2.509695e+001	-9.538049e+001	1.045369e+002	-3.393701e+001	1.470939e+002
1.095048e+007	-3.668163e+001	-1.787752e+002	-3.045261e+001	-2.484415e+001	-9.785438e+001	8.416403e+001	-3.395283e+001	1.471840e+002
1.095048e+007	-3.667092e+001	-1.785848e+002	-3.042004e+001	-2.525447e+001	-9.528713e+001	1.074596e+002	-3.393776e+001	1.473566e+002
1.095049e+007	-3.667285e+001	-1.787189e+002	-3.049813e+001	-2.522901e+001	-9.447208e+001	8.809761e+001	-3.393479e+001	1.471743e+002
1.095050e+007	-3.667176e+001	-1.786963e+002	-3.045782e+001	-2.480072e+001	-9.717261e+001	9.453845e+001	-3.395315e+001	1.471627e+002
1.095051e+007	-3.668474e+001	-1.787771e+002	-3.043203e+001	-2.524407e+001	-9.742497e+001	9.630057e+001	-3.393716e+001	1.472250e+002
1.095052e+007	-3.667926e+001	-1.786613e+002	-3.049428e+001	-2.514523e+001	-9.739498e+001	9.891523e+001	-3.393512e+001	1.471293e+002
1.095052e+007	-3.666841e+001	-1.786916e+002	-3.044446e+001	-2.476366e+001	-9.442027e+001	9.315772e+001	-3.395852e+001	1.472375e+002
1.095053e+007	-3.668498e+001	-1.787082e+002	-3.042925e+001	-2.530506e+001	-9.906895e+001	5.867999e+001	-3.391881e+001	1.473434e+002
1.095054e+007	-3.665426e+001	-1.787568e+002	-3.049511e+001	-2.500705e+001	-9.691354e+001	8.799520e+001	-3.394363e+001	1.471451e+002
1.095055e+007	-3.666813e+001	-1.788987e+002	-3.042244e+001	-2.497809e+001	-9.749118e+001	8.349345e+001	-3.395127e+001	1.472107e+002
1.095055e+007	-3.665710e+001	-1.786630e+002	-3.046507e+001	-2.532155e+001	-9.590883e+001	9.337507e+001	-3.392475e+001	1.471865e+002
1.095056e+007	-3.668414e+001	-1.786629e+002	-3.047074e+001	-2.480380e+001	-9.565312e+001	9.640960e+001	-3.395951e+001	1.471419e+002
1.095057e+007	-3.667740e+001	-1.787806e+002	-3.041902e+001	-2.529683e+001	-9.616838e+001	9.324150e+001	-3.393918e+001	1.473030e+002
1.095058e+007	-3.668163e+001	-1.787034e+002	-3.049030e+001	-2.503852e+001	-9.523391e+001	1.023471e+002	-3.392793e+001	1.472177e+002
1.095059e+007	-3.668065e+001	-1.787973e+002	-3.041663e+001	-2.499526e+001	-1.014049e+002	9.052440e+001	-3.394430e+001	1.472396e+002
1.095059e+007	-3.668158e+001	-1.786059e+002	-3.046837e+001	-2.521506e+001	-9.632759e+001	9.161099e+001	-3.391610e+001	1.471802e+002
1.095060e+007	-3.667410e+001	-1.787393e+002	-3.044374e+001	-2.485117e+001	-9.969370e+001	9.027559e+001	-3.395062e+001	1.472210e+002
1.095061e+007	-3.667279e+001	-1.786826e+002	-3.043668e+001	-2.526495e+001	-9.658477e+001	1.055445e+002	-3.393244e+001	1.471322e+002
1.095062e+007	-3.668366e+001	-1.787368e+002	-3.046538e+001	-2.490890e+001	-9.596215e+001	1.008428e+002	-3.394908e+001	1.471715e+002
1.095063e+007	-3.667552e+001	-1.786769e+002	-3.041619e+001	-2.522505e+001	-9.927055e+001	1.005683e+002	-3.394597e+001	1.472313e+002
1.095063e+007	-3.666728e+001	-1.788000e+002	-3.047642e+001	-2.494405e+001	-9.634883e+001	1.146682e+002	-3.394269e+001	1.471070e+002
1.095064e+007	-3.667516e+001	-1.787368e+002	-3.041207e+001	-2.516174e+001	-9.774092e+001	9.629448e+001	-3.393734e+001	1.473471e+002
1.095065e+007	-3.668283e+001	-1.786813e+002	-3.047716e+001	-2.506918e+001	-9.825200e+001	9.608349e+001	-3.395154e+001	1.471731e+002
1.095066e+007	-3.668460e+001	-1.787112e+002	-3.042277e+001	-2.508343e+001	-9.541782e+001	1.023225e+002	-3.394805e+001	1.473021e+002
1.095066e+007	-3.667667e+001	-1.786939e+002	-3.047540e+001	-2.507023e+001	-9.874614e+001	1.036128e+002	-3.394072e+001	1.471749e+002
1.095067e+007	-3.668037e+001	-1.787432e+002	-3.040545e+001	-2.503573e+001	-9.757652e+001	8.960208e+001	-3.393891e+001	1.472883e+002
1.095068e+007	-3.666112e+001	-1.787547e+002	-3.047972e+001	-2.506138e+001	-9.605078e+001	1.056798e+002	-3.394454e+001	1.471746e+002
1.095069e+007	-3.667606e+001	-1.785949e+002	-3.041515e+001	-2.504933e+001	-9.493060e+001	9.448121e+001	-3.394282e+001	1.472390e+002
1.095070e+007	-3.667446e+001	-1.785976e+002	-3.047371e+001	-2.505489e+001	-9.851512e+001	9.630122e+001	-3.393903e+001	1.472264e+002
1.095070e+007	-3.667733e+001	-1.787625e+002	-3.041772e+001	-2.506120e+001	-9.819295e+001	9.640369e+001	-3.394152e+001	1.472716e+002
1.095071e+007	-3.667366e+001	-1.787784e+002	-3.046726e+001	-2.497075e+001	-9.488984e+001	9.851242e+001	-3.394667e+001	1.471453e+002
1.095072e+007	-3.668177e+001	-1.787237e+002	-3.041905e+001	-2.518765e+001	-9.487589e+001	1.089228e+002	-3.393374e+001	1.472914e+002
1.095073e+007	-3.667059e+001	-1.788123e+002	-3.043726e+001	-2.496257e+001	-9.532365e+001	1.097915e+002	-3.395334e+001	1.472809e+002
1.095073e+007	-3.668767e+001	-1.787678e+002	-3.043280e+001	-2.521712e+001	-9.507750e+001	1.122059e+002	-3.392913e+001	1.472273e+002
1.095074e+007	-3.667488e+001	-1.786461e+002	-3.043209e+001	-2.493227e+001	-9.453126e+001	8.702285e+001	-3.393824e+001	1.473119e+002
1.095075e+007	-3.666250e+001	-1.787717e+002	-3.043806e+001	-2.522257e+001	-9.670036e+001	1.052887e+002	-3.394611e+001	1.471306e+002
1.095076e+007	-3.667338e+001	-1.786637e+002	-3.042445e+001	-2.497052e+001	-9.459398e+001	1.007828e+002	-3.392932e+001	1.472205e+002
1.095077e+007	-3.668652e+001	-1.787055e+002	-3.044581e+001	-2.504282e+001	-9.527863e+001	8.336372e+001	-3.395262e+001	1.471850e+002
1.095077e+007	-3.668694e+001	-1.788307e+002	-3.041420e+001	-2.515933e+001	-9.818540e+001	9.622778e+001	-3.393165e+001	1.471731e+002
1.095078e+007	-3.669763e+001	-1.787123e+002	-3.043943e+001	-2.498139e+001	-9.514488e+001	9.610233e+001	-3.395709e+001	1.472131e+002
1.095079e+007	-3.667706e+001	-1.786759e+002	-3.044197e+001	-2.512627e+001	-9.557082e+001	1.029236e+002	-3.393713e+001	1.472042e+002
1.095080e+007	-3.666407e+001	-1.787562e+002	-3.042310e+001	-2.503710e+001	-9.735214e+001	7.639868e+001	-3.393117e+001	1.472548e+002
1.095080e+007	-3.666470e+001	-1.787646e+002	-3.044233e+001	-2.501805e+001	-9.679069e+001	9.515573e+001	-3.394323e+001	1.471233e+002
1.095081e+007	-3.668053e+001	-1.786964e+002	-3.042311e+001	-2.507436e+001	-9.770821e+001	8.916037e+001	-3.394126e+001	1.470932e+002
1.095082e+007	-3.667643e+001	-1.787368e+002	-3.042591e+001	-2.500155e+001	-1.027390e+002	8.468215e+001	-3.394967e+001	1.471724e+002
1.095083e+007	-3.669427e+001	-1.786815e+002	-3.043808e+001	-2.513800e+001	-9.607931e+001	8.967982e+001	-3.393233e+001	1.472480e+002
1.095084e+007	-3.668121e+001	-1.786441e+002	-3.042205e+001	-2.504582e+001	-9.649947e+001	8.089969e+001	-3.393467e+001	1.472069e+002
1.095084e+007	-3.667407e+001	-1.786812e+002	-3.042219e+001	-2.502549e+001	-1.014469e+002	1.073640e+002	-3.394380e+001	1.472325e+002
1.095085e+007	-3.665333e+001	-1.787398e+002	-3.042566e+001	-2.507410e+001	-9.660919e+001	9.789359e+001	-3.393915e+001	1.471935e+002
1.095086e+007	-3.668025e+001	-1.786491e+002	-3.042495e+001	-2.512372e+001	-9.432082e+001	1.099542e+002	-3.393113e+001	1.471708e+002
1.095087e+007	-3.667378e+001	-1.786998e+002	-3.042910e+001	-2.500609e+001	-9.367676e+001	9.389561e+001	-3.393517e+001	1.472572e+002
1.095088e+007	-3.667469e+001	-1.786837e+002	-3.042485e+001	-2.506545e+001	-9.400330e+001	1.031505e+002	-3.394526e+001	1.472437e+002
1.095088e+007	-3.666129e+001	-1.786364e+002	-3.042968e+001	-2.502528e+001	-9.459662e+001	8.355731e+001	-3.395755e+001	1.472294e+002
1.095089e+007	-3.666889e+001	-1.786900e+002	-3.041695e+001	-2.501554e+001	-9.819131e+001	1.077315e+002	-3.394169e+001	1.472093e+002
1.095090e+007	-3.666760e+001	-1.786910e+002	-3.042139e+001	-2.504653e+001	-9.704051e+001	1.133247e+002	-3.395335e+001	1.472192e+002
1.095091e+007	-3.667825e+001	-1.786779e+002	-3.041805e+001	-2.509106e+001	-9.577630e+001	9.373495e+001	-3.394186e+001	1.472251e+002
1.095091e+007	-3.667899e+001	-1.785849e+002	-3.041976e+001	-2.506691e+001	-9.526073e+001	9.705764e+001	-3.395485e+001	1.472736e+002
1.095092e+007	-3.665763e+001	-1.787197e+002	-3.042934e+001	-2.508208e+001	-9.891217e+001	1.065809e+002	-3.393525e+001	1.472063e+002
1.095093e+007	-3.668455e+001	-1.786572e+002	-3.041904e+001	-2.508403e+001	-9.598965e+001	1.182938e+002	-3.393402e+001	1.471692e+002
1.095094e+007	-3.667651e+001	-1.786125e+002	-3.041033e+001	-2.504409e+001	-9.779982e+001	9.026072e+001	-3.394865e+001	1.471396e+002
1.095095e+007	-3.667552e+001	-1.786769e+002	-3.042590e+001	-2.505930e+001	-9.810407e+001	8.083830e+001	-3.394821e+001	1.471684e+002
1.095095e+007	-3.665920e+001	-1.786433e+002	-3.041932e+001	-2.515003e+001	-9.900050e+001	8.072909e+001	-3.394951e+001	1.471668e+002
1.095096e+007	-3.665989e+001	-1.786502e+002	-3.039667e+001	-2.505754e+001	-9.604757e+001	1.098952e+002	-3.394638e+001	1.472733e+002
1.095097e+007	-3.667490e+001	-1.786897e+002	-3.041449e+001	-2.497428e+001	-9.431924e+001	1.038682e+002	-3.393755e+001	1.472589e+002
1.095098e+007	-3.666941e+001	-1.786763e+002	-3.042536e+001	-2.498224e+001	-1.015122e+002	1.004384e+002	-3.394157e+001	1.472834e+002
1.095098e+007	-3.666582e+001	-1.787122e+002	-3.042740e+001	-2.509764e+001	-9.688123e+001	1.045881e+002	-3.394412e+001	1.472247e+002
1.095099e+007	-3.667446e+001	-1.787533e+002	-3.040765e+001	-2.514436e+001	-9.797174e+001	7.360863e+001	-3.394603e+001	1.472561e+002
1.095100e+007	-3.668682e+001	-1.786873e+002	-3.039893e+001	-2.505074e+001	-9.624862e+001	1.085607e+002	-3.393025e+001	1.471813e+002
1.095101e+007	-3.669830e+001	-1.786638e+002	-3.041784e+001	-2.494950e+001	-9.771989e+001	1.131011e+002	-3.393127e+001	1.472457e+002
1.095102e+007	-3.666927e+001	-1.786723e+002	-3.042000e+001	-2.498584e+001	-9.488640e+001	8.867612e+001	-3.394644e+001	1.472337e+002
1.095102e+007	-3.667526e+001	-1.786785e+002	-3.042721e+001	-2.515996e+001	-9.474204e+001	9.195564e+001	-3.395136e+001	1.471733e+002
1.095103e+007	-3.668175e+001	-1.786405e+002	-3.041271e+001	-2.522860e+001	-9.747149e+001	9.276895e+001	-3.394496e+001	1.471180e+002
1.095104e+007	-3.667618e+001	-1.787190e+002	-3.038464e+001	-2.517859e+001	-9.463470e+001	5.779637e+001	-3.393178e+001	1.472296e+002
1.095105e+007	-3.666645e+001	-1.787411e+002	-3.038209e+001	-2.497381e+001	-9.683122e+001	9.273945e+001	-3.393429e+001	1.472245e+002
1.095105e+007	-3.666461e+001	-1.786845e+002	-3.038775e+001	-2.488167e+001	-9.696055e+001	1.041666e+002	-3.393707e+001	1.472177e+002
1.095106e+007	-3.667298e+001	-1.787820e+002	-3.041638e+001	-2.492562e+001	-1.010299e+002	8.797487e+001	-3.394138e+001	1.471647e+002
1.095107e+007	-3.665146e+001	-1.788370e+002	-3.041922e+001	-2.502143e+001	-9.633015e+001	1.020961e+002	-3.394113e+001	1.472059e+002
1.095108e+007	-3.666809e+001	-1.787694e+002	-3.043089e+001	-2.512732e+001	-9.572407e+001	1.058903e+002	-3.394511e+001	1.472288e+002
1.095109e+007	-3.667313e+001	-1.787651e+002	-3.040876e+001	-2.525286e+001	-9.664056e+001	9.832733e+001	-3.394930e+001	1.472427e+002
1.095109e+007	-3.667941e+001	-1.786562e+002	-3.039515e+001	-2.520924e+001	-9.581130e+001	9.270698e+001	-3.394611e+001	1.472306e+002
1.095110e+007	-3.665861e+001	-1.786670e+002	-3.037604e+001	-2.518118e+001	-9.744702e+001	1.037906e+002	-3.394084e+001	1.471637e+002
1.095111e+007	-3.666377e+001	-1.787504e+002	-3.037458e+001	-2.510274e+001	-9.596598e+001	9.109478e+001	-3.393438e+001	1.471680e+002
1.095112e+007	-3.666721e+001	-1.786328e+002	-3.037247e+001	-2.498182e+001	-9.620495e+001	7.730952e+001	-3.391854e+001	1.471908e+002
1.095113e+007	-3.667678e+001	-1.787007e+002	-3.037944e+001	-2.491816e+001	-9.547861e+001	1.019975e+002	-3.393488e+001	1.471809e+002
1.095113e+007	-3.666898e+001	-1.786304e+002	-3.038218e+001	-2.488583e+001	-9.806299e+001	1.081858e+002	-3.393530e+001	1.472507e+002
1.095114e+007	-3.666814e+001	-1.788012e+002	-3.040723e+001	-2.488529e+001	-9.485822e+001	1.015653e+002	-3.394042e+001	1.472629e+002
1.095115e+007	-3.667007e+001	-1.787325e+002	-3.041118e+001	-2.484873e+001	-9.606396e+001	1.017803e+002	-3.394804e+001	1.472359e+002
1.095116e+007	-3.667594e+001	-1.786962e+002	-3.041494e+001	-2.493195e+001	-9.495889e+001	1.014285e+002	-3.394658e+001	1.472691e+002
