!CETC41,AV3656A,ZGL00048,1.3.2
!Calibration ON (Full Solt 2-Port(Omit Isolation))
!Measurements: S11 S21 S12 S22
!2025-04-18 03:36
# Hz  S  dB  R 50.000
1.095000e+007	-3.658387e+001	-1.798035e+002	-3.046378e+001	-2.519161e+001	-9.795104e+001	8.032949e+001	-3.387102e+001	1.465625e+002
1.095001e+007	-3.659953e+001	-1.798125e+002	-3.043053e+001	-2.513659e+001	-1.010838e+002	1.103623e+002	-3.387034e+001	1.465953e+002
1.095002e+007	-3.659311e+001	-1.798380e+002	-3.040113e+001	-2.508724e+001	-9.489218e+001	8.960397e+001	-3.388740e+001	1.465775e+002
1.095002e+007	-3.659380e+001	-1.799111e+002	-3.037192e+001	-2.511555e+001	-1.023066e+002	1.062384e+002	-3.389730e+001	1.465772e+002
1.095003e+007	-3.661442e+001	-1.797731e+002	-3.034919e+001	-2.531332e+001	-9.362043e+001	1.065700e+002	-3.389330e+001	1.466527e+002
1.095004e+007	-3.659800e+001	-1.798313e+002	-3.034379e+001	-2.556140e+001	-9.787212e+001	9.246417e+001	-3.388638e+001	1.467460e+002
1.095005e+007	-3.657216e+001	-1.797975e+002	-3.038057e+001	-2.569740e+001	-9.740849e+001	8.452784e+001	-3.388428e+001	1.467700e+002
1.095005e+007	-3.660567e+001	-1.798594e+002	-3.040152e+001	-2.563739e+001	-9.513205e+001	1.145305e+002	-3.387203e+001	1.467441e+002
1.095006e+007	-3.660633e+001	-1.797713e+002	-3.044017e+001	-2.553689e+001	-9.765082e+001	1.096626e+002	-3.385998e+001	1.466033e+002
1.095007e+007	-3.661403e+001	-1.798335e+002	-3.042446e+001	-2.529143e+001	-9.854072e+001	9.625587e+001	-3.388072e+001	1.465122e+002
1.095008e+007	-3.661811e+001	-1.797881e+002	-3.038878e+001	-2.506168e+001	-9.632118e+001	1.012253e+002	-3.389762e+001	1.466244e+002
1.095009e+007	-3.660429e+001	-1.798281e+002	-3.034139e+001	-2.527432e+001	-9.639538e+001	7.457081e+001	-3.389096e+001	1.466595e+002
1.095009e+007	-3.661481e+001	-1.799403e+002	-3.035629e+001	-2.550102e+001	-9.508643e+001	8.423191e+001	-3.387441e+001	1.467387e+002
1.095010e+007	-3.660020e+001	-1.798701e+002	-3.038620e+001	-2.569238e+001	-9.682958e+001	8.374797e+001	-3.387600e+001	1.467086e+002
1.095011e+007	-3.662227e+001	-1.798739e+002	-3.042519e+001	-2.558398e+001	-9.840753e+001	1.009797e+002	-3.386789e+001	1.466044e+002
1.095012e+007	-3.660193e+001	-1.797481e+002	-3.042456e+001	-2.526601e+001	-9.752562e+001	1.077626e+002	-3.387835e+001	1.465954e+002
1.095013e+007	-3.660257e+001	-1.798657e+002	-3.036009e+001	-2.512908e+001	-9.564117e+001	9.780288e+001	-3.388261e+001	1.466062e+002
1.095013e+007	-3.659482e+001	-1.798599e+002	-3.032760e+001	-2.531831e+001	-9.465194e+001	9.251406e+001	-3.389453e+001	1.467786e+002
1.095014e+007	-3.660170e+001	-1.799197e+002	-3.037069e+001	-2.572712e+001	-9.544650e+001	1.035557e+002	-3.387951e+001	1.467071e+002
1.095015e+007	-3.660378e+001	-1.798356e+002	-3.041009e+001	-2.551770e+001	-9.657712e+001	8.622910e+001	-3.386919e+001	1.466037e+002
1.095016e+007	-3.658807e+001	-1.798056e+002	-3.040625e+001	-2.517154e+001	-9.554930e+001	1.109359e+002	-3.388212e+001	1.466343e+002
1.095016e+007	-3.659307e+001	-1.798492e+002	-3.034562e+001	-2.518921e+001	-9.678842e+001	8.352263e+001	-3.388880e+001	1.467176e+002
1.095017e+007	-3.660242e+001	1.799742e+002	-3.033617e+001	-2.559458e+001	-9.829488e+001	1.113882e+002	-3.387518e+001	1.466855e+002
1.095018e+007	-3.660669e+001	-1.798917e+002	-3.040763e+001	-2.560393e+001	-9.498365e+001	9.190372e+001	-3.387676e+001	1.466629e+002
1.095019e+007	-3.658992e+001	-1.798302e+002	-3.039882e+001	-2.522762e+001	-9.731540e+001	1.126739e+002	-3.389699e+001	1.466135e+002
1.095020e+007	-3.659450e+001	-1.799322e+002	-3.034560e+001	-2.524337e+001	-9.660568e+001	1.178956e+002	-3.388198e+001	1.466180e+002
1.095020e+007	-3.659586e+001	-1.798905e+002	-3.034937e+001	-2.557875e+001	-9.647001e+001	9.399554e+001	-3.385984e+001	1.466632e+002
1.095021e+007	-3.659917e+001	-1.799601e+002	-3.040283e+001	-2.554392e+001	-9.831016e+001	9.888808e+001	-3.387799e+001	1.465986e+002
1.095022e+007	-3.660674e+001	-1.798893e+002	-3.038637e+001	-2.515868e+001	-9.587287e+001	7.553579e+001	-3.388802e+001	1.465209e+002
1.095023e+007	-3.658796e+001	-1.798414e+002	-3.033008e+001	-2.544624e+001	-1.003752e+002	1.239936e+002	-3.387728e+001	1.467342e+002
1.095023e+007	-3.662070e+001	-1.797817e+002	-3.037462e+001	-2.559653e+001	-9.546435e+001	1.047730e+002	-3.386894e+001	1.466130e+002
1.095024e+007	-3.661111e+001	-1.798882e+002	-3.040195e+001	-2.530760e+001	-9.607842e+001	1.071958e+002	-3.387726e+001	1.466525e+002
1.095025e+007	-3.659716e+001	-1.799427e+002	-3.032890e+001	-2.522841e+001	-9.689820e+001	1.290527e+002	-3.388002e+001	1.467640e+002
1.095026e+007	-3.658847e+001	-1.798518e+002	-3.035888e+001	-2.557067e+001	-9.716424e+001	8.950818e+001	-3.387401e+001	1.466028e+002
1.095027e+007	-3.661285e+001	-1.797311e+002	-3.039137e+001	-2.533211e+001	-9.421911e+001	8.125569e+001	-3.387730e+001	1.465875e+002
1.095027e+007	-3.659530e+001	-1.799224e+002	-3.032862e+001	-2.525624e+001	-9.730319e+001	1.091549e+002	-3.388341e+001	1.466574e+002
1.095028e+007	-3.660667e+001	-1.798217e+002	-3.035900e+001	-2.569430e+001	-9.601925e+001	1.076806e+002	-3.386895e+001	1.466211e+002
1.095029e+007	-3.659238e+001	-1.798517e+002	-3.039725e+001	-2.522102e+001	-9.888605e+001	1.180033e+002	-3.388353e+001	1.466775e+002
1.095030e+007	-3.660474e+001	-1.798007e+002	-3.031652e+001	-2.529891e+001	-9.565886e+001	1.019334e+002	-3.386886e+001	1.466948e+002
1.095030e+007	-3.660348e+001	-1.798812e+002	-3.037269e+001	-2.559440e+001	-9.557846e+001	1.022923e+002	-3.386960e+001	1.466610e+002
1.095031e+007	-3.661450e+001	-1.798896e+002	-3.037624e+001	-2.518878e+001	-1.029668e+002	9.978030e+001	-3.388533e+001	1.465927e+002
1.095032e+007	-3.660531e+001	-1.798654e+002	-3.032257e+001	-2.547529e+001	-9.794451e+001	1.205427e+002	-3.387048e+001	1.466095e+002
1.095033e+007	-3.660766e+001	-1.798920e+002	-3.038271e+001	-2.547799e+001	-9.481745e+001	8.994815e+001	-3.388144e+001	1.465910e+002
1.095034e+007	-3.658945e+001	-1.798090e+002	-3.032830e+001	-2.511597e+001	-9.750858e+001	1.043183e+002	-3.388211e+001	1.467112e+002
1.095034e+007	-3.659980e+001	-1.797789e+002	-3.034409e+001	-2.558182e+001	-9.494022e+001	1.060276e+002	-3.387619e+001	1.465822e+002
1.095035e+007	-3.659750e+001	-1.797435e+002	-3.037235e+001	-2.525840e+001	-9.551396e+001	1.188108e+002	-3.388767e+001	1.466505e+002
1.095036e+007	-3.661487e+001	-1.797452e+002	-3.031670e+001	-2.543165e+001	-1.036321e+002	1.103973e+002	-3.386934e+001	1.466677e+002
1.095037e+007	-3.659740e+001	-1.798612e+002	-3.037944e+001	-2.550156e+001	-9.668115e+001	9.110534e+001	-3.387809e+001	1.466046e+002
1.095038e+007	-3.661564e+001	-1.798432e+002	-3.031949e+001	-2.529905e+001	-9.777634e+001	1.064562e+002	-3.387904e+001	1.466747e+002
1.095038e+007	-3.659867e+001	-1.798393e+002	-3.036435e+001	-2.553440e+001	-9.933834e+001	8.628468e+001	-3.387807e+001	1.465981e+002
1.095039e+007	-3.660049e+001	-1.797907e+002	-3.034213e+001	-2.518790e+001	-9.560653e+001	1.035798e+002	-3.388305e+001	1.465522e+002
1.095040e+007	-3.660168e+001	-1.798848e+002	-3.034261e+001	-2.557935e+001	-9.906730e+001	7.600669e+001	-3.387544e+001	1.465251e+002
1.095041e+007	-3.659365e+001	-1.797311e+002	-3.035808e+001	-2.518493e+001	-9.781639e+001	8.781044e+001	-3.387946e+001	1.467919e+002
1.095041e+007	-3.659052e+001	-1.797736e+002	-3.033507e+001	-2.560967e+001	-9.775833e+001	9.276281e+001	-3.387152e+001	1.466184e+002
1.095042e+007	-3.659923e+001	-1.797591e+002	-3.036151e+001	-2.527188e+001	-9.710498e+001	1.004513e+002	-3.388479e+001	1.466138e+002
1.095043e+007	-3.660928e+001	-1.797632e+002	-3.032141e+001	-2.558050e+001	-1.031227e+002	6.331342e+001	-3.386140e+001	1.466405e+002
1.095044e+007	-3.659488e+001	-1.798001e+002	-3.036733e+001	-2.532934e+001	-1.010027e+002	6.318210e+001	-3.387886e+001	1.466121e+002
1.095045e+007	-3.660810e+001	-1.796446e+002	-3.031832e+001	-2.555106e+001	-9.877219e+001	9.780433e+001	-3.387631e+001	1.466203e+002
1.095045e+007	-3.661252e+001	-1.798049e+002	-3.035896e+001	-2.526885e+001	-9.630497e+001	1.103637e+002	-3.389054e+001	1.466614e+002
1.095046e+007	-3.660657e+001	-1.797139e+002	-3.032342e+001	-2.552088e+001	-9.645113e+001	9.157970e+001	-3.388397e+001	1.466246e+002
1.095047e+007	-3.660756e+001	-1.796661e+002	-3.034240e+001	-2.529032e+001	-9.692422e+001	9.207254e+001	-3.388710e+001	1.466667e+002
1.095048e+007	-3.659765e+001	-1.798300e+002	-3.032808e+001	-2.551901e+001	-1.002954e+002	1.058044e+002	-3.386781e+001	1.466536e+002
1.095048e+007	-3.659778e+001	-1.797086e+002	-3.033711e+001	-2.524375e+001	-9.697748e+001	9.754388e+001	-3.387324e+001	1.466724e+002
1.095049e+007	-3.658218e+001	-1.797984e+002	-3.034020e+001	-2.556353e+001	-9.552198e+001	8.905171e+001	-3.387317e+001	1.465601e+002
1.095050e+007	-3.659828e+001	-1.797108e+002	-3.031989e+001	-2.529512e+001	-9.686740e+001	1.094306e+002	-3.387530e+001	1.466684e+002
1.095051e+007	-3.659206e+001	-1.797885e+002	-3.034639e+001	-2.548952e+001	-9.632081e+001	8.747280e+001	-3.387150e+001	1.466707e+002
1.095052e+007	-3.657872e+001	-1.797610e+002	-3.031469e+001	-2.535804e+001	-9.350571e+001	1.012452e+002	-3.386832e+001	1.466135e+002
1.095052e+007	-3.660025e+001	-1.798302e+002	-3.034316e+001	-2.531815e+001	-9.863621e+001	8.742249e+001	-3.388033e+001	1.466394e+002
1.095053e+007	-3.659718e+001	-1.796997e+002	-3.031302e+001	-2.543141e+001	-9.721169e+001	1.011482e+002	-3.386922e+001	1.466484e+002
1.095054e+007	-3.659992e+001	-1.797168e+002	-3.032593e+001	-2.529428e+001	-1.011068e+002	9.190219e+001	-3.387719e+001	1.467113e+002
1.095055e+007	-3.660846e+001	-1.797647e+002	-3.033069e+001	-2.549196e+001	-9.840955e+001	1.069608e+002	-3.387899e+001	1.465609e+002
1.095055e+007	-3.659572e+001	-1.796774e+002	-3.030706e+001	-2.534413e+001	-9.769672e+001	8.689961e+001	-3.387739e+001	1.466027e+002
1.095056e+007	-3.658648e+001	-1.796894e+002	-3.032895e+001	-2.539296e+001	-9.568481e+001	8.456947e+001	-3.388960e+001	1.466284e+002
1.095057e+007	-3.660228e+001	-1.796608e+002	-3.030214e+001	-2.546098e+001	-9.534319e+001	6.987715e+001	-3.387870e+001	1.466329e+002
1.095058e+007	-3.659421e+001	-1.798598e+002	-3.031501e+001	-2.534120e+001	-9.849639e+001	8.792657e+001	-3.388700e+001	1.466461e+002
1.095059e+007	-3.658912e+001	-1.796982e+002	-3.033092e+001	-2.546476e+001	-9.815052e+001	1.056044e+002	-3.388217e+001	1.466333e+002
1.095059e+007	-3.660038e+001	-1.797382e+002	-3.030734e+001	-2.536168e+001	-9.795782e+001	9.062947e+001	-3.387753e+001	1.466621e+002
1.095060e+007	-3.660984e+001	-1.796472e+002	-3.031390e+001	-2.529670e+001	-9.698345e+001	9.315497e+001	-3.388561e+001	1.467453e+002
1.095061e+007	-3.659951e+001	-1.796965e+002	-3.031889e+001	-2.552977e+001	-9.465200e+001	1.219684e+002	-3.387603e+001	1.466227e+002
1.095062e+007	-3.660532e+001	-1.796611e+002	-3.029650e+001	-2.536711e+001	-9.552328e+001	8.194740e+001	-3.387927e+001	1.466242e+002
1.095063e+007	-3.660787e+001	-1.796613e+002	-3.032092e+001	-2.530928e+001	-9.520343e+001	1.038362e+002	-3.387073e+001	1.467133e+002
1.095063e+007	-3.661034e+001	-1.797498e+002	-3.031517e+001	-2.544586e+001	-9.775354e+001	8.242049e+001	-3.387618e+001	1.466780e+002
1.095064e+007	-3.660198e+001	-1.796602e+002	-3.029135e+001	-2.539924e+001	-9.544067e+001	9.958772e+001	-3.388020e+001	1.466775e+002
1.095065e+007	-3.659381e+001	-1.797107e+002	-3.031183e+001	-2.536599e+001	-9.370686e+001	9.936076e+001	-3.388476e+001	1.466877e+002
1.095066e+007	-3.661453e+001	-1.796581e+002	-3.030938e+001	-2.541930e+001	-1.001915e+002	1.137133e+002	-3.388287e+001	1.466719e+002
1.095066e+007	-3.659384e+001	-1.796595e+002	-3.030570e+001	-2.544487e+001	-9.877139e+001	7.165867e+001	-3.387661e+001	1.465718e+002
1.095067e+007	-3.660541e+001	-1.797306e+002	-3.031012e+001	-2.532214e+001	-9.547527e+001	1.131782e+002	-3.387197e+001	1.466500e+002
1.095068e+007	-3.659793e+001	-1.796566e+002	-3.030883e+001	-2.535572e+001	-9.640682e+001	9.982840e+001	-3.387719e+001	1.466969e+002
1.095069e+007	-3.661840e+001	-1.797258e+002	-3.030180e+001	-2.539586e+001	-9.500625e+001	1.060858e+002	-3.388917e+001	1.465786e+002
1.095070e+007	-3.657719e+001	-1.797083e+002	-3.029498e+001	-2.538239e+001	-9.765951e+001	1.014282e+002	-3.387912e+001	1.466446e+002
1.095070e+007	-3.659283e+001	-1.796248e+002	-3.029888e+001	-2.534921e+001	-9.483041e+001	1.029027e+002	-3.388295e+001	1.466450e+002
1.095071e+007	-3.660225e+001	-1.796994e+002	-3.030795e+001	-2.538366e+001	-9.493647e+001	1.012105e+002	-3.386948e+001	1.466972e+002
1.095072e+007	-3.660608e+001	-1.796957e+002	-3.030047e+001	-2.538984e+001	-9.753339e+001	7.151949e+001	-3.387440e+001	1.466870e+002
1.095073e+007	-3.661947e+001	-1.797399e+002	-3.029606e+001	-2.539721e+001	-1.023070e+002	5.542284e+001	-3.388834e+001	1.466919e+002
1.095073e+007	-3.659400e+001	-1.797010e+002	-3.030070e+001	-2.538525e+001	-9.410853e+001	1.095787e+002	-3.388855e+001	1.467126e+002
1.095074e+007	-3.657376e+001	-1.797468e+002	-3.029012e+001	-2.539020e+001	-9.602144e+001	7.273823e+001	-3.388248e+001	1.465856e+002
1.095075e+007	-3.659206e+001	-1.797453e+002	-3.028628e+001	-2.533743e+001	-9.527547e+001	7.781821e+001	-3.388088e+001	1.466234e+002
1.095076e+007	-3.658132e+001	-1.798452e+002	-3.029491e+001	-2.536478e+001	-9.675441e+001	7.549902e+001	-3.387337e+001	1.466471e+002
1.095077e+007	-3.659463e+001	-1.797411e+002	-3.029423e+001	-2.539195e+001	-9.590129e+001	1.005681e+002	-3.387007e+001	1.466914e+002
1.095077e+007	-3.656816e+001	-1.797474e+002	-3.028468e+001	-2.536770e+001	-9.694288e+001	9.954992e+001	-3.387852e+001	1.466557e+002
1.095078e+007	-3.660206e+001	-1.797086e+002	-3.027879e+001	-2.540127e+001	-9.605812e+001	1.165269e+002	-3.387933e+001	1.466207e+002
1.095079e+007	-3.659448e+001	-1.797430e+002	-3.027975e+001	-2.538521e+001	-9.772174e+001	9.198686e+001	-3.388084e+001	1.466724e+002
1.095080e+007	-3.658919e+001	-1.796835e+002	-3.028671e+001	-2.534767e+001	-9.668473e+001	9.652849e+001	-3.387573e+001	1.466277e+002
1.095080e+007	-3.658906e+001	-1.798205e+002	-3.028431e+001	-2.539378e+001	-1.009727e+002	1.460988e+002	-3.387082e+001	1.466973e+002
1.095081e+007	-3.660103e+001	-1.796470e+002	-3.029449e+001	-2.545079e+001	-9.800782e+001	8.140354e+001	-3.387139e+001	1.466591e+002
1.095082e+007	-3.661531e+001	-1.796999e+002	-3.028038e+001	-2.541645e+001	-9.835501e+001	1.006114e+002	-3.387253e+001	1.465869e+002
1.095083e+007	-3.657288e+001	-1.796986e+002	-3.027040e+001	-2.543923e+001	-1.009943e+002	1.006707e+002	-3.387297e+001	1.466607e+002
1.095084e+007	-3.660231e+001	-1.796833e+002	-3.027125e+001	-2.529242e+001	-9.708537e+001	8.795577e+001	-3.387238e+001	1.466177e+002
1.095084e+007	-3.658632e+001	-1.797221e+002	-3.028111e+001	-2.533123e+001	-9.554346e+001	1.025085e+002	-3.387076e+001	1.466797e+002
1.095085e+007	-3.659754e+001	-1.795883e+002	-3.027720e+001	-2.528084e+001	-9.754738e+001	1.042772e+002	-3.386660e+001	1.467039e+002
1.095086e+007	-3.659404e+001	-1.797939e+002	-3.028452e+001	-2.539186e+001	-9.577204e+001	8.790463e+001	-3.387414e+001	1.466810e+002
1.095087e+007	-3.662022e+001	-1.796647e+002	-3.028537e+001	-2.543801e+001	-1.004747e+002	7.711991e+001	-3.387947e+001	1.466490e+002
1.095088e+007	-3.659108e+001	-1.797584e+002	-3.026393e+001	-2.542885e+001	-9.838295e+001	1.172198e+002	-3.386941e+001	1.466749e+002
1.095088e+007	-3.659451e+001	-1.797663e+002	-3.026646e+001	-2.545937e+001	-9.756265e+001	9.644497e+001	-3.387293e+001	1.466722e+002
1.095089e+007	-3.660678e+001	-1.796790e+002	-3.025146e+001	-2.548866e+001	-9.629490e+001	9.614521e+001	-3.388573e+001	1.467242e+002
1.095090e+007	-3.661421e+001	-1.797026e+002	-3.024867e+001	-2.538607e+001	-9.506440e+001	7.860193e+001	-3.386640e+001	1.466212e+002
1.095091e+007	-3.660224e+001	-1.797294e+002	-3.023742e+001	-2.535055e+001	-9.942353e+001	1.089472e+002	-3.386938e+001	1.466381e+002
1.095091e+007	-3.658592e+001	-1.795652e+002	-3.025115e+001	-2.530443e+001	-9.849527e+001	1.015027e+002	-3.387515e+001	1.466147e+002
1.095092e+007	-3.661395e+001	-1.798203e+002	-3.024221e+001	-2.529613e+001	-9.516952e+001	7.320138e+001	-3.387579e+001	1.466757e+002
1.095093e+007	-3.662102e+001	-1.797495e+002	-3.024652e+001	-2.522070e+001	-9.666075e+001	1.078248e+002	-3.388075e+001	1.466129e+002
1.095094e+007	-3.660886e+001	-1.796581e+002	-3.025268e+001	-2.526617e+001	-9.640694e+001	9.574955e+001	-3.387106e+001	1.466463e+002
1.095095e+007	-3.660233e+001	-1.797879e+002	-3.024567e+001	-2.525583e+001	-9.946740e+001	8.993502e+001	-3.387818e+001	1.465739e+002
1.095095e+007	-3.660490e+001	-1.797134e+002	-3.024818e+001	-2.528225e+001	-9.823015e+001	7.258385e+001	-3.388000e+001	1.465944e+002
1.095096e+007	-3.661685e+001	-1.797216e+002	-3.024654e+001	-2.528356e+001	-9.611384e+001	8.252614e+001	-3.388134e+001	1.466744e+002
1.095097e+007	-3.660916e+001	-1.796987e+002	-3.024006e+001	-2.529376e+001	-9.480963e+001	8.737422e+001	-3.387588e+001	1.466479e+002
1.095098e+007	-3.659246e+001	-1.797032e+002	-3.024752e+001	-2.531303e+001	-9.534830e+001	1.014715e+002	-3.388160e+001	1.465954e+002
1.095098e+007	-3.661085e+001	-1.796392e+002	-3.024698e+001	-2.534581e+001	-9.675584e+001	8.309673e+001	-3.387781e+001	1.466018e+002
1.095099e+007	-3.660567e+001	-1.797291e+002	-3.023470e+001	-2.536554e+001	-9.679189e+001	9.702075e+001	-3.388666e+001	1.466335e+002
1.095100e+007	-3.660111e+001	-1.797424e+002	-3.023163e+001	-2.537832e+001	-9.685895e+001	9.455221e+001	-3.387989e+001	1.465956e+002
1.095101e+007	-3.659124e+001	-1.797004e+002	-3.024026e+001	-2.548866e+001	-9.858373e+001	9.760635e+001	-3.387480e+001	1.466461e+002
1.095102e+007	-3.661573e+001	-1.796772e+002	-3.024398e+001	-2.551766e+001	-9.615148e+001	9.792713e+001	-3.387039e+001	1.467222e+002
1.095102e+007	-3.661325e+001	-1.797372e+002	-3.023927e+001	-2.555421e+001	-9.635667e+001	8.825044e+001	-3.387406e+001	1.466743e+002
1.095103e+007	-3.662218e+001	-1.797198e+002	-3.026180e+001	-2.553793e+001	-9.611237e+001	1.041789e+002	-3.387602e+001	1.466283e+002
1.095104e+007	-3.660742e+001	-1.796980e+002	-3.025985e+001	-2.554507e+001	-1.005238e+002	1.035909e+002	-3.388136e+001	1.466373e+002
1.095105e+007	-3.660860e+001	-1.797497e+002	-3.027521e+001	-2.552842e+001	-1.017543e+002	8.058134e+001	-3.387833e+001	1.466859e+002
1.095105e+007	-3.662367e+001	-1.796668e+002	-3.027812e+001	-2.544420e+001	-1.013900e+002	9.199373e+001	-3.387372e+001	1.466683e+002
1.095106e+007	-3.659917e+001	-1.797838e+002	-3.027601e+001	-2.538282e+001	-9.759944e+001	1.060438e+002	-3.388705e+001	1.466503e+002
1.095107e+007	-3.659491e+001	-1.797001e+002	-3.027831e+001	-2.525733e+001	-9.740016e+001	9.031392e+001	-3.387372e+001	1.467215e+002
1.095108e+007	-3.660901e+001	-1.796588e+002	-3.026534e+001	-2.516782e+001	-9.799708e+001	1.117450e+002	-3.386938e+001	1.466298e+002
1.095109e+007	-3.659664e+001	-1.798289e+002	-3.024153e+001	-2.513898e+001	-9.947979e+001	9.050045e+001	-3.387836e+001	1.466311e+002
1.095109e+007	-3.659703e+001	-1.796910e+002	-3.020865e+001	-2.519900e+001	-9.568096e+001	9.036282e+001	-3.387923e+001	1.466274e+002
1.095110e+007	-3.660332e+001	-1.798062e+002	-3.020278e+001	-2.539250e+001	-9.936878e+001	1.265548e+002	-3.386589e+001	1.466486e+002
1.095111e+007	-3.660731e+001	-1.798237e+002	-3.020282e+001	-2.553155e+001	-9.649574e+001	1.161126e+002	-3.388931e+001	1.465997e+002
1.095112e+007	-3.659746e+001	-1.799097e+002	-3.023165e+001	-2.562698e+001	-9.564406e+001	1.089679e+002	-3.387331e+001	1.466701e+002
1.095113e+007	-3.660820e+001	-1.797834e+002	-3.026565e+001	-2.543315e+001	-9.481018e+001	9.013052e+001	-3.388407e+001	1.465768e+002
1.095113e+007	-3.661892e+001	-1.797589e+002	-3.026775e+001	-2.526473e+001	-9.753916e+001	7.867199e+001	-3.387813e+001	1.466991e+002
1.095114e+007	-3.660393e+001	-1.798194e+002	-3.023169e+001	-2.515491e+001	-9.884958e+001	8.392934e+001	-3.387858e+001	1.466850e+002
1.095115e+007	-3.661254e+001	-1.799056e+002	-3.019852e+001	-2.523548e+001	-1.007852e+002	1.158974e+002	-3.388392e+001	1.466328e+002
1.095116e+007	-3.659881e+001	-1.798863e+002	-3.019492e+001	-2.551317e+001	-9.689542e+001	7.485105e+001	-3.387892e+001	1.465613e+002
