!CETC41,AV3656A,ZGL00048,1.3.2
!Calibration ON (Full Solt 2-Port(Omit Isolation))
!Measurements: S11 S21 S12 S22
!2025-04-18 00:22
# Hz  S  dB  R 50.000
1.095000e+007	-3.650854e+001	-1.777749e+002	-3.070007e+001	-2.326482e+001	-9.601613e+001	9.091194e+001	-3.435717e+001	1.473528e+002
1.095001e+007	-3.652894e+001	-1.777099e+002	-3.070722e+001	-2.327336e+001	-9.577089e+001	8.195210e+001	-3.434874e+001	1.473549e+002
1.095002e+007	-3.650845e+001	-1.776996e+002	-3.070642e+001	-2.335674e+001	-9.917840e+001	1.233738e+002	-3.435116e+001	1.473977e+002
1.095002e+007	-3.649690e+001	-1.777712e+002	-3.069671e+001	-2.330732e+001	-9.938000e+001	1.115602e+002	-3.435776e+001	1.473557e+002
1.095003e+007	-3.650933e+001	-1.777716e+002	-3.068927e+001	-2.327274e+001	-9.472067e+001	1.153270e+002	-3.435122e+001	1.474383e+002
1.095004e+007	-3.650745e+001	-1.778794e+002	-3.068126e+001	-2.335912e+001	-9.605984e+001	1.089576e+002	-3.435890e+001	1.474913e+002
1.095005e+007	-3.650858e+001	-1.778121e+002	-3.069269e+001	-2.333116e+001	-9.649536e+001	1.003774e+002	-3.434594e+001	1.474509e+002
1.095005e+007	-3.650693e+001	-1.778116e+002	-3.068937e+001	-2.334101e+001	-9.548650e+001	9.510106e+001	-3.434748e+001	1.474501e+002
1.095006e+007	-3.651083e+001	-1.777304e+002	-3.069152e+001	-2.329912e+001	-9.477203e+001	1.009595e+002	-3.435371e+001	1.474418e+002
1.095007e+007	-3.650592e+001	-1.777764e+002	-3.068841e+001	-2.331912e+001	-9.448067e+001	1.030558e+002	-3.434390e+001	1.474097e+002
1.095008e+007	-3.652435e+001	-1.777208e+002	-3.068566e+001	-2.329572e+001	-9.707907e+001	9.037047e+001	-3.435978e+001	1.473872e+002
1.095009e+007	-3.651412e+001	-1.777287e+002	-3.068891e+001	-2.337011e+001	-9.593547e+001	1.072738e+002	-3.434321e+001	1.474479e+002
1.095009e+007	-3.652073e+001	-1.777631e+002	-3.068605e+001	-2.333395e+001	-9.897755e+001	1.140261e+002	-3.435222e+001	1.473083e+002
1.095010e+007	-3.650755e+001	-1.777065e+002	-3.069525e+001	-2.333174e+001	-9.895288e+001	1.218912e+002	-3.434161e+001	1.473381e+002
1.095011e+007	-3.653293e+001	-1.776673e+002	-3.069202e+001	-2.335634e+001	-9.556547e+001	8.603197e+001	-3.436289e+001	1.474499e+002
1.095012e+007	-3.652682e+001	-1.777633e+002	-3.069632e+001	-2.340863e+001	-9.574933e+001	1.216976e+002	-3.435373e+001	1.473935e+002
1.095013e+007	-3.652140e+001	-1.776965e+002	-3.069798e+001	-2.339370e+001	-9.884364e+001	1.113918e+002	-3.435778e+001	1.474122e+002
1.095013e+007	-3.650421e+001	-1.776369e+002	-3.070121e+001	-2.334115e+001	-9.760162e+001	1.176200e+002	-3.435487e+001	1.474352e+002
1.095014e+007	-3.650770e+001	-1.776970e+002	-3.070882e+001	-2.329992e+001	-9.777583e+001	1.051193e+002	-3.435966e+001	1.474957e+002
1.095015e+007	-3.650848e+001	-1.777479e+002	-3.071062e+001	-2.325904e+001	-9.516240e+001	9.541502e+001	-3.436767e+001	1.473820e+002
1.095016e+007	-3.651714e+001	-1.777358e+002	-3.070246e+001	-2.327945e+001	-9.867434e+001	8.706159e+001	-3.436864e+001	1.474221e+002
1.095016e+007	-3.650943e+001	-1.776567e+002	-3.068969e+001	-2.326461e+001	-9.690290e+001	1.130080e+002	-3.435501e+001	1.474197e+002
1.095017e+007	-3.651430e+001	-1.776671e+002	-3.069088e+001	-2.329369e+001	-9.616687e+001	8.916281e+001	-3.435592e+001	1.473020e+002
1.095018e+007	-3.651755e+001	-1.776875e+002	-3.069344e+001	-2.323399e+001	-9.638645e+001	8.598444e+001	-3.436257e+001	1.473555e+002
1.095019e+007	-3.652404e+001	-1.777030e+002	-3.068789e+001	-2.331176e+001	-9.623251e+001	9.051457e+001	-3.436484e+001	1.474435e+002
1.095020e+007	-3.651135e+001	-1.777529e+002	-3.070257e+001	-2.328866e+001	-9.515805e+001	1.025941e+002	-3.435902e+001	1.473763e+002
1.095020e+007	-3.651558e+001	-1.777889e+002	-3.069615e+001	-2.333722e+001	-9.901127e+001	8.856355e+001	-3.435571e+001	1.473739e+002
1.095021e+007	-3.651421e+001	-1.776779e+002	-3.069581e+001	-2.328878e+001	-9.642836e+001	8.671939e+001	-3.436172e+001	1.473964e+002
1.095022e+007	-3.650106e+001	-1.776293e+002	-3.069938e+001	-2.327137e+001	-9.588701e+001	8.015822e+001	-3.435692e+001	1.473989e+002
1.095023e+007	-3.651891e+001	-1.778044e+002	-3.070706e+001	-2.324032e+001	-9.741380e+001	1.187921e+002	-3.435409e+001	1.473938e+002
1.095023e+007	-3.651588e+001	-1.776449e+002	-3.069312e+001	-2.329308e+001	-9.702451e+001	7.656479e+001	-3.434330e+001	1.474201e+002
1.095024e+007	-3.651401e+001	-1.778149e+002	-3.069375e+001	-2.331073e+001	-9.890238e+001	8.702843e+001	-3.437092e+001	1.474186e+002
1.095025e+007	-3.651343e+001	-1.777637e+002	-3.069960e+001	-2.331162e+001	-9.481199e+001	1.028232e+002	-3.435869e+001	1.474014e+002
1.095026e+007	-3.651960e+001	-1.776226e+002	-3.069480e+001	-2.324896e+001	-9.677112e+001	9.009730e+001	-3.435994e+001	1.474629e+002
1.095027e+007	-3.651213e+001	-1.776715e+002	-3.068802e+001	-2.331421e+001	-9.742177e+001	1.017701e+002	-3.435525e+001	1.473657e+002
1.095027e+007	-3.651847e+001	-1.776794e+002	-3.069770e+001	-2.333812e+001	-9.440696e+001	9.870462e+001	-3.436181e+001	1.473927e+002
1.095028e+007	-3.651414e+001	-1.778054e+002	-3.070308e+001	-2.339158e+001	-9.689002e+001	1.043571e+002	-3.435231e+001	1.473967e+002
1.095029e+007	-3.651397e+001	-1.776518e+002	-3.070145e+001	-2.330376e+001	-9.667905e+001	9.672313e+001	-3.435076e+001	1.474374e+002
1.095030e+007	-3.651391e+001	-1.776727e+002	-3.069151e+001	-2.320584e+001	-9.570227e+001	9.407366e+001	-3.434903e+001	1.473781e+002
1.095030e+007	-3.650238e+001	-1.776427e+002	-3.070030e+001	-2.319251e+001	-9.499427e+001	1.084034e+002	-3.434880e+001	1.474440e+002
1.095031e+007	-3.651781e+001	-1.777346e+002	-3.069462e+001	-2.329686e+001	-9.522506e+001	1.068043e+002	-3.435060e+001	1.473555e+002
1.095032e+007	-3.651431e+001	-1.777467e+002	-3.070153e+001	-2.331648e+001	-9.588251e+001	1.152658e+002	-3.436414e+001	1.473981e+002
1.095033e+007	-3.650956e+001	-1.777288e+002	-3.069941e+001	-2.328004e+001	-9.304536e+001	1.036848e+002	-3.436050e+001	1.474567e+002
1.095034e+007	-3.651755e+001	-1.776739e+002	-3.068972e+001	-2.323628e+001	-1.037291e+002	1.249103e+002	-3.434993e+001	1.474581e+002
1.095034e+007	-3.650029e+001	-1.775764e+002	-3.069424e+001	-2.325862e+001	-9.658357e+001	8.120193e+001	-3.435217e+001	1.474079e+002
1.095035e+007	-3.650324e+001	-1.776763e+002	-3.069348e+001	-2.331912e+001	-9.491184e+001	9.861982e+001	-3.435366e+001	1.473602e+002
1.095036e+007	-3.650737e+001	-1.777553e+002	-3.070025e+001	-2.323644e+001	-9.967295e+001	1.105044e+002	-3.434979e+001	1.474432e+002
1.095037e+007	-3.651886e+001	-1.777132e+002	-3.068104e+001	-2.326574e+001	-9.724187e+001	9.734108e+001	-3.437253e+001	1.474109e+002
1.095038e+007	-3.651060e+001	-1.777568e+002	-3.069385e+001	-2.327743e+001	-9.488999e+001	9.217033e+001	-3.436489e+001	1.474524e+002
1.095038e+007	-3.652831e+001	-1.777695e+002	-3.069837e+001	-2.327076e+001	-9.391012e+001	1.092088e+002	-3.434907e+001	1.474467e+002
1.095039e+007	-3.650529e+001	-1.777312e+002	-3.068673e+001	-2.325058e+001	-9.733446e+001	9.616043e+001	-3.434904e+001	1.473732e+002
1.095040e+007	-3.651370e+001	-1.778189e+002	-3.067951e+001	-2.335265e+001	-9.553503e+001	9.947231e+001	-3.435721e+001	1.474181e+002
1.095041e+007	-3.651367e+001	-1.777133e+002	-3.070262e+001	-2.330089e+001	-9.505871e+001	1.045755e+002	-3.436090e+001	1.473693e+002
1.095041e+007	-3.652500e+001	-1.777644e+002	-3.068421e+001	-2.316123e+001	-9.966493e+001	7.082292e+001	-3.433687e+001	1.473583e+002
1.095042e+007	-3.653334e+001	-1.776462e+002	-3.068480e+001	-2.330114e+001	-1.008444e+002	6.506642e+001	-3.435863e+001	1.473754e+002
1.095043e+007	-3.651381e+001	-1.777550e+002	-3.069562e+001	-2.332268e+001	-9.661085e+001	1.035847e+002	-3.435881e+001	1.473963e+002
1.095044e+007	-3.651818e+001	-1.777733e+002	-3.069121e+001	-2.323489e+001	-9.813883e+001	8.707230e+001	-3.435643e+001	1.473663e+002
1.095045e+007	-3.651163e+001	-1.778141e+002	-3.068646e+001	-2.340536e+001	-9.649726e+001	8.336524e+001	-3.435340e+001	1.474230e+002
1.095045e+007	-3.651338e+001	-1.777639e+002	-3.070378e+001	-2.329868e+001	-1.013672e+002	1.282327e+002	-3.435707e+001	1.474018e+002
1.095046e+007	-3.650816e+001	-1.776313e+002	-3.068316e+001	-2.319618e+001	-9.431043e+001	1.107517e+002	-3.434471e+001	1.473263e+002
1.095047e+007	-3.652760e+001	-1.777038e+002	-3.069812e+001	-2.337633e+001	-9.692782e+001	9.983535e+001	-3.436041e+001	1.474361e+002
1.095048e+007	-3.652515e+001	-1.777393e+002	-3.069878e+001	-2.322474e+001	-9.898616e+001	8.452385e+001	-3.435521e+001	1.474153e+002
1.095048e+007	-3.651952e+001	-1.776408e+002	-3.068229e+001	-2.328854e+001	-9.469940e+001	1.051250e+002	-3.437487e+001	1.473857e+002
1.095049e+007	-3.651727e+001	-1.776905e+002	-3.070154e+001	-2.336543e+001	-9.766848e+001	1.083459e+002	-3.436259e+001	1.475175e+002
1.095050e+007	-3.652890e+001	-1.778005e+002	-3.070031e+001	-2.316271e+001	-9.512086e+001	8.777429e+001	-3.434693e+001	1.474104e+002
1.095051e+007	-3.652114e+001	-1.777480e+002	-3.067977e+001	-2.337901e+001	-9.949453e+001	1.250118e+002	-3.435348e+001	1.473375e+002
1.095052e+007	-3.649879e+001	-1.776716e+002	-3.070411e+001	-2.329613e+001	-9.770712e+001	9.823726e+001	-3.435942e+001	1.472994e+002
1.095052e+007	-3.652297e+001	-1.775591e+002	-3.067868e+001	-2.339844e+001	-9.546454e+001	9.533399e+001	-3.436025e+001	1.474247e+002
1.095053e+007	-3.651988e+001	-1.777545e+002	-3.070586e+001	-2.328313e+001	-9.636069e+001	9.673954e+001	-3.434510e+001	1.475310e+002
1.095054e+007	-3.652688e+001	-1.778106e+002	-3.067778e+001	-2.321850e+001	-9.611225e+001	9.661004e+001	-3.435188e+001	1.473386e+002
1.095055e+007	-3.652798e+001	-1.776961e+002	-3.069426e+001	-2.338894e+001	-1.028589e+002	6.400567e+001	-3.434874e+001	1.474383e+002
1.095055e+007	-3.652033e+001	-1.777211e+002	-3.068359e+001	-2.316818e+001	-9.606981e+001	8.059810e+001	-3.435736e+001	1.473731e+002
1.095056e+007	-3.651775e+001	-1.776806e+002	-3.069305e+001	-2.340293e+001	-9.645873e+001	9.561238e+001	-3.435098e+001	1.473284e+002
1.095057e+007	-3.650728e+001	-1.776253e+002	-3.069472e+001	-2.312917e+001	-9.594253e+001	9.903900e+001	-3.435913e+001	1.473859e+002
1.095058e+007	-3.650226e+001	-1.777401e+002	-3.068207e+001	-2.342961e+001	-9.762126e+001	1.049317e+002	-3.434931e+001	1.474490e+002
1.095059e+007	-3.650991e+001	-1.776536e+002	-3.070298e+001	-2.311799e+001	-9.722407e+001	9.129081e+001	-3.435662e+001	1.473355e+002
1.095059e+007	-3.652049e+001	-1.777380e+002	-3.069486e+001	-2.340337e+001	-9.519210e+001	7.870855e+001	-3.435648e+001	1.474435e+002
1.095060e+007	-3.652256e+001	-1.776964e+002	-3.069465e+001	-2.316243e+001	-9.707753e+001	7.963298e+001	-3.435229e+001	1.473669e+002
1.095061e+007	-3.652414e+001	-1.777270e+002	-3.068273e+001	-2.343161e+001	-9.364736e+001	1.043542e+002	-3.435343e+001	1.474266e+002
1.095062e+007	-3.651742e+001	-1.777212e+002	-3.069579e+001	-2.312117e+001	-9.758579e+001	9.503700e+001	-3.436354e+001	1.474338e+002
1.095063e+007	-3.652439e+001	-1.777400e+002	-3.069571e+001	-2.337690e+001	-9.488002e+001	7.736531e+001	-3.434907e+001	1.474383e+002
1.095063e+007	-3.652420e+001	-1.776914e+002	-3.068010e+001	-2.313756e+001	-9.496711e+001	8.986315e+001	-3.436732e+001	1.473544e+002
1.095064e+007	-3.652902e+001	-1.777230e+002	-3.070117e+001	-2.342064e+001	-9.428053e+001	1.065362e+002	-3.434003e+001	1.474260e+002
1.095065e+007	-3.650993e+001	-1.776794e+002	-3.069133e+001	-2.322559e+001	-9.574972e+001	7.990074e+001	-3.436195e+001	1.473666e+002
1.095066e+007	-3.651802e+001	-1.776081e+002	-3.070772e+001	-2.334695e+001	-9.619764e+001	9.950649e+001	-3.434495e+001	1.473903e+002
1.095066e+007	-3.651535e+001	-1.777599e+002	-3.067057e+001	-2.328295e+001	-9.694378e+001	7.996080e+001	-3.436375e+001	1.473736e+002
1.095067e+007	-3.651652e+001	-1.776852e+002	-3.070662e+001	-2.325897e+001	-9.938227e+001	8.049175e+001	-3.434735e+001	1.474066e+002
1.095068e+007	-3.652422e+001	-1.778359e+002	-3.067813e+001	-2.341261e+001	-9.840734e+001	7.963637e+001	-3.434515e+001	1.474007e+002
1.095069e+007	-3.653108e+001	-1.777219e+002	-3.069679e+001	-2.310286e+001	-9.945797e+001	9.731526e+001	-3.435831e+001	1.473836e+002
1.095070e+007	-3.650840e+001	-1.778114e+002	-3.069200e+001	-2.343450e+001	-9.578307e+001	6.851580e+001	-3.435110e+001	1.474903e+002
1.095070e+007	-3.652015e+001	-1.777393e+002	-3.068050e+001	-2.318558e+001	-9.697721e+001	1.030180e+002	-3.436302e+001	1.473872e+002
1.095071e+007	-3.651303e+001	-1.776659e+002	-3.070494e+001	-2.330560e+001	-9.407516e+001	9.280594e+001	-3.435594e+001	1.474243e+002
1.095072e+007	-3.651982e+001	-1.776921e+002	-3.067048e+001	-2.331031e+001	-9.584549e+001	9.847355e+001	-3.435286e+001	1.474059e+002
1.095073e+007	-3.651246e+001	-1.778007e+002	-3.069749e+001	-2.316053e+001	-9.598739e+001	9.637855e+001	-3.435925e+001	1.474194e+002
1.095073e+007	-3.651394e+001	-1.777121e+002	-3.069438e+001	-2.344208e+001	-9.589120e+001	1.070242e+002	-3.435972e+001	1.474399e+002
1.095074e+007	-3.652610e+001	-1.777301e+002	-3.067478e+001	-2.318535e+001	-9.437963e+001	7.967865e+001	-3.435608e+001	1.475030e+002
1.095075e+007	-3.651596e+001	-1.776933e+002	-3.070423e+001	-2.325772e+001	-9.751981e+001	9.258627e+001	-3.435482e+001	1.474450e+002
1.095076e+007	-3.653346e+001	-1.776882e+002	-3.068821e+001	-2.336246e+001	-9.728686e+001	8.777054e+001	-3.434583e+001	1.474178e+002
1.095077e+007	-3.650881e+001	-1.777006e+002	-3.066799e+001	-2.321585e+001	-9.477630e+001	9.577952e+001	-3.436194e+001	1.474751e+002
1.095077e+007	-3.651831e+001	-1.776837e+002	-3.070608e+001	-2.333536e+001	-9.593472e+001	9.312264e+001	-3.435393e+001	1.473580e+002
1.095078e+007	-3.652636e+001	-1.776702e+002	-3.067957e+001	-2.335748e+001	-9.712886e+001	1.375689e+002	-3.436143e+001	1.474718e+002
1.095079e+007	-3.652244e+001	-1.775947e+002	-3.068014e+001	-2.317925e+001	-9.633886e+001	1.152846e+002	-3.436028e+001	1.473770e+002
1.095080e+007	-3.651354e+001	-1.776602e+002	-3.070662e+001	-2.320562e+001	-9.690104e+001	1.063005e+002	-3.435504e+001	1.473950e+002
1.095080e+007	-3.652663e+001	-1.776212e+002	-3.069282e+001	-2.336285e+001	-9.596131e+001	8.576022e+001	-3.435858e+001	1.473980e+002
1.095081e+007	-3.650616e+001	-1.777147e+002	-3.067430e+001	-2.320928e+001	-1.020603e+002	7.436135e+001	-3.435327e+001	1.474236e+002
1.095082e+007	-3.650743e+001	-1.776510e+002	-3.069880e+001	-2.318615e+001	-9.708714e+001	1.125065e+002	-3.435422e+001	1.474416e+002
1.095083e+007	-3.650706e+001	-1.777340e+002	-3.069357e+001	-2.343511e+001	-9.806004e+001	1.066539e+002	-3.436470e+001	1.473882e+002
1.095084e+007	-3.650491e+001	-1.776483e+002	-3.067328e+001	-2.338394e+001	-9.721626e+001	1.164282e+002	-3.434653e+001	1.474138e+002
1.095084e+007	-3.649015e+001	-1.777642e+002	-3.067304e+001	-2.320908e+001	-9.454182e+001	1.104486e+002	-3.436423e+001	1.473935e+002
1.095085e+007	-3.653731e+001	-1.777485e+002	-3.070006e+001	-2.321883e+001	-9.701091e+001	8.592742e+001	-3.435852e+001	1.474170e+002
1.095086e+007	-3.651656e+001	-1.775539e+002	-3.068501e+001	-2.338335e+001	-9.458283e+001	1.074495e+002	-3.435663e+001	1.474440e+002
1.095087e+007	-3.651480e+001	-1.776990e+002	-3.067568e+001	-2.330470e+001	-9.784224e+001	1.057888e+002	-3.435861e+001	1.474194e+002
1.095088e+007	-3.650849e+001	-1.777279e+002	-3.068561e+001	-2.322337e+001	-9.895869e+001	1.137480e+002	-3.436623e+001	1.474835e+002
1.095088e+007	-3.651932e+001	-1.777741e+002	-3.069283e+001	-2.326439e+001	-9.692379e+001	9.225278e+001	-3.435454e+001	1.474558e+002
1.095089e+007	-3.652312e+001	-1.776720e+002	-3.069996e+001	-2.333053e+001	-9.735352e+001	9.412090e+001	-3.435752e+001	1.473061e+002
1.095090e+007	-3.652291e+001	-1.776225e+002	-3.068659e+001	-2.330847e+001	-9.515568e+001	8.464781e+001	-3.435639e+001	1.474735e+002
1.095091e+007	-3.652708e+001	-1.776584e+002	-3.068204e+001	-2.322447e+001	-9.872158e+001	1.150327e+002	-3.435166e+001	1.474085e+002
1.095091e+007	-3.650849e+001	-1.777393e+002	-3.070528e+001	-2.321802e+001	-9.593597e+001	1.073364e+002	-3.436155e+001	1.474566e+002
1.095092e+007	-3.651559e+001	-1.776548e+002	-3.070157e+001	-2.329477e+001	-9.909040e+001	1.102802e+002	-3.435849e+001	1.474789e+002
1.095093e+007	-3.651867e+001	-1.777408e+002	-3.068625e+001	-2.336180e+001	-9.995664e+001	9.452739e+001	-3.434937e+001	1.474183e+002
1.095094e+007	-3.651466e+001	-1.776654e+002	-3.067207e+001	-2.330562e+001	-9.704958e+001	1.118488e+002	-3.434645e+001	1.474427e+002
1.095095e+007	-3.650824e+001	-1.775735e+002	-3.067884e+001	-2.323422e+001	-9.669853e+001	1.167436e+002	-3.435663e+001	1.474037e+002
1.095095e+007	-3.651695e+001	-1.776641e+002	-3.069859e+001	-2.320000e+001	-9.408080e+001	9.162747e+001	-3.435465e+001	1.474309e+002
1.095096e+007	-3.652061e+001	-1.776782e+002	-3.070332e+001	-2.322660e+001	-9.663746e+001	1.287471e+002	-3.435023e+001	1.474829e+002
1.095097e+007	-3.653784e+001	-1.776737e+002	-3.069303e+001	-2.331971e+001	-9.925499e+001	1.033238e+002	-3.436263e+001	1.474780e+002
1.095098e+007	-3.652576e+001	-1.777303e+002	-3.068245e+001	-2.342040e+001	-9.580087e+001	1.012270e+002	-3.435018e+001	1.474490e+002
1.095098e+007	-3.650428e+001	-1.777628e+002	-3.068459e+001	-2.331715e+001	-9.703037e+001	8.310396e+001	-3.435934e+001	1.474216e+002
1.095099e+007	-3.650202e+001	-1.776875e+002	-3.066982e+001	-2.327689e+001	-9.548030e+001	1.010432e+002	-3.436226e+001	1.474669e+002
1.095100e+007	-3.650509e+001	-1.777156e+002	-3.067548e+001	-2.329817e+001	-9.683878e+001	7.763667e+001	-3.436245e+001	1.474716e+002
1.095101e+007	-3.652467e+001	-1.777910e+002	-3.067933e+001	-2.322353e+001	-9.786070e+001	1.109438e+002	-3.435715e+001	1.473455e+002
1.095102e+007	-3.653932e+001	-1.777224e+002	-3.068508e+001	-2.322167e+001	-9.468820e+001	1.124611e+002	-3.435875e+001	1.474070e+002
1.095102e+007	-3.652233e+001	-1.776696e+002	-3.070013e+001	-2.333303e+001	-9.898012e+001	1.090578e+002	-3.435457e+001	1.473807e+002
1.095103e+007	-3.650282e+001	-1.776805e+002	-3.069807e+001	-2.335089e+001	-9.320677e+001	9.605592e+001	-3.436212e+001	1.474811e+002
1.095104e+007	-3.650380e+001	-1.777210e+002	-3.069051e+001	-2.332095e+001	-9.546422e+001	9.316398e+001	-3.435443e+001	1.473562e+002
1.095105e+007	-3.652089e+001	-1.776794e+002	-3.068289e+001	-2.342919e+001	-1.000462e+002	1.045480e+002	-3.436474e+001	1.474732e+002
1.095105e+007	-3.651177e+001	-1.776838e+002	-3.067487e+001	-2.332436e+001	-9.292682e+001	1.036441e+002	-3.435070e+001	1.473980e+002
1.095106e+007	-3.653244e+001	-1.777732e+002	-3.067505e+001	-2.333864e+001	-9.794086e+001	9.346915e+001	-3.436215e+001	1.473303e+002
1.095107e+007	-3.651497e+001	-1.777559e+002	-3.067645e+001	-2.327983e+001	-9.822771e+001	1.127309e+002	-3.433885e+001	1.473840e+002
1.095108e+007	-3.652873e+001	-1.776866e+002	-3.068089e+001	-2.324898e+001	-9.840284e+001	1.123567e+002	-3.434059e+001	1.473615e+002
1.095109e+007	-3.652575e+001	-1.777021e+002	-3.067060e+001	-2.328391e+001	-9.434082e+001	1.013359e+002	-3.436615e+001	1.473063e+002
1.095109e+007	-3.652703e+001	-1.776246e+002	-3.067897e+001	-2.322951e+001	-9.846911e+001	8.227342e+001	-3.434472e+001	1.474016e+002
1.095110e+007	-3.650415e+001	-1.776299e+002	-3.067784e+001	-2.319699e+001	-9.551252e+001	1.096303e+002	-3.435995e+001	1.474236e+002
1.095111e+007	-3.653720e+001	-1.777507e+002	-3.067699e+001	-2.331245e+001	-9.600270e+001	1.077374e+002	-3.436287e+001	1.474466e+002
1.095112e+007	-3.652246e+001	-1.777223e+002	-3.067501e+001	-2.326348e+001	-9.775868e+001	7.475149e+001	-3.435168e+001	1.473778e+002
1.095113e+007	-3.651062e+001	-1.777157e+002	-3.067693e+001	-2.327698e+001	-9.799358e+001	1.049342e+002	-3.435834e+001	1.472907e+002
1.095113e+007	-3.652647e+001	-1.776353e+002	-3.067906e+001	-2.327646e+001	-9.526191e+001	1.087083e+002	-3.434417e+001	1.474344e+002
1.095114e+007	-3.653345e+001	-1.777006e+002	-3.068337e+001	-2.321158e+001	-9.498281e+001	1.039943e+002	-3.434846e+001	1.474547e+002
1.095115e+007	-3.650468e+001	-1.776148e+002	-3.067425e+001	-2.326547e+001	-9.848981e+001	9.593245e+001	-3.435820e+001	1.473982e+002
1.095116e+007	-3.652248e+001	-1.776854e+002	-3.068453e+001	-2.327933e+001	-9.596109e+001	9.484742e+001	-3.436103e+001	1.473435e+002
