!CETC41,AV3656A,ZGL00048,1.3.2
!Calibration ON (Full Solt 2-Port(Omit Isolation))
!Measurements: S11 S21 S12 S22
!2025-07-09 22:16
# Hz  S  dB  R 50.000
6.150000e+006	-4.427050e+001	-9.174615e+001	-3.083904e+001	-1.316913e+001	-9.069531e+001	6.973028e+000	-4.899885e+001	3.819115e+001
6.150039e+006	-4.423816e+001	-9.179008e+001	-3.083099e+001	-1.313794e+001	-9.249925e+001	9.094008e+001	-4.904642e+001	3.816753e+001
6.150078e+006	-4.422371e+001	-9.167541e+001	-3.083779e+001	-1.308974e+001	-1.038129e+002	-7.360305e+001	-4.893463e+001	3.896545e+001
6.150117e+006	-4.422184e+001	-9.133151e+001	-3.083550e+001	-1.309865e+001	-9.326327e+001	1.157036e+002	-4.912656e+001	3.885407e+001
6.150156e+006	-4.423417e+001	-9.157382e+001	-3.084081e+001	-1.315694e+001	-9.768420e+001	2.814792e+001	-4.904019e+001	3.892891e+001
6.150195e+006	-4.422773e+001	-9.175016e+001	-3.084322e+001	-1.319662e+001	-9.512379e+001	1.546830e+002	-4.898688e+001	3.872186e+001
6.150234e+006	-4.425281e+001	-9.172298e+001	-3.083787e+001	-1.316304e+001	-9.420527e+001	3.639662e+001	-4.899915e+001	3.841493e+001
6.150273e+006	-4.423005e+001	-9.136332e+001	-3.083011e+001	-1.321383e+001	-1.006524e+002	8.944080e+000	-4.901169e+001	3.905592e+001
6.150313e+006	-4.424649e+001	-9.129090e+001	-3.083237e+001	-1.314326e+001	-9.190948e+001	1.076650e+002	-4.917906e+001	3.934581e+001
6.150352e+006	-4.426276e+001	-9.157831e+001	-3.083567e+001	-1.314508e+001	-9.370824e+001	-1.721987e+002	-4.902270e+001	3.867418e+001
6.150391e+006	-4.420672e+001	-9.152377e+001	-3.082799e+001	-1.310034e+001	-9.034764e+001	-6.023113e+001	-4.899197e+001	3.858837e+001
6.150430e+006	-4.421416e+001	-9.178405e+001	-3.083232e+001	-1.316166e+001	-9.359387e+001	2.150451e+000	-4.902931e+001	3.862986e+001
6.150469e+006	-4.421565e+001	-9.152986e+001	-3.082941e+001	-1.309808e+001	-9.208752e+001	-8.877429e+000	-4.908601e+001	3.881823e+001
6.150508e+006	-4.420359e+001	-9.154589e+001	-3.082431e+001	-1.317935e+001	-9.721853e+001	-7.379763e+001	-4.906217e+001	3.858156e+001
6.150547e+006	-4.424193e+001	-9.168693e+001	-3.083268e+001	-1.312084e+001	-9.036227e+001	8.601045e+001	-4.907218e+001	3.914125e+001
6.150586e+006	-4.426361e+001	-9.145539e+001	-3.083871e+001	-1.316105e+001	-9.600742e+001	6.229331e+001	-4.890849e+001	3.938288e+001
6.150625e+006	-4.425996e+001	-9.163041e+001	-3.082626e+001	-1.311872e+001	-9.412027e+001	4.504898e+001	-4.896224e+001	3.852207e+001
6.150664e+006	-4.419879e+001	-9.168707e+001	-3.082369e+001	-1.313670e+001	-9.974144e+001	3.789424e+001	-4.897811e+001	3.831657e+001
6.150703e+006	-4.423183e+001	-9.134928e+001	-3.083376e+001	-1.311426e+001	-1.069337e+002	-1.190213e+002	-4.901626e+001	3.894451e+001
6.150742e+006	-4.422916e+001	-9.161490e+001	-3.082803e+001	-1.317788e+001	-9.586888e+001	1.043900e+002	-4.897354e+001	3.849225e+001
6.150781e+006	-4.420946e+001	-9.144701e+001	-3.082580e+001	-1.316194e+001	-8.949599e+001	8.176478e+001	-4.898090e+001	3.869724e+001
6.150820e+006	-4.420767e+001	-9.152263e+001	-3.083350e+001	-1.317604e+001	-1.005388e+002	2.494126e+000	-4.895376e+001	3.846024e+001
6.150859e+006	-4.422752e+001	-9.180951e+001	-3.083421e+001	-1.310606e+001	-9.672745e+001	1.202830e+002	-4.901981e+001	3.895161e+001
6.150898e+006	-4.423780e+001	-9.187364e+001	-3.083607e+001	-1.311185e+001	-9.424924e+001	-5.698981e+001	-4.907429e+001	3.837592e+001
6.150938e+006	-4.424949e+001	-9.172245e+001	-3.083625e+001	-1.311800e+001	-9.725604e+001	-3.595143e+001	-4.905731e+001	3.896936e+001
6.150977e+006	-4.427325e+001	-9.164743e+001	-3.082732e+001	-1.304640e+001	-9.304529e+001	-2.601259e+001	-4.900773e+001	3.816938e+001
6.151016e+006	-4.425036e+001	-9.165680e+001	-3.083135e+001	-1.316328e+001	-1.045341e+002	-9.625670e+001	-4.902015e+001	3.922002e+001
6.151055e+006	-4.422491e+001	-9.155407e+001	-3.083989e+001	-1.316136e+001	-9.116974e+001	3.542487e+001	-4.899096e+001	3.858856e+001
6.151094e+006	-4.425607e+001	-9.172925e+001	-3.083987e+001	-1.308441e+001	-9.441128e+001	8.632701e+001	-4.900889e+001	3.838147e+001
6.151133e+006	-4.428987e+001	-9.164344e+001	-3.082708e+001	-1.317953e+001	-8.898679e+001	1.106565e+002	-4.895227e+001	3.913803e+001
6.151172e+006	-4.424904e+001	-9.200070e+001	-3.082839e+001	-1.313813e+001	-9.240484e+001	-1.477641e+002	-4.906803e+001	3.895027e+001
6.151211e+006	-4.427536e+001	-9.173038e+001	-3.082818e+001	-1.313508e+001	-9.530705e+001	1.034315e+002	-4.903859e+001	3.898958e+001
6.151250e+006	-4.423112e+001	-9.168483e+001	-3.082199e+001	-1.309218e+001	-9.183158e+001	1.608968e+002	-4.890037e+001	3.877955e+001
6.151289e+006	-4.422787e+001	-9.142123e+001	-3.083857e+001	-1.316015e+001	-9.127142e+001	1.374689e+002	-4.904755e+001	3.874550e+001
6.151328e+006	-4.417013e+001	-9.160217e+001	-3.082587e+001	-1.314816e+001	-9.570853e+001	-8.164255e+001	-4.897569e+001	3.875039e+001
6.151367e+006	-4.423791e+001	-9.155767e+001	-3.083787e+001	-1.313037e+001	-9.351427e+001	4.371550e+001	-4.905015e+001	3.882229e+001
6.151406e+006	-4.427740e+001	-9.158108e+001	-3.083252e+001	-1.307571e+001	-9.076859e+001	-1.715012e+002	-4.899998e+001	3.906582e+001
6.151445e+006	-4.423880e+001	-9.175411e+001	-3.083657e+001	-1.313885e+001	-8.547036e+001	1.105028e+002	-4.896206e+001	3.886682e+001
6.151484e+006	-4.423712e+001	-9.166424e+001	-3.083607e+001	-1.314130e+001	-8.763978e+001	1.424821e+002	-4.902018e+001	3.846015e+001
6.151523e+006	-4.424397e+001	-9.142196e+001	-3.084084e+001	-1.309105e+001	-9.095191e+001	8.686352e+001	-4.898316e+001	3.885105e+001
6.151563e+006	-4.425283e+001	-9.152753e+001	-3.083051e+001	-1.316124e+001	-8.880749e+001	-1.586061e+002	-4.898408e+001	3.853185e+001
6.151602e+006	-4.420056e+001	-9.165640e+001	-3.082360e+001	-1.316204e+001	-1.074136e+002	-1.380496e+002	-4.896316e+001	3.863221e+001
6.151641e+006	-4.424309e+001	-9.181162e+001	-3.083353e+001	-1.314326e+001	-9.411956e+001	6.836229e+001	-4.905303e+001	3.913267e+001
6.151680e+006	-4.426781e+001	-9.155135e+001	-3.083836e+001	-1.310367e+001	-9.477932e+001	3.043423e+001	-4.901416e+001	3.877037e+001
6.151719e+006	-4.427262e+001	-9.146416e+001	-3.082980e+001	-1.310207e+001	-9.964367e+001	-9.022701e+000	-4.901747e+001	3.851402e+001
6.151758e+006	-4.424645e+001	-9.158843e+001	-3.083067e+001	-1.312604e+001	-9.305446e+001	8.859262e+001	-4.899886e+001	3.841355e+001
6.151797e+006	-4.421260e+001	-9.168117e+001	-3.082451e+001	-1.319416e+001	-9.840303e+001	7.052662e+001	-4.903842e+001	3.861785e+001
6.151836e+006	-4.427077e+001	-9.144708e+001	-3.082791e+001	-1.312331e+001	-9.353109e+001	-2.907853e+001	-4.905868e+001	3.885162e+001
6.151875e+006	-4.429242e+001	-9.153235e+001	-3.083370e+001	-1.315827e+001	-9.429223e+001	-1.417676e+002	-4.893536e+001	3.869196e+001
6.151914e+006	-4.427471e+001	-9.176093e+001	-3.082566e+001	-1.303816e+001	-9.327923e+001	6.330198e+001	-4.902648e+001	3.854670e+001
6.151953e+006	-4.422747e+001	-9.139707e+001	-3.083330e+001	-1.322178e+001	-9.493391e+001	8.306985e+000	-4.901390e+001	3.819985e+001
6.151992e+006	-4.421105e+001	-9.146653e+001	-3.083330e+001	-1.310871e+001	-9.142025e+001	4.442477e+000	-4.896168e+001	3.929858e+001
6.152031e+006	-4.424136e+001	-9.155007e+001	-3.083896e+001	-1.320633e+001	-8.916554e+001	2.254503e+001	-4.912890e+001	3.854878e+001
6.152070e+006	-4.425275e+001	-9.137496e+001	-3.082371e+001	-1.310601e+001	-9.138292e+001	1.218831e+002	-4.908463e+001	3.892735e+001
6.152109e+006	-4.427150e+001	-9.185831e+001	-3.082276e+001	-1.316803e+001	-1.067572e+002	5.565925e+001	-4.893241e+001	3.910229e+001
6.152148e+006	-4.423719e+001	-9.148230e+001	-3.083605e+001	-1.312514e+001	-9.200707e+001	9.089078e+001	-4.893702e+001	3.943881e+001
6.152188e+006	-4.422997e+001	-9.153784e+001	-3.083707e+001	-1.314260e+001	-9.184856e+001	-8.963028e+001	-4.895025e+001	3.911737e+001
6.152227e+006	-4.425577e+001	-9.157354e+001	-3.082538e+001	-1.315210e+001	-9.827209e+001	-6.244736e+001	-4.900156e+001	3.906783e+001
6.152266e+006	-4.422818e+001	-9.168389e+001	-3.083007e+001	-1.312748e+001	-8.716846e+001	5.872981e+001	-4.897249e+001	3.864166e+001
6.152305e+006	-4.423411e+001	-9.139647e+001	-3.083626e+001	-1.306507e+001	-9.958964e+001	-1.730070e+002	-4.902680e+001	3.863414e+001
6.152344e+006	-4.423934e+001	-9.154890e+001	-3.082957e+001	-1.315258e+001	-9.979656e+001	1.540996e+002	-4.893516e+001	3.839758e+001
6.152383e+006	-4.425682e+001	-9.157154e+001	-3.083054e+001	-1.310057e+001	-9.142554e+001	-8.582895e+001	-4.898868e+001	3.824554e+001
6.152422e+006	-4.423836e+001	-9.167361e+001	-3.084190e+001	-1.314569e+001	-9.796691e+001	-1.783707e+002	-4.893497e+001	3.865375e+001
6.152461e+006	-4.423433e+001	-9.135982e+001	-3.082499e+001	-1.316611e+001	-1.005795e+002	3.343832e+001	-4.900197e+001	3.802655e+001
6.152500e+006	-4.420360e+001	-9.162729e+001	-3.082471e+001	-1.316574e+001	-1.140281e+002	5.112868e+000	-4.895506e+001	3.902306e+001
6.152539e+006	-4.424299e+001	-9.146913e+001	-3.083055e+001	-1.306519e+001	-9.611102e+001	1.753607e+002	-4.901754e+001	3.832071e+001
6.152578e+006	-4.427592e+001	-9.152082e+001	-3.082508e+001	-1.314906e+001	-9.652844e+001	-1.730296e+002	-4.897243e+001	3.867320e+001
6.152617e+006	-4.423659e+001	-9.118981e+001	-3.083795e+001	-1.313145e+001	-8.701973e+001	1.204333e+002	-4.901073e+001	3.842801e+001
6.152656e+006	-4.427787e+001	-9.175345e+001	-3.082631e+001	-1.316484e+001	-9.756795e+001	1.301682e+002	-4.897410e+001	3.894074e+001
6.152695e+006	-4.422354e+001	-9.170085e+001	-3.082751e+001	-1.314118e+001	-9.001989e+001	3.750638e+001	-4.910910e+001	3.883714e+001
6.152734e+006	-4.424126e+001	-9.145609e+001	-3.082026e+001	-1.317267e+001	-9.525526e+001	8.886836e+001	-4.895653e+001	3.836671e+001
6.152773e+006	-4.421795e+001	-9.172981e+001	-3.083700e+001	-1.307219e+001	-9.713277e+001	1.588287e+002	-4.898865e+001	3.917317e+001
6.152813e+006	-4.421489e+001	-9.162162e+001	-3.082670e+001	-1.316779e+001	-8.626151e+001	-6.438030e+001	-4.899242e+001	3.890002e+001
6.152852e+006	-4.423790e+001	-9.151091e+001	-3.082377e+001	-1.321227e+001	-9.033212e+001	8.354077e+001	-4.897035e+001	3.846746e+001
6.152891e+006	-4.423076e+001	-9.162090e+001	-3.082683e+001	-1.316668e+001	-9.574408e+001	3.032445e+001	-4.906182e+001	3.928837e+001
6.152930e+006	-4.422377e+001	-9.176228e+001	-3.083059e+001	-1.316457e+001	-9.478331e+001	1.755356e+002	-4.902194e+001	3.848144e+001
6.152969e+006	-4.422044e+001	-9.178860e+001	-3.082716e+001	-1.312998e+001	-8.897054e+001	1.112098e+002	-4.902552e+001	3.856112e+001
6.153008e+006	-4.424352e+001	-9.181617e+001	-3.082761e+001	-1.320008e+001	-9.049002e+001	8.559692e+001	-4.894161e+001	3.854963e+001
6.153047e+006	-4.425852e+001	-9.139803e+001	-3.082606e+001	-1.312541e+001	-1.002828e+002	-8.618184e+001	-4.901860e+001	3.896405e+001
6.153086e+006	-4.423798e+001	-9.139778e+001	-3.083175e+001	-1.316328e+001	-9.484813e+001	1.340120e+002	-4.898302e+001	3.863042e+001
6.153125e+006	-4.428462e+001	-9.161275e+001	-3.082548e+001	-1.315690e+001	-9.809028e+001	6.203116e+000	-4.906763e+001	3.888730e+001
6.153164e+006	-4.421491e+001	-9.158953e+001	-3.082461e+001	-1.307871e+001	-8.894500e+001	-1.397338e+002	-4.894537e+001	3.918824e+001
6.153203e+006	-4.423412e+001	-9.161574e+001	-3.082482e+001	-1.313533e+001	-8.894878e+001	1.482023e+002	-4.897535e+001	3.839460e+001
6.153242e+006	-4.425635e+001	-9.149615e+001	-3.082777e+001	-1.317401e+001	-9.352614e+001	-1.094082e+001	-4.904030e+001	3.930194e+001
6.153281e+006	-4.421983e+001	-9.146387e+001	-3.082416e+001	-1.320144e+001	-1.038378e+002	-7.328736e+001	-4.898879e+001	3.909494e+001
6.153320e+006	-4.425190e+001	-9.182582e+001	-3.082724e+001	-1.313160e+001	-9.140055e+001	4.753426e+001	-4.897004e+001	3.849131e+001
6.153359e+006	-4.426944e+001	-9.151603e+001	-3.082591e+001	-1.307853e+001	-9.109747e+001	1.474785e+002	-4.902341e+001	3.886756e+001
6.153398e+006	-4.426914e+001	-9.181690e+001	-3.082001e+001	-1.314951e+001	-9.405874e+001	1.079858e+002	-4.904981e+001	3.855249e+001
6.153438e+006	-4.424353e+001	-9.172120e+001	-3.082423e+001	-1.309487e+001	-8.936223e+001	8.817001e+001	-4.900123e+001	3.865881e+001
6.153477e+006	-4.427142e+001	-9.143961e+001	-3.083156e+001	-1.310970e+001	-1.009523e+002	1.218245e+001	-4.904558e+001	3.851973e+001
6.153516e+006	-4.421252e+001	-9.162157e+001	-3.082631e+001	-1.313006e+001	-9.045503e+001	9.533009e+001	-4.890820e+001	3.832501e+001
6.153555e+006	-4.422595e+001	-9.159951e+001	-3.082757e+001	-1.310618e+001	-9.269822e+001	1.265831e+002	-4.899008e+001	3.902112e+001
6.153594e+006	-4.423170e+001	-9.169140e+001	-3.082258e+001	-1.313084e+001	-9.338170e+001	1.695794e+002	-4.894788e+001	3.858492e+001
6.153633e+006	-4.426106e+001	-9.166120e+001	-3.082545e+001	-1.310801e+001	-8.765381e+001	1.684162e+002	-4.898807e+001	3.902467e+001
6.153672e+006	-4.425466e+001	-9.142171e+001	-3.082383e+001	-1.313812e+001	-9.060196e+001	1.302403e+002	-4.894389e+001	3.881228e+001
6.153711e+006	-4.423738e+001	-9.165564e+001	-3.082541e+001	-1.306374e+001	-9.593520e+001	1.790591e+002	-4.894111e+001	3.837359e+001
6.153750e+006	-4.427475e+001	-9.156220e+001	-3.082447e+001	-1.314720e+001	-9.693868e+001	-1.706213e+002	-4.902366e+001	3.894134e+001
6.153789e+006	-4.428226e+001	-9.171342e+001	-3.082488e+001	-1.319776e+001	-8.887106e+001	1.229218e+002	-4.901363e+001	3.895012e+001
6.153828e+006	-4.424005e+001	-9.159079e+001	-3.081751e+001	-1.309637e+001	-9.120130e+001	1.033041e+002	-4.909684e+001	3.931036e+001
6.153867e+006	-4.423058e+001	-9.157204e+001	-3.082912e+001	-1.313623e+001	-9.458809e+001	-1.334077e+002	-4.904340e+001	3.898269e+001
6.153906e+006	-4.424131e+001	-9.155289e+001	-3.083072e+001	-1.311292e+001	-9.119362e+001	1.301871e+002	-4.895071e+001	3.871294e+001
6.153945e+006	-4.423979e+001	-9.166037e+001	-3.081625e+001	-1.310310e+001	-8.924361e+001	-1.539176e+002	-4.897166e+001	3.902322e+001
6.153984e+006	-4.425276e+001	-9.203536e+001	-3.082089e+001	-1.316692e+001	-9.055425e+001	1.301338e+002	-4.903259e+001	3.935473e+001
6.154023e+006	-4.421817e+001	-9.149826e+001	-3.081086e+001	-1.320812e+001	-8.837426e+001	6.179147e+001	-4.903711e+001	3.821228e+001
6.154063e+006	-4.422404e+001	-9.153745e+001	-3.081982e+001	-1.320863e+001	-9.405690e+001	1.160671e+002	-4.901557e+001	3.901983e+001
6.154102e+006	-4.424250e+001	-9.181356e+001	-3.082333e+001	-1.322529e+001	-9.675593e+001	3.565303e+001	-4.896271e+001	3.868886e+001
6.154141e+006	-4.426961e+001	-9.141022e+001	-3.083079e+001	-1.320815e+001	-9.103224e+001	-7.532244e+000	-4.899876e+001	3.851172e+001
6.154180e+006	-4.427824e+001	-9.154885e+001	-3.084244e+001	-1.307549e+001	-9.858430e+001	-1.301198e+002	-4.910635e+001	3.902172e+001
6.154219e+006	-4.420022e+001	-9.174542e+001	-3.083891e+001	-1.314287e+001	-9.525305e+001	1.118242e+002	-4.902867e+001	3.924007e+001
6.154258e+006	-4.420505e+001	-9.147267e+001	-3.082934e+001	-1.314839e+001	-8.827863e+001	9.173088e+001	-4.901372e+001	3.904529e+001
6.154297e+006	-4.424801e+001	-9.148208e+001	-3.082826e+001	-1.316293e+001	-1.027914e+002	1.757395e+002	-4.907095e+001	3.876354e+001
6.154336e+006	-4.424653e+001	-9.161110e+001	-3.082582e+001	-1.313903e+001	-9.084481e+001	1.553774e+002	-4.898163e+001	3.887341e+001
6.154375e+006	-4.426162e+001	-9.135955e+001	-3.083481e+001	-1.309094e+001	-8.851648e+001	5.551184e+000	-4.902204e+001	3.898910e+001
6.154414e+006	-4.424724e+001	-9.163024e+001	-3.082669e+001	-1.315222e+001	-9.208175e+001	-2.393261e+001	-4.896501e+001	3.850366e+001
6.154453e+006	-4.424234e+001	-9.164460e+001	-3.083392e+001	-1.313593e+001	-9.783345e+001	-3.513546e+001	-4.894923e+001	3.893164e+001
6.154492e+006	-4.422495e+001	-9.155527e+001	-3.081408e+001	-1.313408e+001	-9.482264e+001	9.668596e+001	-4.908070e+001	3.928913e+001
6.154531e+006	-4.420090e+001	-9.165535e+001	-3.083287e+001	-1.316471e+001	-9.684010e+001	-6.342660e+001	-4.901644e+001	3.885157e+001
6.154570e+006	-4.421040e+001	-9.172363e+001	-3.082387e+001	-1.313588e+001	-9.824463e+001	-1.727140e+002	-4.895686e+001	3.890796e+001
6.154609e+006	-4.427983e+001	-9.147073e+001	-3.083023e+001	-1.317662e+001	-9.191126e+001	6.646451e+001	-4.892390e+001	3.894084e+001
6.154648e+006	-4.424557e+001	-9.146137e+001	-3.083093e+001	-1.314498e+001	-9.620719e+001	1.289158e+002	-4.895365e+001	3.829378e+001
6.154688e+006	-4.420870e+001	-9.171519e+001	-3.082730e+001	-1.316621e+001	-8.866627e+001	7.940997e+001	-4.893301e+001	3.850949e+001
6.154727e+006	-4.423166e+001	-9.136335e+001	-3.082892e+001	-1.316618e+001	-9.970636e+001	1.726959e+002	-4.895165e+001	3.898981e+001
6.154766e+006	-4.425459e+001	-9.161571e+001	-3.081696e+001	-1.312149e+001	-9.571194e+001	1.257063e+002	-4.908442e+001	3.865281e+001
6.154805e+006	-4.426800e+001	-9.145204e+001	-3.082409e+001	-1.306313e+001	-9.412091e+001	-1.735988e+001	-4.909379e+001	3.861513e+001
6.154844e+006	-4.426229e+001	-9.159866e+001	-3.082574e+001	-1.315381e+001	-1.033557e+002	8.056842e+001	-4.896722e+001	3.903234e+001
6.154883e+006	-4.422660e+001	-9.180158e+001	-3.082673e+001	-1.315948e+001	-9.276308e+001	1.604677e+002	-4.904213e+001	3.858241e+001
6.154922e+006	-4.421488e+001	-9.175100e+001	-3.083326e+001	-1.313013e+001	-8.893081e+001	1.584416e+002	-4.901669e+001	3.889060e+001
6.154961e+006	-4.425650e+001	-9.152719e+001	-3.082616e+001	-1.314897e+001	-9.070942e+001	-1.507330e+000	-4.894086e+001	3.888413e+001
6.155000e+006	-4.423774e+001	-9.160688e+001	-3.082762e+001	-1.307705e+001	-8.849402e+001	-5.438749e+001	-4.900036e+001	3.878148e+001
6.155039e+006	-4.422616e+001	-9.146680e+001	-3.083097e+001	-1.316443e+001	-8.870499e+001	2.907663e+001	-4.907399e+001	3.846157e+001
6.155078e+006	-4.422341e+001	-9.155894e+001	-3.082809e+001	-1.309036e+001	-9.653100e+001	1.206202e+002	-4.894501e+001	3.850661e+001
6.155117e+006	-4.422635e+001	-9.154181e+001	-3.082511e+001	-1.316696e+001	-1.010190e+002	7.857318e+001	-4.900972e+001	3.886177e+001
6.155156e+006	-4.421137e+001	-9.114893e+001	-3.082683e+001	-1.309246e+001	-9.220590e+001	-1.472705e+002	-4.894427e+001	3.885322e+001
6.155195e+006	-4.423231e+001	-9.164740e+001	-3.082190e+001	-1.314889e+001	-8.974969e+001	-4.823557e+000	-4.900627e+001	3.914021e+001
6.155234e+006	-4.428011e+001	-9.176235e+001	-3.082955e+001	-1.316191e+001	-1.068757e+002	-3.341160e+001	-4.906860e+001	3.933707e+001
6.155273e+006	-4.424819e+001	-9.169297e+001	-3.084268e+001	-1.313811e+001	-9.528204e+001	1.448164e+002	-4.902659e+001	3.929718e+001
6.155313e+006	-4.421789e+001	-9.157916e+001	-3.082280e+001	-1.313514e+001	-1.014663e+002	1.014308e+002	-4.905020e+001	3.941578e+001
6.155352e+006	-4.428393e+001	-9.173752e+001	-3.081688e+001	-1.315221e+001	-9.159714e+001	8.155864e+001	-4.896219e+001	3.871924e+001
6.155391e+006	-4.420944e+001	-9.153553e+001	-3.081601e+001	-1.317867e+001	-9.340191e+001	-5.722499e+001	-4.896746e+001	3.876013e+001
6.155430e+006	-4.423541e+001	-9.186089e+001	-3.081951e+001	-1.317088e+001	-9.253351e+001	5.375125e+001	-4.890857e+001	3.924031e+001
6.155469e+006	-4.422040e+001	-9.162002e+001	-3.082315e+001	-1.315370e+001	-9.523006e+001	-4.912310e+001	-4.899508e+001	3.894103e+001
6.155508e+006	-4.425832e+001	-9.139399e+001	-3.082754e+001	-1.318032e+001	-9.846622e+001	-8.406256e+001	-4.898194e+001	3.934485e+001
6.155547e+006	-4.420603e+001	-9.121957e+001	-3.083871e+001	-1.311931e+001	-9.237095e+001	7.700362e+001	-4.900056e+001	3.858322e+001
6.155586e+006	-4.422238e+001	-9.146808e+001	-3.082757e+001	-1.310756e+001	-9.248359e+001	1.404591e+002	-4.903274e+001	3.819295e+001
6.155625e+006	-4.422113e+001	-9.188304e+001	-3.082923e+001	-1.314036e+001	-8.940200e+001	1.041742e+002	-4.893672e+001	3.920880e+001
6.155664e+006	-4.425090e+001	-9.157749e+001	-3.083163e+001	-1.310838e+001	-8.855253e+001	4.994842e+001	-4.901181e+001	3.872344e+001
6.155703e+006	-4.425777e+001	-9.152876e+001	-3.082341e+001	-1.316397e+001	-9.077892e+001	-1.670906e+002	-4.899665e+001	3.881944e+001
6.155742e+006	-4.425095e+001	-9.132368e+001	-3.082125e+001	-1.312021e+001	-9.346489e+001	-1.734365e+002	-4.897063e+001	3.832933e+001
