!CETC41,AV3656A,ZGL00048,1.3.2
!Calibration ON (Full Solt 2-Port(Omit Isolation))
!Measurements: S11 S21 S12 S22
!2025-07-09 22:31
# Hz  S  dB  R 50.000
6.150000e+006	-4.429699e+001	-9.046513e+001	-3.082805e+001	-1.328547e+001	-9.826029e+001	8.293750e+001	-5.140582e+001	5.900895e+001
6.150039e+006	-4.430256e+001	-9.079274e+001	-3.082128e+001	-1.334702e+001	-9.237429e+001	7.641672e+001	-5.146324e+001	5.774788e+001
6.150078e+006	-4.428535e+001	-9.047910e+001	-3.082211e+001	-1.330339e+001	-1.008820e+002	-1.442054e+002	-5.135739e+001	5.876206e+001
6.150117e+006	-4.425994e+001	-9.075316e+001	-3.081980e+001	-1.338267e+001	-1.073402e+002	-1.047940e+002	-5.144293e+001	5.823773e+001
6.150156e+006	-4.433424e+001	-9.066888e+001	-3.081729e+001	-1.331049e+001	-9.998089e+001	1.104433e+002	-5.129545e+001	5.838994e+001
6.150195e+006	-4.429582e+001	-9.058883e+001	-3.081870e+001	-1.329775e+001	-9.824663e+001	1.181454e+001	-5.138549e+001	5.848549e+001
6.150234e+006	-4.431486e+001	-9.056579e+001	-3.081530e+001	-1.328235e+001	-9.884669e+001	2.439587e+001	-5.142012e+001	5.926962e+001
6.150273e+006	-4.431475e+001	-9.069416e+001	-3.081939e+001	-1.335457e+001	-9.165732e+001	3.388414e+001	-5.138671e+001	5.854813e+001
6.150313e+006	-4.432576e+001	-9.055168e+001	-3.082514e+001	-1.332272e+001	-1.047017e+002	8.412332e+001	-5.136255e+001	5.845774e+001
6.150352e+006	-4.435174e+001	-9.050503e+001	-3.080852e+001	-1.328530e+001	-9.473084e+001	3.202489e+001	-5.139208e+001	5.876655e+001
6.150391e+006	-4.430970e+001	-9.077242e+001	-3.081883e+001	-1.327364e+001	-1.016752e+002	3.271491e+001	-5.146782e+001	5.888150e+001
6.150430e+006	-4.428479e+001	-9.056823e+001	-3.081784e+001	-1.329811e+001	-9.029777e+001	1.751714e+002	-5.138815e+001	5.832663e+001
6.150469e+006	-4.431497e+001	-9.069339e+001	-3.082120e+001	-1.336023e+001	-9.003514e+001	-1.540178e+002	-5.139798e+001	5.912712e+001
6.150508e+006	-4.429322e+001	-9.073851e+001	-3.082090e+001	-1.335529e+001	-9.710606e+001	4.948060e+001	-5.133623e+001	5.868820e+001
6.150547e+006	-4.430027e+001	-9.072001e+001	-3.081880e+001	-1.325296e+001	-9.297726e+001	5.074071e+001	-5.133128e+001	5.883840e+001
6.150586e+006	-4.432764e+001	-9.069760e+001	-3.080814e+001	-1.334622e+001	-1.021087e+002	1.254285e+002	-5.129974e+001	5.879596e+001
6.150625e+006	-4.430538e+001	-9.039113e+001	-3.081717e+001	-1.336021e+001	-9.322708e+001	1.659348e+002	-5.136984e+001	5.861496e+001
6.150664e+006	-4.433587e+001	-9.058568e+001	-3.082244e+001	-1.333224e+001	-9.496679e+001	1.751336e+002	-5.138591e+001	5.851792e+001
6.150703e+006	-4.432373e+001	-9.028803e+001	-3.081812e+001	-1.335031e+001	-9.733403e+001	-1.192963e+002	-5.128279e+001	5.923852e+001
6.150742e+006	-4.432739e+001	-9.051743e+001	-3.082230e+001	-1.336533e+001	-9.489266e+001	1.712383e+002	-5.144885e+001	5.850567e+001
6.150781e+006	-4.428696e+001	-9.053552e+001	-3.081543e+001	-1.332477e+001	-9.522604e+001	3.477180e+001	-5.134661e+001	5.839400e+001
6.150820e+006	-4.430579e+001	-9.074377e+001	-3.080618e+001	-1.331911e+001	-9.414959e+001	-5.046909e+001	-5.138449e+001	5.890948e+001
6.150859e+006	-4.430696e+001	-9.053576e+001	-3.081693e+001	-1.333109e+001	-9.693256e+001	-7.383466e+001	-5.136772e+001	5.849896e+001
6.150898e+006	-4.432801e+001	-9.065849e+001	-3.082425e+001	-1.334895e+001	-9.140530e+001	1.053397e+002	-5.132946e+001	5.893405e+001
6.150938e+006	-4.431904e+001	-9.045839e+001	-3.081929e+001	-1.330400e+001	-9.132372e+001	6.099461e+001	-5.130661e+001	5.799751e+001
6.150977e+006	-4.428190e+001	-9.052662e+001	-3.082718e+001	-1.333590e+001	-8.910181e+001	-1.385155e+002	-5.144770e+001	5.843611e+001
6.151016e+006	-4.429932e+001	-9.043784e+001	-3.082027e+001	-1.327859e+001	-9.666740e+001	-3.590497e+001	-5.129597e+001	5.853325e+001
6.151055e+006	-4.430553e+001	-9.070123e+001	-3.081344e+001	-1.340915e+001	-9.018181e+001	-2.020540e+001	-5.140429e+001	5.792201e+001
6.151094e+006	-4.429399e+001	-9.070940e+001	-3.082132e+001	-1.330776e+001	-9.741481e+001	7.189520e+000	-5.130422e+001	5.864477e+001
6.151133e+006	-4.432346e+001	-9.062647e+001	-3.081990e+001	-1.337636e+001	-1.018693e+002	2.586443e+001	-5.145798e+001	5.941716e+001
6.151172e+006	-4.432448e+001	-9.054857e+001	-3.081048e+001	-1.330623e+001	-8.848247e+001	1.939434e+001	-5.139883e+001	5.899508e+001
6.151211e+006	-4.435571e+001	-9.051700e+001	-3.082246e+001	-1.329904e+001	-9.832688e+001	7.945361e+001	-5.138771e+001	5.840914e+001
6.151250e+006	-4.428752e+001	-9.045464e+001	-3.081496e+001	-1.338179e+001	-9.240247e+001	-1.235596e+002	-5.135225e+001	5.750868e+001
6.151289e+006	-4.427938e+001	-9.051300e+001	-3.081595e+001	-1.333930e+001	-8.678518e+001	9.579819e+001	-5.143435e+001	5.812369e+001
6.151328e+006	-4.430897e+001	-9.082188e+001	-3.082301e+001	-1.331667e+001	-9.618752e+001	-8.281475e+001	-5.124591e+001	5.867542e+001
6.151367e+006	-4.432950e+001	-9.079934e+001	-3.082344e+001	-1.338537e+001	-9.110234e+001	2.840146e+001	-5.135432e+001	5.800502e+001
6.151406e+006	-4.431995e+001	-9.067365e+001	-3.082802e+001	-1.332170e+001	-9.238244e+001	1.509116e+002	-5.132329e+001	5.812734e+001
6.151445e+006	-4.429400e+001	-9.030126e+001	-3.082370e+001	-1.330444e+001	-9.664326e+001	7.574606e+001	-5.134343e+001	5.887235e+001
6.151484e+006	-4.433743e+001	-9.054063e+001	-3.081412e+001	-1.332098e+001	-1.001257e+002	1.012196e+002	-5.130954e+001	5.890603e+001
6.151523e+006	-4.431774e+001	-9.066843e+001	-3.081273e+001	-1.331482e+001	-9.094873e+001	2.198285e+001	-5.140099e+001	5.815548e+001
6.151563e+006	-4.434437e+001	-9.052813e+001	-3.081397e+001	-1.334408e+001	-8.578878e+001	8.418480e+001	-5.141594e+001	5.926090e+001
6.151602e+006	-4.432449e+001	-9.055371e+001	-3.081900e+001	-1.328965e+001	-9.409515e+001	1.714367e+002	-5.139441e+001	5.841700e+001
6.151641e+006	-4.430235e+001	-9.058222e+001	-3.081196e+001	-1.333096e+001	-8.756520e+001	-4.812709e-001	-5.132692e+001	5.804146e+001
6.151680e+006	-4.429297e+001	-9.082081e+001	-3.082428e+001	-1.329921e+001	-8.906496e+001	1.002421e+002	-5.139074e+001	5.800601e+001
6.151719e+006	-4.427775e+001	-9.067092e+001	-3.082119e+001	-1.331790e+001	-9.367597e+001	6.531987e+001	-5.133563e+001	5.827915e+001
6.151758e+006	-4.432523e+001	-9.054170e+001	-3.080856e+001	-1.332133e+001	-8.969651e+001	-3.153098e+001	-5.135173e+001	5.845702e+001
6.151797e+006	-4.432624e+001	-9.035718e+001	-3.081295e+001	-1.333148e+001	-9.352230e+001	4.209165e+001	-5.129712e+001	5.836858e+001
6.151836e+006	-4.431495e+001	-9.063366e+001	-3.081844e+001	-1.333618e+001	-9.640088e+001	7.684474e+001	-5.128208e+001	5.845607e+001
6.151875e+006	-4.432406e+001	-9.062210e+001	-3.082111e+001	-1.337614e+001	-9.248252e+001	-9.701697e+001	-5.137599e+001	5.870224e+001
6.151914e+006	-4.433577e+001	-9.066676e+001	-3.081625e+001	-1.338211e+001	-9.259876e+001	7.751416e+001	-5.130398e+001	5.823329e+001
6.151953e+006	-4.432677e+001	-9.059440e+001	-3.082296e+001	-1.336186e+001	-9.341000e+001	3.312842e+001	-5.135412e+001	5.844604e+001
6.151992e+006	-4.432505e+001	-9.083357e+001	-3.081228e+001	-1.333916e+001	-9.358384e+001	-1.790003e+001	-5.132884e+001	5.872260e+001
6.152031e+006	-4.430654e+001	-9.035975e+001	-3.082415e+001	-1.331027e+001	-9.263529e+001	6.030907e+001	-5.139856e+001	5.825273e+001
6.152070e+006	-4.432466e+001	-9.065138e+001	-3.081686e+001	-1.332501e+001	-9.220222e+001	-1.117984e+002	-5.131181e+001	5.792654e+001
6.152109e+006	-4.433108e+001	-9.068382e+001	-3.081711e+001	-1.332498e+001	-8.740237e+001	-1.540763e+002	-5.141197e+001	5.813161e+001
6.152148e+006	-4.435045e+001	-9.069184e+001	-3.082290e+001	-1.330254e+001	-9.131625e+001	1.684618e+002	-5.128393e+001	5.881505e+001
6.152188e+006	-4.430032e+001	-9.073199e+001	-3.081848e+001	-1.333787e+001	-9.855325e+001	1.780629e+002	-5.127710e+001	5.811907e+001
6.152227e+006	-4.433855e+001	-9.042533e+001	-3.081742e+001	-1.335315e+001	-9.644782e+001	-1.406962e+002	-5.118114e+001	5.859290e+001
6.152266e+006	-4.435303e+001	-9.068397e+001	-3.082267e+001	-1.334176e+001	-9.686445e+001	-1.517490e+002	-5.135517e+001	5.940618e+001
6.152305e+006	-4.426604e+001	-9.086198e+001	-3.081840e+001	-1.328770e+001	-9.317111e+001	-7.882090e+001	-5.133201e+001	5.824221e+001
6.152344e+006	-4.432836e+001	-9.047755e+001	-3.082127e+001	-1.332140e+001	-9.160778e+001	9.965643e+001	-5.127779e+001	5.839718e+001
6.152383e+006	-4.426964e+001	-9.059144e+001	-3.082565e+001	-1.333158e+001	-9.135193e+001	7.464027e+001	-5.132503e+001	5.808629e+001
6.152422e+006	-4.433248e+001	-9.067445e+001	-3.081114e+001	-1.332651e+001	-9.798280e+001	-1.364004e+002	-5.131724e+001	5.865454e+001
6.152461e+006	-4.432255e+001	-9.060758e+001	-3.080552e+001	-1.329176e+001	-1.013663e+002	-2.845014e+001	-5.134285e+001	5.816247e+001
6.152500e+006	-4.425838e+001	-9.088153e+001	-3.081241e+001	-1.340421e+001	-9.687894e+001	-1.016093e+002	-5.145353e+001	5.871062e+001
6.152539e+006	-4.430793e+001	-9.064634e+001	-3.079918e+001	-1.334428e+001	-8.931518e+001	1.679753e+002	-5.140109e+001	5.883785e+001
6.152578e+006	-4.430581e+001	-9.063464e+001	-3.081874e+001	-1.340896e+001	-9.730164e+001	8.253828e+001	-5.126946e+001	5.970731e+001
6.152617e+006	-4.431339e+001	-9.057285e+001	-3.082006e+001	-1.331305e+001	-8.726111e+001	7.962161e+001	-5.127760e+001	5.876012e+001
6.152656e+006	-4.433895e+001	-9.064789e+001	-3.081171e+001	-1.340284e+001	-9.826771e+001	-1.552107e+002	-5.132578e+001	5.796743e+001
6.152695e+006	-4.430697e+001	-9.073906e+001	-3.082117e+001	-1.345174e+001	-9.381888e+001	1.584527e+002	-5.138993e+001	5.845817e+001
6.152734e+006	-4.431046e+001	-9.064310e+001	-3.082581e+001	-1.335520e+001	-9.699889e+001	-1.780518e+002	-5.126195e+001	5.863266e+001
6.152773e+006	-4.432371e+001	-9.080985e+001	-3.082986e+001	-1.331834e+001	-9.018832e+001	1.023227e+002	-5.138155e+001	5.836360e+001
6.152813e+006	-4.431728e+001	-9.057749e+001	-3.081845e+001	-1.325518e+001	-9.436644e+001	5.893356e+001	-5.129217e+001	5.843891e+001
6.152852e+006	-4.429112e+001	-9.072120e+001	-3.080351e+001	-1.328849e+001	-8.632596e+001	1.389855e+002	-5.137997e+001	5.896298e+001
6.152891e+006	-4.428871e+001	-9.076956e+001	-3.081270e+001	-1.340179e+001	-9.950995e+001	-1.741201e+002	-5.131305e+001	5.803211e+001
6.152930e+006	-4.432141e+001	-9.060116e+001	-3.082523e+001	-1.328430e+001	-9.418381e+001	1.258731e+002	-5.129164e+001	5.890987e+001
6.152969e+006	-4.430276e+001	-9.075223e+001	-3.082327e+001	-1.330814e+001	-9.944920e+001	4.631698e+001	-5.128068e+001	5.866128e+001
6.153008e+006	-4.432428e+001	-9.057068e+001	-3.081766e+001	-1.336785e+001	-1.089392e+002	4.234042e+001	-5.135977e+001	5.826953e+001
6.153047e+006	-4.431129e+001	-9.070542e+001	-3.082170e+001	-1.334922e+001	-9.599491e+001	-1.494239e+002	-5.127469e+001	5.792818e+001
6.153086e+006	-4.428692e+001	-9.070502e+001	-3.082742e+001	-1.338348e+001	-1.008115e+002	9.677882e+001	-5.134264e+001	5.843946e+001
6.153125e+006	-4.430385e+001	-9.034901e+001	-3.081730e+001	-1.333634e+001	-1.035037e+002	1.674204e+002	-5.132670e+001	5.882841e+001
6.153164e+006	-4.431364e+001	-9.043583e+001	-3.081734e+001	-1.332864e+001	-1.022020e+002	8.176372e+001	-5.128876e+001	5.826343e+001
6.153203e+006	-4.435521e+001	-9.041737e+001	-3.081228e+001	-1.329725e+001	-1.050562e+002	-1.266959e+001	-5.123927e+001	5.895223e+001
6.153242e+006	-4.433384e+001	-9.061948e+001	-3.081623e+001	-1.334149e+001	-9.682358e+001	-1.718281e+002	-5.115386e+001	5.728191e+001
6.153281e+006	-4.431299e+001	-9.069981e+001	-3.081887e+001	-1.336043e+001	-9.638698e+001	-1.093432e+002	-5.130377e+001	5.877628e+001
6.153320e+006	-4.430814e+001	-9.086631e+001	-3.081634e+001	-1.330521e+001	-9.134058e+001	4.539618e+001	-5.133244e+001	5.795300e+001
6.153359e+006	-4.433688e+001	-9.031875e+001	-3.080541e+001	-1.340931e+001	-9.902621e+001	-1.066431e+002	-5.126260e+001	5.814667e+001
6.153398e+006	-4.432621e+001	-9.089836e+001	-3.081944e+001	-1.332364e+001	-9.670856e+001	1.272054e+002	-5.128348e+001	5.786517e+001
6.153438e+006	-4.425959e+001	-9.041108e+001	-3.082582e+001	-1.329099e+001	-9.584168e+001	1.204001e+002	-5.125061e+001	5.757596e+001
6.153477e+006	-4.433374e+001	-9.058971e+001	-3.081459e+001	-1.326169e+001	-9.039665e+001	1.786322e+002	-5.132740e+001	5.830401e+001
6.153516e+006	-4.436104e+001	-9.035028e+001	-3.081405e+001	-1.331781e+001	-8.875228e+001	7.123018e+001	-5.126754e+001	5.859118e+001
6.153555e+006	-4.433247e+001	-9.070927e+001	-3.081498e+001	-1.328848e+001	-9.318794e+001	-1.663379e+002	-5.123118e+001	5.780885e+001
6.153594e+006	-4.430261e+001	-9.073952e+001	-3.081161e+001	-1.335599e+001	-9.697156e+001	1.383730e+002	-5.122678e+001	5.858717e+001
6.153633e+006	-4.425906e+001	-9.076865e+001	-3.081361e+001	-1.330432e+001	-8.895080e+001	1.486543e+002	-5.131745e+001	5.813448e+001
6.153672e+006	-4.431452e+001	-9.077516e+001	-3.081648e+001	-1.329060e+001	-1.102872e+002	1.035835e+002	-5.124637e+001	5.820857e+001
6.153711e+006	-4.432284e+001	-9.059413e+001	-3.082551e+001	-1.333244e+001	-9.268283e+001	4.775076e+001	-5.127646e+001	5.767024e+001
6.153750e+006	-4.430721e+001	-9.035767e+001	-3.081453e+001	-1.338119e+001	-1.003274e+002	-1.046610e+002	-5.130684e+001	5.814661e+001
6.153789e+006	-4.429370e+001	-9.072313e+001	-3.083245e+001	-1.339200e+001	-1.030233e+002	-6.031804e+001	-5.139248e+001	5.829757e+001
6.153828e+006	-4.431070e+001	-9.031720e+001	-3.081622e+001	-1.334654e+001	-9.547295e+001	-9.435971e+001	-5.121893e+001	5.840353e+001
6.153867e+006	-4.429201e+001	-9.037111e+001	-3.081385e+001	-1.337154e+001	-9.621379e+001	1.738904e+002	-5.113645e+001	5.809297e+001
6.153906e+006	-4.432384e+001	-9.064866e+001	-3.082501e+001	-1.326654e+001	-8.943365e+001	5.563717e+001	-5.127986e+001	5.804805e+001
6.153945e+006	-4.428732e+001	-9.038565e+001	-3.081041e+001	-1.335863e+001	-9.454604e+001	3.377162e+001	-5.123141e+001	5.739099e+001
6.153984e+006	-4.432103e+001	-9.087056e+001	-3.080708e+001	-1.333275e+001	-1.004336e+002	-1.730775e+001	-5.116034e+001	5.768315e+001
6.154023e+006	-4.428672e+001	-9.055425e+001	-3.082236e+001	-1.336134e+001	-9.367326e+001	1.778562e+002	-5.125620e+001	5.719578e+001
6.154063e+006	-4.434812e+001	-9.055513e+001	-3.081342e+001	-1.334565e+001	-9.263937e+001	-1.424490e+002	-5.129670e+001	5.819085e+001
6.154102e+006	-4.428445e+001	-9.047330e+001	-3.082181e+001	-1.330530e+001	-1.039169e+002	-2.789198e+001	-5.123931e+001	5.760740e+001
6.154141e+006	-4.430689e+001	-9.051192e+001	-3.081324e+001	-1.339092e+001	-9.639171e+001	1.236775e+002	-5.129773e+001	5.842415e+001
6.154180e+006	-4.428073e+001	-9.071225e+001	-3.081510e+001	-1.334328e+001	-8.861682e+001	1.280901e+002	-5.122091e+001	5.741230e+001
6.154219e+006	-4.432972e+001	-9.070965e+001	-3.081237e+001	-1.342602e+001	-9.676573e+001	1.918313e+000	-5.121020e+001	5.713941e+001
6.154258e+006	-4.432608e+001	-9.068785e+001	-3.081582e+001	-1.328702e+001	-9.083984e+001	1.704509e+002	-5.133233e+001	5.783507e+001
6.154297e+006	-4.428680e+001	-9.058314e+001	-3.080544e+001	-1.330036e+001	-8.783204e+001	2.883444e+001	-5.119698e+001	5.724534e+001
6.154336e+006	-4.429564e+001	-9.039495e+001	-3.081792e+001	-1.326785e+001	-9.076881e+001	-1.342360e+000	-5.133916e+001	5.804713e+001
6.154375e+006	-4.434843e+001	-9.052221e+001	-3.080583e+001	-1.336815e+001	-8.822716e+001	8.223667e+001	-5.117265e+001	5.817984e+001
6.154414e+006	-4.435085e+001	-9.055017e+001	-3.082063e+001	-1.326760e+001	-9.330789e+001	1.491701e+002	-5.135309e+001	5.716342e+001
6.154453e+006	-4.432208e+001	-9.074392e+001	-3.082062e+001	-1.331436e+001	-9.680761e+001	-1.272257e+002	-5.122714e+001	5.717770e+001
6.154492e+006	-4.433796e+001	-9.071067e+001	-3.081288e+001	-1.334926e+001	-9.226356e+001	8.642740e+001	-5.129391e+001	5.727349e+001
6.154531e+006	-4.432806e+001	-9.064479e+001	-3.081291e+001	-1.336935e+001	-9.610443e+001	4.884592e+001	-5.122026e+001	5.748262e+001
6.154570e+006	-4.431065e+001	-9.044357e+001	-3.081417e+001	-1.327673e+001	-9.231065e+001	7.458417e+001	-5.113309e+001	5.763859e+001
6.154609e+006	-4.434546e+001	-9.074185e+001	-3.080828e+001	-1.328838e+001	-9.219017e+001	8.426845e+001	-5.119858e+001	5.715807e+001
6.154648e+006	-4.434559e+001	-9.073070e+001	-3.080887e+001	-1.325729e+001	-1.023391e+002	1.338168e+002	-5.117016e+001	5.791640e+001
6.154688e+006	-4.435778e+001	-9.073059e+001	-3.081999e+001	-1.336841e+001	-9.331593e+001	5.015535e+001	-5.121297e+001	5.742633e+001
6.154727e+006	-4.429659e+001	-9.065138e+001	-3.080957e+001	-1.337305e+001	-9.350382e+001	-1.539342e+001	-5.123500e+001	5.722079e+001
6.154766e+006	-4.433184e+001	-9.058044e+001	-3.082447e+001	-1.328645e+001	-8.883693e+001	1.304549e+002	-5.126692e+001	5.718761e+001
6.154805e+006	-4.429559e+001	-9.036766e+001	-3.081222e+001	-1.329970e+001	-9.949531e+001	5.704831e+001	-5.130087e+001	5.742825e+001
6.154844e+006	-4.435416e+001	-9.067395e+001	-3.081686e+001	-1.332480e+001	-9.416142e+001	1.062887e+002	-5.119712e+001	5.872347e+001
6.154883e+006	-4.429185e+001	-9.060397e+001	-3.080635e+001	-1.335597e+001	-1.053213e+002	1.255018e+002	-5.125421e+001	5.820608e+001
6.154922e+006	-4.436804e+001	-9.074001e+001	-3.081247e+001	-1.331599e+001	-9.235579e+001	-1.115141e+002	-5.116519e+001	5.753726e+001
6.154961e+006	-4.431688e+001	-9.075134e+001	-3.081296e+001	-1.328149e+001	-9.036029e+001	8.804889e+001	-5.126701e+001	5.787419e+001
6.155000e+006	-4.431544e+001	-9.096196e+001	-3.081278e+001	-1.329143e+001	-9.182915e+001	-1.473154e+002	-5.120450e+001	5.787315e+001
6.155039e+006	-4.430222e+001	-9.024737e+001	-3.081392e+001	-1.338302e+001	-9.381254e+001	9.462508e+001	-5.117732e+001	5.793412e+001
6.155078e+006	-4.432557e+001	-9.068793e+001	-3.081352e+001	-1.333283e+001	-9.745249e+001	-3.678437e+001	-5.121436e+001	5.699217e+001
6.155117e+006	-4.430573e+001	-9.082145e+001	-3.081731e+001	-1.334321e+001	-8.715125e+001	-1.637624e+002	-5.130145e+001	5.825428e+001
6.155156e+006	-4.430052e+001	-9.040647e+001	-3.081869e+001	-1.332121e+001	-1.120468e+002	2.698005e+001	-5.113615e+001	5.776730e+001
6.155195e+006	-4.436349e+001	-9.070597e+001	-3.081460e+001	-1.336272e+001	-9.483849e+001	1.592530e+002	-5.119537e+001	5.843693e+001
6.155234e+006	-4.433439e+001	-9.051561e+001	-3.081418e+001	-1.331368e+001	-8.938719e+001	-5.754160e+001	-5.123832e+001	5.722935e+001
6.155273e+006	-4.430936e+001	-9.068695e+001	-3.081849e+001	-1.334429e+001	-9.341103e+001	-1.362763e+002	-5.118274e+001	5.757101e+001
6.155313e+006	-4.429054e+001	-9.049929e+001	-3.081215e+001	-1.336343e+001	-9.926470e+001	9.355845e+001	-5.117330e+001	5.722840e+001
6.155352e+006	-4.430421e+001	-9.061245e+001	-3.081991e+001	-1.331176e+001	-8.636060e+001	1.341658e+002	-5.122729e+001	5.693716e+001
6.155391e+006	-4.432205e+001	-9.069662e+001	-3.081678e+001	-1.326620e+001	-8.776078e+001	1.449087e+002	-5.133701e+001	5.714680e+001
6.155430e+006	-4.433615e+001	-9.054607e+001	-3.080833e+001	-1.331271e+001	-9.229913e+001	-1.170960e+001	-5.115423e+001	5.772496e+001
6.155469e+006	-4.433139e+001	-9.075790e+001	-3.081973e+001	-1.333030e+001	-9.503356e+001	-5.775507e+001	-5.121285e+001	5.711720e+001
6.155508e+006	-4.429700e+001	-9.069676e+001	-3.082361e+001	-1.331491e+001	-9.083220e+001	-1.347436e+002	-5.126779e+001	5.762698e+001
6.155547e+006	-4.431874e+001	-9.060372e+001	-3.080965e+001	-1.332654e+001	-9.802521e+001	6.763463e+001	-5.126012e+001	5.758831e+001
6.155586e+006	-4.431832e+001	-9.050472e+001	-3.081858e+001	-1.336201e+001	-8.605339e+001	3.685226e+001	-5.126012e+001	5.730059e+001
6.155625e+006	-4.429902e+001	-9.076742e+001	-3.081167e+001	-1.331975e+001	-9.295077e+001	1.195647e+002	-5.121290e+001	5.838436e+001
6.155664e+006	-4.432560e+001	-9.094298e+001	-3.080283e+001	-1.337521e+001	-9.804573e+001	-4.533066e+001	-5.134844e+001	5.774355e+001
6.155703e+006	-4.431473e+001	-9.056194e+001	-3.081593e+001	-1.333216e+001	-1.199848e+002	-5.336907e+001	-5.122147e+001	5.716944e+001
6.155742e+006	-4.430192e+001	-9.077257e+001	-3.081681e+001	-1.338897e+001	-8.583288e+001	9.206796e+001	-5.118636e+001	5.761080e+001
