!CETC41,AV3656A,ZGL00048,1.3.2
!Calibration ON (Full Solt 2-Port(Omit Isolation))
!Measurements: S11 S21 S12 S22
!2025-07-09 22:06
# Hz  S  dB  R 50.000
6.150000e+006	-4.498613e+001	-9.274788e+001	-3.093725e+001	-1.297546e+001	-9.975239e+001	7.665215e+000	-3.585862e+001	7.405045e+000
6.150039e+006	-4.497577e+001	-9.247556e+001	-3.093594e+001	-1.297761e+001	-9.546566e+001	1.172247e+001	-3.584558e+001	7.409898e+000
6.150078e+006	-4.503679e+001	-9.253966e+001	-3.093012e+001	-1.289841e+001	-9.040780e+001	-2.093866e+001	-3.585921e+001	7.440154e+000
6.150117e+006	-4.503490e+001	-9.262926e+001	-3.093222e+001	-1.297128e+001	-8.903708e+001	7.670814e+001	-3.582921e+001	7.465332e+000
6.150156e+006	-4.497922e+001	-9.247919e+001	-3.093624e+001	-1.294202e+001	-9.851531e+001	1.226948e+002	-3.584363e+001	7.534308e+000
6.150195e+006	-4.506235e+001	-9.288221e+001	-3.094882e+001	-1.296929e+001	-8.934305e+001	2.969314e+001	-3.583637e+001	7.372155e+000
6.150234e+006	-4.497402e+001	-9.241888e+001	-3.095054e+001	-1.299738e+001	-1.036825e+002	2.871847e+001	-3.584605e+001	7.469217e+000
6.150273e+006	-4.503545e+001	-9.247978e+001	-3.093941e+001	-1.294730e+001	-9.918449e+001	8.908069e+001	-3.584253e+001	7.507727e+000
6.150313e+006	-4.499876e+001	-9.286214e+001	-3.093028e+001	-1.298065e+001	-1.008712e+002	6.408107e+001	-3.586226e+001	7.496869e+000
6.150352e+006	-4.505230e+001	-9.282485e+001	-3.094756e+001	-1.293227e+001	-9.677944e+001	1.637262e+002	-3.584989e+001	7.513840e+000
6.150391e+006	-4.497270e+001	-9.270297e+001	-3.094076e+001	-1.296801e+001	-1.005750e+002	-1.186488e+002	-3.584743e+001	7.366991e+000
6.150430e+006	-4.496990e+001	-9.241278e+001	-3.092238e+001	-1.294792e+001	-9.232835e+001	3.524616e+001	-3.585583e+001	7.497910e+000
6.150469e+006	-4.499149e+001	-9.262881e+001	-3.094433e+001	-1.293783e+001	-8.590169e+001	1.340607e+002	-3.584182e+001	7.377985e+000
6.150508e+006	-4.504694e+001	-9.245675e+001	-3.094315e+001	-1.295004e+001	-9.608742e+001	5.228187e+001	-3.585571e+001	7.559508e+000
6.150547e+006	-4.496800e+001	-9.268330e+001	-3.094331e+001	-1.299206e+001	-9.362651e+001	1.721793e+002	-3.584390e+001	7.445918e+000
6.150586e+006	-4.508102e+001	-9.276091e+001	-3.093780e+001	-1.297440e+001	-9.105459e+001	1.240178e+002	-3.583195e+001	7.614285e+000
6.150625e+006	-4.510709e+001	-9.265122e+001	-3.094070e+001	-1.296364e+001	-9.686123e+001	-6.248968e+000	-3.585658e+001	7.460308e+000
6.150664e+006	-4.509909e+001	-9.219295e+001	-3.093981e+001	-1.298523e+001	-8.659785e+001	1.748967e+002	-3.584666e+001	7.417776e+000
6.150703e+006	-4.508454e+001	-9.213890e+001	-3.094008e+001	-1.288719e+001	-9.802600e+001	4.625618e+001	-3.584977e+001	7.582125e+000
6.150742e+006	-4.514861e+001	-9.228815e+001	-3.093632e+001	-1.295812e+001	-9.124576e+001	1.069045e+002	-3.584421e+001	7.442687e+000
6.150781e+006	-4.511117e+001	-9.212721e+001	-3.093195e+001	-1.287780e+001	-8.996992e+001	1.587872e+002	-3.584903e+001	7.480154e+000
6.150820e+006	-4.508017e+001	-9.197939e+001	-3.093355e+001	-1.291656e+001	-9.318688e+001	4.852616e+001	-3.585386e+001	7.467129e+000
6.150859e+006	-4.515101e+001	-9.218853e+001	-3.092662e+001	-1.300725e+001	-9.061603e+001	1.044607e+002	-3.585273e+001	7.366633e+000
6.150898e+006	-4.511705e+001	-9.195978e+001	-3.093099e+001	-1.302927e+001	-9.851284e+001	-1.589173e+002	-3.585027e+001	7.487736e+000
6.150938e+006	-4.511016e+001	-9.206015e+001	-3.093305e+001	-1.296062e+001	-1.009136e+002	-4.788348e+001	-3.585874e+001	7.561589e+000
6.150977e+006	-4.510132e+001	-9.241004e+001	-3.092686e+001	-1.297371e+001	-8.917324e+001	-1.386455e+002	-3.584176e+001	7.400624e+000
6.151016e+006	-4.513860e+001	-9.186216e+001	-3.093033e+001	-1.300661e+001	-9.272029e+001	2.951978e+001	-3.585242e+001	7.428695e+000
6.151055e+006	-4.517827e+001	-9.169755e+001	-3.093349e+001	-1.294771e+001	-9.733210e+001	-4.088874e+001	-3.584666e+001	7.471784e+000
6.151094e+006	-4.517096e+001	-9.228017e+001	-3.092570e+001	-1.288926e+001	-9.210661e+001	-1.592140e+002	-3.585204e+001	7.467540e+000
6.151133e+006	-4.510702e+001	-9.221937e+001	-3.092926e+001	-1.290282e+001	-1.032092e+002	1.369281e+002	-3.585048e+001	7.337775e+000
6.151172e+006	-4.513321e+001	-9.228557e+001	-3.092312e+001	-1.295087e+001	-8.752816e+001	1.465755e+002	-3.585012e+001	7.482490e+000
6.151211e+006	-4.517199e+001	-9.225989e+001	-3.093725e+001	-1.290588e+001	-9.419626e+001	-6.032781e+001	-3.584654e+001	7.442742e+000
6.151250e+006	-4.515274e+001	-9.231071e+001	-3.092330e+001	-1.292659e+001	-9.625627e+001	1.276545e+002	-3.584592e+001	7.556599e+000
6.151289e+006	-4.517328e+001	-9.208609e+001	-3.093066e+001	-1.297597e+001	-9.718372e+001	8.159856e+001	-3.584391e+001	7.410053e+000
6.151328e+006	-4.515981e+001	-9.216457e+001	-3.093873e+001	-1.296764e+001	-1.013256e+002	-1.563129e+002	-3.585196e+001	7.459889e+000
6.151367e+006	-4.515710e+001	-9.199527e+001	-3.092800e+001	-1.297619e+001	-8.675431e+001	-3.990835e+001	-3.585762e+001	7.436431e+000
6.151406e+006	-4.514717e+001	-9.155584e+001	-3.093765e+001	-1.296454e+001	-9.307163e+001	1.674533e+002	-3.584894e+001	7.383934e+000
6.151445e+006	-4.515890e+001	-9.136906e+001	-3.092931e+001	-1.294295e+001	-8.726969e+001	3.104254e+001	-3.583362e+001	7.352825e+000
6.151484e+006	-4.515660e+001	-9.131106e+001	-3.093341e+001	-1.301578e+001	-9.172662e+001	-1.481288e+002	-3.585662e+001	7.466166e+000
6.151523e+006	-4.515534e+001	-9.129210e+001	-3.093673e+001	-1.296981e+001	-1.009684e+002	6.585015e+001	-3.584417e+001	7.367599e+000
6.151563e+006	-4.512489e+001	-9.139718e+001	-3.093379e+001	-1.298573e+001	-9.440288e+001	2.929562e+001	-3.585567e+001	7.381887e+000
6.151602e+006	-4.517587e+001	-9.131937e+001	-3.093491e+001	-1.302385e+001	-9.721609e+001	1.256710e+002	-3.585801e+001	7.345643e+000
6.151641e+006	-4.519069e+001	-9.142306e+001	-3.093317e+001	-1.299137e+001	-9.576367e+001	4.612929e+001	-3.583878e+001	7.392119e+000
6.151680e+006	-4.521341e+001	-9.140942e+001	-3.092328e+001	-1.299905e+001	-9.978612e+001	-6.078278e+001	-3.584369e+001	7.461708e+000
6.151719e+006	-4.516267e+001	-9.124111e+001	-3.092951e+001	-1.290716e+001	-9.992179e+001	1.638474e+002	-3.585223e+001	7.434999e+000
6.151758e+006	-4.515721e+001	-9.168597e+001	-3.093081e+001	-1.298888e+001	-8.446568e+001	1.004500e+002	-3.584923e+001	7.394052e+000
6.151797e+006	-4.519546e+001	-9.146686e+001	-3.092812e+001	-1.294580e+001	-1.001646e+002	-7.284959e+001	-3.585528e+001	7.322270e+000
6.151836e+006	-4.524286e+001	-9.119467e+001	-3.093421e+001	-1.302090e+001	-9.658386e+001	-1.006713e+002	-3.582923e+001	7.338520e+000
6.151875e+006	-4.519461e+001	-9.142150e+001	-3.092904e+001	-1.297166e+001	-1.072329e+002	8.877740e+001	-3.586705e+001	7.422479e+000
6.151914e+006	-4.519902e+001	-9.146019e+001	-3.094036e+001	-1.302348e+001	-1.243389e+002	1.406686e+002	-3.585607e+001	7.367969e+000
6.151953e+006	-4.519626e+001	-9.143586e+001	-3.093794e+001	-1.301186e+001	-1.032395e+002	5.141784e+001	-3.584535e+001	7.421476e+000
6.151992e+006	-4.518601e+001	-9.153773e+001	-3.092333e+001	-1.303340e+001	-9.861698e+001	-1.472846e+002	-3.584590e+001	7.332174e+000
6.152031e+006	-4.519103e+001	-9.143354e+001	-3.092805e+001	-1.293515e+001	-9.516390e+001	2.335283e+001	-3.584560e+001	7.543356e+000
6.152070e+006	-4.517887e+001	-9.183651e+001	-3.093497e+001	-1.293793e+001	-1.095021e+002	-9.438581e+001	-3.585962e+001	7.512725e+000
6.152109e+006	-4.521591e+001	-9.175880e+001	-3.092499e+001	-1.300973e+001	-8.824312e+001	1.111500e+002	-3.584110e+001	7.525515e+000
6.152148e+006	-4.515278e+001	-9.167201e+001	-3.093665e+001	-1.293306e+001	-9.191176e+001	9.181174e+001	-3.585453e+001	7.608131e+000
6.152188e+006	-4.518407e+001	-9.147259e+001	-3.092881e+001	-1.291925e+001	-1.482839e+002	7.275391e+001	-3.586044e+001	7.329068e+000
6.152227e+006	-4.521628e+001	-9.165884e+001	-3.092394e+001	-1.294335e+001	-9.537330e+001	3.240706e+001	-3.584149e+001	7.431205e+000
6.152266e+006	-4.520218e+001	-9.166918e+001	-3.092841e+001	-1.297221e+001	-9.109342e+001	1.277271e+002	-3.585465e+001	7.486134e+000
6.152305e+006	-4.521053e+001	-9.166506e+001	-3.093743e+001	-1.301674e+001	-9.413819e+001	-1.765992e+002	-3.583999e+001	7.506003e+000
6.152344e+006	-4.521589e+001	-9.128078e+001	-3.092145e+001	-1.295790e+001	-9.665568e+001	7.148252e+001	-3.583935e+001	7.426112e+000
6.152383e+006	-4.520163e+001	-9.140311e+001	-3.092761e+001	-1.298680e+001	-9.154997e+001	1.437190e+002	-3.586399e+001	7.374913e+000
6.152422e+006	-4.524929e+001	-9.155037e+001	-3.092042e+001	-1.296686e+001	-9.182634e+001	-1.146614e+002	-3.585101e+001	7.547044e+000
6.152461e+006	-4.521336e+001	-9.137579e+001	-3.092282e+001	-1.300556e+001	-8.838476e+001	7.452414e+001	-3.584065e+001	7.428093e+000
6.152500e+006	-4.523469e+001	-9.107474e+001	-3.092421e+001	-1.305829e+001	-9.826898e+001	1.547914e+002	-3.584600e+001	7.452743e+000
6.152539e+006	-4.520821e+001	-9.188926e+001	-3.093480e+001	-1.289956e+001	-9.830487e+001	9.956886e+001	-3.585108e+001	7.488338e+000
6.152578e+006	-4.518707e+001	-9.163597e+001	-3.093239e+001	-1.298114e+001	-9.110901e+001	5.425360e+001	-3.587398e+001	7.570770e+000
6.152617e+006	-4.519262e+001	-9.171098e+001	-3.093719e+001	-1.299794e+001	-9.227890e+001	7.582931e+001	-3.584195e+001	7.451823e+000
6.152656e+006	-4.524523e+001	-9.171105e+001	-3.091979e+001	-1.293652e+001	-9.650314e+001	9.980362e+001	-3.586214e+001	7.415367e+000
6.152695e+006	-4.522917e+001	-9.150196e+001	-3.092653e+001	-1.291019e+001	-9.936638e+001	-1.699224e+002	-3.585379e+001	7.345022e+000
6.152734e+006	-4.519884e+001	-9.151046e+001	-3.092256e+001	-1.295676e+001	-9.888395e+001	-1.345028e+000	-3.583853e+001	7.460385e+000
6.152773e+006	-4.517259e+001	-9.155716e+001	-3.092868e+001	-1.298718e+001	-8.977483e+001	1.212389e+002	-3.585307e+001	7.365050e+000
6.152813e+006	-4.521961e+001	-9.139634e+001	-3.092691e+001	-1.294202e+001	-9.777523e+001	1.518108e+002	-3.585135e+001	7.446819e+000
6.152852e+006	-4.522676e+001	-9.141336e+001	-3.093027e+001	-1.296619e+001	-9.313456e+001	3.793174e+001	-3.585355e+001	7.476594e+000
6.152891e+006	-4.526394e+001	-9.161396e+001	-3.092673e+001	-1.291399e+001	-8.921213e+001	-5.035384e+001	-3.583604e+001	7.489892e+000
6.152930e+006	-4.522847e+001	-9.165213e+001	-3.093105e+001	-1.300815e+001	-1.011088e+002	-2.577954e+001	-3.585262e+001	7.448328e+000
6.152969e+006	-4.519856e+001	-9.153283e+001	-3.094040e+001	-1.291809e+001	-9.458023e+001	6.476507e+001	-3.585417e+001	7.478209e+000
6.153008e+006	-4.522051e+001	-9.175056e+001	-3.093439e+001	-1.293957e+001	-9.126618e+001	6.696793e+001	-3.584160e+001	7.439803e+000
6.153047e+006	-4.518088e+001	-9.160075e+001	-3.094407e+001	-1.294242e+001	-9.108270e+001	-8.086671e+000	-3.584747e+001	7.428337e+000
6.153086e+006	-4.522963e+001	-9.163187e+001	-3.093020e+001	-1.294170e+001	-9.294446e+001	4.973937e+001	-3.584286e+001	7.343706e+000
6.153125e+006	-4.523392e+001	-9.170368e+001	-3.094255e+001	-1.298092e+001	-9.135610e+001	-1.680861e+002	-3.586788e+001	7.456238e+000
6.153164e+006	-4.523721e+001	-9.167300e+001	-3.093600e+001	-1.300783e+001	-9.715361e+001	3.945544e+001	-3.584021e+001	7.300808e+000
6.153203e+006	-4.526208e+001	-9.167716e+001	-3.094815e+001	-1.297019e+001	-9.100362e+001	1.687399e+002	-3.585910e+001	7.396390e+000
6.153242e+006	-4.519983e+001	-9.203520e+001	-3.094876e+001	-1.291377e+001	-9.314435e+001	-1.550796e+002	-3.583350e+001	7.548141e+000
6.153281e+006	-4.526685e+001	-9.169212e+001	-3.095548e+001	-1.290909e+001	-8.412219e+001	-1.703243e+002	-3.583589e+001	7.425802e+000
6.153320e+006	-4.522020e+001	-9.152499e+001	-3.095626e+001	-1.288355e+001	-8.946193e+001	5.681473e+001	-3.584969e+001	7.402497e+000
6.153359e+006	-4.515725e+001	-9.174417e+001	-3.094564e+001	-1.294649e+001	-8.977047e+001	1.486754e+002	-3.584220e+001	7.322000e+000
6.153398e+006	-4.520861e+001	-9.195495e+001	-3.095638e+001	-1.299449e+001	-9.526581e+001	-1.795961e+002	-3.584023e+001	7.364731e+000
6.153438e+006	-4.525562e+001	-9.176993e+001	-3.094270e+001	-1.296402e+001	-9.869284e+001	1.290186e+002	-3.584255e+001	7.580610e+000
6.153477e+006	-4.521079e+001	-9.180693e+001	-3.095245e+001	-1.290457e+001	-8.889834e+001	1.437506e+002	-3.584171e+001	7.476673e+000
6.153516e+006	-4.523088e+001	-9.171759e+001	-3.095571e+001	-1.298827e+001	-9.338309e+001	-1.724618e+002	-3.585332e+001	7.496650e+000
6.153555e+006	-4.521585e+001	-9.156711e+001	-3.093895e+001	-1.302544e+001	-9.428543e+001	-6.536538e+001	-3.584061e+001	7.456614e+000
6.153594e+006	-4.528412e+001	-9.136751e+001	-3.095568e+001	-1.292721e+001	-9.168460e+001	-9.655106e+001	-3.582902e+001	7.434680e+000
6.153633e+006	-4.522945e+001	-9.187591e+001	-3.094834e+001	-1.297880e+001	-1.037220e+002	1.322187e+002	-3.584843e+001	7.498354e+000
6.153672e+006	-4.525388e+001	-9.207705e+001	-3.095324e+001	-1.290627e+001	-9.711264e+001	1.060771e+001	-3.585295e+001	7.524510e+000
6.153711e+006	-4.518067e+001	-9.213701e+001	-3.095555e+001	-1.296339e+001	-8.764923e+001	6.741260e+001	-3.585335e+001	7.481358e+000
6.153750e+006	-4.522418e+001	-9.186458e+001	-3.094361e+001	-1.300332e+001	-9.542598e+001	-5.138082e+001	-3.585694e+001	7.477842e+000
6.153789e+006	-4.523563e+001	-9.164416e+001	-3.095032e+001	-1.297414e+001	-9.124600e+001	-8.423108e+001	-3.585030e+001	7.588026e+000
6.153828e+006	-4.522043e+001	-9.188977e+001	-3.095363e+001	-1.293782e+001	-9.072299e+001	-3.361242e+001	-3.584777e+001	7.434157e+000
6.153867e+006	-4.524398e+001	-9.174131e+001	-3.094008e+001	-1.294899e+001	-9.676436e+001	-2.552500e+001	-3.584021e+001	7.471704e+000
6.153906e+006	-4.521757e+001	-9.177304e+001	-3.094853e+001	-1.300626e+001	-9.794980e+001	-1.125860e+002	-3.584734e+001	7.473831e+000
6.153945e+006	-4.528250e+001	-9.174637e+001	-3.095142e+001	-1.298846e+001	-9.273244e+001	1.385611e+002	-3.586402e+001	7.414559e+000
6.153984e+006	-4.526441e+001	-9.192689e+001	-3.094818e+001	-1.296569e+001	-8.637781e+001	7.922205e+001	-3.584992e+001	7.487180e+000
6.154023e+006	-4.524889e+001	-9.172666e+001	-3.094337e+001	-1.300908e+001	-1.000105e+002	-9.900241e+001	-3.585513e+001	7.445176e+000
6.154063e+006	-4.523511e+001	-9.197617e+001	-3.094567e+001	-1.302601e+001	-9.224877e+001	1.044404e+002	-3.585594e+001	7.411530e+000
6.154102e+006	-4.521642e+001	-9.189106e+001	-3.095179e+001	-1.293467e+001	-9.110200e+001	-1.173841e+002	-3.584657e+001	7.506542e+000
6.154141e+006	-4.526280e+001	-9.180130e+001	-3.094500e+001	-1.289915e+001	-8.808527e+001	-3.443595e+001	-3.584415e+001	7.538407e+000
6.154180e+006	-4.524145e+001	-9.195499e+001	-3.094197e+001	-1.295364e+001	-9.662258e+001	-7.788133e+001	-3.583038e+001	7.486386e+000
6.154219e+006	-4.526589e+001	-9.201791e+001	-3.094624e+001	-1.303528e+001	-9.218153e+001	-2.351932e+001	-3.584488e+001	7.495362e+000
6.154258e+006	-4.521764e+001	-9.209640e+001	-3.094286e+001	-1.299353e+001	-9.408345e+001	3.073444e+001	-3.585009e+001	7.563616e+000
6.154297e+006	-4.529208e+001	-9.207219e+001	-3.094625e+001	-1.295611e+001	-8.867836e+001	-1.246954e+002	-3.585467e+001	7.474101e+000
6.154336e+006	-4.521392e+001	-9.179110e+001	-3.095200e+001	-1.295950e+001	-9.147788e+001	9.438604e+000	-3.585025e+001	7.475455e+000
6.154375e+006	-4.522860e+001	-9.171143e+001	-3.094678e+001	-1.293575e+001	-9.175592e+001	4.902672e+001	-3.584578e+001	7.466578e+000
6.154414e+006	-4.526256e+001	-9.201749e+001	-3.094820e+001	-1.295671e+001	-9.044837e+001	1.965738e+001	-3.584063e+001	7.490550e+000
6.154453e+006	-4.525973e+001	-9.180166e+001	-3.094757e+001	-1.295864e+001	-9.745291e+001	4.502933e-001	-3.583631e+001	7.458900e+000
6.154492e+006	-4.528722e+001	-9.172948e+001	-3.094901e+001	-1.294228e+001	-9.226911e+001	1.788024e+002	-3.584979e+001	7.412312e+000
6.154531e+006	-4.530184e+001	-9.196598e+001	-3.094274e+001	-1.298152e+001	-9.694863e+001	1.544887e+002	-3.584395e+001	7.499402e+000
6.154570e+006	-4.528213e+001	-9.157466e+001	-3.094190e+001	-1.298900e+001	-8.691106e+001	-1.668391e+002	-3.584182e+001	7.379408e+000
6.154609e+006	-4.523537e+001	-9.174076e+001	-3.094747e+001	-1.297463e+001	-1.028824e+002	6.215847e+001	-3.585437e+001	7.484117e+000
6.154648e+006	-4.530098e+001	-9.172395e+001	-3.094441e+001	-1.293973e+001	-9.310198e+001	-6.531639e+000	-3.582952e+001	7.509123e+000
6.154688e+006	-4.527139e+001	-9.178190e+001	-3.094546e+001	-1.294753e+001	-9.730434e+001	1.579798e+001	-3.584685e+001	7.478719e+000
6.154727e+006	-4.520777e+001	-9.205055e+001	-3.094790e+001	-1.305783e+001	-9.080834e+001	9.502875e+001	-3.584842e+001	7.541547e+000
6.154766e+006	-4.521886e+001	-9.154955e+001	-3.095047e+001	-1.297496e+001	-8.747639e+001	1.599909e+002	-3.584843e+001	7.381095e+000
6.154805e+006	-4.527898e+001	-9.170096e+001	-3.095556e+001	-1.299339e+001	-9.800468e+001	1.644441e+002	-3.583988e+001	7.367277e+000
6.154844e+006	-4.522564e+001	-9.191489e+001	-3.094787e+001	-1.296676e+001	-9.521460e+001	1.604216e+002	-3.584152e+001	7.410502e+000
6.154883e+006	-4.525690e+001	-9.170010e+001	-3.094300e+001	-1.297762e+001	-1.050676e+002	1.163939e+002	-3.585787e+001	7.489583e+000
6.154922e+006	-4.530029e+001	-9.166415e+001	-3.095623e+001	-1.300867e+001	-8.872725e+001	1.153342e+002	-3.585001e+001	7.475762e+000
6.154961e+006	-4.526913e+001	-9.203710e+001	-3.094634e+001	-1.296876e+001	-9.302070e+001	-1.057481e+002	-3.586029e+001	7.554517e+000
6.155000e+006	-4.523097e+001	-9.145718e+001	-3.094856e+001	-1.302186e+001	-9.786599e+001	5.569116e+000	-3.583654e+001	7.540155e+000
6.155039e+006	-4.526946e+001	-9.148526e+001	-3.094475e+001	-1.298112e+001	-9.234051e+001	5.654552e+001	-3.582244e+001	7.517652e+000
6.155078e+006	-4.527353e+001	-9.142733e+001	-3.094098e+001	-1.300041e+001	-9.027127e+001	-1.120253e+002	-3.585679e+001	7.467708e+000
6.155117e+006	-4.518233e+001	-9.151571e+001	-3.093294e+001	-1.294281e+001	-9.046782e+001	-2.480145e+001	-3.584848e+001	7.312341e+000
6.155156e+006	-4.523978e+001	-9.167338e+001	-3.095607e+001	-1.291477e+001	-9.247921e+001	-8.663422e+001	-3.583922e+001	7.503567e+000
6.155195e+006	-4.526265e+001	-9.186564e+001	-3.094099e+001	-1.289633e+001	-8.623605e+001	9.245241e+001	-3.585060e+001	7.494141e+000
6.155234e+006	-4.524000e+001	-9.132428e+001	-3.094599e+001	-1.305967e+001	-8.666083e+001	1.019041e+001	-3.586975e+001	7.435525e+000
6.155273e+006	-4.520867e+001	-9.162618e+001	-3.094830e+001	-1.306499e+001	-8.956768e+001	-1.364637e+002	-3.584571e+001	7.496169e+000
6.155313e+006	-4.522613e+001	-9.145543e+001	-3.094460e+001	-1.305315e+001	-9.094248e+001	8.954212e+001	-3.585250e+001	7.433410e+000
6.155352e+006	-4.521858e+001	-9.190445e+001	-3.095568e+001	-1.306466e+001	-8.608498e+001	1.027473e+002	-3.585291e+001	7.472559e+000
6.155391e+006	-4.525016e+001	-9.179861e+001	-3.095296e+001	-1.312699e+001	-1.055162e+002	3.429562e+001	-3.583701e+001	7.507276e+000
6.155430e+006	-4.523104e+001	-9.170409e+001	-3.096184e+001	-1.305617e+001	-9.207423e+001	5.823236e+001	-3.585530e+001	7.341266e+000
6.155469e+006	-4.520263e+001	-9.158473e+001	-3.097464e+001	-1.304305e+001	-1.187974e+002	1.280503e+002	-3.586066e+001	7.457473e+000
6.155508e+006	-4.520950e+001	-9.148454e+001	-3.096945e+001	-1.295445e+001	-9.515355e+001	-2.572048e+001	-3.586164e+001	7.274192e+000
6.155547e+006	-4.522705e+001	-9.155666e+001	-3.095301e+001	-1.295410e+001	-9.668333e+001	7.591510e+001	-3.585451e+001	7.389313e+000
6.155586e+006	-4.520212e+001	-9.160263e+001	-3.095453e+001	-1.302084e+001	-9.667854e+001	1.019444e+002	-3.585969e+001	7.506007e+000
6.155625e+006	-4.528487e+001	-9.165425e+001	-3.095810e+001	-1.300069e+001	-9.540821e+001	-8.727637e+000	-3.585546e+001	7.437432e+000
6.155664e+006	-4.523008e+001	-9.143551e+001	-3.095337e+001	-1.293382e+001	-9.419142e+001	4.969394e+001	-3.584813e+001	7.527551e+000
6.155703e+006	-4.523013e+001	-9.180082e+001	-3.094828e+001	-1.302229e+001	-1.019573e+002	1.651198e+001	-3.584242e+001	7.492142e+000
6.155742e+006	-4.521827e+001	-9.163794e+001	-3.096289e+001	-1.298213e+001	-9.481192e+001	-1.709711e+002	-3.584926e+001	7.565810e+000
