!CETC41,AV3656A,ZGL00048,1.3.2
!Calibration ON (Full Solt 2-Port(Omit Isolation))
!Measurements: S11 S21 S12 S22
!2025-07-09 22:23
# Hz  S  dB  R 50.000
1.095000e+007	-4.215969e+001	-8.211386e+001	-3.059168e+001	-2.409407e+001	-9.871931e+001	9.461512e+001	-4.779252e+001	9.864772e+001
1.095001e+007	-4.214639e+001	-8.199067e+001	-3.057700e+001	-2.411600e+001	-9.623141e+001	8.685922e+001	-4.771937e+001	9.887240e+001
1.095002e+007	-4.215707e+001	-8.182296e+001	-3.058583e+001	-2.402420e+001	-9.665173e+001	9.677782e+001	-4.770515e+001	9.822208e+001
1.095002e+007	-4.216532e+001	-8.182101e+001	-3.059134e+001	-2.414807e+001	-9.945241e+001	7.579824e+001	-4.772022e+001	9.860463e+001
1.095003e+007	-4.217601e+001	-8.206384e+001	-3.057047e+001	-2.408033e+001	-9.788564e+001	8.941034e+001	-4.780936e+001	9.813264e+001
1.095004e+007	-4.217204e+001	-8.206265e+001	-3.057983e+001	-2.398579e+001	-9.817210e+001	7.690394e+001	-4.773356e+001	9.861751e+001
1.095005e+007	-4.213178e+001	-8.204584e+001	-3.059149e+001	-2.416207e+001	-9.638843e+001	8.277771e+001	-4.772857e+001	9.867218e+001
1.095005e+007	-4.215439e+001	-8.192256e+001	-3.056633e+001	-2.415067e+001	-9.955850e+001	8.344144e+001	-4.775676e+001	9.849993e+001
1.095006e+007	-4.212403e+001	-8.211788e+001	-3.057727e+001	-2.397675e+001	-1.015528e+002	8.888766e+001	-4.765887e+001	9.806609e+001
1.095007e+007	-4.212868e+001	-8.185878e+001	-3.059836e+001	-2.401079e+001	-9.774560e+001	7.486597e+001	-4.771496e+001	9.832056e+001
1.095008e+007	-4.215717e+001	-8.155823e+001	-3.058092e+001	-2.419917e+001	-9.846138e+001	9.293764e+001	-4.777534e+001	9.813168e+001
1.095009e+007	-4.214525e+001	-8.206493e+001	-3.055531e+001	-2.404530e+001	-9.688246e+001	9.967110e+001	-4.772482e+001	9.866142e+001
1.095009e+007	-4.215891e+001	-8.217513e+001	-3.058888e+001	-2.391335e+001	-9.634432e+001	1.035634e+002	-4.764441e+001	9.881542e+001
1.095010e+007	-4.217815e+001	-8.205055e+001	-3.059654e+001	-2.413613e+001	-9.720541e+001	9.151099e+001	-4.773810e+001	9.872898e+001
1.095011e+007	-4.212585e+001	-8.213288e+001	-3.056745e+001	-2.423344e+001	-9.692475e+001	9.567784e+001	-4.775054e+001	9.860510e+001
1.095012e+007	-4.214892e+001	-8.195440e+001	-3.056395e+001	-2.400131e+001	-9.765408e+001	6.684610e+001	-4.778823e+001	9.829978e+001
1.095013e+007	-4.213276e+001	-8.197500e+001	-3.060007e+001	-2.398620e+001	-9.616356e+001	8.795913e+001	-4.776188e+001	9.886832e+001
1.095013e+007	-4.215825e+001	-8.216419e+001	-3.060367e+001	-2.417892e+001	-9.761106e+001	9.805642e+001	-4.776984e+001	9.866566e+001
1.095014e+007	-4.215618e+001	-8.203024e+001	-3.056551e+001	-2.423857e+001	-9.634637e+001	1.136637e+002	-4.779287e+001	9.866730e+001
1.095015e+007	-4.215508e+001	-8.196370e+001	-3.055160e+001	-2.401947e+001	-9.936009e+001	1.051206e+002	-4.769358e+001	9.807589e+001
1.095016e+007	-4.216631e+001	-8.188327e+001	-3.058146e+001	-2.382457e+001	-9.553414e+001	1.018254e+002	-4.766798e+001	9.819913e+001
1.095016e+007	-4.216022e+001	-8.176740e+001	-3.060307e+001	-2.403565e+001	-9.909612e+001	1.094927e+002	-4.768395e+001	9.900036e+001
1.095017e+007	-4.216914e+001	-8.201982e+001	-3.058893e+001	-2.426381e+001	-9.734182e+001	1.113367e+002	-4.776318e+001	9.909252e+001
1.095018e+007	-4.214917e+001	-8.198680e+001	-3.056320e+001	-2.415554e+001	-9.631166e+001	8.853724e+001	-4.780633e+001	9.882957e+001
1.095019e+007	-4.215811e+001	-8.214957e+001	-3.055313e+001	-2.395664e+001	-9.698092e+001	9.439400e+001	-4.771882e+001	9.842055e+001
1.095020e+007	-4.217656e+001	-8.229177e+001	-3.057488e+001	-2.381132e+001	-9.580904e+001	7.528028e+001	-4.769157e+001	9.832387e+001
1.095020e+007	-4.217773e+001	-8.187635e+001	-3.060143e+001	-2.402339e+001	-9.705926e+001	9.987019e+001	-4.768895e+001	9.888121e+001
1.095021e+007	-4.217039e+001	-8.203180e+001	-3.060018e+001	-2.419326e+001	-9.980950e+001	6.980006e+001	-4.776878e+001	9.901748e+001
1.095022e+007	-4.215252e+001	-8.216851e+001	-3.057741e+001	-2.433719e+001	-9.669330e+001	6.580214e+001	-4.778087e+001	9.869742e+001
1.095023e+007	-4.215559e+001	-8.195127e+001	-3.055226e+001	-2.428326e+001	-9.728494e+001	8.586780e+001	-4.781780e+001	9.856992e+001
1.095023e+007	-4.217203e+001	-8.208897e+001	-3.054245e+001	-2.399852e+001	-9.588071e+001	8.673205e+001	-4.776260e+001	9.859299e+001
1.095024e+007	-4.217169e+001	-8.202990e+001	-3.056179e+001	-2.382243e+001	-9.844301e+001	8.912018e+001	-4.766821e+001	9.813685e+001
1.095025e+007	-4.217825e+001	-8.208178e+001	-3.059052e+001	-2.394178e+001	-9.330423e+001	8.283459e+001	-4.767976e+001	9.820788e+001
1.095026e+007	-4.217929e+001	-8.205213e+001	-3.061295e+001	-2.405850e+001	-9.444624e+001	9.677188e+001	-4.762565e+001	9.880772e+001
1.095027e+007	-4.214906e+001	-8.223107e+001	-3.060597e+001	-2.415110e+001	-9.560471e+001	9.638844e+001	-4.768031e+001	9.898474e+001
1.095027e+007	-4.217889e+001	-8.212758e+001	-3.058503e+001	-2.421060e+001	-9.770057e+001	7.853560e+001	-4.770656e+001	9.899315e+001
1.095028e+007	-4.216732e+001	-8.228555e+001	-3.055836e+001	-2.432201e+001	-9.712740e+001	9.594451e+001	-4.773942e+001	9.912315e+001
1.095029e+007	-4.214243e+001	-8.204943e+001	-3.054040e+001	-2.417596e+001	-9.366679e+001	8.644605e+001	-4.770249e+001	9.865382e+001
1.095030e+007	-4.216146e+001	-8.209144e+001	-3.053737e+001	-2.418434e+001	-9.724538e+001	1.033065e+002	-4.783440e+001	9.886982e+001
1.095030e+007	-4.215727e+001	-8.224348e+001	-3.053351e+001	-2.393865e+001	-1.035183e+002	6.664684e+001	-4.775958e+001	9.858291e+001
1.095031e+007	-4.216970e+001	-8.218874e+001	-3.054222e+001	-2.398717e+001	-9.957686e+001	9.791943e+001	-4.776502e+001	9.824972e+001
1.095032e+007	-4.220175e+001	-8.222298e+001	-3.054096e+001	-2.386607e+001	-9.751577e+001	8.503926e+001	-4.774634e+001	9.808542e+001
1.095033e+007	-4.216568e+001	-8.200243e+001	-3.055804e+001	-2.382733e+001	-9.524398e+001	8.204873e+001	-4.773755e+001	9.849141e+001
1.095034e+007	-4.218017e+001	-8.199765e+001	-3.056300e+001	-2.391581e+001	-9.690451e+001	1.004429e+002	-4.770208e+001	9.820312e+001
1.095034e+007	-4.215850e+001	-8.216779e+001	-3.056541e+001	-2.385196e+001	-9.692185e+001	9.797396e+001	-4.764916e+001	9.802682e+001
1.095035e+007	-4.216070e+001	-8.207411e+001	-3.057212e+001	-2.398679e+001	-9.634943e+001	1.039925e+002	-4.763059e+001	9.836771e+001
1.095036e+007	-4.218046e+001	-8.190862e+001	-3.057869e+001	-2.398203e+001	-9.972767e+001	1.015497e+002	-4.779086e+001	9.870234e+001
1.095037e+007	-4.217173e+001	-8.228580e+001	-3.058107e+001	-2.402349e+001	-9.404063e+001	8.910970e+001	-4.768180e+001	9.872864e+001
1.095038e+007	-4.217167e+001	-8.210697e+001	-3.058021e+001	-2.404640e+001	-9.854749e+001	6.230694e+001	-4.772941e+001	9.802874e+001
1.095038e+007	-4.219235e+001	-8.222695e+001	-3.058154e+001	-2.404360e+001	-1.002221e+002	5.696820e+001	-4.767811e+001	9.820818e+001
1.095039e+007	-4.215480e+001	-8.222960e+001	-3.055742e+001	-2.406617e+001	-9.627907e+001	9.164839e+001	-4.763912e+001	9.801424e+001
1.095040e+007	-4.215175e+001	-8.204576e+001	-3.057292e+001	-2.422077e+001	-9.853143e+001	1.180262e+002	-4.771666e+001	9.823327e+001
1.095041e+007	-4.216085e+001	-8.224952e+001	-3.056326e+001	-2.420180e+001	-9.662567e+001	9.025465e+001	-4.770092e+001	9.807439e+001
1.095041e+007	-4.213839e+001	-8.218008e+001	-3.056656e+001	-2.425732e+001	-1.004926e+002	7.342855e+001	-4.772832e+001	9.815391e+001
1.095042e+007	-4.216697e+001	-8.203146e+001	-3.057791e+001	-2.432191e+001	-1.005617e+002	1.075234e+002	-4.771464e+001	9.853428e+001
1.095043e+007	-4.213971e+001	-8.214810e+001	-3.058795e+001	-2.431180e+001	-9.457271e+001	9.925320e+001	-4.771583e+001	9.787801e+001
1.095044e+007	-4.215312e+001	-8.212529e+001	-3.059003e+001	-2.429207e+001	-9.944569e+001	8.167392e+001	-4.773440e+001	9.864128e+001
1.095045e+007	-4.219152e+001	-8.221294e+001	-3.059505e+001	-2.433375e+001	-9.501811e+001	8.913974e+001	-4.769717e+001	9.852614e+001
1.095045e+007	-4.214434e+001	-8.192541e+001	-3.059816e+001	-2.427723e+001	-9.602619e+001	9.123773e+001	-4.774543e+001	9.862498e+001
1.095046e+007	-4.214468e+001	-8.209075e+001	-3.060120e+001	-2.419398e+001	-9.700777e+001	8.774757e+001	-4.778864e+001	9.847725e+001
1.095047e+007	-4.213271e+001	-8.213115e+001	-3.060125e+001	-2.408144e+001	-9.657160e+001	1.044641e+002	-4.781131e+001	9.880317e+001
1.095048e+007	-4.214655e+001	-8.203737e+001	-3.059492e+001	-2.395428e+001	-9.416221e+001	9.317125e+001	-4.780020e+001	9.872365e+001
1.095048e+007	-4.214410e+001	-8.210817e+001	-3.059277e+001	-2.390558e+001	-9.580795e+001	8.524381e+001	-4.772585e+001	9.876480e+001
1.095049e+007	-4.220573e+001	-8.216196e+001	-3.056219e+001	-2.391203e+001	-9.791147e+001	9.576657e+001	-4.765236e+001	9.861159e+001
1.095050e+007	-4.216248e+001	-8.201783e+001	-3.054932e+001	-2.396913e+001	-9.560147e+001	1.181950e+002	-4.771808e+001	9.866560e+001
1.095051e+007	-4.216149e+001	-8.201352e+001	-3.054355e+001	-2.409403e+001	-9.844552e+001	1.011879e+002	-4.764941e+001	9.843261e+001
1.095052e+007	-4.218806e+001	-8.201092e+001	-3.054799e+001	-2.416075e+001	-9.464091e+001	1.031641e+002	-4.768581e+001	9.804540e+001
1.095052e+007	-4.215845e+001	-8.212026e+001	-3.056841e+001	-2.432776e+001	-9.750658e+001	9.007283e+001	-4.771683e+001	9.862153e+001
1.095053e+007	-4.217638e+001	-8.214416e+001	-3.059037e+001	-2.420891e+001	-9.811657e+001	9.495949e+001	-4.779038e+001	9.845490e+001
1.095054e+007	-4.214217e+001	-8.198307e+001	-3.059394e+001	-2.402523e+001	-9.853699e+001	1.194181e+002	-4.778413e+001	9.859705e+001
1.095055e+007	-4.219003e+001	-8.187120e+001	-3.058156e+001	-2.396519e+001	-9.323252e+001	1.017345e+002	-4.771145e+001	9.879174e+001
1.095055e+007	-4.217657e+001	-8.191646e+001	-3.055290e+001	-2.396802e+001	-1.073294e+002	7.748376e+001	-4.772798e+001	9.819487e+001
1.095056e+007	-4.214619e+001	-8.182055e+001	-3.053308e+001	-2.402220e+001	-1.009145e+002	9.113516e+001	-4.771218e+001	9.834246e+001
1.095057e+007	-4.219816e+001	-8.192841e+001	-3.055561e+001	-2.414248e+001	-9.708313e+001	8.449938e+001	-4.778067e+001	9.823931e+001
1.095058e+007	-4.217204e+001	-8.225046e+001	-3.057296e+001	-2.428134e+001	-9.658742e+001	1.002967e+002	-4.770124e+001	9.848079e+001
1.095059e+007	-4.214859e+001	-8.196931e+001	-3.057809e+001	-2.402458e+001	-1.000121e+002	9.311134e+001	-4.767519e+001	9.875144e+001
1.095059e+007	-4.217291e+001	-8.195441e+001	-3.056674e+001	-2.396914e+001	-9.530718e+001	8.750649e+001	-4.771716e+001	9.873421e+001
1.095060e+007	-4.214784e+001	-8.202273e+001	-3.054068e+001	-2.404897e+001	-9.755900e+001	9.766243e+001	-4.774969e+001	9.848158e+001
1.095061e+007	-4.219450e+001	-8.211809e+001	-3.055788e+001	-2.419984e+001	-9.509291e+001	8.896547e+001	-4.777702e+001	9.836981e+001
1.095062e+007	-4.214968e+001	-8.194167e+001	-3.056720e+001	-2.407192e+001	-9.681356e+001	1.197780e+002	-4.775851e+001	9.900216e+001
1.095063e+007	-4.212069e+001	-8.197426e+001	-3.057936e+001	-2.396560e+001	-9.509830e+001	9.677197e+001	-4.765460e+001	9.857285e+001
1.095063e+007	-4.215024e+001	-8.202995e+001	-3.055438e+001	-2.399980e+001	-9.620308e+001	6.744885e+001	-4.766195e+001	9.830062e+001
1.095064e+007	-4.215100e+001	-8.215226e+001	-3.054460e+001	-2.414699e+001	-1.010665e+002	8.718573e+001	-4.768981e+001	9.846590e+001
1.095065e+007	-4.218573e+001	-8.217660e+001	-3.056476e+001	-2.417515e+001	-9.733710e+001	9.403035e+001	-4.774239e+001	9.874786e+001
1.095066e+007	-4.217400e+001	-8.208505e+001	-3.056835e+001	-2.397168e+001	-9.611615e+001	1.021226e+002	-4.770848e+001	9.899914e+001
1.095066e+007	-4.218332e+001	-8.189970e+001	-3.054386e+001	-2.402913e+001	-9.734741e+001	1.000292e+002	-4.767904e+001	9.870601e+001
1.095067e+007	-4.215608e+001	-8.203411e+001	-3.055381e+001	-2.413344e+001	-9.580105e+001	8.160848e+001	-4.780045e+001	9.821033e+001
1.095068e+007	-4.219304e+001	-8.213465e+001	-3.058075e+001	-2.404192e+001	-9.560763e+001	1.016764e+002	-4.776669e+001	9.887398e+001
1.095069e+007	-4.216917e+001	-8.194228e+001	-3.055801e+001	-2.394114e+001	-9.696083e+001	8.201913e+001	-4.776694e+001	9.863980e+001
1.095070e+007	-4.215063e+001	-8.197938e+001	-3.054998e+001	-2.411539e+001	-9.690020e+001	1.086720e+002	-4.767864e+001	9.847648e+001
1.095070e+007	-4.215460e+001	-8.187923e+001	-3.055710e+001	-2.414453e+001	-9.819696e+001	9.795715e+001	-4.774100e+001	9.897438e+001
1.095071e+007	-4.214931e+001	-8.189426e+001	-3.055751e+001	-2.398606e+001	-9.600945e+001	9.145639e+001	-4.772222e+001	9.862305e+001
1.095072e+007	-4.216920e+001	-8.209615e+001	-3.054771e+001	-2.401597e+001	-9.633616e+001	9.208352e+001	-4.774980e+001	9.786508e+001
1.095073e+007	-4.216586e+001	-8.197220e+001	-3.055926e+001	-2.410864e+001	-9.744863e+001	8.295187e+001	-4.774608e+001	9.830393e+001
1.095073e+007	-4.211615e+001	-8.199423e+001	-3.055954e+001	-2.403139e+001	-9.833842e+001	8.802960e+001	-4.767946e+001	9.872460e+001
1.095074e+007	-4.216055e+001	-8.216258e+001	-3.054822e+001	-2.406145e+001	-9.557864e+001	9.866226e+001	-4.766427e+001	9.910040e+001
1.095075e+007	-4.214931e+001	-8.207799e+001	-3.056234e+001	-2.413989e+001	-9.702980e+001	9.214793e+001	-4.776822e+001	9.876534e+001
1.095076e+007	-4.217527e+001	-8.207145e+001	-3.056378e+001	-2.399511e+001	-9.584471e+001	1.042101e+002	-4.773344e+001	9.862522e+001
1.095077e+007	-4.215820e+001	-8.182442e+001	-3.054817e+001	-2.409704e+001	-9.309596e+001	9.524332e+001	-4.767925e+001	9.845125e+001
1.095077e+007	-4.213830e+001	-8.189924e+001	-3.055352e+001	-2.409360e+001	-9.939412e+001	9.007310e+001	-4.772602e+001	9.861383e+001
1.095078e+007	-4.216103e+001	-8.210442e+001	-3.055966e+001	-2.401590e+001	-1.007675e+002	8.149191e+001	-4.774468e+001	9.879023e+001
1.095079e+007	-4.214657e+001	-8.209980e+001	-3.055105e+001	-2.416886e+001	-9.793366e+001	7.756281e+001	-4.769930e+001	9.857639e+001
1.095080e+007	-4.215868e+001	-8.194367e+001	-3.056471e+001	-2.406249e+001	-9.664916e+001	8.213917e+001	-4.767008e+001	9.836460e+001
1.095080e+007	-4.216439e+001	-8.207759e+001	-3.054654e+001	-2.409454e+001	-9.375711e+001	9.829840e+001	-4.770121e+001	9.859513e+001
1.095081e+007	-4.214636e+001	-8.199378e+001	-3.056302e+001	-2.417544e+001	-1.002493e+002	8.024396e+001	-4.777374e+001	9.874418e+001
1.095082e+007	-4.216530e+001	-8.203086e+001	-3.055721e+001	-2.401997e+001	-9.618673e+001	8.457802e+001	-4.769056e+001	9.854115e+001
1.095083e+007	-4.215614e+001	-8.204268e+001	-3.054124e+001	-2.409935e+001	-9.441624e+001	8.445752e+001	-4.773376e+001	9.842104e+001
1.095084e+007	-4.215257e+001	-8.195617e+001	-3.056757e+001	-2.407016e+001	-9.552956e+001	8.177655e+001	-4.773334e+001	9.868747e+001
1.095084e+007	-4.218487e+001	-8.215739e+001	-3.053803e+001	-2.413050e+001	-9.607602e+001	8.008776e+001	-4.773611e+001	9.867677e+001
1.095085e+007	-4.217036e+001	-8.219311e+001	-3.056762e+001	-2.410183e+001	-9.614034e+001	1.000550e+002	-4.769611e+001	9.883272e+001
1.095086e+007	-4.215847e+001	-8.214529e+001	-3.054269e+001	-2.410985e+001	-9.510879e+001	8.470535e+001	-4.765188e+001	9.846220e+001
1.095087e+007	-4.216446e+001	-8.223010e+001	-3.055309e+001	-2.411694e+001	-9.623657e+001	1.016259e+002	-4.768899e+001	9.879935e+001
1.095088e+007	-4.214631e+001	-8.205546e+001	-3.055594e+001	-2.410279e+001	-9.476618e+001	9.411141e+001	-4.768805e+001	9.843900e+001
1.095088e+007	-4.215876e+001	-8.228967e+001	-3.055080e+001	-2.416617e+001	-9.521446e+001	9.361317e+001	-4.774056e+001	9.847781e+001
1.095089e+007	-4.217125e+001	-8.216755e+001	-3.055148e+001	-2.403662e+001	-9.709541e+001	1.009707e+002	-4.766884e+001	9.839152e+001
1.095090e+007	-4.214821e+001	-8.194523e+001	-3.054938e+001	-2.417029e+001	-9.903236e+001	1.060834e+002	-4.774207e+001	9.811937e+001
1.095091e+007	-4.216753e+001	-8.233668e+001	-3.054869e+001	-2.396161e+001	-9.447736e+001	8.394220e+001	-4.768922e+001	9.855429e+001
1.095091e+007	-4.216375e+001	-8.190207e+001	-3.054111e+001	-2.410207e+001	-9.384987e+001	9.462554e+001	-4.772112e+001	9.841906e+001
1.095092e+007	-4.215624e+001	-8.209968e+001	-3.055152e+001	-2.401642e+001	-9.622152e+001	1.125219e+002	-4.766872e+001	9.882921e+001
1.095093e+007	-4.216382e+001	-8.188370e+001	-3.054282e+001	-2.412860e+001	-9.540784e+001	1.001254e+002	-4.772318e+001	9.826699e+001
1.095094e+007	-4.216556e+001	-8.197196e+001	-3.053727e+001	-2.404165e+001	-9.636019e+001	8.739018e+001	-4.769330e+001	9.825452e+001
1.095095e+007	-4.214919e+001	-8.215769e+001	-3.054384e+001	-2.409357e+001	-9.772473e+001	1.011559e+002	-4.770963e+001	9.851223e+001
1.095095e+007	-4.218611e+001	-8.231260e+001	-3.053464e+001	-2.399782e+001	-9.970199e+001	8.657006e+001	-4.775219e+001	9.860935e+001
1.095096e+007	-4.216359e+001	-8.190163e+001	-3.054193e+001	-2.408807e+001	-9.598263e+001	1.196279e+002	-4.775465e+001	9.867723e+001
1.095097e+007	-4.216084e+001	-8.214564e+001	-3.053465e+001	-2.410853e+001	-9.836651e+001	9.348425e+001	-4.766026e+001	9.848798e+001
1.095098e+007	-4.215811e+001	-8.198824e+001	-3.054649e+001	-2.404752e+001	-9.599115e+001	1.112610e+002	-4.775510e+001	9.884427e+001
1.095098e+007	-4.216482e+001	-8.215949e+001	-3.054236e+001	-2.406916e+001	-9.594493e+001	7.856826e+001	-4.775311e+001	9.869273e+001
1.095099e+007	-4.215465e+001	-8.221583e+001	-3.053990e+001	-2.407091e+001	-9.430488e+001	8.469101e+001	-4.767188e+001	9.842564e+001
1.095100e+007	-4.217469e+001	-8.207019e+001	-3.053673e+001	-2.405882e+001	-9.641129e+001	8.347412e+001	-4.763378e+001	9.863819e+001
1.095101e+007	-4.217687e+001	-8.237697e+001	-3.053933e+001	-2.411892e+001	-9.728322e+001	8.384876e+001	-4.772732e+001	9.835378e+001
1.095102e+007	-4.216237e+001	-8.200802e+001	-3.054257e+001	-2.412433e+001	-9.520209e+001	7.750983e+001	-4.771385e+001	9.858056e+001
1.095102e+007	-4.217711e+001	-8.193756e+001	-3.053556e+001	-2.413746e+001	-9.919461e+001	1.056209e+002	-4.775370e+001	9.862239e+001
1.095103e+007	-4.214366e+001	-8.204970e+001	-3.053772e+001	-2.402814e+001	-9.763557e+001	9.357073e+001	-4.771016e+001	9.827961e+001
1.095104e+007	-4.216902e+001	-8.202027e+001	-3.053635e+001	-2.411993e+001	-9.859648e+001	1.069799e+002	-4.764790e+001	9.823233e+001
1.095105e+007	-4.216352e+001	-8.206457e+001	-3.053917e+001	-2.406287e+001	-9.719633e+001	8.792896e+001	-4.770171e+001	9.854479e+001
1.095105e+007	-4.213564e+001	-8.189181e+001	-3.054173e+001	-2.406157e+001	-9.485941e+001	1.021744e+002	-4.771538e+001	9.857642e+001
1.095106e+007	-4.216378e+001	-8.213980e+001	-3.053704e+001	-2.408966e+001	-9.775335e+001	8.920922e+001	-4.773675e+001	9.863583e+001
1.095107e+007	-4.217246e+001	-8.219826e+001	-3.053036e+001	-2.409652e+001	-9.603172e+001	1.015437e+002	-4.772319e+001	9.852725e+001
1.095108e+007	-4.214468e+001	-8.204713e+001	-3.052982e+001	-2.402374e+001	-9.496627e+001	1.105011e+002	-4.770319e+001	9.849234e+001
1.095109e+007	-4.213231e+001	-8.207802e+001	-3.052832e+001	-2.405576e+001	-9.642877e+001	8.562615e+001	-4.773645e+001	9.816956e+001
1.095109e+007	-4.215275e+001	-8.220929e+001	-3.052596e+001	-2.409038e+001	-9.829079e+001	1.234145e+002	-4.770282e+001	9.872521e+001
1.095110e+007	-4.219511e+001	-8.194318e+001	-3.053327e+001	-2.405472e+001	-9.903698e+001	8.619704e+001	-4.773111e+001	9.844583e+001
1.095111e+007	-4.217633e+001	-8.216864e+001	-3.053047e+001	-2.409251e+001	-9.539530e+001	8.398777e+001	-4.766227e+001	9.878789e+001
1.095112e+007	-4.214384e+001	-8.194680e+001	-3.052333e+001	-2.403682e+001	-9.475616e+001	1.021014e+002	-4.768262e+001	9.853579e+001
1.095113e+007	-4.218072e+001	-8.187174e+001	-3.054020e+001	-2.399438e+001	-9.405855e+001	1.019998e+002	-4.767356e+001	9.864753e+001
1.095113e+007	-4.216313e+001	-8.207327e+001	-3.053071e+001	-2.407915e+001	-9.607879e+001	8.233428e+001	-4.765413e+001	9.826811e+001
1.095114e+007	-4.213829e+001	-8.211320e+001	-3.052759e+001	-2.405182e+001	-9.740683e+001	9.126835e+001	-4.768457e+001	9.842797e+001
1.095115e+007	-4.218550e+001	-8.195950e+001	-3.052059e+001	-2.406448e+001	-9.572628e+001	9.679398e+001	-4.764639e+001	9.856059e+001
1.095116e+007	-4.214109e+001	-8.200443e+001	-3.053259e+001	-2.407162e+001	-9.951964e+001	6.992295e+001	-4.774686e+001	9.883262e+001
