!CETC41,AV3656A,ZGL00048,1.3.2
!Calibration ON (Full Solt 2-Port(Omit Isolation))
!Measurements: S11 S21 S12 S22
!2025-07-09 22:39
# Hz  S  dB  R 50.000
1.095000e+007	-4.207399e+001	-8.291527e+001	-3.050770e+001	-2.441760e+001	-1.008733e+002	9.958261e+001	-4.690322e+001	1.037213e+002
1.095001e+007	-4.205634e+001	-8.313987e+001	-3.050441e+001	-2.448681e+001	-9.494568e+001	1.064370e+002	-4.688340e+001	1.039260e+002
1.095002e+007	-4.206747e+001	-8.312344e+001	-3.050966e+001	-2.455212e+001	-9.644384e+001	9.667854e+001	-4.691061e+001	1.035972e+002
1.095002e+007	-4.206323e+001	-8.309320e+001	-3.051482e+001	-2.460294e+001	-9.780579e+001	8.746637e+001	-4.682487e+001	1.036874e+002
1.095003e+007	-4.203212e+001	-8.313936e+001	-3.051634e+001	-2.462693e+001	-9.656095e+001	9.683469e+001	-4.683566e+001	1.037252e+002
1.095004e+007	-4.206613e+001	-8.311320e+001	-3.053346e+001	-2.460078e+001	-9.686179e+001	8.429768e+001	-4.684964e+001	1.035574e+002
1.095005e+007	-4.203311e+001	-8.316589e+001	-3.052359e+001	-2.454552e+001	-9.873507e+001	9.205330e+001	-4.674872e+001	1.039056e+002
1.095005e+007	-4.207483e+001	-8.318504e+001	-3.053134e+001	-2.450180e+001	-9.930826e+001	7.313257e+001	-4.682653e+001	1.034297e+002
1.095006e+007	-4.205071e+001	-8.314048e+001	-3.051864e+001	-2.442815e+001	-9.573261e+001	8.639948e+001	-4.684963e+001	1.032168e+002
1.095007e+007	-4.205860e+001	-8.294930e+001	-3.051926e+001	-2.438488e+001	-9.585701e+001	9.391463e+001	-4.688960e+001	1.034792e+002
1.095008e+007	-4.202078e+001	-8.295325e+001	-3.049747e+001	-2.435615e+001	-9.704659e+001	8.826015e+001	-4.696270e+001	1.033060e+002
1.095009e+007	-4.204061e+001	-8.320785e+001	-3.049146e+001	-2.446646e+001	-9.465675e+001	1.007872e+002	-4.699315e+001	1.034988e+002
1.095009e+007	-4.204837e+001	-8.301082e+001	-3.049621e+001	-2.453230e+001	-9.407325e+001	1.037177e+002	-4.685617e+001	1.039325e+002
1.095010e+007	-4.205600e+001	-8.308730e+001	-3.049964e+001	-2.455704e+001	-9.604077e+001	9.311211e+001	-4.681560e+001	1.037439e+002
1.095011e+007	-4.204807e+001	-8.312945e+001	-3.051360e+001	-2.455415e+001	-9.650842e+001	9.260736e+001	-4.681275e+001	1.033717e+002
1.095012e+007	-4.205453e+001	-8.295507e+001	-3.052213e+001	-2.448540e+001	-9.355639e+001	9.692221e+001	-4.690363e+001	1.029245e+002
1.095013e+007	-4.204229e+001	-8.308410e+001	-3.050299e+001	-2.441185e+001	-9.791386e+001	8.918891e+001	-4.685973e+001	1.029701e+002
1.095013e+007	-4.204287e+001	-8.328535e+001	-3.049706e+001	-2.441117e+001	-9.366985e+001	8.614821e+001	-4.695844e+001	1.032749e+002
1.095014e+007	-4.205147e+001	-8.305638e+001	-3.049023e+001	-2.448156e+001	-9.510826e+001	9.647109e+001	-4.688343e+001	1.037691e+002
1.095015e+007	-4.209241e+001	-8.301158e+001	-3.049787e+001	-2.457205e+001	-1.027569e+002	9.067049e+001	-4.690171e+001	1.034268e+002
1.095016e+007	-4.203220e+001	-8.310984e+001	-3.050317e+001	-2.448133e+001	-9.790788e+001	4.823419e+001	-4.681330e+001	1.032249e+002
1.095016e+007	-4.203276e+001	-8.310385e+001	-3.049813e+001	-2.441195e+001	-9.452774e+001	8.913748e+001	-4.685266e+001	1.033610e+002
1.095017e+007	-4.206659e+001	-8.293927e+001	-3.049050e+001	-2.441966e+001	-9.817660e+001	1.126776e+002	-4.693985e+001	1.033291e+002
1.095018e+007	-4.206862e+001	-8.301297e+001	-3.048799e+001	-2.442160e+001	-9.776399e+001	7.932790e+001	-4.691816e+001	1.038579e+002
1.095019e+007	-4.202227e+001	-8.304565e+001	-3.049706e+001	-2.447950e+001	-1.003269e+002	7.920224e+001	-4.688336e+001	1.040793e+002
1.095020e+007	-4.205729e+001	-8.305396e+001	-3.051218e+001	-2.445160e+001	-9.612826e+001	9.559952e+001	-4.687930e+001	1.034681e+002
1.095020e+007	-4.207878e+001	-8.305197e+001	-3.050461e+001	-2.443156e+001	-1.003185e+002	6.956533e+001	-4.692261e+001	1.033554e+002
1.095021e+007	-4.203585e+001	-8.308423e+001	-3.050042e+001	-2.441334e+001	-9.644168e+001	9.333200e+001	-4.690547e+001	1.038453e+002
1.095022e+007	-4.203988e+001	-8.304955e+001	-3.048520e+001	-2.449380e+001	-9.576594e+001	6.859444e+001	-4.687106e+001	1.036209e+002
1.095023e+007	-4.204573e+001	-8.322376e+001	-3.049407e+001	-2.447907e+001	-1.007590e+002	7.565251e+001	-4.686287e+001	1.030471e+002
1.095023e+007	-4.207726e+001	-8.301262e+001	-3.049792e+001	-2.437136e+001	-9.620009e+001	9.933496e+001	-4.688525e+001	1.032393e+002
1.095024e+007	-4.205398e+001	-8.317600e+001	-3.047993e+001	-2.440043e+001	-9.441866e+001	1.176124e+002	-4.690701e+001	1.035572e+002
1.095025e+007	-4.206206e+001	-8.303026e+001	-3.048701e+001	-2.449202e+001	-9.272876e+001	7.409004e+001	-4.681906e+001	1.036765e+002
1.095026e+007	-4.202802e+001	-8.316690e+001	-3.051287e+001	-2.448032e+001	-9.741961e+001	1.000147e+002	-4.685758e+001	1.032756e+002
1.095027e+007	-4.203790e+001	-8.308200e+001	-3.049395e+001	-2.443019e+001	-9.847681e+001	9.540631e+001	-4.692676e+001	1.033552e+002
1.095027e+007	-4.205984e+001	-8.297209e+001	-3.048704e+001	-2.443542e+001	-9.989783e+001	7.531145e+001	-4.691391e+001	1.036543e+002
1.095028e+007	-4.207221e+001	-8.294726e+001	-3.049779e+001	-2.450176e+001	-9.719846e+001	1.156900e+002	-4.685086e+001	1.035241e+002
1.095029e+007	-4.204415e+001	-8.295580e+001	-3.049382e+001	-2.440484e+001	-9.718300e+001	6.763607e+001	-4.687532e+001	1.028695e+002
1.095030e+007	-4.206165e+001	-8.306399e+001	-3.047624e+001	-2.440103e+001	-9.894626e+001	7.204310e+001	-4.689474e+001	1.038048e+002
1.095030e+007	-4.203826e+001	-8.297375e+001	-3.049733e+001	-2.449808e+001	-9.661624e+001	7.404427e+001	-4.681497e+001	1.036244e+002
1.095031e+007	-4.202849e+001	-8.310403e+001	-3.048689e+001	-2.441465e+001	-9.605937e+001	8.287390e+001	-4.691203e+001	1.031220e+002
1.095032e+007	-4.205956e+001	-8.305384e+001	-3.048858e+001	-2.445843e+001	-1.004013e+002	1.022897e+002	-4.690315e+001	1.032597e+002
1.095033e+007	-4.203482e+001	-8.319240e+001	-3.048985e+001	-2.449823e+001	-9.703919e+001	8.986396e+001	-4.679430e+001	1.032192e+002
1.095034e+007	-4.205305e+001	-8.305989e+001	-3.048587e+001	-2.440199e+001	-1.003708e+002	1.286992e+002	-4.689180e+001	1.032670e+002
1.095034e+007	-4.206421e+001	-8.297246e+001	-3.047507e+001	-2.449352e+001	-9.655310e+001	1.126450e+002	-4.689947e+001	1.038616e+002
1.095035e+007	-4.205180e+001	-8.300843e+001	-3.048969e+001	-2.445024e+001	-9.658774e+001	9.401262e+001	-4.691217e+001	1.034052e+002
1.095036e+007	-4.206668e+001	-8.328315e+001	-3.047449e+001	-2.438888e+001	-9.925662e+001	9.912485e+001	-4.691519e+001	1.034021e+002
1.095037e+007	-4.203796e+001	-8.281031e+001	-3.048178e+001	-2.448625e+001	-9.591244e+001	1.011708e+002	-4.681721e+001	1.032729e+002
1.095038e+007	-4.206106e+001	-8.326323e+001	-3.049525e+001	-2.438412e+001	-9.552527e+001	8.763681e+001	-4.679635e+001	1.034498e+002
1.095038e+007	-4.204661e+001	-8.302962e+001	-3.047355e+001	-2.440708e+001	-9.454870e+001	7.649110e+001	-4.687804e+001	1.036464e+002
1.095039e+007	-4.205477e+001	-8.320714e+001	-3.048101e+001	-2.444079e+001	-9.625843e+001	9.175180e+001	-4.686035e+001	1.034559e+002
1.095040e+007	-4.203186e+001	-8.302002e+001	-3.048244e+001	-2.436997e+001	-9.505589e+001	8.960414e+001	-4.688201e+001	1.034956e+002
1.095041e+007	-4.206040e+001	-8.315097e+001	-3.047302e+001	-2.452567e+001	-9.680327e+001	7.734632e+001	-4.684522e+001	1.033948e+002
1.095041e+007	-4.204084e+001	-8.314742e+001	-3.049708e+001	-2.438982e+001	-9.640217e+001	9.975673e+001	-4.683884e+001	1.034542e+002
1.095042e+007	-4.201929e+001	-8.319269e+001	-3.047368e+001	-2.450403e+001	-9.358276e+001	7.943814e+001	-4.685133e+001	1.035587e+002
1.095043e+007	-4.204162e+001	-8.308498e+001	-3.049710e+001	-2.441045e+001	-9.882164e+001	7.923840e+001	-4.685141e+001	1.029970e+002
1.095044e+007	-4.201524e+001	-8.320301e+001	-3.046924e+001	-2.446399e+001	-9.595508e+001	8.981251e+001	-4.691406e+001	1.037259e+002
1.095045e+007	-4.202996e+001	-8.311449e+001	-3.047293e+001	-2.447274e+001	-9.907871e+001	8.523821e+001	-4.689837e+001	1.033500e+002
1.095045e+007	-4.205736e+001	-8.287493e+001	-3.047542e+001	-2.442584e+001	-1.048683e+002	1.610095e+002	-4.688635e+001	1.036280e+002
1.095046e+007	-4.203784e+001	-8.288565e+001	-3.047543e+001	-2.445297e+001	-9.658233e+001	1.049939e+002	-4.687869e+001	1.035658e+002
1.095047e+007	-4.204373e+001	-8.297503e+001	-3.047522e+001	-2.435723e+001	-1.047153e+002	6.039447e+001	-4.688776e+001	1.033059e+002
1.095048e+007	-4.205655e+001	-8.289719e+001	-3.047041e+001	-2.448290e+001	-9.971605e+001	1.205842e+002	-4.687796e+001	1.034749e+002
1.095048e+007	-4.203379e+001	-8.296756e+001	-3.046945e+001	-2.437850e+001	-9.603612e+001	9.934561e+001	-4.687140e+001	1.033775e+002
1.095049e+007	-4.204004e+001	-8.303219e+001	-3.046438e+001	-2.447502e+001	-9.782676e+001	1.035955e+002	-4.687343e+001	1.033369e+002
1.095050e+007	-4.202967e+001	-8.333995e+001	-3.046834e+001	-2.437837e+001	-9.676074e+001	1.137669e+002	-4.690650e+001	1.038952e+002
1.095051e+007	-4.203699e+001	-8.299326e+001	-3.046597e+001	-2.452213e+001	-9.552243e+001	1.067348e+002	-4.684715e+001	1.032275e+002
1.095052e+007	-4.205029e+001	-8.283543e+001	-3.047008e+001	-2.440241e+001	-9.658840e+001	9.462909e+001	-4.687188e+001	1.037087e+002
1.095052e+007	-4.204476e+001	-8.308306e+001	-3.047151e+001	-2.444225e+001	-9.645513e+001	8.643102e+001	-4.687516e+001	1.037052e+002
1.095053e+007	-4.205625e+001	-8.326949e+001	-3.046561e+001	-2.440530e+001	-9.470082e+001	1.018002e+002	-4.684952e+001	1.036799e+002
1.095054e+007	-4.202331e+001	-8.291333e+001	-3.047727e+001	-2.448771e+001	-9.655061e+001	8.298624e+001	-4.682727e+001	1.035287e+002
1.095055e+007	-4.204440e+001	-8.334168e+001	-3.045903e+001	-2.442977e+001	-9.703599e+001	7.317683e+001	-4.690716e+001	1.035676e+002
1.095055e+007	-4.206138e+001	-8.314082e+001	-3.047463e+001	-2.440953e+001	-9.797526e+001	8.728384e+001	-4.685997e+001	1.035765e+002
1.095056e+007	-4.204716e+001	-8.308188e+001	-3.046666e+001	-2.446682e+001	-9.379039e+001	9.529531e+001	-4.684598e+001	1.036097e+002
1.095057e+007	-4.202549e+001	-8.291654e+001	-3.046209e+001	-2.442145e+001	-1.007984e+002	7.596434e+001	-4.684935e+001	1.033260e+002
1.095058e+007	-4.203429e+001	-8.290244e+001	-3.046295e+001	-2.445601e+001	-1.007695e+002	9.564003e+001	-4.684267e+001	1.033272e+002
1.095059e+007	-4.206936e+001	-8.332905e+001	-3.045788e+001	-2.442101e+001	-9.430253e+001	9.952514e+001	-4.686674e+001	1.036712e+002
1.095059e+007	-4.205525e+001	-8.308813e+001	-3.046879e+001	-2.447835e+001	-9.778507e+001	9.730651e+001	-4.684605e+001	1.034780e+002
1.095060e+007	-4.206818e+001	-8.327816e+001	-3.046001e+001	-2.437291e+001	-1.017406e+002	9.529954e+001	-4.688065e+001	1.034358e+002
1.095061e+007	-4.205265e+001	-8.304685e+001	-3.046626e+001	-2.443372e+001	-9.930751e+001	1.174328e+002	-4.688384e+001	1.034271e+002
1.095062e+007	-4.205328e+001	-8.336145e+001	-3.047157e+001	-2.449981e+001	-9.561404e+001	8.375218e+001	-4.685275e+001	1.037012e+002
1.095063e+007	-4.203947e+001	-8.304558e+001	-3.045245e+001	-2.442055e+001	-9.728550e+001	9.898763e+001	-4.684857e+001	1.035184e+002
1.095063e+007	-4.203908e+001	-8.283793e+001	-3.046530e+001	-2.438726e+001	-9.741596e+001	9.066466e+001	-4.690009e+001	1.038038e+002
1.095064e+007	-4.204226e+001	-8.314476e+001	-3.044619e+001	-2.448586e+001	-9.465499e+001	1.094366e+002	-4.684430e+001	1.035229e+002
1.095065e+007	-4.203986e+001	-8.309797e+001	-3.045596e+001	-2.438121e+001	-9.788530e+001	9.313405e+001	-4.680694e+001	1.034165e+002
1.095066e+007	-4.203220e+001	-8.291113e+001	-3.047113e+001	-2.450988e+001	-9.874543e+001	9.040098e+001	-4.685036e+001	1.034664e+002
1.095066e+007	-4.202805e+001	-8.324994e+001	-3.045187e+001	-2.441915e+001	-9.925861e+001	7.186164e+001	-4.688251e+001	1.038614e+002
1.095067e+007	-4.206369e+001	-8.284319e+001	-3.044962e+001	-2.438106e+001	-9.555939e+001	9.847059e+001	-4.685862e+001	1.031773e+002
1.095068e+007	-4.204117e+001	-8.320277e+001	-3.044952e+001	-2.442905e+001	-9.464963e+001	1.027324e+002	-4.686886e+001	1.037666e+002
1.095069e+007	-4.204737e+001	-8.318926e+001	-3.045536e+001	-2.448339e+001	-9.705312e+001	9.036299e+001	-4.687059e+001	1.040009e+002
1.095070e+007	-4.205073e+001	-8.318948e+001	-3.045279e+001	-2.440093e+001	-1.018366e+002	7.198699e+001	-4.685609e+001	1.031982e+002
1.095070e+007	-4.202996e+001	-8.306856e+001	-3.044890e+001	-2.446125e+001	-1.046554e+002	9.386650e+001	-4.687544e+001	1.035566e+002
1.095071e+007	-4.203669e+001	-8.306778e+001	-3.045770e+001	-2.439754e+001	-9.610713e+001	1.146681e+002	-4.685170e+001	1.037762e+002
1.095072e+007	-4.205203e+001	-8.317281e+001	-3.046370e+001	-2.449550e+001	-9.636320e+001	9.326364e+001	-4.686209e+001	1.035733e+002
1.095073e+007	-4.204782e+001	-8.308483e+001	-3.044855e+001	-2.439113e+001	-9.740498e+001	8.797795e+001	-4.686996e+001	1.032535e+002
1.095073e+007	-4.206476e+001	-8.314619e+001	-3.045156e+001	-2.445010e+001	-9.532301e+001	9.689049e+001	-4.682628e+001	1.036400e+002
1.095074e+007	-4.203471e+001	-8.310608e+001	-3.045441e+001	-2.440853e+001	-9.596306e+001	8.255830e+001	-4.689404e+001	1.036055e+002
1.095075e+007	-4.207475e+001	-8.322095e+001	-3.044729e+001	-2.445315e+001	-9.644554e+001	9.116549e+001	-4.691370e+001	1.034791e+002
1.095076e+007	-4.203036e+001	-8.310987e+001	-3.044666e+001	-2.456299e+001	-9.519404e+001	8.504146e+001	-4.687796e+001	1.035488e+002
1.095077e+007	-4.202485e+001	-8.309470e+001	-3.044607e+001	-2.442119e+001	-9.585696e+001	1.031396e+002	-4.685809e+001	1.033025e+002
1.095077e+007	-4.203791e+001	-8.304144e+001	-3.044265e+001	-2.445943e+001	-9.506530e+001	9.295687e+001	-4.688605e+001	1.035852e+002
1.095078e+007	-4.205572e+001	-8.306562e+001	-3.044926e+001	-2.441372e+001	-9.556033e+001	8.702035e+001	-4.687188e+001	1.033797e+002
1.095079e+007	-4.209056e+001	-8.320798e+001	-3.043793e+001	-2.447497e+001	-9.515958e+001	1.012897e+002	-4.691616e+001	1.036222e+002
1.095080e+007	-4.206461e+001	-8.313115e+001	-3.043551e+001	-2.444537e+001	-9.775510e+001	1.091881e+002	-4.687300e+001	1.037174e+002
1.095080e+007	-4.201933e+001	-8.306068e+001	-3.043832e+001	-2.444509e+001	-9.440243e+001	8.254409e+001	-4.685413e+001	1.038301e+002
1.095081e+007	-4.204596e+001	-8.309459e+001	-3.044201e+001	-2.442098e+001	-9.763298e+001	9.906413e+001	-4.685574e+001	1.036792e+002
1.095082e+007	-4.200740e+001	-8.301497e+001	-3.044345e+001	-2.446480e+001	-9.869176e+001	9.852794e+001	-4.686207e+001	1.034671e+002
1.095083e+007	-4.203559e+001	-8.293930e+001	-3.043766e+001	-2.443828e+001	-9.910362e+001	8.716822e+001	-4.687011e+001	1.035010e+002
1.095084e+007	-4.203986e+001	-8.330976e+001	-3.043115e+001	-2.443635e+001	-1.003649e+002	8.649245e+001	-4.687771e+001	1.032274e+002
1.095084e+007	-4.207788e+001	-8.296084e+001	-3.042181e+001	-2.443105e+001	-9.482882e+001	9.545813e+001	-4.686551e+001	1.033982e+002
1.095085e+007	-4.203730e+001	-8.294135e+001	-3.044175e+001	-2.441048e+001	-9.581517e+001	8.174833e+001	-4.686879e+001	1.037802e+002
1.095086e+007	-4.204309e+001	-8.299032e+001	-3.044219e+001	-2.440711e+001	-9.548027e+001	8.336143e+001	-4.683849e+001	1.034380e+002
1.095087e+007	-4.202499e+001	-8.316050e+001	-3.044337e+001	-2.441283e+001	-9.626071e+001	9.532279e+001	-4.686399e+001	1.035780e+002
1.095088e+007	-4.203587e+001	-8.289959e+001	-3.043945e+001	-2.445691e+001	-9.516307e+001	1.053805e+002	-4.687847e+001	1.035759e+002
1.095088e+007	-4.199978e+001	-8.306125e+001	-3.044194e+001	-2.447492e+001	-9.935359e+001	8.903346e+001	-4.690145e+001	1.034130e+002
1.095089e+007	-4.203573e+001	-8.294606e+001	-3.042758e+001	-2.448214e+001	-9.678802e+001	8.928320e+001	-4.685497e+001	1.031009e+002
1.095090e+007	-4.206667e+001	-8.300315e+001	-3.043033e+001	-2.448307e+001	-9.594916e+001	7.438551e+001	-4.687580e+001	1.034314e+002
1.095091e+007	-4.206108e+001	-8.302004e+001	-3.043040e+001	-2.443524e+001	-9.504272e+001	9.219293e+001	-4.687986e+001	1.033953e+002
1.095091e+007	-4.204811e+001	-8.294029e+001	-3.042657e+001	-2.438763e+001	-9.656592e+001	9.498766e+001	-4.688861e+001	1.035451e+002
1.095092e+007	-4.206449e+001	-8.307687e+001	-3.042913e+001	-2.443551e+001	-9.603112e+001	7.891511e+001	-4.689010e+001	1.034342e+002
1.095093e+007	-4.207869e+001	-8.309699e+001	-3.042142e+001	-2.441339e+001	-9.716952e+001	1.222198e+002	-4.689174e+001	1.034739e+002
1.095094e+007	-4.202816e+001	-8.314681e+001	-3.042895e+001	-2.446701e+001	-9.694287e+001	1.156027e+002	-4.688455e+001	1.036264e+002
1.095095e+007	-4.205822e+001	-8.304420e+001	-3.042502e+001	-2.444070e+001	-9.704576e+001	9.253556e+001	-4.680965e+001	1.033926e+002
1.095095e+007	-4.205706e+001	-8.319179e+001	-3.042143e+001	-2.443158e+001	-9.702006e+001	7.792844e+001	-4.686412e+001	1.034922e+002
1.095096e+007	-4.201937e+001	-8.304100e+001	-3.042040e+001	-2.448121e+001	-9.704705e+001	1.203428e+002	-4.680670e+001	1.032159e+002
1.095097e+007	-4.206789e+001	-8.312370e+001	-3.040828e+001	-2.448577e+001	-9.592793e+001	9.864405e+001	-4.687646e+001	1.032754e+002
1.095098e+007	-4.205113e+001	-8.320919e+001	-3.042178e+001	-2.449185e+001	-9.569780e+001	8.456415e+001	-4.689617e+001	1.037258e+002
1.095098e+007	-4.206321e+001	-8.285965e+001	-3.040322e+001	-2.450717e+001	-9.658589e+001	1.016948e+002	-4.683462e+001	1.033480e+002
1.095099e+007	-4.206351e+001	-8.315997e+001	-3.041661e+001	-2.448111e+001	-9.419427e+001	9.834995e+001	-4.690349e+001	1.033535e+002
1.095100e+007	-4.201934e+001	-8.305947e+001	-3.041108e+001	-2.450032e+001	-9.908910e+001	9.117289e+001	-4.686579e+001	1.036458e+002
1.095101e+007	-4.203732e+001	-8.316257e+001	-3.040000e+001	-2.445694e+001	-9.546816e+001	7.812256e+001	-4.687028e+001	1.032021e+002
1.095102e+007	-4.203047e+001	-8.305201e+001	-3.040786e+001	-2.452861e+001	-9.471338e+001	1.103642e+002	-4.681472e+001	1.035404e+002
1.095102e+007	-4.205912e+001	-8.324374e+001	-3.041236e+001	-2.458414e+001	-9.917681e+001	9.039467e+001	-4.682952e+001	1.033699e+002
1.095103e+007	-4.203837e+001	-8.307294e+001	-3.040382e+001	-2.459002e+001	-9.559158e+001	1.074794e+002	-4.688393e+001	1.034130e+002
1.095104e+007	-4.203560e+001	-8.310487e+001	-3.041023e+001	-2.461491e+001	-9.899204e+001	8.507544e+001	-4.688265e+001	1.031199e+002
1.095105e+007	-4.199719e+001	-8.296939e+001	-3.040394e+001	-2.465568e+001	-9.543335e+001	9.738567e+001	-4.685291e+001	1.034887e+002
1.095105e+007	-4.202469e+001	-8.299981e+001	-3.041670e+001	-2.473379e+001	-9.354605e+001	8.051946e+001	-4.687469e+001	1.034376e+002
1.095106e+007	-4.201065e+001	-8.320119e+001	-3.043144e+001	-2.476897e+001	-9.966046e+001	6.678476e+001	-4.683485e+001	1.035835e+002
1.095107e+007	-4.206449e+001	-8.295669e+001	-3.044635e+001	-2.475918e+001	-9.373179e+001	9.248951e+001	-4.685359e+001	1.033951e+002
1.095108e+007	-4.203250e+001	-8.314623e+001	-3.045542e+001	-2.472748e+001	-9.594650e+001	9.883866e+001	-4.681237e+001	1.033192e+002
1.095109e+007	-4.205881e+001	-8.313087e+001	-3.047072e+001	-2.458932e+001	-9.822201e+001	8.741359e+001	-4.690715e+001	1.035343e+002
1.095109e+007	-4.203611e+001	-8.326696e+001	-3.046452e+001	-2.438596e+001	-9.408422e+001	1.036633e+002	-4.690493e+001	1.033985e+002
1.095110e+007	-4.203846e+001	-8.286480e+001	-3.045395e+001	-2.428509e+001	-9.580441e+001	1.017556e+002	-4.682883e+001	1.035548e+002
1.095111e+007	-4.203797e+001	-8.290152e+001	-3.045077e+001	-2.417394e+001	-9.649700e+001	8.465922e+001	-4.686665e+001	1.034481e+002
1.095112e+007	-4.203950e+001	-8.323223e+001	-3.041691e+001	-2.411420e+001	-9.697359e+001	9.793795e+001	-4.685608e+001	1.036258e+002
1.095113e+007	-4.200432e+001	-8.314378e+001	-3.039738e+001	-2.418720e+001	-9.756747e+001	9.512611e+001	-4.687297e+001	1.034060e+002
1.095113e+007	-4.206062e+001	-8.319917e+001	-3.036822e+001	-2.438322e+001	-9.842902e+001	8.248900e+001	-4.685689e+001	1.032497e+002
1.095114e+007	-4.204539e+001	-8.308744e+001	-3.037392e+001	-2.465169e+001	-9.602701e+001	8.362948e+001	-4.687229e+001	1.030888e+002
1.095115e+007	-4.202844e+001	-8.305854e+001	-3.039571e+001	-2.474738e+001	-1.003001e+002	8.088824e+001	-4.685709e+001	1.033471e+002
1.095116e+007	-4.205137e+001	-8.306640e+001	-3.042770e+001	-2.469821e+001	-9.825968e+001	1.200766e+002	-4.687828e+001	1.035612e+002
