!CETC41,AV3656A,ZGL00048,1.3.2
!Calibration ON (Full Solt 2-Port(Omit Isolation))
!Measurements: S11 S21 S12 S22
!2025-07-09 22:49
# Hz  S  dB  R 50.000
1.095000e+007	-4.166004e+001	-8.083850e+001	-3.045927e+001	-2.521300e+001	-1.047913e+002	7.348437e+001	-4.336925e+001	3.884794e+001
1.095001e+007	-4.163482e+001	-8.063890e+001	-3.041843e+001	-2.428840e+001	-9.458736e+001	8.887916e+001	-4.342373e+001	3.967624e+001
1.095002e+007	-4.168793e+001	-8.068435e+001	-3.041393e+001	-2.519098e+001	-9.657949e+001	8.609154e+001	-4.332966e+001	3.899641e+001
1.095002e+007	-4.167020e+001	-8.066091e+001	-3.044789e+001	-2.432419e+001	-9.675108e+001	9.679453e+001	-4.340387e+001	3.947886e+001
1.095003e+007	-4.166395e+001	-8.049681e+001	-3.039143e+001	-2.515068e+001	-9.717695e+001	1.040018e+002	-4.334631e+001	3.920034e+001
1.095004e+007	-4.169961e+001	-8.043077e+001	-3.046994e+001	-2.444977e+001	-9.393135e+001	8.075530e+001	-4.341938e+001	3.947573e+001
1.095005e+007	-4.166864e+001	-8.083238e+001	-3.036853e+001	-2.511482e+001	-9.495148e+001	1.119636e+002	-4.334032e+001	3.930341e+001
1.095005e+007	-4.169606e+001	-8.057434e+001	-3.046427e+001	-2.446490e+001	-9.640295e+001	8.556501e+001	-4.342777e+001	3.924043e+001
1.095006e+007	-4.164958e+001	-8.083014e+001	-3.037908e+001	-2.503921e+001	-9.959184e+001	1.114220e+002	-4.334202e+001	3.924805e+001
1.095007e+007	-4.166307e+001	-8.079109e+001	-3.045243e+001	-2.443022e+001	-9.612177e+001	8.013142e+001	-4.344513e+001	3.934360e+001
1.095008e+007	-4.170466e+001	-8.047966e+001	-3.039165e+001	-2.510454e+001	-9.835571e+001	1.057860e+002	-4.339547e+001	3.926771e+001
1.095009e+007	-4.166387e+001	-8.075771e+001	-3.043199e+001	-2.447589e+001	-9.933925e+001	1.178273e+002	-4.339522e+001	3.931637e+001
1.095009e+007	-4.164636e+001	-8.058548e+001	-3.040166e+001	-2.508721e+001	-9.992591e+001	9.477471e+001	-4.334479e+001	3.911153e+001
1.095010e+007	-4.166970e+001	-8.078950e+001	-3.042088e+001	-2.443616e+001	-9.691668e+001	9.394512e+001	-4.340534e+001	3.968567e+001
1.095011e+007	-4.166688e+001	-8.054112e+001	-3.043147e+001	-2.516022e+001	-9.898205e+001	9.596646e+001	-4.335563e+001	3.912723e+001
1.095012e+007	-4.170567e+001	-8.048346e+001	-3.038699e+001	-2.456488e+001	-9.814599e+001	8.096940e+001	-4.341696e+001	3.957911e+001
1.095013e+007	-4.168791e+001	-8.075048e+001	-3.044606e+001	-2.484680e+001	-9.876588e+001	1.055032e+002	-4.340095e+001	3.923647e+001
1.095013e+007	-4.166819e+001	-8.067902e+001	-3.037046e+001	-2.479136e+001	-9.717449e+001	9.589882e+001	-4.338234e+001	3.931480e+001
1.095014e+007	-4.165582e+001	-8.082059e+001	-3.043576e+001	-2.474372e+001	-9.536690e+001	8.838781e+001	-4.337857e+001	3.935209e+001
1.095015e+007	-4.169134e+001	-8.092088e+001	-3.039253e+001	-2.498427e+001	-9.829517e+001	9.871525e+001	-4.336265e+001	3.926516e+001
1.095016e+007	-4.166651e+001	-8.045985e+001	-3.041066e+001	-2.453216e+001	-9.670061e+001	9.994775e+001	-4.340995e+001	3.953685e+001
1.095016e+007	-4.168955e+001	-8.069737e+001	-3.041955e+001	-2.495132e+001	-9.595829e+001	8.815172e+001	-4.341515e+001	3.937677e+001
1.095017e+007	-4.169705e+001	-8.067971e+001	-3.037839e+001	-2.475156e+001	-9.797383e+001	9.811465e+001	-4.333810e+001	3.970478e+001
1.095018e+007	-4.170813e+001	-8.066814e+001	-3.043139e+001	-2.473232e+001	-9.468350e+001	9.324872e+001	-4.340082e+001	3.950744e+001
1.095019e+007	-4.166873e+001	-8.061695e+001	-3.039688e+001	-2.496474e+001	-9.729716e+001	8.950360e+001	-4.340896e+001	3.919817e+001
1.095020e+007	-4.167241e+001	-8.072640e+001	-3.039044e+001	-2.464317e+001	-9.379402e+001	1.117900e+002	-4.337837e+001	3.955913e+001
1.095020e+007	-4.168628e+001	-8.062307e+001	-3.043109e+001	-2.480393e+001	-9.533897e+001	1.119807e+002	-4.343761e+001	3.925284e+001
1.095021e+007	-4.164740e+001	-8.061032e+001	-3.038269e+001	-2.485831e+001	-9.681233e+001	9.820280e+001	-4.335051e+001	3.939576e+001
1.095022e+007	-4.169090e+001	-8.062701e+001	-3.039658e+001	-2.465894e+001	-9.971351e+001	1.059867e+002	-4.337758e+001	3.967023e+001
1.095023e+007	-4.165682e+001	-8.049391e+001	-3.041348e+001	-2.488955e+001	-9.318431e+001	9.148566e+001	-4.340010e+001	3.964774e+001
1.095023e+007	-4.165398e+001	-8.063265e+001	-3.037638e+001	-2.490718e+001	-1.015193e+002	1.161543e+002	-4.336457e+001	3.907411e+001
1.095024e+007	-4.168042e+001	-8.066381e+001	-3.040060e+001	-2.466751e+001	-9.616762e+001	9.943913e+001	-4.335696e+001	3.950404e+001
1.095025e+007	-4.167318e+001	-8.078119e+001	-3.041365e+001	-2.483300e+001	-9.981183e+001	1.194644e+002	-4.342859e+001	3.952069e+001
1.095026e+007	-4.166256e+001	-8.044381e+001	-3.038405e+001	-2.487788e+001	-9.530042e+001	9.276596e+001	-4.336767e+001	3.951486e+001
1.095027e+007	-4.168648e+001	-8.052651e+001	-3.039260e+001	-2.472510e+001	-9.553304e+001	8.000275e+001	-4.335191e+001	3.931016e+001
1.095027e+007	-4.167860e+001	-8.066011e+001	-3.040489e+001	-2.473966e+001	-9.794793e+001	1.069744e+002	-4.339695e+001	3.935440e+001
1.095028e+007	-4.166023e+001	-8.045729e+001	-3.038500e+001	-2.490088e+001	-9.972315e+001	8.893955e+001	-4.339444e+001	3.899812e+001
1.095029e+007	-4.167503e+001	-8.064446e+001	-3.038020e+001	-2.473823e+001	-1.000246e+002	7.968021e+001	-4.336461e+001	3.944714e+001
1.095030e+007	-4.166592e+001	-8.056902e+001	-3.038896e+001	-2.477511e+001	-9.866566e+001	9.893365e+001	-4.340558e+001	3.929821e+001
1.095030e+007	-4.167980e+001	-8.071757e+001	-3.039627e+001	-2.479464e+001	-9.888480e+001	1.068577e+002	-4.341951e+001	3.930229e+001
1.095031e+007	-4.169450e+001	-8.054223e+001	-3.038640e+001	-2.480058e+001	-9.506480e+001	8.862526e+001	-4.339090e+001	3.931523e+001
1.095032e+007	-4.167877e+001	-8.049941e+001	-3.037446e+001	-2.478067e+001	-9.437893e+001	8.161467e+001	-4.337742e+001	3.964908e+001
1.095033e+007	-4.167017e+001	-8.075352e+001	-3.037896e+001	-2.474276e+001	-9.836364e+001	9.550957e+001	-4.340172e+001	3.948692e+001
1.095034e+007	-4.168641e+001	-8.064812e+001	-3.038032e+001	-2.479749e+001	-9.709740e+001	8.820642e+001	-4.340265e+001	3.948864e+001
1.095034e+007	-4.169264e+001	-8.059787e+001	-3.037551e+001	-2.484470e+001	-9.754735e+001	1.103374e+002	-4.335463e+001	3.951094e+001
1.095035e+007	-4.164502e+001	-8.078764e+001	-3.038392e+001	-2.476106e+001	-9.990047e+001	9.213211e+001	-4.337180e+001	3.939526e+001
1.095036e+007	-4.167354e+001	-8.066462e+001	-3.037545e+001	-2.476039e+001	-9.985001e+001	1.160639e+002	-4.341333e+001	3.930941e+001
1.095037e+007	-4.166362e+001	-8.062483e+001	-3.037509e+001	-2.480565e+001	-9.477697e+001	8.811941e+001	-4.336203e+001	3.930379e+001
1.095038e+007	-4.168429e+001	-8.050115e+001	-3.036385e+001	-2.482240e+001	-1.032845e+002	1.016415e+002	-4.340602e+001	3.939677e+001
1.095038e+007	-4.166978e+001	-8.054400e+001	-3.037671e+001	-2.474530e+001	-9.716943e+001	1.094047e+002	-4.335062e+001	3.951253e+001
1.095039e+007	-4.167114e+001	-8.048888e+001	-3.037529e+001	-2.481731e+001	-9.597388e+001	8.328463e+001	-4.339064e+001	3.919924e+001
1.095040e+007	-4.166404e+001	-8.050024e+001	-3.036837e+001	-2.485148e+001	-9.837613e+001	7.391191e+001	-4.341224e+001	3.938888e+001
1.095041e+007	-4.169018e+001	-8.084433e+001	-3.035714e+001	-2.480030e+001	-9.693506e+001	9.010960e+001	-4.341135e+001	3.948787e+001
1.095041e+007	-4.168084e+001	-8.086992e+001	-3.035630e+001	-2.475429e+001	-9.966545e+001	8.561150e+001	-4.342046e+001	3.933360e+001
1.095042e+007	-4.166834e+001	-8.068814e+001	-3.036312e+001	-2.468506e+001	-9.980927e+001	9.678099e+001	-4.336089e+001	3.941223e+001
1.095043e+007	-4.165523e+001	-8.059661e+001	-3.036538e+001	-2.473758e+001	-9.468175e+001	7.823082e+001	-4.340258e+001	3.958218e+001
1.095044e+007	-4.167123e+001	-8.022042e+001	-3.036810e+001	-2.478185e+001	-9.748586e+001	1.057239e+002	-4.342031e+001	3.937833e+001
1.095045e+007	-4.165047e+001	-8.055281e+001	-3.036857e+001	-2.480285e+001	-9.944719e+001	9.314635e+001	-4.340907e+001	3.941929e+001
1.095045e+007	-4.169202e+001	-8.057247e+001	-3.034698e+001	-2.486413e+001	-9.409956e+001	1.057802e+002	-4.341183e+001	3.942169e+001
1.095046e+007	-4.164686e+001	-8.067437e+001	-3.033950e+001	-2.481455e+001	-9.659129e+001	1.035488e+002	-4.334437e+001	3.948424e+001
1.095047e+007	-4.166047e+001	-8.037302e+001	-3.034174e+001	-2.473511e+001	-9.801296e+001	1.281523e+002	-4.335105e+001	3.931370e+001
1.095048e+007	-4.166994e+001	-8.058306e+001	-3.032443e+001	-2.473827e+001	-9.666128e+001	9.677630e+001	-4.335907e+001	3.960022e+001
1.095048e+007	-4.168597e+001	-8.062624e+001	-3.034219e+001	-2.473844e+001	-9.974393e+001	8.356602e+001	-4.340268e+001	3.950288e+001
1.095049e+007	-4.166881e+001	-8.070528e+001	-3.034740e+001	-2.464968e+001	-9.678923e+001	9.652307e+001	-4.338535e+001	3.942496e+001
1.095050e+007	-4.168954e+001	-8.066381e+001	-3.035032e+001	-2.469951e+001	-9.795304e+001	1.213906e+002	-4.338888e+001	3.943377e+001
1.095051e+007	-4.167724e+001	-8.057625e+001	-3.035638e+001	-2.471273e+001	-9.704988e+001	9.282894e+001	-4.341387e+001	3.949640e+001
1.095052e+007	-4.163704e+001	-8.038021e+001	-3.036471e+001	-2.478581e+001	-9.402900e+001	9.615736e+001	-4.341529e+001	3.969851e+001
1.095052e+007	-4.165960e+001	-8.067757e+001	-3.035689e+001	-2.484662e+001	-9.890359e+001	1.074967e+002	-4.338666e+001	3.927882e+001
1.095053e+007	-4.167464e+001	-8.068960e+001	-3.035510e+001	-2.485135e+001	-9.766619e+001	1.032655e+002	-4.341302e+001	3.926120e+001
1.095054e+007	-4.164833e+001	-8.063993e+001	-3.033313e+001	-2.485005e+001	-9.673134e+001	1.035769e+002	-4.339632e+001	3.923684e+001
1.095055e+007	-4.171196e+001	-8.049457e+001	-3.032994e+001	-2.490608e+001	-9.476003e+001	8.875967e+001	-4.340070e+001	3.916490e+001
1.095055e+007	-4.162952e+001	-8.072345e+001	-3.032291e+001	-2.499058e+001	-9.883228e+001	1.120979e+002	-4.338695e+001	3.931845e+001
1.095056e+007	-4.165031e+001	-8.055976e+001	-3.031504e+001	-2.492895e+001	-9.946509e+001	8.335285e+001	-4.339762e+001	3.949876e+001
1.095057e+007	-4.165129e+001	-8.053049e+001	-3.031409e+001	-2.495978e+001	-9.738188e+001	1.124765e+002	-4.338411e+001	3.946389e+001
1.095058e+007	-4.164927e+001	-8.073226e+001	-3.031180e+001	-2.499064e+001	-1.004817e+002	9.867378e+001	-4.341011e+001	3.929694e+001
1.095059e+007	-4.164522e+001	-8.067185e+001	-3.031705e+001	-2.504147e+001	-1.002772e+002	1.253138e+002	-4.339424e+001	3.965769e+001
1.095059e+007	-4.166605e+001	-8.074463e+001	-3.031859e+001	-2.505459e+001	-9.548219e+001	1.037704e+002	-4.341028e+001	3.925955e+001
1.095060e+007	-4.163160e+001	-8.066078e+001	-3.030874e+001	-2.498958e+001	-9.961811e+001	1.054625e+002	-4.337265e+001	3.946320e+001
1.095061e+007	-4.166693e+001	-8.089217e+001	-3.031065e+001	-2.519700e+001	-9.619942e+001	1.007676e+002	-4.339449e+001	3.909377e+001
1.095062e+007	-4.168086e+001	-8.086993e+001	-3.031801e+001	-2.516272e+001	-9.538677e+001	7.521439e+001	-4.339573e+001	3.951825e+001
1.095063e+007	-4.167245e+001	-8.068373e+001	-3.033094e+001	-2.525633e+001	-9.785132e+001	9.633467e+001	-4.339493e+001	3.922980e+001
1.095063e+007	-4.168705e+001	-8.061760e+001	-3.035134e+001	-2.526486e+001	-9.683918e+001	9.545632e+001	-4.345549e+001	3.928763e+001
1.095064e+007	-4.168240e+001	-8.051496e+001	-3.037357e+001	-2.526220e+001	-9.635024e+001	8.833873e+001	-4.339385e+001	3.957397e+001
1.095065e+007	-4.166290e+001	-8.056297e+001	-3.039124e+001	-2.510010e+001	-9.350274e+001	9.408908e+001	-4.338815e+001	3.954588e+001
1.095066e+007	-4.166492e+001	-8.064252e+001	-3.040569e+001	-2.496707e+001	-9.593425e+001	1.014011e+002	-4.338724e+001	3.947731e+001
1.095066e+007	-4.166959e+001	-8.070961e+001	-3.040993e+001	-2.474087e+001	-9.632522e+001	9.879775e+001	-4.336720e+001	3.928581e+001
1.095067e+007	-4.164839e+001	-8.060354e+001	-3.040614e+001	-2.443870e+001	-9.721049e+001	9.547427e+001	-4.340728e+001	3.958426e+001
1.095068e+007	-4.167124e+001	-8.062094e+001	-3.036868e+001	-2.427887e+001	-9.471058e+001	1.033412e+002	-4.335890e+001	3.932433e+001
1.095069e+007	-4.167981e+001	-8.065509e+001	-3.032467e+001	-2.425566e+001	-9.632777e+001	8.552780e+001	-4.335030e+001	3.952969e+001
1.095070e+007	-4.167950e+001	-8.049035e+001	-3.026415e+001	-2.431729e+001	-9.663749e+001	9.294524e+001	-4.338265e+001	3.942232e+001
1.095070e+007	-4.170418e+001	-8.062548e+001	-3.024102e+001	-2.465066e+001	-9.698623e+001	9.136634e+001	-4.331220e+001	3.946379e+001
1.095071e+007	-4.170374e+001	-8.069111e+001	-3.025827e+001	-2.500981e+001	-1.011850e+002	5.972893e+001	-4.340730e+001	3.930116e+001
1.095072e+007	-4.167877e+001	-8.069538e+001	-3.029593e+001	-2.524072e+001	-1.008943e+002	8.974978e+001	-4.340997e+001	3.935859e+001
1.095073e+007	-4.167204e+001	-8.061867e+001	-3.035006e+001	-2.519744e+001	-9.502964e+001	1.021427e+002	-4.339682e+001	3.952151e+001
1.095073e+007	-4.165924e+001	-8.051486e+001	-3.039664e+001	-2.495365e+001	-9.809721e+001	9.678337e+001	-4.335936e+001	3.954154e+001
1.095074e+007	-4.164922e+001	-8.047176e+001	-3.037485e+001	-2.448807e+001	-9.473150e+001	9.603328e+001	-4.331986e+001	3.958645e+001
1.095075e+007	-4.166892e+001	-8.065761e+001	-3.032012e+001	-2.420644e+001	-9.652288e+001	9.930973e+001	-4.334317e+001	3.945616e+001
1.095076e+007	-4.168820e+001	-8.060580e+001	-3.025153e+001	-2.452783e+001	-9.719546e+001	8.539642e+001	-4.339543e+001	3.936842e+001
1.095077e+007	-4.170051e+001	-8.041270e+001	-3.023265e+001	-2.496350e+001	-9.694471e+001	9.651666e+001	-4.340362e+001	3.933687e+001
1.095077e+007	-4.167560e+001	-8.042383e+001	-3.029771e+001	-2.527721e+001	-9.738817e+001	8.269470e+001	-4.339574e+001	3.962576e+001
1.095078e+007	-4.170689e+001	-8.054057e+001	-3.037840e+001	-2.501579e+001	-1.007135e+002	8.744908e+001	-4.336488e+001	3.959360e+001
1.095079e+007	-4.169000e+001	-8.052983e+001	-3.037824e+001	-2.445420e+001	-9.815892e+001	9.349611e+001	-4.335948e+001	3.945329e+001
1.095080e+007	-4.167224e+001	-8.044458e+001	-3.027784e+001	-2.421291e+001	-9.674032e+001	8.745686e+001	-4.337555e+001	3.947572e+001
1.095080e+007	-4.169028e+001	-8.075453e+001	-3.019667e+001	-2.471572e+001	-1.000439e+002	1.042779e+002	-4.337891e+001	3.930275e+001
1.095081e+007	-4.170620e+001	-8.030389e+001	-3.027237e+001	-2.534853e+001	-9.763767e+001	8.553097e+001	-4.342159e+001	3.948520e+001
1.095082e+007	-4.172162e+001	-8.069738e+001	-3.037717e+001	-2.507363e+001	-9.553043e+001	9.527364e+001	-4.339773e+001	3.970900e+001
1.095083e+007	-4.167138e+001	-8.054609e+001	-3.035698e+001	-2.435382e+001	-9.706915e+001	9.259880e+001	-4.337846e+001	3.962851e+001
1.095084e+007	-4.169318e+001	-8.054603e+001	-3.024433e+001	-2.433083e+001	-9.727804e+001	6.794631e+001	-4.340365e+001	3.930162e+001
1.095084e+007	-4.165794e+001	-8.062956e+001	-3.022543e+001	-2.509301e+001	-9.800768e+001	7.852472e+001	-4.342521e+001	3.933840e+001
1.095085e+007	-4.165967e+001	-8.069881e+001	-3.034454e+001	-2.520968e+001	-9.443148e+001	1.031351e+002	-4.337060e+001	3.953115e+001
1.095086e+007	-4.167128e+001	-8.058516e+001	-3.035710e+001	-2.444919e+001	-9.716097e+001	1.116190e+002	-4.333111e+001	3.933386e+001
1.095087e+007	-4.167931e+001	-8.055396e+001	-3.023214e+001	-2.443838e+001	-1.013373e+002	1.033965e+002	-4.340104e+001	3.918856e+001
1.095088e+007	-4.168046e+001	-8.063331e+001	-3.024878e+001	-2.525762e+001	-9.678131e+001	9.745706e+001	-4.340506e+001	3.953558e+001
1.095088e+007	-4.166491e+001	-8.053190e+001	-3.036661e+001	-2.498909e+001	-9.915735e+001	1.288037e+002	-4.334381e+001	3.944742e+001
1.095089e+007	-4.165963e+001	-8.052013e+001	-3.029343e+001	-2.427933e+001	-9.725658e+001	9.539608e+001	-4.337013e+001	3.947800e+001
1.095090e+007	-4.167066e+001	-8.050371e+001	-3.019523e+001	-2.485859e+001	-9.927244e+001	1.069677e+002	-4.343374e+001	3.943994e+001
1.095091e+007	-4.168407e+001	-8.043075e+001	-3.032434e+001	-2.529486e+001	-1.031460e+002	6.742248e+001	-4.338255e+001	3.942344e+001
1.095091e+007	-4.169174e+001	-8.073674e+001	-3.032639e+001	-2.433665e+001	-9.724483e+001	9.011971e+001	-4.335392e+001	3.935012e+001
1.095092e+007	-4.167965e+001	-8.052498e+001	-3.020113e+001	-2.465250e+001	-9.704882e+001	9.423519e+001	-4.341803e+001	3.913171e+001
1.095093e+007	-4.170145e+001	-8.060063e+001	-3.028893e+001	-2.532092e+001	-9.823221e+001	8.434952e+001	-4.336297e+001	3.961647e+001
1.095094e+007	-4.168818e+001	-8.061961e+001	-3.033281e+001	-2.449102e+001	-9.552172e+001	9.127336e+001	-4.335955e+001	3.955309e+001
1.095095e+007	-4.168729e+001	-8.051284e+001	-3.020184e+001	-2.463698e+001	-1.022727e+002	9.558575e+001	-4.340206e+001	3.932310e+001
1.095095e+007	-4.165823e+001	-8.060139e+001	-3.028865e+001	-2.518317e+001	-9.655977e+001	1.026485e+002	-4.337364e+001	3.966521e+001
1.095096e+007	-4.166613e+001	-8.063926e+001	-3.030119e+001	-2.434649e+001	-9.637808e+001	9.316300e+001	-4.339262e+001	3.953118e+001
1.095097e+007	-4.165950e+001	-8.055763e+001	-3.019313e+001	-2.489343e+001	-9.670698e+001	9.436410e+001	-4.343157e+001	3.933532e+001
1.095098e+007	-4.169424e+001	-8.065254e+001	-3.032172e+001	-2.512668e+001	-1.004536e+002	1.023668e+002	-4.334712e+001	3.943116e+001
1.095098e+007	-4.171328e+001	-8.038263e+001	-3.024764e+001	-2.427313e+001	-9.895331e+001	8.005481e+001	-4.333841e+001	3.923334e+001
1.095099e+007	-4.165870e+001	-8.049456e+001	-3.020875e+001	-2.519249e+001	-9.842247e+001	1.178068e+002	-4.343358e+001	3.980741e+001
1.095100e+007	-4.167997e+001	-8.060771e+001	-3.032551e+001	-2.467816e+001	-9.438658e+001	8.976883e+001	-4.336435e+001	3.939101e+001
1.095101e+007	-4.165976e+001	-8.065032e+001	-3.018632e+001	-2.460653e+001	-9.859830e+001	9.888986e+001	-4.338486e+001	3.943997e+001
1.095102e+007	-4.167754e+001	-8.051574e+001	-3.029771e+001	-2.514099e+001	-9.663162e+001	9.389205e+001	-4.337618e+001	3.957647e+001
1.095102e+007	-4.167235e+001	-8.044779e+001	-3.023953e+001	-2.446073e+001	-9.816032e+001	9.441042e+001	-4.339133e+001	3.955294e+001
1.095103e+007	-4.165106e+001	-8.069951e+001	-3.023196e+001	-2.515596e+001	-9.796054e+001	1.061724e+002	-4.339181e+001	3.957370e+001
1.095104e+007	-4.166915e+001	-8.067376e+001	-3.028670e+001	-2.453959e+001	-9.496896e+001	9.654122e+001	-4.335023e+001	3.947045e+001
1.095105e+007	-4.166599e+001	-8.068149e+001	-3.018994e+001	-2.479896e+001	-9.702147e+001	9.167806e+001	-4.340122e+001	3.942223e+001
1.095105e+007	-4.169051e+001	-8.029072e+001	-3.029502e+001	-2.481059e+001	-9.703762e+001	1.169693e+002	-4.339829e+001	3.945681e+001
1.095106e+007	-4.167635e+001	-8.057646e+001	-3.020670e+001	-2.459869e+001	-9.589464e+001	1.080650e+002	-4.339806e+001	3.925271e+001
1.095107e+007	-4.166029e+001	-8.062561e+001	-3.026509e+001	-2.498962e+001	-9.990386e+001	1.250381e+002	-4.337236e+001	3.957497e+001
1.095108e+007	-4.166725e+001	-8.048057e+001	-3.021535e+001	-2.453290e+001	-9.979814e+001	1.004041e+002	-4.344048e+001	3.941719e+001
1.095109e+007	-4.168357e+001	-8.057519e+001	-3.023622e+001	-2.500970e+001	-1.002474e+002	7.994577e+001	-4.337252e+001	3.932611e+001
1.095109e+007	-4.164604e+001	-8.056116e+001	-3.022736e+001	-2.460201e+001	-9.624378e+001	8.003408e+001	-4.337493e+001	3.935668e+001
1.095110e+007	-4.163976e+001	-8.073323e+001	-3.022993e+001	-2.495478e+001	-9.951210e+001	9.006720e+001	-4.339618e+001	3.967123e+001
1.095111e+007	-4.167602e+001	-8.055410e+001	-3.022144e+001	-2.458854e+001	-9.531912e+001	8.735560e+001	-4.337234e+001	3.929158e+001
1.095112e+007	-4.166398e+001	-8.073381e+001	-3.023868e+001	-2.493878e+001	-1.009290e+002	1.050107e+002	-4.338925e+001	3.959706e+001
1.095113e+007	-4.167005e+001	-8.060071e+001	-3.020386e+001	-2.460279e+001	-9.679669e+001	8.171899e+001	-4.337729e+001	3.929835e+001
1.095113e+007	-4.167975e+001	-8.049909e+001	-3.023321e+001	-2.498272e+001	-9.808933e+001	7.288738e+001	-4.336590e+001	3.934853e+001
1.095114e+007	-4.164236e+001	-8.043636e+001	-3.019817e+001	-2.457170e+001	-9.609583e+001	1.149525e+002	-4.342731e+001	3.921303e+001
1.095115e+007	-4.166701e+001	-8.073265e+001	-3.023746e+001	-2.494805e+001	-1.006385e+002	9.717054e+001	-4.337651e+001	3.960017e+001
1.095116e+007	-4.166249e+001	-8.051224e+001	-3.018887e+001	-2.467333e+001	-9.691029e+001	9.616572e+001	-4.339803e+001	3.946175e+001
