!CETC41,AV3656A,ZGL00048,1.3.2
!Calibration ON (Full Solt 2-Port(Omit Isolation))
!Measurements: S11 S21 S12 S22
!2025-07-09 22:10
# Hz  S  dB  R 50.000
1.095000e+007	-4.210229e+001	-8.270411e+001	-3.079551e+001	-2.376157e+001	-9.503674e+001	8.505432e+001	-3.473064e+001	1.176136e+001
1.095001e+007	-4.210867e+001	-8.273427e+001	-3.079604e+001	-2.375147e+001	-9.710470e+001	6.385771e+001	-3.472549e+001	1.158873e+001
1.095002e+007	-4.212312e+001	-8.269654e+001	-3.079696e+001	-2.370424e+001	-9.675977e+001	1.184522e+002	-3.475225e+001	1.174002e+001
1.095002e+007	-4.210434e+001	-8.254119e+001	-3.079372e+001	-2.375955e+001	-9.552860e+001	7.919811e+001	-3.473703e+001	1.181515e+001
1.095003e+007	-4.213477e+001	-8.281096e+001	-3.080589e+001	-2.374028e+001	-9.862112e+001	6.668344e+001	-3.472489e+001	1.176321e+001
1.095004e+007	-4.211808e+001	-8.280213e+001	-3.080280e+001	-2.375211e+001	-9.554090e+001	8.323486e+001	-3.473112e+001	1.178282e+001
1.095005e+007	-4.209260e+001	-8.265422e+001	-3.080514e+001	-2.371315e+001	-9.993167e+001	7.665019e+001	-3.474661e+001	1.176661e+001
1.095005e+007	-4.212811e+001	-8.285430e+001	-3.079111e+001	-2.375353e+001	-9.694159e+001	1.115105e+002	-3.474488e+001	1.180233e+001
1.095006e+007	-4.214667e+001	-8.269563e+001	-3.079443e+001	-2.384488e+001	-9.581292e+001	8.843738e+001	-3.472782e+001	1.191264e+001
1.095007e+007	-4.208277e+001	-8.296654e+001	-3.081551e+001	-2.374320e+001	-9.868152e+001	8.124316e+001	-3.474044e+001	1.181258e+001
1.095008e+007	-4.210222e+001	-8.285535e+001	-3.079419e+001	-2.372002e+001	-9.586105e+001	9.702159e+001	-3.472757e+001	1.175814e+001
1.095009e+007	-4.210680e+001	-8.261966e+001	-3.079484e+001	-2.380532e+001	-9.613160e+001	7.827739e+001	-3.473168e+001	1.185353e+001
1.095009e+007	-4.208846e+001	-8.279616e+001	-3.079545e+001	-2.379126e+001	-9.700390e+001	9.412730e+001	-3.473499e+001	1.188707e+001
1.095010e+007	-4.212053e+001	-8.270017e+001	-3.079047e+001	-2.378605e+001	-9.409372e+001	1.067142e+002	-3.473719e+001	1.169067e+001
1.095011e+007	-4.209869e+001	-8.276470e+001	-3.078963e+001	-2.372082e+001	-9.678239e+001	7.097668e+001	-3.473591e+001	1.183010e+001
1.095012e+007	-4.211713e+001	-8.271470e+001	-3.079301e+001	-2.375976e+001	-9.581467e+001	9.096297e+001	-3.472905e+001	1.188917e+001
1.095013e+007	-4.211960e+001	-8.294311e+001	-3.079801e+001	-2.373800e+001	-9.778179e+001	9.816611e+001	-3.473741e+001	1.172296e+001
1.095013e+007	-4.214879e+001	-8.279486e+001	-3.078925e+001	-2.372277e+001	-9.673306e+001	7.478463e+001	-3.476103e+001	1.183080e+001
1.095014e+007	-4.213661e+001	-8.266905e+001	-3.078437e+001	-2.370892e+001	-9.766175e+001	1.051735e+002	-3.473614e+001	1.189887e+001
1.095015e+007	-4.209467e+001	-8.287994e+001	-3.079554e+001	-2.371638e+001	-9.739338e+001	8.897257e+001	-3.473924e+001	1.174823e+001
1.095016e+007	-4.211918e+001	-8.273773e+001	-3.078824e+001	-2.367698e+001	-9.647649e+001	8.868865e+001	-3.474504e+001	1.179131e+001
1.095016e+007	-4.211617e+001	-8.265797e+001	-3.078749e+001	-2.375494e+001	-9.910889e+001	7.746256e+001	-3.473035e+001	1.178257e+001
1.095017e+007	-4.212219e+001	-8.257817e+001	-3.079273e+001	-2.378819e+001	-9.914153e+001	1.014746e+002	-3.473032e+001	1.171784e+001
1.095018e+007	-4.212733e+001	-8.268583e+001	-3.078681e+001	-2.376190e+001	-9.688422e+001	8.401228e+001	-3.473692e+001	1.179257e+001
1.095019e+007	-4.212235e+001	-8.262724e+001	-3.079034e+001	-2.376968e+001	-9.542548e+001	9.925731e+001	-3.473008e+001	1.177397e+001
1.095020e+007	-4.210777e+001	-8.272231e+001	-3.078954e+001	-2.374249e+001	-9.810422e+001	7.449553e+001	-3.475354e+001	1.178258e+001
1.095020e+007	-4.207641e+001	-8.281406e+001	-3.077957e+001	-2.372544e+001	-9.425065e+001	9.832620e+001	-3.475540e+001	1.180339e+001
1.095021e+007	-4.209307e+001	-8.283705e+001	-3.078846e+001	-2.373326e+001	-9.606465e+001	1.117340e+002	-3.473037e+001	1.179002e+001
1.095022e+007	-4.211078e+001	-8.270010e+001	-3.079035e+001	-2.372025e+001	-9.520181e+001	8.674386e+001	-3.474488e+001	1.184807e+001
1.095023e+007	-4.211407e+001	-8.281571e+001	-3.077632e+001	-2.370936e+001	-9.471683e+001	9.251228e+001	-3.472871e+001	1.189208e+001
1.095023e+007	-4.211856e+001	-8.256008e+001	-3.078245e+001	-2.371325e+001	-9.732019e+001	1.087750e+002	-3.474795e+001	1.184002e+001
1.095024e+007	-4.212930e+001	-8.272207e+001	-3.078073e+001	-2.378445e+001	-9.674428e+001	1.070062e+002	-3.474428e+001	1.176397e+001
1.095025e+007	-4.210892e+001	-8.280302e+001	-3.078825e+001	-2.372489e+001	-9.677617e+001	8.177063e+001	-3.473671e+001	1.179635e+001
1.095026e+007	-4.208948e+001	-8.279420e+001	-3.078642e+001	-2.374296e+001	-9.681880e+001	1.010174e+002	-3.474432e+001	1.184008e+001
1.095027e+007	-4.213491e+001	-8.288749e+001	-3.077545e+001	-2.373173e+001	-9.621038e+001	1.166284e+002	-3.472880e+001	1.178986e+001
1.095027e+007	-4.212230e+001	-8.278877e+001	-3.078634e+001	-2.367323e+001	-9.769323e+001	1.135832e+002	-3.474763e+001	1.179381e+001
1.095028e+007	-4.210671e+001	-8.301716e+001	-3.077668e+001	-2.372726e+001	-9.553216e+001	1.212342e+002	-3.472756e+001	1.191754e+001
1.095029e+007	-4.211772e+001	-8.287867e+001	-3.079580e+001	-2.374969e+001	-9.738192e+001	9.414852e+001	-3.474927e+001	1.180606e+001
1.095030e+007	-4.211896e+001	-8.278419e+001	-3.078370e+001	-2.371808e+001	-9.551131e+001	8.037595e+001	-3.472632e+001	1.180637e+001
1.095030e+007	-4.212414e+001	-8.299368e+001	-3.078477e+001	-2.378391e+001	-9.986033e+001	1.014839e+002	-3.474224e+001	1.173221e+001
1.095031e+007	-4.211085e+001	-8.286041e+001	-3.078149e+001	-2.379849e+001	-9.592748e+001	1.002905e+002	-3.473404e+001	1.180996e+001
1.095032e+007	-4.212383e+001	-8.262104e+001	-3.078913e+001	-2.376307e+001	-9.419297e+001	1.000493e+002	-3.473490e+001	1.177701e+001
1.095033e+007	-4.213377e+001	-8.253816e+001	-3.078895e+001	-2.374921e+001	-9.681478e+001	9.953918e+001	-3.474718e+001	1.181882e+001
1.095034e+007	-4.208006e+001	-8.274837e+001	-3.078901e+001	-2.374548e+001	-9.797639e+001	1.258192e+002	-3.475267e+001	1.178427e+001
1.095034e+007	-4.214220e+001	-8.265017e+001	-3.079074e+001	-2.379487e+001	-9.695576e+001	9.369657e+001	-3.472612e+001	1.169312e+001
1.095035e+007	-4.211787e+001	-8.265787e+001	-3.078101e+001	-2.375171e+001	-9.580320e+001	7.522925e+001	-3.473523e+001	1.179029e+001
1.095036e+007	-4.209981e+001	-8.276459e+001	-3.078757e+001	-2.366701e+001	-9.339856e+001	8.366035e+001	-3.474725e+001	1.178060e+001
1.095037e+007	-4.210136e+001	-8.281780e+001	-3.078885e+001	-2.372591e+001	-9.878437e+001	7.868918e+001	-3.473312e+001	1.183913e+001
1.095038e+007	-4.212536e+001	-8.277124e+001	-3.079011e+001	-2.374213e+001	-9.986533e+001	1.055647e+002	-3.473812e+001	1.183317e+001
1.095038e+007	-4.208892e+001	-8.262676e+001	-3.078530e+001	-2.378194e+001	-9.404360e+001	9.450515e+001	-3.474293e+001	1.176018e+001
1.095039e+007	-4.210475e+001	-8.291136e+001	-3.078064e+001	-2.366990e+001	-9.609723e+001	7.924875e+001	-3.473219e+001	1.186439e+001
1.095040e+007	-4.210404e+001	-8.271072e+001	-3.077927e+001	-2.373928e+001	-9.661222e+001	6.937679e+001	-3.473991e+001	1.184803e+001
1.095041e+007	-4.213774e+001	-8.296671e+001	-3.077960e+001	-2.364416e+001	-9.714253e+001	1.073490e+002	-3.474750e+001	1.183640e+001
1.095041e+007	-4.210520e+001	-8.291203e+001	-3.078444e+001	-2.374550e+001	-9.790223e+001	9.432534e+001	-3.474674e+001	1.170804e+001
1.095042e+007	-4.209270e+001	-8.294956e+001	-3.077126e+001	-2.375271e+001	-9.669152e+001	8.198272e+001	-3.473542e+001	1.183095e+001
1.095043e+007	-4.214564e+001	-8.275568e+001	-3.078414e+001	-2.371633e+001	-9.634206e+001	8.612992e+001	-3.474347e+001	1.176936e+001
1.095044e+007	-4.211853e+001	-8.266321e+001	-3.077860e+001	-2.377356e+001	-9.966860e+001	1.324894e+002	-3.475366e+001	1.174061e+001
1.095045e+007	-4.212098e+001	-8.274179e+001	-3.077160e+001	-2.378153e+001	-9.614733e+001	1.187799e+002	-3.472929e+001	1.178526e+001
1.095045e+007	-4.211238e+001	-8.286908e+001	-3.078348e+001	-2.371939e+001	-9.651983e+001	8.525944e+001	-3.474189e+001	1.180437e+001
1.095046e+007	-4.211319e+001	-8.276468e+001	-3.077847e+001	-2.384229e+001	-9.834108e+001	9.736981e+001	-3.473148e+001	1.186073e+001
1.095047e+007	-4.209387e+001	-8.286561e+001	-3.078514e+001	-2.373183e+001	-9.951235e+001	8.413671e+001	-3.472736e+001	1.181585e+001
1.095048e+007	-4.211431e+001	-8.287096e+001	-3.078980e+001	-2.376401e+001	-1.004792e+002	7.354159e+001	-3.472947e+001	1.175985e+001
1.095048e+007	-4.213523e+001	-8.281679e+001	-3.077403e+001	-2.376223e+001	-9.627670e+001	9.336994e+001	-3.473359e+001	1.186511e+001
1.095049e+007	-4.211111e+001	-8.294657e+001	-3.077483e+001	-2.376017e+001	-9.519472e+001	8.218743e+001	-3.473762e+001	1.176762e+001
1.095050e+007	-4.211676e+001	-8.261465e+001	-3.078441e+001	-2.370471e+001	-9.881237e+001	1.157005e+002	-3.472993e+001	1.179936e+001
1.095051e+007	-4.209546e+001	-8.256965e+001	-3.078576e+001	-2.376709e+001	-9.944862e+001	8.507236e+001	-3.473287e+001	1.190510e+001
1.095052e+007	-4.212029e+001	-8.266129e+001	-3.078177e+001	-2.377890e+001	-9.689945e+001	8.416598e+001	-3.472985e+001	1.180603e+001
1.095052e+007	-4.210464e+001	-8.282424e+001	-3.077803e+001	-2.371570e+001	-9.442546e+001	7.307737e+001	-3.473245e+001	1.174313e+001
1.095053e+007	-4.210650e+001	-8.282277e+001	-3.077113e+001	-2.377707e+001	-9.680568e+001	1.019994e+002	-3.473073e+001	1.186585e+001
1.095054e+007	-4.209574e+001	-8.272638e+001	-3.077534e+001	-2.369809e+001	-9.696389e+001	8.453188e+001	-3.474104e+001	1.177758e+001
1.095055e+007	-4.212562e+001	-8.281374e+001	-3.078352e+001	-2.361298e+001	-9.534088e+001	1.146056e+002	-3.473754e+001	1.177067e+001
1.095055e+007	-4.211369e+001	-8.253236e+001	-3.078723e+001	-2.378982e+001	-9.941849e+001	1.037529e+002	-3.473509e+001	1.182051e+001
1.095056e+007	-4.208643e+001	-8.309252e+001	-3.076765e+001	-2.373294e+001	-9.542035e+001	8.975621e+001	-3.473502e+001	1.177350e+001
1.095057e+007	-4.210634e+001	-8.284956e+001	-3.077099e+001	-2.366058e+001	-9.416266e+001	9.966892e+001	-3.472878e+001	1.174143e+001
1.095058e+007	-4.209206e+001	-8.272046e+001	-3.078288e+001	-2.370694e+001	-9.767621e+001	1.059597e+002	-3.472538e+001	1.178776e+001
1.095059e+007	-4.211223e+001	-8.281860e+001	-3.077406e+001	-2.375110e+001	-9.904180e+001	9.186443e+001	-3.472291e+001	1.171096e+001
1.095059e+007	-4.211426e+001	-8.255142e+001	-3.077155e+001	-2.373256e+001	-9.652787e+001	9.344750e+001	-3.473504e+001	1.179820e+001
1.095060e+007	-4.211032e+001	-8.289126e+001	-3.077487e+001	-2.369112e+001	-9.619627e+001	1.201344e+002	-3.472454e+001	1.180666e+001
1.095061e+007	-4.212685e+001	-8.275035e+001	-3.078679e+001	-2.372511e+001	-9.690842e+001	9.584190e+001	-3.472570e+001	1.178375e+001
1.095062e+007	-4.211558e+001	-8.272081e+001	-3.077948e+001	-2.376531e+001	-9.951514e+001	1.185501e+002	-3.473317e+001	1.179836e+001
1.095063e+007	-4.213346e+001	-8.266473e+001	-3.077677e+001	-2.367281e+001	-9.752485e+001	1.228247e+002	-3.472379e+001	1.172676e+001
1.095063e+007	-4.213745e+001	-8.280951e+001	-3.077149e+001	-2.376044e+001	-9.841597e+001	9.802223e+001	-3.474285e+001	1.179268e+001
1.095064e+007	-4.210493e+001	-8.265737e+001	-3.077526e+001	-2.363246e+001	-9.681678e+001	7.119223e+001	-3.473581e+001	1.178848e+001
1.095065e+007	-4.212021e+001	-8.287091e+001	-3.078323e+001	-2.379174e+001	-9.623101e+001	9.991397e+001	-3.473878e+001	1.180623e+001
1.095066e+007	-4.213405e+001	-8.286007e+001	-3.078238e+001	-2.381842e+001	-1.005131e+002	7.947110e+001	-3.472238e+001	1.178017e+001
1.095066e+007	-4.210164e+001	-8.276913e+001	-3.076181e+001	-2.376152e+001	-9.720042e+001	9.194621e+001	-3.473289e+001	1.182890e+001
1.095067e+007	-4.213218e+001	-8.259955e+001	-3.075950e+001	-2.368588e+001	-1.023431e+002	1.225945e+002	-3.474255e+001	1.185420e+001
1.095068e+007	-4.213557e+001	-8.280501e+001	-3.077120e+001	-2.369370e+001	-9.524439e+001	8.416692e+001	-3.473666e+001	1.189920e+001
1.095069e+007	-4.209428e+001	-8.272221e+001	-3.077945e+001	-2.366341e+001	-9.669137e+001	1.038428e+002	-3.473791e+001	1.179969e+001
1.095070e+007	-4.211295e+001	-8.265788e+001	-3.077846e+001	-2.371943e+001	-9.574357e+001	9.440398e+001	-3.473863e+001	1.181010e+001
1.095070e+007	-4.210901e+001	-8.285440e+001	-3.077487e+001	-2.377837e+001	-9.669897e+001	1.129062e+002	-3.472362e+001	1.184087e+001
1.095071e+007	-4.211402e+001	-8.267119e+001	-3.075913e+001	-2.379419e+001	-9.794135e+001	1.025208e+002	-3.472616e+001	1.176085e+001
1.095072e+007	-4.212336e+001	-8.270525e+001	-3.075849e+001	-2.366018e+001	-9.629673e+001	8.642329e+001	-3.473890e+001	1.183205e+001
1.095073e+007	-4.212015e+001	-8.292408e+001	-3.075286e+001	-2.372436e+001	-9.532555e+001	9.697851e+001	-3.474789e+001	1.185905e+001
1.095073e+007	-4.211868e+001	-8.265078e+001	-3.075743e+001	-2.366153e+001	-1.038639e+002	1.091356e+002	-3.473926e+001	1.186293e+001
1.095074e+007	-4.208231e+001	-8.279724e+001	-3.075779e+001	-2.368659e+001	-9.565808e+001	9.693514e+001	-3.473360e+001	1.192663e+001
1.095075e+007	-4.214087e+001	-8.266331e+001	-3.078081e+001	-2.373333e+001	-9.624851e+001	9.977623e+001	-3.474547e+001	1.187476e+001
1.095076e+007	-4.210389e+001	-8.282285e+001	-3.077914e+001	-2.375431e+001	-1.007183e+002	1.079160e+002	-3.474633e+001	1.179018e+001
1.095077e+007	-4.212542e+001	-8.269734e+001	-3.077127e+001	-2.381167e+001	-9.701754e+001	9.336568e+001	-3.474316e+001	1.175102e+001
1.095077e+007	-4.211248e+001	-8.291023e+001	-3.077116e+001	-2.378055e+001	-9.603034e+001	1.117799e+002	-3.472881e+001	1.176514e+001
1.095078e+007	-4.215067e+001	-8.289264e+001	-3.076448e+001	-2.375711e+001	-9.737083e+001	8.551574e+001	-3.473890e+001	1.171198e+001
1.095079e+007	-4.211542e+001	-8.260576e+001	-3.075855e+001	-2.380547e+001	-9.409443e+001	9.544755e+001	-3.471783e+001	1.179796e+001
1.095080e+007	-4.209396e+001	-8.271575e+001	-3.075473e+001	-2.377888e+001	-9.453595e+001	8.719401e+001	-3.473259e+001	1.177275e+001
1.095080e+007	-4.210592e+001	-8.289085e+001	-3.075350e+001	-2.377642e+001	-9.776566e+001	9.262538e+001	-3.471915e+001	1.189392e+001
1.095081e+007	-4.209890e+001	-8.277820e+001	-3.075050e+001	-2.374636e+001	-9.840520e+001	1.001492e+002	-3.473227e+001	1.185723e+001
1.095082e+007	-4.211293e+001	-8.291493e+001	-3.074974e+001	-2.371599e+001	-9.794220e+001	1.272531e+002	-3.474607e+001	1.182961e+001
1.095083e+007	-4.209938e+001	-8.274361e+001	-3.074813e+001	-2.366265e+001	-9.314209e+001	1.087208e+002	-3.473734e+001	1.180724e+001
1.095084e+007	-4.211881e+001	-8.276420e+001	-3.075399e+001	-2.373482e+001	-9.820996e+001	9.129769e+001	-3.473418e+001	1.186002e+001
1.095084e+007	-4.209588e+001	-8.274897e+001	-3.074890e+001	-2.373479e+001	-9.513439e+001	9.639629e+001	-3.473280e+001	1.177612e+001
1.095085e+007	-4.212371e+001	-8.295559e+001	-3.075327e+001	-2.376777e+001	-9.866273e+001	7.823136e+001	-3.474475e+001	1.181739e+001
1.095086e+007	-4.210241e+001	-8.271028e+001	-3.074565e+001	-2.379416e+001	-9.792635e+001	1.014948e+002	-3.473229e+001	1.188248e+001
1.095087e+007	-4.211192e+001	-8.286972e+001	-3.076109e+001	-2.384022e+001	-9.681230e+001	9.093289e+001	-3.472911e+001	1.191533e+001
1.095088e+007	-4.214779e+001	-8.282370e+001	-3.076045e+001	-2.380847e+001	-9.665411e+001	1.006822e+002	-3.473651e+001	1.176121e+001
1.095088e+007	-4.209821e+001	-8.272330e+001	-3.075022e+001	-2.389110e+001	-9.487261e+001	1.099617e+002	-3.473811e+001	1.182261e+001
1.095089e+007	-4.212395e+001	-8.279068e+001	-3.075628e+001	-2.390708e+001	-9.580876e+001	1.161246e+002	-3.474834e+001	1.186043e+001
1.095090e+007	-4.210549e+001	-8.266465e+001	-3.076780e+001	-2.388002e+001	-9.728207e+001	8.333160e+001	-3.472967e+001	1.174361e+001
1.095091e+007	-4.214047e+001	-8.289191e+001	-3.076792e+001	-2.384228e+001	-9.757885e+001	8.584903e+001	-3.473333e+001	1.175362e+001
1.095091e+007	-4.209110e+001	-8.275135e+001	-3.078209e+001	-2.384722e+001	-9.734185e+001	9.524542e+001	-3.473152e+001	1.179225e+001
1.095092e+007	-4.210391e+001	-8.290509e+001	-3.079237e+001	-2.388119e+001	-9.449189e+001	9.873287e+001	-3.474665e+001	1.178826e+001
1.095093e+007	-4.211335e+001	-8.278856e+001	-3.079685e+001	-2.379559e+001	-9.547173e+001	9.708300e+001	-3.473927e+001	1.179136e+001
1.095094e+007	-4.212818e+001	-8.264697e+001	-3.079720e+001	-2.373725e+001	-9.987764e+001	9.402146e+001	-3.475800e+001	1.179070e+001
1.095095e+007	-4.213712e+001	-8.291745e+001	-3.080031e+001	-2.359662e+001	-1.042165e+002	7.900539e+001	-3.474282e+001	1.181205e+001
1.095095e+007	-4.212743e+001	-8.273698e+001	-3.078029e+001	-2.358101e+001	-9.526274e+001	8.403679e+001	-3.474202e+001	1.184220e+001
1.095096e+007	-4.210217e+001	-8.283159e+001	-3.076766e+001	-2.351058e+001	-9.842279e+001	1.078064e+002	-3.474494e+001	1.181363e+001
1.095097e+007	-4.210414e+001	-8.292887e+001	-3.075149e+001	-2.361447e+001	-9.917944e+001	1.121769e+002	-3.474706e+001	1.185246e+001
1.095098e+007	-4.210161e+001	-8.290873e+001	-3.074864e+001	-2.375407e+001	-9.510091e+001	9.806917e+001	-3.473668e+001	1.181080e+001
1.095098e+007	-4.212461e+001	-8.274360e+001	-3.074590e+001	-2.385337e+001	-9.486297e+001	1.205982e+002	-3.473224e+001	1.181216e+001
1.095099e+007	-4.212127e+001	-8.278325e+001	-3.076420e+001	-2.389141e+001	-9.603222e+001	1.042874e+002	-3.473699e+001	1.176050e+001
1.095100e+007	-4.210571e+001	-8.296582e+001	-3.078597e+001	-2.392358e+001	-1.013571e+002	8.313385e+001	-3.475304e+001	1.179235e+001
1.095101e+007	-4.210302e+001	-8.278591e+001	-3.079793e+001	-2.369743e+001	-1.061364e+002	8.050672e+001	-3.474079e+001	1.180562e+001
1.095102e+007	-4.211305e+001	-8.281956e+001	-3.078095e+001	-2.359274e+001	-9.572910e+001	8.535295e+001	-3.474596e+001	1.184301e+001
1.095102e+007	-4.213562e+001	-8.288903e+001	-3.075174e+001	-2.359279e+001	-9.518190e+001	1.067510e+002	-3.474827e+001	1.180680e+001
1.095103e+007	-4.212188e+001	-8.282511e+001	-3.075988e+001	-2.368249e+001	-9.664304e+001	9.960616e+001	-3.474179e+001	1.184894e+001
1.095104e+007	-4.209714e+001	-8.280009e+001	-3.074890e+001	-2.383058e+001	-9.762869e+001	9.817901e+001	-3.474072e+001	1.178787e+001
1.095105e+007	-4.212784e+001	-8.286058e+001	-3.077570e+001	-2.389800e+001	-9.595287e+001	9.032768e+001	-3.475021e+001	1.182061e+001
1.095105e+007	-4.210680e+001	-8.286290e+001	-3.077877e+001	-2.378805e+001	-9.332753e+001	9.816252e+001	-3.474900e+001	1.181708e+001
1.095106e+007	-4.211690e+001	-8.256142e+001	-3.077283e+001	-2.356202e+001	-9.583138e+001	1.025181e+002	-3.474392e+001	1.190902e+001
1.095107e+007	-4.213192e+001	-8.285411e+001	-3.075834e+001	-2.358414e+001	-9.674710e+001	6.988131e+001	-3.473727e+001	1.177159e+001
1.095108e+007	-4.208387e+001	-8.277984e+001	-3.074545e+001	-2.385461e+001	-9.594432e+001	9.838968e+001	-3.473674e+001	1.177494e+001
1.095109e+007	-4.209888e+001	-8.272453e+001	-3.077593e+001	-2.387574e+001	-9.639775e+001	7.749699e+001	-3.474422e+001	1.182484e+001
1.095109e+007	-4.211339e+001	-8.265960e+001	-3.078311e+001	-2.372349e+001	-9.300377e+001	1.045216e+002	-3.475105e+001	1.190503e+001
1.095110e+007	-4.210790e+001	-8.274644e+001	-3.076411e+001	-2.360641e+001	-9.654675e+001	8.659385e+001	-3.473876e+001	1.188493e+001
1.095111e+007	-4.211005e+001	-8.289924e+001	-3.074936e+001	-2.374122e+001	-9.843122e+001	1.082844e+002	-3.475096e+001	1.184570e+001
1.095112e+007	-4.211531e+001	-8.259429e+001	-3.075699e+001	-2.389091e+001	-9.615361e+001	8.482136e+001	-3.474373e+001	1.179125e+001
1.095113e+007	-4.212220e+001	-8.279040e+001	-3.078956e+001	-2.370843e+001	-9.762939e+001	8.047638e+001	-3.475067e+001	1.188337e+001
1.095113e+007	-4.213145e+001	-8.272351e+001	-3.075754e+001	-2.363413e+001	-9.592543e+001	9.824998e+001	-3.474448e+001	1.186839e+001
1.095114e+007	-4.212342e+001	-8.280820e+001	-3.074663e+001	-2.372770e+001	-9.413216e+001	8.962497e+001	-3.473006e+001	1.179714e+001
1.095115e+007	-4.209014e+001	-8.275741e+001	-3.075678e+001	-2.384122e+001	-9.704555e+001	8.497864e+001	-3.474642e+001	1.178110e+001
1.095116e+007	-4.211096e+001	-8.295926e+001	-3.078883e+001	-2.373931e+001	-9.442147e+001	8.533078e+001	-3.474535e+001	1.173905e+001
