!CETC41,AV3656A,ZGL00048,1.3.2
!Calibration ON (Full Solt 2-Port(Omit Isolation))
!Measurements: S11 S21 S12 S22
!2025-07-09 20:39
# Hz  S  dB  R 50.000
1.095000e+007	-4.263916e+001	-8.598829e+001	-3.074656e+001	-2.273162e+001	-9.668421e+001	7.624700e+001	-4.586599e+001	6.565416e+001
1.095001e+007	-4.261208e+001	-8.589735e+001	-3.074683e+001	-2.277171e+001	-9.670025e+001	8.781097e+001	-4.587708e+001	6.547186e+001
1.095002e+007	-4.262264e+001	-8.604321e+001	-3.074240e+001	-2.280162e+001	-1.000286e+002	9.869982e+001	-4.586259e+001	6.533977e+001
1.095002e+007	-4.263631e+001	-8.606753e+001	-3.073608e+001	-2.276569e+001	-9.901601e+001	7.272386e+001	-4.582217e+001	6.546429e+001
1.095003e+007	-4.267312e+001	-8.619933e+001	-3.073381e+001	-2.280902e+001	-9.741902e+001	9.021974e+001	-4.583529e+001	6.565093e+001
1.095004e+007	-4.265524e+001	-8.590169e+001	-3.073378e+001	-2.277641e+001	-9.685674e+001	8.006838e+001	-4.584115e+001	6.578572e+001
1.095005e+007	-4.261743e+001	-8.587977e+001	-3.073205e+001	-2.279809e+001	-9.799208e+001	8.498664e+001	-4.587807e+001	6.545837e+001
1.095005e+007	-4.265977e+001	-8.591676e+001	-3.073366e+001	-2.271660e+001	-9.780462e+001	1.064577e+002	-4.587561e+001	6.588614e+001
1.095006e+007	-4.263086e+001	-8.580158e+001	-3.072324e+001	-2.269378e+001	-9.677218e+001	8.927155e+001	-4.591483e+001	6.552183e+001
1.095007e+007	-4.262453e+001	-8.562816e+001	-3.073369e+001	-2.279493e+001	-9.455291e+001	1.124188e+002	-4.587578e+001	6.564500e+001
1.095008e+007	-4.264832e+001	-8.592261e+001	-3.073724e+001	-2.277633e+001	-9.837218e+001	9.143193e+001	-4.586152e+001	6.552646e+001
1.095009e+007	-4.263935e+001	-8.600268e+001	-3.072623e+001	-2.283602e+001	-9.803114e+001	8.824928e+001	-4.582881e+001	6.584292e+001
1.095009e+007	-4.265586e+001	-8.589029e+001	-3.074153e+001	-2.286143e+001	-9.726161e+001	8.569092e+001	-4.589689e+001	6.572365e+001
1.095010e+007	-4.260758e+001	-8.590472e+001	-3.074074e+001	-2.281895e+001	-9.487162e+001	9.036505e+001	-4.593508e+001	6.585492e+001
1.095011e+007	-4.264610e+001	-8.594101e+001	-3.074358e+001	-2.280112e+001	-9.379880e+001	8.919869e+001	-4.589975e+001	6.559439e+001
1.095012e+007	-4.266357e+001	-8.602172e+001	-3.073531e+001	-2.280441e+001	-9.733821e+001	9.733431e+001	-4.591072e+001	6.591227e+001
1.095013e+007	-4.262278e+001	-8.616436e+001	-3.075378e+001	-2.278691e+001	-9.924751e+001	8.692976e+001	-4.590165e+001	6.593837e+001
1.095013e+007	-4.262200e+001	-8.585802e+001	-3.073944e+001	-2.284040e+001	-9.642717e+001	9.167886e+001	-4.583543e+001	6.574399e+001
1.095014e+007	-4.265051e+001	-8.589164e+001	-3.074307e+001	-2.274046e+001	-9.705197e+001	8.081863e+001	-4.590637e+001	6.548936e+001
1.095015e+007	-4.264881e+001	-8.587323e+001	-3.074803e+001	-2.271446e+001	-9.651355e+001	8.815356e+001	-4.590918e+001	6.529742e+001
1.095016e+007	-4.267433e+001	-8.609475e+001	-3.074642e+001	-2.272437e+001	-9.413327e+001	9.573840e+001	-4.584566e+001	6.553665e+001
1.095016e+007	-4.262829e+001	-8.576428e+001	-3.072810e+001	-2.275022e+001	-9.669364e+001	9.111360e+001	-4.587187e+001	6.555375e+001
1.095017e+007	-4.264689e+001	-8.589530e+001	-3.074868e+001	-2.268203e+001	-9.852011e+001	7.041903e+001	-4.590583e+001	6.543047e+001
1.095018e+007	-4.261965e+001	-8.578098e+001	-3.073950e+001	-2.268007e+001	-9.626333e+001	9.247012e+001	-4.588485e+001	6.559051e+001
1.095019e+007	-4.267969e+001	-8.592212e+001	-3.073146e+001	-2.273630e+001	-9.684048e+001	8.749105e+001	-4.589221e+001	6.565657e+001
1.095020e+007	-4.264851e+001	-8.571851e+001	-3.073978e+001	-2.270112e+001	-9.853102e+001	8.535149e+001	-4.591495e+001	6.534894e+001
1.095020e+007	-4.262525e+001	-8.615219e+001	-3.073856e+001	-2.276905e+001	-9.744392e+001	9.656722e+001	-4.588930e+001	6.529577e+001
1.095021e+007	-4.262147e+001	-8.588558e+001	-3.074010e+001	-2.277371e+001	-9.931262e+001	7.494273e+001	-4.582917e+001	6.538327e+001
1.095022e+007	-4.265909e+001	-8.587822e+001	-3.074082e+001	-2.274556e+001	-9.843209e+001	7.258922e+001	-4.586014e+001	6.571636e+001
1.095023e+007	-4.262469e+001	-8.613120e+001	-3.073539e+001	-2.272547e+001	-9.451384e+001	9.408084e+001	-4.587238e+001	6.545755e+001
1.095023e+007	-4.265244e+001	-8.595153e+001	-3.074603e+001	-2.275505e+001	-9.947624e+001	9.705918e+001	-4.587643e+001	6.553321e+001
1.095024e+007	-4.267259e+001	-8.610133e+001	-3.074240e+001	-2.277680e+001	-9.651347e+001	9.785302e+001	-4.584659e+001	6.538413e+001
1.095025e+007	-4.264464e+001	-8.599586e+001	-3.074217e+001	-2.267095e+001	-9.646199e+001	9.601288e+001	-4.586333e+001	6.601099e+001
1.095026e+007	-4.262127e+001	-8.593862e+001	-3.073990e+001	-2.271384e+001	-9.683112e+001	8.293992e+001	-4.586986e+001	6.581931e+001
1.095027e+007	-4.261817e+001	-8.610392e+001	-3.073569e+001	-2.277036e+001	-9.317205e+001	8.416947e+001	-4.589597e+001	6.549065e+001
1.095027e+007	-4.261764e+001	-8.595331e+001	-3.073562e+001	-2.276511e+001	-9.697657e+001	9.816366e+001	-4.588785e+001	6.561755e+001
1.095028e+007	-4.265178e+001	-8.603325e+001	-3.074516e+001	-2.277728e+001	-9.625677e+001	8.235371e+001	-4.591821e+001	6.550355e+001
1.095029e+007	-4.263576e+001	-8.588726e+001	-3.075126e+001	-2.272703e+001	-9.618665e+001	8.457491e+001	-4.589935e+001	6.554705e+001
1.095030e+007	-4.263091e+001	-8.608912e+001	-3.073987e+001	-2.268694e+001	-1.030642e+002	1.153800e+002	-4.592678e+001	6.560699e+001
1.095030e+007	-4.263065e+001	-8.588606e+001	-3.073353e+001	-2.276717e+001	-9.640660e+001	9.088492e+001	-4.589815e+001	6.544260e+001
1.095031e+007	-4.266489e+001	-8.586992e+001	-3.073333e+001	-2.277413e+001	-9.965045e+001	8.046989e+001	-4.590390e+001	6.524601e+001
1.095032e+007	-4.266253e+001	-8.600585e+001	-3.075222e+001	-2.280873e+001	-9.464366e+001	8.765881e+001	-4.585139e+001	6.570012e+001
1.095033e+007	-4.265412e+001	-8.593200e+001	-3.074148e+001	-2.268649e+001	-9.435105e+001	9.432527e+001	-4.588648e+001	6.554115e+001
1.095034e+007	-4.266175e+001	-8.589089e+001	-3.074844e+001	-2.269186e+001	-9.584038e+001	8.986498e+001	-4.591637e+001	6.559578e+001
1.095034e+007	-4.262789e+001	-8.594365e+001	-3.073875e+001	-2.280419e+001	-9.703997e+001	1.038243e+002	-4.591187e+001	6.568112e+001
1.095035e+007	-4.261441e+001	-8.592008e+001	-3.075335e+001	-2.274146e+001	-9.520382e+001	8.568663e+001	-4.586116e+001	6.566639e+001
1.095036e+007	-4.263954e+001	-8.587229e+001	-3.074148e+001	-2.265701e+001	-9.524454e+001	7.640662e+001	-4.592930e+001	6.560352e+001
1.095037e+007	-4.262623e+001	-8.594872e+001	-3.073271e+001	-2.274435e+001	-9.720984e+001	8.331404e+001	-4.590682e+001	6.539078e+001
1.095038e+007	-4.263253e+001	-8.586546e+001	-3.074219e+001	-2.277175e+001	-9.616554e+001	9.595014e+001	-4.588541e+001	6.532993e+001
1.095038e+007	-4.264663e+001	-8.592674e+001	-3.074997e+001	-2.270095e+001	-9.445224e+001	1.022433e+002	-4.588941e+001	6.550367e+001
1.095039e+007	-4.263459e+001	-8.605126e+001	-3.073881e+001	-2.264568e+001	-9.769104e+001	7.425143e+001	-4.588122e+001	6.572669e+001
1.095040e+007	-4.260407e+001	-8.581917e+001	-3.073081e+001	-2.282146e+001	-9.793195e+001	7.886889e+001	-4.592217e+001	6.538985e+001
1.095041e+007	-4.265817e+001	-8.613202e+001	-3.075125e+001	-2.278570e+001	-9.700926e+001	8.101169e+001	-4.595055e+001	6.535155e+001
1.095041e+007	-4.266543e+001	-8.577595e+001	-3.073944e+001	-2.269153e+001	-9.732126e+001	1.047246e+002	-4.586711e+001	6.558860e+001
1.095042e+007	-4.260950e+001	-8.592708e+001	-3.072006e+001	-2.279192e+001	-9.707359e+001	1.037374e+002	-4.589705e+001	6.555695e+001
1.095043e+007	-4.263610e+001	-8.595491e+001	-3.075385e+001	-2.274880e+001	-9.631752e+001	8.814240e+001	-4.584427e+001	6.572316e+001
1.095044e+007	-4.264255e+001	-8.613569e+001	-3.073069e+001	-2.263616e+001	-9.846963e+001	8.212144e+001	-4.587031e+001	6.531246e+001
1.095045e+007	-4.267380e+001	-8.616808e+001	-3.072988e+001	-2.290255e+001	-9.700472e+001	9.721677e+001	-4.588641e+001	6.537759e+001
1.095045e+007	-4.265003e+001	-8.602822e+001	-3.075507e+001	-2.268675e+001	-9.625567e+001	8.047937e+001	-4.588894e+001	6.573220e+001
1.095046e+007	-4.265135e+001	-8.571907e+001	-3.071666e+001	-2.267533e+001	-9.654006e+001	9.348923e+001	-4.582298e+001	6.552828e+001
1.095047e+007	-4.267486e+001	-8.584087e+001	-3.073524e+001	-2.285918e+001	-9.558175e+001	1.044701e+002	-4.586611e+001	6.576698e+001
1.095048e+007	-4.262693e+001	-8.595377e+001	-3.075290e+001	-2.272806e+001	-9.863770e+001	8.036223e+001	-4.588855e+001	6.571407e+001
1.095048e+007	-4.263091e+001	-8.594511e+001	-3.072147e+001	-2.268798e+001	-9.441672e+001	9.089062e+001	-4.588656e+001	6.574461e+001
1.095049e+007	-4.262975e+001	-8.610843e+001	-3.075549e+001	-2.280878e+001	-9.533917e+001	8.026096e+001	-4.589491e+001	6.548751e+001
1.095050e+007	-4.264959e+001	-8.589863e+001	-3.073293e+001	-2.261181e+001	-9.637608e+001	1.176878e+002	-4.587856e+001	6.558805e+001
1.095051e+007	-4.267414e+001	-8.610297e+001	-3.073158e+001	-2.281685e+001	-9.708381e+001	8.794029e+001	-4.586221e+001	6.569202e+001
1.095052e+007	-4.263881e+001	-8.612589e+001	-3.075338e+001	-2.264291e+001	-1.044986e+002	1.060519e+002	-4.590460e+001	6.554144e+001
1.095052e+007	-4.264017e+001	-8.600540e+001	-3.071817e+001	-2.279204e+001	-9.726305e+001	7.910806e+001	-4.583064e+001	6.568727e+001
1.095053e+007	-4.263926e+001	-8.586923e+001	-3.075452e+001	-2.276820e+001	-9.553437e+001	7.905514e+001	-4.588477e+001	6.531134e+001
1.095054e+007	-4.262589e+001	-8.603285e+001	-3.072109e+001	-2.264682e+001	-9.736123e+001	1.011544e+002	-4.590317e+001	6.571300e+001
1.095055e+007	-4.266259e+001	-8.576440e+001	-3.074775e+001	-2.277893e+001	-9.531864e+001	9.652120e+001	-4.585658e+001	6.568972e+001
1.095055e+007	-4.264296e+001	-8.578416e+001	-3.072379e+001	-2.256693e+001	-9.982600e+001	1.047086e+002	-4.586215e+001	6.558331e+001
1.095056e+007	-4.260546e+001	-8.589395e+001	-3.075316e+001	-2.287342e+001	-9.512447e+001	7.576422e+001	-4.590547e+001	6.564688e+001
1.095057e+007	-4.265389e+001	-8.603638e+001	-3.072951e+001	-2.264028e+001	-9.803197e+001	7.812438e+001	-4.589987e+001	6.550548e+001
1.095058e+007	-4.262028e+001	-8.605741e+001	-3.073479e+001	-2.284124e+001	-9.690799e+001	1.230133e+002	-4.582372e+001	6.544208e+001
1.095059e+007	-4.264116e+001	-8.599370e+001	-3.075067e+001	-2.255048e+001	-9.785944e+001	7.059155e+001	-4.593380e+001	6.580804e+001
1.095059e+007	-4.261279e+001	-8.594635e+001	-3.073408e+001	-2.280976e+001	-9.686431e+001	8.095369e+001	-4.586096e+001	6.563898e+001
1.095060e+007	-4.263613e+001	-8.610454e+001	-3.074815e+001	-2.267722e+001	-9.731902e+001	7.287975e+001	-4.592101e+001	6.553384e+001
1.095061e+007	-4.263823e+001	-8.585280e+001	-3.072269e+001	-2.290317e+001	-9.426032e+001	1.040581e+002	-4.589874e+001	6.579092e+001
1.095062e+007	-4.262893e+001	-8.623222e+001	-3.073575e+001	-2.262533e+001	-9.519251e+001	1.023024e+002	-4.591128e+001	6.548566e+001
1.095063e+007	-4.269617e+001	-8.604113e+001	-3.073758e+001	-2.292877e+001	-9.604939e+001	1.129137e+002	-4.585005e+001	6.576570e+001
1.095063e+007	-4.263183e+001	-8.613337e+001	-3.073556e+001	-2.259490e+001	-9.952057e+001	6.506287e+001	-4.590972e+001	6.560010e+001
1.095064e+007	-4.263302e+001	-8.593048e+001	-3.073316e+001	-2.283952e+001	-1.006146e+002	6.168864e+001	-4.585367e+001	6.548405e+001
1.095065e+007	-4.263106e+001	-8.611074e+001	-3.072854e+001	-2.264570e+001	-9.770151e+001	7.896987e+001	-4.595671e+001	6.565187e+001
1.095066e+007	-4.263899e+001	-8.587573e+001	-3.075700e+001	-2.286241e+001	-9.611497e+001	8.219818e+001	-4.589840e+001	6.570548e+001
1.095066e+007	-4.263092e+001	-8.597079e+001	-3.071033e+001	-2.263662e+001	-9.962537e+001	1.167885e+002	-4.587238e+001	6.545894e+001
1.095067e+007	-4.264267e+001	-8.609743e+001	-3.074874e+001	-2.271230e+001	-9.670721e+001	7.468780e+001	-4.585099e+001	6.554722e+001
1.095068e+007	-4.266586e+001	-8.596905e+001	-3.072012e+001	-2.281082e+001	-9.505875e+001	8.826949e+001	-4.586133e+001	6.567803e+001
1.095069e+007	-4.261459e+001	-8.575225e+001	-3.074138e+001	-2.258986e+001	-1.022027e+002	1.147783e+002	-4.588671e+001	6.582157e+001
1.095070e+007	-4.265470e+001	-8.604770e+001	-3.074571e+001	-2.282381e+001	-9.813456e+001	1.034731e+002	-4.588380e+001	6.542008e+001
1.095070e+007	-4.262768e+001	-8.621772e+001	-3.070919e+001	-2.258651e+001	-1.019062e+002	8.026554e+001	-4.588674e+001	6.554922e+001
1.095071e+007	-4.264986e+001	-8.582530e+001	-3.075164e+001	-2.277856e+001	-1.002018e+002	8.527849e+001	-4.590230e+001	6.551626e+001
1.095072e+007	-4.265084e+001	-8.583191e+001	-3.071357e+001	-2.275442e+001	-9.802211e+001	7.873538e+001	-4.585918e+001	6.555024e+001
1.095073e+007	-4.262324e+001	-8.586889e+001	-3.074910e+001	-2.253133e+001	-9.871258e+001	9.696587e+001	-4.588340e+001	6.569646e+001
1.095073e+007	-4.261656e+001	-8.590548e+001	-3.074169e+001	-2.284138e+001	-9.913709e+001	9.489252e+001	-4.591491e+001	6.574136e+001
1.095074e+007	-4.261278e+001	-8.580927e+001	-3.071419e+001	-2.273556e+001	-9.938708e+001	7.275166e+001	-4.587910e+001	6.573789e+001
1.095075e+007	-4.260376e+001	-8.589330e+001	-3.076336e+001	-2.265416e+001	-9.730260e+001	9.470120e+001	-4.594116e+001	6.559308e+001
1.095076e+007	-4.262292e+001	-8.610754e+001	-3.073622e+001	-2.282761e+001	-9.556857e+001	1.071297e+002	-4.591010e+001	6.572460e+001
1.095077e+007	-4.265376e+001	-8.587837e+001	-3.072224e+001	-2.264645e+001	-9.458605e+001	8.677944e+001	-4.589475e+001	6.585395e+001
1.095077e+007	-4.264495e+001	-8.580212e+001	-3.075451e+001	-2.277259e+001	-9.602409e+001	9.627303e+001	-4.589082e+001	6.582786e+001
1.095078e+007	-4.265126e+001	-8.578649e+001	-3.072169e+001	-2.283449e+001	-9.713133e+001	7.057139e+001	-4.587193e+001	6.557355e+001
1.095079e+007	-4.262679e+001	-8.601600e+001	-3.071500e+001	-2.257981e+001	-9.800511e+001	9.120051e+001	-4.584565e+001	6.583965e+001
1.095080e+007	-4.263754e+001	-8.589195e+001	-3.075546e+001	-2.266576e+001	-9.704494e+001	8.540708e+001	-4.594015e+001	6.566662e+001
1.095080e+007	-4.266576e+001	-8.602674e+001	-3.073101e+001	-2.290414e+001	-9.615376e+001	1.003368e+002	-4.590445e+001	6.540555e+001
1.095081e+007	-4.265589e+001	-8.597612e+001	-3.071639e+001	-2.273900e+001	-9.598286e+001	8.498825e+001	-4.585978e+001	6.561820e+001
1.095082e+007	-4.263913e+001	-8.591700e+001	-3.074499e+001	-2.263995e+001	-9.420915e+001	9.632594e+001	-4.588906e+001	6.541316e+001
1.095083e+007	-4.264544e+001	-8.603324e+001	-3.075258e+001	-2.285415e+001	-9.618336e+001	9.122250e+001	-4.583820e+001	6.564436e+001
1.095084e+007	-4.264993e+001	-8.594343e+001	-3.072570e+001	-2.280728e+001	-9.559418e+001	9.614263e+001	-4.586833e+001	6.546845e+001
1.095084e+007	-4.264857e+001	-8.605289e+001	-3.073138e+001	-2.255210e+001	-9.889699e+001	8.885514e+001	-4.588631e+001	6.601201e+001
1.095085e+007	-4.263689e+001	-8.603694e+001	-3.074882e+001	-2.273366e+001	-9.421605e+001	9.968255e+001	-4.593411e+001	6.560731e+001
1.095086e+007	-4.264828e+001	-8.606658e+001	-3.073090e+001	-2.282873e+001	-9.404494e+001	9.793466e+001	-4.586318e+001	6.566499e+001
1.095087e+007	-4.262334e+001	-8.579175e+001	-3.071913e+001	-2.272376e+001	-9.668284e+001	6.758813e+001	-4.588842e+001	6.575284e+001
1.095088e+007	-4.263845e+001	-8.614098e+001	-3.073322e+001	-2.270135e+001	-9.684324e+001	1.092671e+002	-4.586771e+001	6.544792e+001
1.095088e+007	-4.267281e+001	-8.598662e+001	-3.075017e+001	-2.276299e+001	-9.931121e+001	7.029678e+001	-4.587565e+001	6.579699e+001
1.095089e+007	-4.264749e+001	-8.579406e+001	-3.073655e+001	-2.286545e+001	-1.011348e+002	8.424153e+001	-4.593499e+001	6.547795e+001
1.095090e+007	-4.265425e+001	-8.582900e+001	-3.072356e+001	-2.280083e+001	-9.444692e+001	7.314767e+001	-4.585078e+001	6.585903e+001
1.095091e+007	-4.265860e+001	-8.599933e+001	-3.072615e+001	-2.265661e+001	-9.689947e+001	9.672711e+001	-4.587660e+001	6.539988e+001
1.095091e+007	-4.260698e+001	-8.593254e+001	-3.074833e+001	-2.267151e+001	-9.715290e+001	1.044130e+002	-4.588904e+001	6.573733e+001
1.095092e+007	-4.266692e+001	-8.604038e+001	-3.075603e+001	-2.274920e+001	-9.538912e+001	9.694999e+001	-4.591170e+001	6.570429e+001
1.095093e+007	-4.263223e+001	-8.605235e+001	-3.073660e+001	-2.284606e+001	-1.017426e+002	9.769968e+001	-4.588105e+001	6.542550e+001
1.095094e+007	-4.261920e+001	-8.608119e+001	-3.072183e+001	-2.280787e+001	-9.812027e+001	8.149849e+001	-4.587988e+001	6.557225e+001
1.095095e+007	-4.260122e+001	-8.617460e+001	-3.072395e+001	-2.262963e+001	-9.588814e+001	9.427779e+001	-4.588378e+001	6.572796e+001
1.095095e+007	-4.261939e+001	-8.592031e+001	-3.072596e+001	-2.267046e+001	-9.756192e+001	9.617277e+001	-4.591085e+001	6.588772e+001
1.095096e+007	-4.264736e+001	-8.581596e+001	-3.075508e+001	-2.270541e+001	-9.500579e+001	1.020589e+002	-4.588161e+001	6.553629e+001
1.095097e+007	-4.261499e+001	-8.596347e+001	-3.075200e+001	-2.276460e+001	-9.491066e+001	9.435105e+001	-4.587810e+001	6.572959e+001
1.095098e+007	-4.265654e+001	-8.597503e+001	-3.073513e+001	-2.277687e+001	-9.581039e+001	1.139281e+002	-4.587477e+001	6.556026e+001
1.095098e+007	-4.261491e+001	-8.589187e+001	-3.072348e+001	-2.279065e+001	-9.605117e+001	8.392050e+001	-4.586925e+001	6.540599e+001
1.095099e+007	-4.264387e+001	-8.602150e+001	-3.071723e+001	-2.270165e+001	-9.598209e+001	9.798304e+001	-4.587440e+001	6.554107e+001
1.095100e+007	-4.263496e+001	-8.571332e+001	-3.073047e+001	-2.265794e+001	-9.716858e+001	1.166087e+002	-4.589161e+001	6.589318e+001
1.095101e+007	-4.263561e+001	-8.594968e+001	-3.073576e+001	-2.264640e+001	-9.983425e+001	1.246602e+002	-4.589887e+001	6.590105e+001
1.095102e+007	-4.264453e+001	-8.585598e+001	-3.074451e+001	-2.266990e+001	-1.007857e+002	9.798846e+001	-4.587318e+001	6.617712e+001
1.095102e+007	-4.264237e+001	-8.594046e+001	-3.074230e+001	-2.272516e+001	-9.873798e+001	8.570457e+001	-4.584572e+001	6.568953e+001
1.095103e+007	-4.263230e+001	-8.601171e+001	-3.073693e+001	-2.277267e+001	-9.798240e+001	9.475872e+001	-4.585760e+001	6.565610e+001
1.095104e+007	-4.265635e+001	-8.584934e+001	-3.073569e+001	-2.281064e+001	-9.941725e+001	9.460637e+001	-4.589025e+001	6.543622e+001
1.095105e+007	-4.261605e+001	-8.594556e+001	-3.072246e+001	-2.287026e+001	-9.846380e+001	8.874791e+001	-4.587099e+001	6.568667e+001
1.095105e+007	-4.265648e+001	-8.612684e+001	-3.072007e+001	-2.283120e+001	-9.838659e+001	8.661645e+001	-4.592363e+001	6.571751e+001
1.095106e+007	-4.264748e+001	-8.583630e+001	-3.071255e+001	-2.278759e+001	-9.701575e+001	1.018850e+002	-4.588789e+001	6.523495e+001
1.095107e+007	-4.262792e+001	-8.583224e+001	-3.072805e+001	-2.280761e+001	-9.363215e+001	9.908357e+001	-4.589108e+001	6.552108e+001
1.095108e+007	-4.263976e+001	-8.578313e+001	-3.073023e+001	-2.266386e+001	-9.706880e+001	9.683017e+001	-4.586900e+001	6.571076e+001
1.095109e+007	-4.267709e+001	-8.588347e+001	-3.071892e+001	-2.262952e+001	-9.412795e+001	1.049528e+002	-4.586210e+001	6.591967e+001
1.095109e+007	-4.262924e+001	-8.614819e+001	-3.072390e+001	-2.272351e+001	-9.675917e+001	8.145240e+001	-4.590833e+001	6.552044e+001
1.095110e+007	-4.267777e+001	-8.598314e+001	-3.072916e+001	-2.268510e+001	-9.549374e+001	8.004110e+001	-4.586399e+001	6.563264e+001
1.095111e+007	-4.268910e+001	-8.599294e+001	-3.072693e+001	-2.276806e+001	-9.497532e+001	8.612210e+001	-4.587617e+001	6.584117e+001
1.095112e+007	-4.264538e+001	-8.589449e+001	-3.072683e+001	-2.269099e+001	-9.852340e+001	7.601394e+001	-4.586859e+001	6.583708e+001
1.095113e+007	-4.263841e+001	-8.597165e+001	-3.072751e+001	-2.270736e+001	-9.524250e+001	7.956138e+001	-4.589765e+001	6.579193e+001
1.095113e+007	-4.265406e+001	-8.555073e+001	-3.071869e+001	-2.271706e+001	-9.889201e+001	8.079023e+001	-4.591606e+001	6.558347e+001
1.095114e+007	-4.265038e+001	-8.577503e+001	-3.071501e+001	-2.266431e+001	-9.713554e+001	7.546368e+001	-4.587051e+001	6.562957e+001
1.095115e+007	-4.263651e+001	-8.600601e+001	-3.072246e+001	-2.272466e+001	-9.863431e+001	9.830013e+001	-4.587207e+001	6.592287e+001
1.095116e+007	-4.265048e+001	-8.597587e+001	-3.072563e+001	-2.269670e+001	-9.550515e+001	8.987590e+001	-4.588029e+001	6.581464e+001
