!CETC41,AV3656A,ZGL00048,1.3.2
!Calibration ON (Full Solt 2-Port(Omit Isolation))
!Measurements: S11 S21 S12 S22
!2025-07-09 20:21
# Hz  S  dB  R 50.000
1.095000e+007	-4.261718e+001	-8.680576e+001	-3.075144e+001	-2.250997e+001	-9.838638e+001	8.427296e+001	-4.647055e+001	6.801397e+001
1.095001e+007	-4.264606e+001	-8.669454e+001	-3.073733e+001	-2.255662e+001	-1.007965e+002	7.443205e+001	-4.648200e+001	6.771866e+001
1.095002e+007	-4.264782e+001	-8.652626e+001	-3.074429e+001	-2.253638e+001	-9.648681e+001	9.539946e+001	-4.648068e+001	6.815130e+001
1.095002e+007	-4.261030e+001	-8.657863e+001	-3.076033e+001	-2.254278e+001	-9.631287e+001	7.110690e+001	-4.649447e+001	6.803610e+001
1.095003e+007	-4.258515e+001	-8.667219e+001	-3.074081e+001	-2.258173e+001	-1.004958e+002	9.053668e+001	-4.647212e+001	6.785196e+001
1.095004e+007	-4.261298e+001	-8.658303e+001	-3.075472e+001	-2.253253e+001	-9.900614e+001	7.274229e+001	-4.647005e+001	6.778991e+001
1.095005e+007	-4.262288e+001	-8.652190e+001	-3.074782e+001	-2.255411e+001	-9.934507e+001	1.235915e+002	-4.650356e+001	6.774240e+001
1.095005e+007	-4.260241e+001	-8.663405e+001	-3.075031e+001	-2.258038e+001	-9.657456e+001	9.923148e+001	-4.644019e+001	6.768730e+001
1.095006e+007	-4.261845e+001	-8.669855e+001	-3.074718e+001	-2.257633e+001	-9.778648e+001	8.064311e+001	-4.649938e+001	6.774186e+001
1.095007e+007	-4.262588e+001	-8.657198e+001	-3.075935e+001	-2.258157e+001	-9.662980e+001	1.029805e+002	-4.643596e+001	6.781398e+001
1.095008e+007	-4.260635e+001	-8.658533e+001	-3.074948e+001	-2.256213e+001	-9.835681e+001	9.224940e+001	-4.647744e+001	6.784772e+001
1.095009e+007	-4.257953e+001	-8.654956e+001	-3.074566e+001	-2.253307e+001	-9.580970e+001	1.052698e+002	-4.653147e+001	6.791540e+001
1.095009e+007	-4.261583e+001	-8.665260e+001	-3.073478e+001	-2.254439e+001	-9.819423e+001	8.739635e+001	-4.647116e+001	6.792971e+001
1.095010e+007	-4.259813e+001	-8.678925e+001	-3.074206e+001	-2.259256e+001	-9.776330e+001	1.073980e+002	-4.647897e+001	6.786025e+001
1.095011e+007	-4.259403e+001	-8.648188e+001	-3.073947e+001	-2.253940e+001	-9.391904e+001	9.587815e+001	-4.649746e+001	6.780324e+001
1.095012e+007	-4.261767e+001	-8.661263e+001	-3.074515e+001	-2.255203e+001	-9.938800e+001	9.186335e+001	-4.647199e+001	6.785550e+001
1.095013e+007	-4.262520e+001	-8.654745e+001	-3.074994e+001	-2.256720e+001	-9.744054e+001	9.074828e+001	-4.643797e+001	6.772597e+001
1.095013e+007	-4.258428e+001	-8.651511e+001	-3.075152e+001	-2.251640e+001	-9.678912e+001	9.918938e+001	-4.645201e+001	6.766875e+001
1.095014e+007	-4.259765e+001	-8.644634e+001	-3.074232e+001	-2.260479e+001	-9.782329e+001	9.478580e+001	-4.649442e+001	6.807138e+001
1.095015e+007	-4.262211e+001	-8.654025e+001	-3.074231e+001	-2.253648e+001	-9.645655e+001	9.513635e+001	-4.647247e+001	6.772690e+001
1.095016e+007	-4.261756e+001	-8.652288e+001	-3.074069e+001	-2.249576e+001	-1.008662e+002	8.839620e+001	-4.643562e+001	6.752129e+001
1.095016e+007	-4.255454e+001	-8.626930e+001	-3.074152e+001	-2.253616e+001	-9.538997e+001	1.107434e+002	-4.646579e+001	6.787794e+001
1.095017e+007	-4.261724e+001	-8.670632e+001	-3.073919e+001	-2.251397e+001	-9.517104e+001	8.629881e+001	-4.649881e+001	6.770590e+001
1.095018e+007	-4.257542e+001	-8.664157e+001	-3.074076e+001	-2.254008e+001	-9.642505e+001	9.521448e+001	-4.649559e+001	6.804905e+001
1.095019e+007	-4.263291e+001	-8.652403e+001	-3.075206e+001	-2.259974e+001	-9.497104e+001	7.673100e+001	-4.651162e+001	6.758820e+001
1.095020e+007	-4.259609e+001	-8.652032e+001	-3.073793e+001	-2.255936e+001	-9.668305e+001	8.218503e+001	-4.641142e+001	6.804760e+001
1.095020e+007	-4.263291e+001	-8.647595e+001	-3.074038e+001	-2.260180e+001	-9.643181e+001	1.069429e+002	-4.645445e+001	6.783996e+001
1.095021e+007	-4.260107e+001	-8.647096e+001	-3.074926e+001	-2.260445e+001	-9.568909e+001	9.703280e+001	-4.648612e+001	6.793135e+001
1.095022e+007	-4.260711e+001	-8.651039e+001	-3.074664e+001	-2.253849e+001	-9.520622e+001	1.131620e+002	-4.651835e+001	6.823775e+001
1.095023e+007	-4.257961e+001	-8.647295e+001	-3.075057e+001	-2.260676e+001	-9.626760e+001	9.746917e+001	-4.650520e+001	6.762397e+001
1.095023e+007	-4.257931e+001	-8.653748e+001	-3.074401e+001	-2.251267e+001	-9.477066e+001	1.049809e+002	-4.645876e+001	6.817769e+001
1.095024e+007	-4.259426e+001	-8.648314e+001	-3.074462e+001	-2.253337e+001	-9.913794e+001	1.010093e+002	-4.646160e+001	6.793833e+001
1.095025e+007	-4.257910e+001	-8.648614e+001	-3.074861e+001	-2.254134e+001	-9.643626e+001	6.054066e+001	-4.648525e+001	6.798249e+001
1.095026e+007	-4.261538e+001	-8.662892e+001	-3.074966e+001	-2.257371e+001	-9.712463e+001	8.938965e+001	-4.643426e+001	6.804288e+001
1.095027e+007	-4.261534e+001	-8.674318e+001	-3.074902e+001	-2.250508e+001	-9.956837e+001	8.616398e+001	-4.647697e+001	6.816195e+001
1.095027e+007	-4.261119e+001	-8.639188e+001	-3.074411e+001	-2.256555e+001	-9.868781e+001	8.563110e+001	-4.645325e+001	6.755260e+001
1.095028e+007	-4.262155e+001	-8.646857e+001	-3.074281e+001	-2.251877e+001	-9.748901e+001	1.009742e+002	-4.644608e+001	6.810768e+001
1.095029e+007	-4.259007e+001	-8.670396e+001	-3.074718e+001	-2.250979e+001	-9.483789e+001	1.111591e+002	-4.646607e+001	6.762622e+001
1.095030e+007	-4.261529e+001	-8.640236e+001	-3.073834e+001	-2.255204e+001	-9.328387e+001	1.135642e+002	-4.642533e+001	6.790862e+001
1.095030e+007	-4.260888e+001	-8.687389e+001	-3.073834e+001	-2.252921e+001	-9.392213e+001	1.009308e+002	-4.648479e+001	6.783931e+001
1.095031e+007	-4.262352e+001	-8.649412e+001	-3.074507e+001	-2.258620e+001	-9.377029e+001	1.012690e+002	-4.642969e+001	6.816979e+001
1.095032e+007	-4.262048e+001	-8.671420e+001	-3.074131e+001	-2.257577e+001	-9.618939e+001	7.641373e+001	-4.650731e+001	6.804143e+001
1.095033e+007	-4.263423e+001	-8.645063e+001	-3.073681e+001	-2.255228e+001	-1.010700e+002	9.083717e+001	-4.642419e+001	6.842179e+001
1.095034e+007	-4.259225e+001	-8.669815e+001	-3.075388e+001	-2.249628e+001	-9.396332e+001	8.477443e+001	-4.646133e+001	6.755934e+001
1.095034e+007	-4.263010e+001	-8.671447e+001	-3.074157e+001	-2.263546e+001	-9.321863e+001	1.002762e+002	-4.643266e+001	6.823468e+001
1.095035e+007	-4.265546e+001	-8.659547e+001	-3.074671e+001	-2.257009e+001	-9.661511e+001	9.514196e+001	-4.652324e+001	6.812373e+001
1.095036e+007	-4.259238e+001	-8.677627e+001	-3.074034e+001	-2.256274e+001	-9.636933e+001	9.594894e+001	-4.647949e+001	6.800222e+001
1.095037e+007	-4.261266e+001	-8.652267e+001	-3.074609e+001	-2.253380e+001	-9.753580e+001	8.808091e+001	-4.652150e+001	6.798892e+001
1.095038e+007	-4.262224e+001	-8.670179e+001	-3.075724e+001	-2.252040e+001	-9.628832e+001	9.896377e+001	-4.650713e+001	6.784420e+001
1.095038e+007	-4.260885e+001	-8.663280e+001	-3.073448e+001	-2.251299e+001	-9.508887e+001	1.035324e+002	-4.643400e+001	6.789639e+001
1.095039e+007	-4.261574e+001	-8.655809e+001	-3.074824e+001	-2.250930e+001	-9.884023e+001	1.096305e+002	-4.645573e+001	6.768426e+001
1.095040e+007	-4.261520e+001	-8.672070e+001	-3.074759e+001	-2.250500e+001	-9.662720e+001	9.565048e+001	-4.640809e+001	6.794970e+001
1.095041e+007	-4.258115e+001	-8.648706e+001	-3.073834e+001	-2.247245e+001	-9.841544e+001	9.740789e+001	-4.649994e+001	6.800136e+001
1.095041e+007	-4.260078e+001	-8.670251e+001	-3.074910e+001	-2.250502e+001	-9.483158e+001	1.023382e+002	-4.643202e+001	6.785636e+001
1.095042e+007	-4.258892e+001	-8.639626e+001	-3.075081e+001	-2.264271e+001	-9.534414e+001	8.587910e+001	-4.645766e+001	6.796710e+001
1.095043e+007	-4.259822e+001	-8.658637e+001	-3.073053e+001	-2.245544e+001	-9.603947e+001	1.025267e+002	-4.648160e+001	6.830310e+001
1.095044e+007	-4.258311e+001	-8.640184e+001	-3.075558e+001	-2.255753e+001	-9.722265e+001	8.619660e+001	-4.642949e+001	6.776412e+001
1.095045e+007	-4.262260e+001	-8.661275e+001	-3.073345e+001	-2.255929e+001	-9.593841e+001	8.657444e+001	-4.645075e+001	6.804463e+001
1.095045e+007	-4.259256e+001	-8.654786e+001	-3.075034e+001	-2.252308e+001	-9.618452e+001	1.398295e+002	-4.649822e+001	6.804270e+001
1.095046e+007	-4.255628e+001	-8.649965e+001	-3.073961e+001	-2.252272e+001	-9.725340e+001	7.543062e+001	-4.644488e+001	6.786987e+001
1.095047e+007	-4.261580e+001	-8.672587e+001	-3.074690e+001	-2.252047e+001	-9.523880e+001	9.948467e+001	-4.644526e+001	6.817661e+001
1.095048e+007	-4.264034e+001	-8.646737e+001	-3.074831e+001	-2.254849e+001	-1.002024e+002	1.108709e+002	-4.647685e+001	6.800079e+001
1.095048e+007	-4.261826e+001	-8.646859e+001	-3.073822e+001	-2.253153e+001	-9.614849e+001	9.049797e+001	-4.643129e+001	6.777082e+001
1.095049e+007	-4.259929e+001	-8.641335e+001	-3.074099e+001	-2.252730e+001	-9.383435e+001	9.221299e+001	-4.645358e+001	6.780909e+001
1.095050e+007	-4.261823e+001	-8.656566e+001	-3.072936e+001	-2.251939e+001	-9.897340e+001	8.015438e+001	-4.644880e+001	6.810254e+001
1.095051e+007	-4.261781e+001	-8.657034e+001	-3.074194e+001	-2.255148e+001	-9.467079e+001	9.048185e+001	-4.645788e+001	6.767552e+001
1.095052e+007	-4.259038e+001	-8.678328e+001	-3.074294e+001	-2.255516e+001	-9.553617e+001	9.030832e+001	-4.641921e+001	6.779302e+001
1.095052e+007	-4.260747e+001	-8.657497e+001	-3.073530e+001	-2.257233e+001	-9.740189e+001	9.487144e+001	-4.647922e+001	6.764374e+001
1.095053e+007	-4.262265e+001	-8.656691e+001	-3.073260e+001	-2.254438e+001	-9.690025e+001	8.241025e+001	-4.645071e+001	6.781539e+001
1.095054e+007	-4.259961e+001	-8.637936e+001	-3.074281e+001	-2.260045e+001	-9.407624e+001	1.025201e+002	-4.646374e+001	6.802485e+001
1.095055e+007	-4.263747e+001	-8.672946e+001	-3.073931e+001	-2.257641e+001	-9.455925e+001	8.780561e+001	-4.645386e+001	6.785518e+001
1.095055e+007	-4.261195e+001	-8.644583e+001	-3.073444e+001	-2.253720e+001	-9.453190e+001	9.887046e+001	-4.646142e+001	6.788709e+001
1.095056e+007	-4.262544e+001	-8.650605e+001	-3.074706e+001	-2.251900e+001	-9.760521e+001	8.432341e+001	-4.648991e+001	6.770582e+001
1.095057e+007	-4.260801e+001	-8.655978e+001	-3.074843e+001	-2.255869e+001	-1.028095e+002	9.790902e+001	-4.647478e+001	6.785118e+001
1.095058e+007	-4.262912e+001	-8.650945e+001	-3.074379e+001	-2.252798e+001	-9.473338e+001	9.654358e+001	-4.641248e+001	6.813542e+001
1.095059e+007	-4.260247e+001	-8.661206e+001	-3.072984e+001	-2.255652e+001	-9.485982e+001	9.516759e+001	-4.644337e+001	6.815437e+001
1.095059e+007	-4.263006e+001	-8.663608e+001	-3.074323e+001	-2.247783e+001	-9.595900e+001	8.731764e+001	-4.645984e+001	6.793985e+001
1.095060e+007	-4.259713e+001	-8.664083e+001	-3.073914e+001	-2.257046e+001	-9.896019e+001	8.866300e+001	-4.651029e+001	6.804315e+001
1.095061e+007	-4.260586e+001	-8.656603e+001	-3.073834e+001	-2.256311e+001	-9.579480e+001	1.172008e+002	-4.643580e+001	6.832606e+001
1.095062e+007	-4.259387e+001	-8.668760e+001	-3.073955e+001	-2.257788e+001	-9.424388e+001	8.752900e+001	-4.648153e+001	6.778896e+001
1.095063e+007	-4.260089e+001	-8.683938e+001	-3.073777e+001	-2.254033e+001	-9.783944e+001	8.716327e+001	-4.642386e+001	6.804755e+001
1.095063e+007	-4.257111e+001	-8.665867e+001	-3.073726e+001	-2.256465e+001	-9.619373e+001	6.426637e+001	-4.646005e+001	6.801709e+001
1.095064e+007	-4.262518e+001	-8.651036e+001	-3.074749e+001	-2.252390e+001	-9.534614e+001	7.956602e+001	-4.645103e+001	6.783792e+001
1.095065e+007	-4.260109e+001	-8.662246e+001	-3.075092e+001	-2.254754e+001	-9.787357e+001	9.066301e+001	-4.641250e+001	6.794298e+001
1.095066e+007	-4.261887e+001	-8.670031e+001	-3.073045e+001	-2.248045e+001	-9.551064e+001	9.008551e+001	-4.644447e+001	6.813835e+001
1.095066e+007	-4.260632e+001	-8.651787e+001	-3.074793e+001	-2.261100e+001	-9.780954e+001	8.160829e+001	-4.642336e+001	6.818898e+001
1.095067e+007	-4.257716e+001	-8.653916e+001	-3.073839e+001	-2.252269e+001	-9.964476e+001	9.096085e+001	-4.644792e+001	6.808679e+001
1.095068e+007	-4.260702e+001	-8.672359e+001	-3.073118e+001	-2.257930e+001	-9.582163e+001	8.687233e+001	-4.640043e+001	6.802779e+001
1.095069e+007	-4.263694e+001	-8.650436e+001	-3.073121e+001	-2.252001e+001	-9.872275e+001	1.089677e+002	-4.649346e+001	6.812545e+001
1.095070e+007	-4.258676e+001	-8.659089e+001	-3.073617e+001	-2.253052e+001	-1.001153e+002	9.165231e+001	-4.650119e+001	6.806917e+001
1.095070e+007	-4.261373e+001	-8.662995e+001	-3.074141e+001	-2.246705e+001	-9.767254e+001	6.807104e+001	-4.642710e+001	6.786151e+001
1.095071e+007	-4.258820e+001	-8.668483e+001	-3.074293e+001	-2.246025e+001	-9.753001e+001	8.601045e+001	-4.648629e+001	6.827188e+001
1.095072e+007	-4.257873e+001	-8.667343e+001	-3.073832e+001	-2.256850e+001	-9.985489e+001	1.191203e+002	-4.645740e+001	6.793244e+001
1.095073e+007	-4.256773e+001	-8.661920e+001	-3.074539e+001	-2.247655e+001	-9.736024e+001	1.044397e+002	-4.649309e+001	6.813298e+001
1.095073e+007	-4.262952e+001	-8.626946e+001	-3.074422e+001	-2.263436e+001	-1.017029e+002	1.110561e+002	-4.642562e+001	6.786424e+001
1.095074e+007	-4.262711e+001	-8.644884e+001	-3.073769e+001	-2.258244e+001	-9.494641e+001	1.082079e+002	-4.645208e+001	6.801756e+001
1.095075e+007	-4.262116e+001	-8.624785e+001	-3.074040e+001	-2.258252e+001	-9.716239e+001	1.014084e+002	-4.645304e+001	6.774159e+001
1.095076e+007	-4.259972e+001	-8.643748e+001	-3.073844e+001	-2.259840e+001	-9.659352e+001	9.491661e+001	-4.641725e+001	6.762375e+001
1.095077e+007	-4.260425e+001	-8.655094e+001	-3.073892e+001	-2.255796e+001	-9.711609e+001	6.670447e+001	-4.645061e+001	6.777965e+001
1.095077e+007	-4.261670e+001	-8.637599e+001	-3.073293e+001	-2.251096e+001	-9.840784e+001	6.961096e+001	-4.640234e+001	6.789605e+001
1.095078e+007	-4.258258e+001	-8.647792e+001	-3.073255e+001	-2.255330e+001	-9.575810e+001	1.000009e+002	-4.651186e+001	6.784462e+001
1.095079e+007	-4.260161e+001	-8.653506e+001	-3.073967e+001	-2.256519e+001	-9.465230e+001	7.632408e+001	-4.644610e+001	6.766451e+001
1.095080e+007	-4.258924e+001	-8.649220e+001	-3.073335e+001	-2.256816e+001	-9.496888e+001	1.084452e+002	-4.647612e+001	6.790416e+001
1.095080e+007	-4.260726e+001	-8.639824e+001	-3.073998e+001	-2.249797e+001	-9.578909e+001	1.108822e+002	-4.642152e+001	6.799636e+001
1.095081e+007	-4.259969e+001	-8.664281e+001	-3.073891e+001	-2.254425e+001	-9.602030e+001	9.539303e+001	-4.648549e+001	6.779383e+001
1.095082e+007	-4.258891e+001	-8.644482e+001	-3.073114e+001	-2.255869e+001	-9.719652e+001	8.544793e+001	-4.650820e+001	6.781561e+001
1.095083e+007	-4.260209e+001	-8.648728e+001	-3.073051e+001	-2.252389e+001	-9.965723e+001	1.061537e+002	-4.646850e+001	6.800252e+001
1.095084e+007	-4.259813e+001	-8.678993e+001	-3.073851e+001	-2.254468e+001	-9.770807e+001	8.387255e+001	-4.644620e+001	6.793039e+001
1.095084e+007	-4.258682e+001	-8.634832e+001	-3.074215e+001	-2.262180e+001	-9.584406e+001	8.633136e+001	-4.649522e+001	6.785648e+001
1.095085e+007	-4.261923e+001	-8.660630e+001	-3.074137e+001	-2.256179e+001	-9.553568e+001	7.881810e+001	-4.639885e+001	6.802805e+001
1.095086e+007	-4.257427e+001	-8.658951e+001	-3.073080e+001	-2.258374e+001	-9.590642e+001	7.584273e+001	-4.642332e+001	6.814028e+001
1.095087e+007	-4.261817e+001	-8.658608e+001	-3.072662e+001	-2.254407e+001	-9.568828e+001	7.047139e+001	-4.648262e+001	6.794271e+001
1.095088e+007	-4.261860e+001	-8.663919e+001	-3.073674e+001	-2.252725e+001	-1.009764e+002	1.006570e+002	-4.644341e+001	6.778764e+001
1.095088e+007	-4.263434e+001	-8.649008e+001	-3.074544e+001	-2.259943e+001	-9.591514e+001	9.076469e+001	-4.645475e+001	6.754556e+001
1.095089e+007	-4.260226e+001	-8.644495e+001	-3.073819e+001	-2.255642e+001	-9.677308e+001	1.120959e+002	-4.647089e+001	6.827414e+001
1.095090e+007	-4.258980e+001	-8.660646e+001	-3.073787e+001	-2.257676e+001	-9.616177e+001	1.165390e+002	-4.648516e+001	6.815368e+001
1.095091e+007	-4.259720e+001	-8.651061e+001	-3.073982e+001	-2.258197e+001	-9.797087e+001	9.389214e+001	-4.643376e+001	6.742778e+001
1.095091e+007	-4.258246e+001	-8.671554e+001	-3.074627e+001	-2.253677e+001	-9.667847e+001	9.099215e+001	-4.644715e+001	6.787913e+001
1.095092e+007	-4.260296e+001	-8.664091e+001	-3.074928e+001	-2.250185e+001	-9.659598e+001	9.352708e+001	-4.648474e+001	6.815868e+001
1.095093e+007	-4.262492e+001	-8.673394e+001	-3.074336e+001	-2.255873e+001	-9.507250e+001	8.516385e+001	-4.648603e+001	6.802646e+001
1.095094e+007	-4.260297e+001	-8.656938e+001	-3.073639e+001	-2.250436e+001	-9.980760e+001	8.474929e+001	-4.646283e+001	6.819885e+001
1.095095e+007	-4.260251e+001	-8.643330e+001	-3.073596e+001	-2.259775e+001	-9.931914e+001	8.989496e+001	-4.643977e+001	6.822905e+001
1.095095e+007	-4.260002e+001	-8.645477e+001	-3.074127e+001	-2.258245e+001	-9.265466e+001	7.938309e+001	-4.652018e+001	6.811787e+001
1.095096e+007	-4.259291e+001	-8.681683e+001	-3.074284e+001	-2.258585e+001	-9.770348e+001	1.029209e+002	-4.647486e+001	6.823787e+001
1.095097e+007	-4.261104e+001	-8.645298e+001	-3.073479e+001	-2.252317e+001	-9.665945e+001	1.155594e+002	-4.644330e+001	6.812459e+001
1.095098e+007	-4.260022e+001	-8.646523e+001	-3.073607e+001	-2.256803e+001	-9.813603e+001	9.009362e+001	-4.644112e+001	6.800822e+001
1.095098e+007	-4.261532e+001	-8.660396e+001	-3.073392e+001	-2.251010e+001	-9.679231e+001	9.877467e+001	-4.648768e+001	6.766807e+001
1.095099e+007	-4.259815e+001	-8.660470e+001	-3.074051e+001	-2.254013e+001	-1.008956e+002	8.503239e+001	-4.652486e+001	6.813596e+001
1.095100e+007	-4.260404e+001	-8.651191e+001	-3.073177e+001	-2.252485e+001	-9.909263e+001	1.104247e+002	-4.647314e+001	6.787675e+001
1.095101e+007	-4.260200e+001	-8.673574e+001	-3.073852e+001	-2.254469e+001	-9.635394e+001	8.106331e+001	-4.649602e+001	6.803112e+001
1.095102e+007	-4.258778e+001	-8.647833e+001	-3.073467e+001	-2.252361e+001	-9.687463e+001	8.103493e+001	-4.648259e+001	6.797158e+001
1.095102e+007	-4.260123e+001	-8.669727e+001	-3.073041e+001	-2.256807e+001	-9.465824e+001	7.777597e+001	-4.645977e+001	6.815508e+001
1.095103e+007	-4.260469e+001	-8.643723e+001	-3.073473e+001	-2.249944e+001	-9.610651e+001	9.337868e+001	-4.651825e+001	6.796188e+001
1.095104e+007	-4.260797e+001	-8.666907e+001	-3.073742e+001	-2.255915e+001	-1.023756e+002	1.112639e+002	-4.649323e+001	6.807193e+001
1.095105e+007	-4.258779e+001	-8.660123e+001	-3.073640e+001	-2.253939e+001	-9.615559e+001	8.040924e+001	-4.648244e+001	6.812025e+001
1.095105e+007	-4.258966e+001	-8.658594e+001	-3.073140e+001	-2.248603e+001	-9.615142e+001	9.248218e+001	-4.648726e+001	6.773348e+001
1.095106e+007	-4.259303e+001	-8.641640e+001	-3.073588e+001	-2.259059e+001	-9.628949e+001	1.041976e+002	-4.642697e+001	6.800535e+001
1.095107e+007	-4.260989e+001	-8.649742e+001	-3.073472e+001	-2.258600e+001	-9.883262e+001	9.993244e+001	-4.646640e+001	6.810618e+001
1.095108e+007	-4.259332e+001	-8.657752e+001	-3.074019e+001	-2.252734e+001	-9.587943e+001	1.111990e+002	-4.647683e+001	6.787972e+001
1.095109e+007	-4.259677e+001	-8.667299e+001	-3.073209e+001	-2.251763e+001	-9.217447e+001	7.976329e+001	-4.648480e+001	6.785263e+001
1.095109e+007	-4.261669e+001	-8.648619e+001	-3.073603e+001	-2.252891e+001	-1.006362e+002	9.788656e+001	-4.643791e+001	6.770222e+001
1.095110e+007	-4.262046e+001	-8.665351e+001	-3.073820e+001	-2.248476e+001	-9.649058e+001	8.845819e+001	-4.643681e+001	6.786409e+001
1.095111e+007	-4.260301e+001	-8.640882e+001	-3.074021e+001	-2.251186e+001	-9.462979e+001	7.735773e+001	-4.648371e+001	6.798139e+001
1.095112e+007	-4.261272e+001	-8.655027e+001	-3.073573e+001	-2.255969e+001	-9.589408e+001	8.297488e+001	-4.643355e+001	6.789019e+001
1.095113e+007	-4.259269e+001	-8.657374e+001	-3.073095e+001	-2.257007e+001	-9.508150e+001	1.022026e+002	-4.645124e+001	6.813404e+001
1.095113e+007	-4.259760e+001	-8.654911e+001	-3.073747e+001	-2.251100e+001	-9.589279e+001	1.203483e+002	-4.654230e+001	6.785447e+001
1.095114e+007	-4.259888e+001	-8.650484e+001	-3.072873e+001	-2.255421e+001	-9.585405e+001	9.193581e+001	-4.647090e+001	6.810204e+001
1.095115e+007	-4.257855e+001	-8.650192e+001	-3.072883e+001	-2.255414e+001	-9.713882e+001	1.019129e+002	-4.646729e+001	6.785785e+001
1.095116e+007	-4.259265e+001	-8.662380e+001	-3.072741e+001	-2.249018e+001	-9.539008e+001	1.167277e+002	-4.649172e+001	6.787261e+001
