!CETC41,AV3656A,ZGL00048,1.3.2
!Calibration ON (Full Solt 2-Port(Omit Isolation))
!Measurements: S11 S21 S12 S22
!2025-07-09 21:53
# Hz  S  dB  R 50.000
6.100000e+006	-4.407825e+001	-8.955133e+001	-3.093946e+001	-1.265643e+001	-1.064175e+002	3.955263e+001	-3.877498e+001	1.040903e+001
6.100047e+006	-4.402311e+001	-8.995540e+001	-3.093105e+001	-1.265313e+001	-9.372524e+001	1.991247e+001	-3.876746e+001	1.048935e+001
6.100094e+006	-4.405124e+001	-8.989423e+001	-3.093615e+001	-1.270285e+001	-9.005588e+001	1.092355e+002	-3.877946e+001	1.047588e+001
6.100141e+006	-4.400318e+001	-8.985172e+001	-3.093196e+001	-1.275320e+001	-9.555232e+001	6.394930e+001	-3.876691e+001	1.048458e+001
6.100188e+006	-4.399891e+001	-8.973218e+001	-3.092872e+001	-1.262574e+001	-9.041375e+001	1.291315e+002	-3.877827e+001	1.050593e+001
6.100234e+006	-4.405839e+001	-8.966269e+001	-3.093082e+001	-1.269807e+001	-1.030010e+002	-4.993784e+001	-3.875903e+001	1.059257e+001
6.100281e+006	-4.404298e+001	-8.985887e+001	-3.093740e+001	-1.265771e+001	-9.109967e+001	-6.261481e+000	-3.876016e+001	1.053453e+001
6.100328e+006	-4.405296e+001	-8.997774e+001	-3.093446e+001	-1.268269e+001	-9.241218e+001	5.462796e+001	-3.876472e+001	1.044050e+001
6.100375e+006	-4.404887e+001	-8.987684e+001	-3.093711e+001	-1.271974e+001	-9.085773e+001	8.701518e+001	-3.877768e+001	1.053303e+001
6.100422e+006	-4.404305e+001	-8.985556e+001	-3.094542e+001	-1.266045e+001	-8.955865e+001	3.264656e+001	-3.877214e+001	1.032785e+001
6.100469e+006	-4.404734e+001	-8.984109e+001	-3.093847e+001	-1.264062e+001	-9.256746e+001	1.618315e+002	-3.877560e+001	1.036016e+001
6.100516e+006	-4.405361e+001	-8.978230e+001	-3.093910e+001	-1.269878e+001	-9.313132e+001	6.074454e+001	-3.877284e+001	1.065152e+001
6.100563e+006	-4.406936e+001	-8.998878e+001	-3.094287e+001	-1.267527e+001	-9.952127e+001	-1.575959e+002	-3.876291e+001	1.028790e+001
6.100609e+006	-4.407211e+001	-8.961168e+001	-3.094161e+001	-1.267109e+001	-8.907023e+001	-8.598118e+001	-3.878095e+001	1.049386e+001
6.100656e+006	-4.406944e+001	-8.963455e+001	-3.093399e+001	-1.272142e+001	-8.722759e+001	1.053885e+002	-3.875593e+001	1.045799e+001
6.100703e+006	-4.401515e+001	-8.979494e+001	-3.093941e+001	-1.264847e+001	-8.605203e+001	6.190678e+001	-3.877983e+001	1.054648e+001
6.100750e+006	-4.402192e+001	-8.991847e+001	-3.093731e+001	-1.261923e+001	-8.895738e+001	1.109106e+002	-3.877193e+001	1.043898e+001
6.100797e+006	-4.401703e+001	-8.986056e+001	-3.094690e+001	-1.266628e+001	-9.754898e+001	-1.624556e+002	-3.878578e+001	1.047714e+001
6.100844e+006	-4.403984e+001	-9.008501e+001	-3.094268e+001	-1.267667e+001	-9.009701e+001	-1.744952e+002	-3.876337e+001	1.048264e+001
6.100891e+006	-4.403317e+001	-9.009344e+001	-3.093377e+001	-1.268275e+001	-1.096928e+002	1.116420e+002	-3.877303e+001	1.066014e+001
6.100938e+006	-4.399881e+001	-8.993770e+001	-3.093358e+001	-1.261367e+001	-9.221134e+001	1.261802e+002	-3.876388e+001	1.048046e+001
6.100984e+006	-4.402804e+001	-9.012621e+001	-3.093965e+001	-1.265391e+001	-1.079361e+002	1.373646e+002	-3.878717e+001	1.059434e+001
6.101031e+006	-4.406897e+001	-9.007230e+001	-3.093232e+001	-1.266423e+001	-9.207039e+001	1.486814e+002	-3.878083e+001	1.059863e+001
6.101078e+006	-4.399128e+001	-8.994099e+001	-3.093242e+001	-1.263220e+001	-9.967065e+001	1.536477e+002	-3.877643e+001	1.048046e+001
6.101125e+006	-4.405863e+001	-8.993760e+001	-3.094563e+001	-1.265753e+001	-9.072696e+001	-1.112412e+002	-3.875989e+001	1.053910e+001
6.101172e+006	-4.402339e+001	-9.011265e+001	-3.093131e+001	-1.271407e+001	-1.089023e+002	1.056248e+002	-3.876815e+001	1.059945e+001
6.101219e+006	-4.402901e+001	-8.977788e+001	-3.093504e+001	-1.266583e+001	-9.308128e+001	4.603942e+001	-3.878423e+001	1.061073e+001
6.101266e+006	-4.404784e+001	-9.008500e+001	-3.093895e+001	-1.268451e+001	-9.311400e+001	-9.809538e+001	-3.876773e+001	1.049549e+001
6.101313e+006	-4.405791e+001	-9.014828e+001	-3.094036e+001	-1.268882e+001	-9.325468e+001	5.555281e+001	-3.877856e+001	1.041787e+001
6.101359e+006	-4.404908e+001	-8.982705e+001	-3.094091e+001	-1.268474e+001	-9.761222e+001	1.313112e+002	-3.873536e+001	1.055496e+001
6.101406e+006	-4.400524e+001	-8.959152e+001	-3.093685e+001	-1.260865e+001	-9.570298e+001	5.397251e+001	-3.875579e+001	1.038325e+001
6.101453e+006	-4.403747e+001	-9.006897e+001	-3.092254e+001	-1.268023e+001	-9.446933e+001	-1.589091e+002	-3.876611e+001	1.036841e+001
6.101500e+006	-4.403231e+001	-8.961218e+001	-3.093924e+001	-1.259790e+001	-8.895994e+001	8.593210e+001	-3.877083e+001	1.045021e+001
6.101547e+006	-4.401615e+001	-8.996975e+001	-3.093493e+001	-1.268953e+001	-9.989582e+001	1.542703e+002	-3.876942e+001	1.039630e+001
6.101594e+006	-4.402578e+001	-9.004716e+001	-3.092855e+001	-1.265152e+001	-9.253040e+001	-1.370692e+001	-3.876683e+001	1.032090e+001
6.101641e+006	-4.401263e+001	-9.007602e+001	-3.093795e+001	-1.266148e+001	-9.094500e+001	6.933214e+001	-3.876684e+001	1.066452e+001
6.101688e+006	-4.402311e+001	-9.005019e+001	-3.094337e+001	-1.262995e+001	-9.815278e+001	1.237525e+002	-3.878641e+001	1.044186e+001
6.101734e+006	-4.404429e+001	-8.983285e+001	-3.093783e+001	-1.264183e+001	-9.351469e+001	-1.679233e+002	-3.878079e+001	1.056224e+001
6.101781e+006	-4.404265e+001	-9.016236e+001	-3.092445e+001	-1.266967e+001	-1.214955e+002	1.001320e+002	-3.877668e+001	1.031098e+001
6.101828e+006	-4.402496e+001	-9.011453e+001	-3.093529e+001	-1.267913e+001	-8.804198e+001	1.120253e+002	-3.878256e+001	1.036885e+001
6.101875e+006	-4.404554e+001	-8.981387e+001	-3.092781e+001	-1.277528e+001	-1.029916e+002	-1.081143e+002	-3.873960e+001	1.040468e+001
6.101922e+006	-4.405865e+001	-8.983270e+001	-3.092356e+001	-1.266731e+001	-9.757280e+001	1.047681e+002	-3.878848e+001	1.043433e+001
6.101969e+006	-4.405586e+001	-8.968504e+001	-3.093797e+001	-1.267611e+001	-8.510032e+001	-7.781073e+001	-3.875419e+001	1.053799e+001
6.102016e+006	-4.399542e+001	-8.984270e+001	-3.093564e+001	-1.265468e+001	-9.713287e+001	-1.007429e+002	-3.877619e+001	1.046563e+001
6.102063e+006	-4.402506e+001	-8.990019e+001	-3.093420e+001	-1.268146e+001	-9.227063e+001	5.895601e+001	-3.877223e+001	1.043775e+001
6.102109e+006	-4.404659e+001	-8.985457e+001	-3.093288e+001	-1.271290e+001	-9.433565e+001	1.384353e+002	-3.877074e+001	1.031097e+001
6.102156e+006	-4.401507e+001	-8.962107e+001	-3.094833e+001	-1.271056e+001	-9.494769e+001	-8.788478e+001	-3.875843e+001	1.038878e+001
6.102203e+006	-4.403946e+001	-8.996017e+001	-3.094049e+001	-1.262962e+001	-1.026139e+002	-5.088674e+001	-3.878504e+001	1.042150e+001
6.102250e+006	-4.401386e+001	-8.999611e+001	-3.093551e+001	-1.271530e+001	-9.730787e+001	1.055783e+002	-3.876870e+001	1.029734e+001
6.102297e+006	-4.407356e+001	-8.999906e+001	-3.092602e+001	-1.263281e+001	-1.095922e+002	-1.285492e+002	-3.878700e+001	1.045871e+001
6.102344e+006	-4.403984e+001	-8.962700e+001	-3.093422e+001	-1.271567e+001	-9.375297e+001	5.491559e+001	-3.878545e+001	1.050337e+001
6.102391e+006	-4.399402e+001	-8.969677e+001	-3.093125e+001	-1.269304e+001	-8.712044e+001	-1.058242e+002	-3.879612e+001	1.048745e+001
6.102438e+006	-4.403546e+001	-9.012452e+001	-3.092961e+001	-1.267499e+001	-9.247764e+001	-4.405042e-001	-3.877171e+001	1.047813e+001
6.102484e+006	-4.404129e+001	-9.011579e+001	-3.094053e+001	-1.266460e+001	-9.202662e+001	1.042933e+002	-3.876886e+001	1.044513e+001
6.102531e+006	-4.407737e+001	-8.982398e+001	-3.093069e+001	-1.272723e+001	-1.113195e+002	-1.373201e+002	-3.875658e+001	1.043382e+001
6.102578e+006	-4.403959e+001	-9.017572e+001	-3.093505e+001	-1.264298e+001	-8.782525e+001	8.695025e+001	-3.874731e+001	1.044741e+001
6.102625e+006	-4.405276e+001	-8.990977e+001	-3.093580e+001	-1.275289e+001	-9.657854e+001	-1.407226e+002	-3.875331e+001	1.044378e+001
6.102672e+006	-4.404255e+001	-9.016413e+001	-3.093715e+001	-1.265458e+001	-9.085436e+001	-4.851282e+001	-3.874765e+001	1.050165e+001
6.102719e+006	-4.402288e+001	-8.979079e+001	-3.092791e+001	-1.264868e+001	-9.306749e+001	6.277614e+001	-3.875875e+001	1.054602e+001
6.102766e+006	-4.400399e+001	-8.982378e+001	-3.093634e+001	-1.271559e+001	-8.973635e+001	-1.545957e+002	-3.877267e+001	1.030497e+001
6.102813e+006	-4.400301e+001	-9.006809e+001	-3.092660e+001	-1.271600e+001	-9.421368e+001	1.180255e+002	-3.877521e+001	1.042396e+001
6.102859e+006	-4.403873e+001	-8.999477e+001	-3.093699e+001	-1.266827e+001	-9.303887e+001	1.478734e+002	-3.876945e+001	1.043693e+001
6.102906e+006	-4.400071e+001	-8.997914e+001	-3.093790e+001	-1.271853e+001	-9.161092e+001	-5.794205e+001	-3.875994e+001	1.050520e+001
6.102953e+006	-4.400930e+001	-8.984013e+001	-3.093346e+001	-1.270403e+001	-9.616180e+001	-5.907763e+001	-3.877291e+001	1.058475e+001
6.103000e+006	-4.403745e+001	-8.987740e+001	-3.094142e+001	-1.261966e+001	-9.506775e+001	-4.562542e+001	-3.875614e+001	1.073266e+001
6.103047e+006	-4.407194e+001	-8.998683e+001	-3.093466e+001	-1.266900e+001	-1.032097e+002	-8.119942e+001	-3.879358e+001	1.051895e+001
6.103094e+006	-4.404326e+001	-9.003456e+001	-3.094277e+001	-1.270250e+001	-9.666194e+001	1.360212e+002	-3.879351e+001	1.041910e+001
6.103141e+006	-4.404534e+001	-9.006643e+001	-3.093269e+001	-1.274442e+001	-9.470309e+001	-1.391813e+002	-3.877223e+001	1.034020e+001
6.103188e+006	-4.403043e+001	-8.997854e+001	-3.093551e+001	-1.268046e+001	-8.827373e+001	3.920112e+001	-3.878855e+001	1.047976e+001
6.103234e+006	-4.400250e+001	-8.991081e+001	-3.094203e+001	-1.275319e+001	-9.669646e+001	1.193703e+002	-3.877239e+001	1.054192e+001
6.103281e+006	-4.403999e+001	-8.996668e+001	-3.092997e+001	-1.262021e+001	-9.096185e+001	6.677269e+001	-3.877296e+001	1.053383e+001
6.103328e+006	-4.402242e+001	-8.971729e+001	-3.093271e+001	-1.267290e+001	-9.830577e+001	1.196812e+001	-3.874845e+001	1.047013e+001
6.103375e+006	-4.401963e+001	-9.002252e+001	-3.093234e+001	-1.268548e+001	-9.846545e+001	7.124521e+001	-3.880968e+001	1.056949e+001
6.103422e+006	-4.403745e+001	-8.996158e+001	-3.093712e+001	-1.264966e+001	-9.101167e+001	7.784352e+001	-3.876944e+001	1.058934e+001
6.103469e+006	-4.403730e+001	-9.001653e+001	-3.093602e+001	-1.270645e+001	-9.449662e+001	-2.145049e+001	-3.878386e+001	1.046715e+001
6.103516e+006	-4.405156e+001	-8.990781e+001	-3.093217e+001	-1.273390e+001	-1.056386e+002	-1.349523e+002	-3.878723e+001	1.036992e+001
6.103563e+006	-4.401206e+001	-8.985757e+001	-3.093966e+001	-1.270625e+001	-9.232985e+001	-1.188989e+002	-3.877301e+001	1.058443e+001
6.103609e+006	-4.405589e+001	-8.968763e+001	-3.094014e+001	-1.270966e+001	-8.631252e+001	5.410626e+001	-3.877367e+001	1.048069e+001
6.103656e+006	-4.404975e+001	-9.005945e+001	-3.093290e+001	-1.271268e+001	-9.338047e+001	-1.139965e+002	-3.877199e+001	1.045011e+001
6.103703e+006	-4.402418e+001	-8.977108e+001	-3.093372e+001	-1.268926e+001	-1.048359e+002	-8.660450e+000	-3.876179e+001	1.046783e+001
6.103750e+006	-4.398901e+001	-8.995625e+001	-3.093268e+001	-1.269492e+001	-9.262890e+001	7.912807e+001	-3.874027e+001	1.033820e+001
6.103797e+006	-4.407433e+001	-8.987148e+001	-3.094052e+001	-1.264584e+001	-9.849712e+001	-1.429798e+001	-3.875145e+001	1.049063e+001
6.103844e+006	-4.400029e+001	-8.956916e+001	-3.093181e+001	-1.269357e+001	-9.103962e+001	6.682613e+001	-3.876004e+001	1.037903e+001
6.103891e+006	-4.402718e+001	-8.991076e+001	-3.094102e+001	-1.262943e+001	-9.296909e+001	-8.124285e+001	-3.878371e+001	1.065665e+001
6.103938e+006	-4.401185e+001	-8.984014e+001	-3.094209e+001	-1.264990e+001	-9.715676e+001	1.418374e+002	-3.878003e+001	1.042139e+001
6.103984e+006	-4.403751e+001	-9.008007e+001	-3.092309e+001	-1.263186e+001	-1.037494e+002	-1.138787e+002	-3.877921e+001	1.017477e+001
6.104031e+006	-4.401256e+001	-8.972553e+001	-3.093012e+001	-1.271965e+001	-1.141913e+002	-1.029001e+001	-3.878155e+001	1.044489e+001
6.104078e+006	-4.408313e+001	-9.001191e+001	-3.093511e+001	-1.266494e+001	-9.513241e+001	-1.112483e+002	-3.876702e+001	1.047330e+001
6.104125e+006	-4.398579e+001	-8.968820e+001	-3.093574e+001	-1.270836e+001	-9.097818e+001	1.639961e+002	-3.878685e+001	1.054242e+001
6.104172e+006	-4.406397e+001	-8.991620e+001	-3.094466e+001	-1.267693e+001	-9.270178e+001	1.690285e+001	-3.878436e+001	1.049474e+001
6.104219e+006	-4.408530e+001	-9.012785e+001	-3.093906e+001	-1.270729e+001	-9.015284e+001	8.391016e+001	-3.875930e+001	1.054555e+001
6.104266e+006	-4.404690e+001	-8.984065e+001	-3.093393e+001	-1.268399e+001	-9.816149e+001	7.607095e+001	-3.874792e+001	1.044055e+001
6.104313e+006	-4.404657e+001	-9.007053e+001	-3.093692e+001	-1.268437e+001	-9.577068e+001	3.482115e+001	-3.876978e+001	1.050017e+001
6.104359e+006	-4.401689e+001	-8.994203e+001	-3.094129e+001	-1.262979e+001	-9.149510e+001	8.124275e+001	-3.876725e+001	1.026110e+001
6.104406e+006	-4.404649e+001	-8.995934e+001	-3.092993e+001	-1.271263e+001	-9.256037e+001	6.574514e+001	-3.876723e+001	1.041396e+001
6.104453e+006	-4.404978e+001	-8.996101e+001	-3.093248e+001	-1.264137e+001	-1.024690e+002	1.579122e+002	-3.878877e+001	1.051110e+001
6.104500e+006	-4.404847e+001	-8.966815e+001	-3.092823e+001	-1.269517e+001	-8.851048e+001	1.403282e+002	-3.876644e+001	1.038706e+001
6.104547e+006	-4.405332e+001	-8.986220e+001	-3.092871e+001	-1.266133e+001	-9.840087e+001	1.153086e+002	-3.877979e+001	1.051658e+001
6.104594e+006	-4.408342e+001	-8.971306e+001	-3.093445e+001	-1.270295e+001	-9.325443e+001	4.652527e+001	-3.878917e+001	1.041455e+001
6.104641e+006	-4.407447e+001	-8.988195e+001	-3.094249e+001	-1.273319e+001	-1.012861e+002	8.992466e+001	-3.875614e+001	1.050950e+001
6.104688e+006	-4.401040e+001	-8.989466e+001	-3.092881e+001	-1.267773e+001	-9.845573e+001	-6.568118e+001	-3.876495e+001	1.063461e+001
6.104734e+006	-4.404764e+001	-8.959744e+001	-3.094335e+001	-1.265483e+001	-9.609605e+001	-4.632439e+001	-3.877751e+001	1.044522e+001
6.104781e+006	-4.406468e+001	-9.000619e+001	-3.094702e+001	-1.267978e+001	-1.189138e+002	2.453628e+001	-3.876957e+001	1.044537e+001
6.104828e+006	-4.399425e+001	-8.975650e+001	-3.094105e+001	-1.272299e+001	-9.016695e+001	1.608602e+002	-3.876911e+001	1.046637e+001
6.104875e+006	-4.401656e+001	-9.011360e+001	-3.093480e+001	-1.259411e+001	-9.110614e+001	-1.476099e+002	-3.877046e+001	1.034475e+001
6.104922e+006	-4.402189e+001	-8.952344e+001	-3.093118e+001	-1.268352e+001	-8.729137e+001	1.368083e+002	-3.875695e+001	1.048299e+001
6.104969e+006	-4.404810e+001	-8.997449e+001	-3.093535e+001	-1.269618e+001	-1.033023e+002	-1.373656e+002	-3.879754e+001	1.045607e+001
6.105016e+006	-4.403564e+001	-8.979694e+001	-3.093945e+001	-1.267813e+001	-9.939283e+001	-1.386791e+002	-3.878836e+001	1.044634e+001
6.105063e+006	-4.403601e+001	-8.989330e+001	-3.093852e+001	-1.272412e+001	-9.451893e+001	-1.464109e+002	-3.877062e+001	1.049680e+001
6.105109e+006	-4.404424e+001	-9.001351e+001	-3.094243e+001	-1.268562e+001	-9.209956e+001	4.787525e+001	-3.877673e+001	1.036354e+001
6.105156e+006	-4.402956e+001	-8.988139e+001	-3.093416e+001	-1.267238e+001	-9.589094e+001	7.251267e+001	-3.876684e+001	1.045259e+001
6.105203e+006	-4.398473e+001	-8.966056e+001	-3.093262e+001	-1.268799e+001	-1.015344e+002	-1.930362e+001	-3.880125e+001	1.051880e+001
6.105250e+006	-4.406791e+001	-9.007604e+001	-3.093477e+001	-1.261100e+001	-9.273224e+001	1.458829e+002	-3.875730e+001	1.038764e+001
6.105297e+006	-4.403224e+001	-8.985322e+001	-3.094250e+001	-1.260522e+001	-9.782378e+001	1.135462e+002	-3.876219e+001	1.033428e+001
6.105344e+006	-4.402615e+001	-8.989236e+001	-3.093881e+001	-1.273528e+001	-9.235870e+001	3.522134e+001	-3.878766e+001	1.050510e+001
6.105391e+006	-4.408556e+001	-8.956038e+001	-3.092606e+001	-1.262933e+001	-1.021140e+002	-1.028433e+002	-3.874682e+001	1.045432e+001
6.105438e+006	-4.405830e+001	-8.959009e+001	-3.093770e+001	-1.269680e+001	-9.996444e+001	1.008886e+002	-3.878204e+001	1.045147e+001
6.105484e+006	-4.402278e+001	-9.018330e+001	-3.094127e+001	-1.266679e+001	-9.784455e+001	1.662658e+002	-3.877727e+001	1.040662e+001
6.105531e+006	-4.403695e+001	-8.996043e+001	-3.094254e+001	-1.271313e+001	-9.228304e+001	1.055525e+002	-3.877782e+001	1.049658e+001
6.105578e+006	-4.404669e+001	-8.984539e+001	-3.094187e+001	-1.266628e+001	-9.011194e+001	1.724323e+002	-3.874919e+001	1.050826e+001
6.105625e+006	-4.407455e+001	-9.002876e+001	-3.093718e+001	-1.269744e+001	-8.884744e+001	7.011579e+001	-3.877497e+001	1.038703e+001
6.105672e+006	-4.400358e+001	-9.002146e+001	-3.092449e+001	-1.270507e+001	-9.969117e+001	1.302278e+002	-3.878285e+001	1.056135e+001
6.105719e+006	-4.405197e+001	-9.010427e+001	-3.093838e+001	-1.273232e+001	-8.856370e+001	5.515157e+000	-3.877964e+001	1.038833e+001
6.105766e+006	-4.403982e+001	-8.982290e+001	-3.092761e+001	-1.264869e+001	-9.972778e+001	-1.455194e+002	-3.876970e+001	1.040584e+001
6.105813e+006	-4.403566e+001	-8.944277e+001	-3.093688e+001	-1.270616e+001	-9.640771e+001	3.316745e+001	-3.876125e+001	1.045361e+001
6.105859e+006	-4.403876e+001	-8.963560e+001	-3.093414e+001	-1.265834e+001	-9.187492e+001	-2.405172e+000	-3.877983e+001	1.065914e+001
6.105906e+006	-4.405548e+001	-8.968553e+001	-3.093127e+001	-1.262266e+001	-1.008647e+002	-1.178884e+001	-3.878902e+001	1.043342e+001
6.105953e+006	-4.398571e+001	-8.995083e+001	-3.093613e+001	-1.270746e+001	-9.029645e+001	6.091017e+001	-3.877212e+001	1.039796e+001
6.106000e+006	-4.404131e+001	-8.993881e+001	-3.093918e+001	-1.266079e+001	-9.627747e+001	7.872264e+001	-3.877431e+001	1.050449e+001
6.106047e+006	-4.404972e+001	-8.998368e+001	-3.093155e+001	-1.267348e+001	-9.235679e+001	8.685396e+001	-3.879746e+001	1.053719e+001
6.106094e+006	-4.404631e+001	-8.999624e+001	-3.092622e+001	-1.269747e+001	-1.000108e+002	9.309883e+001	-3.877754e+001	1.064372e+001
6.106141e+006	-4.404144e+001	-8.975570e+001	-3.093274e+001	-1.270461e+001	-8.741487e+001	1.380923e+002	-3.878432e+001	1.054929e+001
6.106188e+006	-4.409113e+001	-8.968675e+001	-3.093637e+001	-1.269332e+001	-1.049934e+002	-1.732851e+002	-3.878171e+001	1.050254e+001
6.106234e+006	-4.405392e+001	-8.985166e+001	-3.093738e+001	-1.272286e+001	-9.181180e+001	-1.297528e+002	-3.876696e+001	1.045950e+001
6.106281e+006	-4.405429e+001	-8.963898e+001	-3.093642e+001	-1.263536e+001	-1.043670e+002	-8.582656e+001	-3.879874e+001	1.038698e+001
6.106328e+006	-4.398295e+001	-8.997684e+001	-3.093359e+001	-1.266175e+001	-9.416041e+001	4.010200e+001	-3.877518e+001	1.054464e+001
6.106375e+006	-4.398559e+001	-8.977611e+001	-3.093841e+001	-1.265140e+001	-9.555234e+001	-5.431081e+001	-3.878301e+001	1.054998e+001
6.106422e+006	-4.407120e+001	-8.979663e+001	-3.093292e+001	-1.267992e+001	-9.839473e+001	6.487386e-002	-3.879630e+001	1.037833e+001
6.106469e+006	-4.404906e+001	-8.989506e+001	-3.094009e+001	-1.267815e+001	-9.120182e+001	-1.731068e+002	-3.876031e+001	1.036833e+001
6.106516e+006	-4.406213e+001	-8.968298e+001	-3.093411e+001	-1.264540e+001	-9.557885e+001	-1.220909e+002	-3.877500e+001	1.047962e+001
6.106563e+006	-4.401925e+001	-8.981763e+001	-3.092294e+001	-1.274758e+001	-9.281032e+001	1.351138e+002	-3.876535e+001	1.044760e+001
6.106609e+006	-4.404477e+001	-8.974547e+001	-3.092768e+001	-1.264057e+001	-1.022503e+002	-2.437073e+001	-3.877922e+001	1.056275e+001
6.106656e+006	-4.400491e+001	-8.986362e+001	-3.094145e+001	-1.269300e+001	-9.137136e+001	-2.578738e+001	-3.873802e+001	1.049504e+001
6.106703e+006	-4.400932e+001	-8.990892e+001	-3.093169e+001	-1.269351e+001	-8.828242e+001	2.439511e+000	-3.877771e+001	1.051987e+001
6.106750e+006	-4.399595e+001	-8.977582e+001	-3.093898e+001	-1.267846e+001	-9.036237e+001	-1.647571e+002	-3.877724e+001	1.049199e+001
6.106797e+006	-4.402960e+001	-8.993401e+001	-3.094226e+001	-1.268740e+001	-9.650634e+001	1.009273e+002	-3.876786e+001	1.034854e+001
6.106844e+006	-4.401785e+001	-8.981898e+001	-3.092532e+001	-1.262819e+001	-9.704583e+001	-5.299641e+001	-3.877115e+001	1.024868e+001
6.106891e+006	-4.402816e+001	-8.996715e+001	-3.093972e+001	-1.267708e+001	-9.322781e+001	-1.288586e+002	-3.876577e+001	1.041651e+001
