!CETC41,AV3656A,ZGL00048,1.3.2
!Calibration ON (Full Solt 2-Port(Omit Isolation))
!Measurements: S11 S21 S12 S22
!2025-07-09 20:51
# Hz  S  dB  R 50.000
6.150000e+006	-4.450712e+001	-9.586030e+001	-3.085454e+001	-1.245358e+001	-9.782207e+001	2.964257e+001	-4.431723e+001	2.440805e+001
6.150039e+006	-4.445400e+001	-9.610985e+001	-3.085584e+001	-1.246999e+001	-9.080405e+001	1.546086e+002	-4.433918e+001	2.455360e+001
6.150078e+006	-4.447541e+001	-9.624144e+001	-3.084781e+001	-1.248706e+001	-9.025718e+001	-8.079638e+001	-4.435244e+001	2.447473e+001
6.150117e+006	-4.446916e+001	-9.620636e+001	-3.085604e+001	-1.251755e+001	-9.033911e+001	8.166824e+001	-4.431401e+001	2.467061e+001
6.150156e+006	-4.442058e+001	-9.574001e+001	-3.086113e+001	-1.251198e+001	-9.438607e+001	6.772583e+001	-4.436939e+001	2.426439e+001
6.150195e+006	-4.440087e+001	-9.595552e+001	-3.084930e+001	-1.244108e+001	-9.039385e+001	2.370091e+001	-4.427333e+001	2.447467e+001
6.150234e+006	-4.443849e+001	-9.578871e+001	-3.084877e+001	-1.247197e+001	-8.635383e+001	8.063366e+001	-4.429447e+001	2.428861e+001
6.150273e+006	-4.444743e+001	-9.593918e+001	-3.084509e+001	-1.246310e+001	-9.065927e+001	1.160807e+002	-4.433585e+001	2.443357e+001
6.150313e+006	-4.443666e+001	-9.634385e+001	-3.085447e+001	-1.244631e+001	-9.993885e+001	4.221859e+001	-4.431490e+001	2.453959e+001
6.150352e+006	-4.447299e+001	-9.599285e+001	-3.085105e+001	-1.245802e+001	-9.527293e+001	6.109776e+001	-4.431280e+001	2.416342e+001
6.150391e+006	-4.446257e+001	-9.611216e+001	-3.084229e+001	-1.249825e+001	-9.191873e+001	-1.792165e+002	-4.428400e+001	2.430804e+001
6.150430e+006	-4.443586e+001	-9.612190e+001	-3.085544e+001	-1.245896e+001	-9.886521e+001	-1.554432e+002	-4.429675e+001	2.443707e+001
6.150469e+006	-4.442821e+001	-9.607771e+001	-3.084730e+001	-1.246571e+001	-9.113321e+001	-1.486984e+000	-4.429595e+001	2.425970e+001
6.150508e+006	-4.442851e+001	-9.581100e+001	-3.084718e+001	-1.250131e+001	-9.072537e+001	8.679555e+001	-4.432685e+001	2.463985e+001
6.150547e+006	-4.443306e+001	-9.615747e+001	-3.084728e+001	-1.250573e+001	-9.537291e+001	3.440888e+001	-4.432081e+001	2.436513e+001
6.150586e+006	-4.438732e+001	-9.619638e+001	-3.085220e+001	-1.245529e+001	-9.297576e+001	1.055943e+002	-4.430241e+001	2.425069e+001
6.150625e+006	-4.443952e+001	-9.572790e+001	-3.085267e+001	-1.252557e+001	-9.033705e+001	3.201157e+001	-4.428023e+001	2.432447e+001
6.150664e+006	-4.443205e+001	-9.615371e+001	-3.085054e+001	-1.250762e+001	-9.187951e+001	1.213572e+002	-4.426814e+001	2.441098e+001
6.150703e+006	-4.444871e+001	-9.609928e+001	-3.085787e+001	-1.244780e+001	-8.752786e+001	1.608914e+002	-4.432218e+001	2.458399e+001
6.150742e+006	-4.445469e+001	-9.613051e+001	-3.085417e+001	-1.252189e+001	-9.076012e+001	3.115642e+001	-4.431320e+001	2.428022e+001
6.150781e+006	-4.440066e+001	-9.613183e+001	-3.084649e+001	-1.253986e+001	-8.731679e+001	-1.683125e+002	-4.433949e+001	2.448078e+001
6.150820e+006	-4.443254e+001	-9.614996e+001	-3.085069e+001	-1.249521e+001	-1.029361e+002	-6.786154e+001	-4.429588e+001	2.422132e+001
6.150859e+006	-4.442417e+001	-9.613645e+001	-3.084828e+001	-1.249648e+001	-1.040160e+002	1.478843e+001	-4.434025e+001	2.461851e+001
6.150898e+006	-4.444005e+001	-9.605001e+001	-3.084695e+001	-1.241376e+001	-9.559603e+001	7.627566e+001	-4.422353e+001	2.420176e+001
6.150938e+006	-4.444193e+001	-9.599787e+001	-3.084265e+001	-1.239584e+001	-9.219397e+001	-1.535240e+002	-4.434106e+001	2.454880e+001
6.150977e+006	-4.442824e+001	-9.601604e+001	-3.085660e+001	-1.251237e+001	-9.396872e+001	3.090005e+001	-4.427059e+001	2.456151e+001
6.151016e+006	-4.444037e+001	-9.603699e+001	-3.084490e+001	-1.250674e+001	-8.803607e+001	1.096098e+002	-4.427627e+001	2.462153e+001
6.151055e+006	-4.444097e+001	-9.617991e+001	-3.086332e+001	-1.242609e+001	-8.904531e+001	-1.755200e+002	-4.427797e+001	2.443242e+001
6.151094e+006	-4.443874e+001	-9.577683e+001	-3.085325e+001	-1.248152e+001	-9.365508e+001	-2.740259e+001	-4.433841e+001	2.447402e+001
6.151133e+006	-4.445382e+001	-9.600314e+001	-3.086086e+001	-1.252885e+001	-8.800521e+001	1.296207e+002	-4.435269e+001	2.403145e+001
6.151172e+006	-4.449885e+001	-9.587958e+001	-3.084956e+001	-1.249249e+001	-9.206801e+001	6.220458e+001	-4.434052e+001	2.468797e+001
6.151211e+006	-4.444615e+001	-9.621146e+001	-3.084852e+001	-1.246995e+001	-9.605914e+001	5.005868e+001	-4.430647e+001	2.484750e+001
6.151250e+006	-4.441642e+001	-9.598016e+001	-3.084978e+001	-1.247666e+001	-9.207809e+001	7.626119e+001	-4.428197e+001	2.449337e+001
6.151289e+006	-4.447638e+001	-9.621797e+001	-3.084473e+001	-1.250969e+001	-9.576599e+001	1.021800e+001	-4.434568e+001	2.486150e+001
6.151328e+006	-4.443432e+001	-9.610798e+001	-3.085808e+001	-1.250271e+001	-8.434697e+001	-8.461423e+001	-4.432307e+001	2.436565e+001
6.151367e+006	-4.446306e+001	-9.593999e+001	-3.084404e+001	-1.245799e+001	-9.515165e+001	1.705660e+002	-4.432152e+001	2.435334e+001
6.151406e+006	-4.440968e+001	-9.610294e+001	-3.085174e+001	-1.255612e+001	-9.297270e+001	6.789973e+001	-4.428325e+001	2.462363e+001
6.151445e+006	-4.441104e+001	-9.596916e+001	-3.085146e+001	-1.250058e+001	-9.130101e+001	8.417398e+001	-4.428288e+001	2.469805e+001
6.151484e+006	-4.444002e+001	-9.620196e+001	-3.086419e+001	-1.249246e+001	-8.977908e+001	-1.272870e+002	-4.426067e+001	2.459440e+001
6.151523e+006	-4.443636e+001	-9.588430e+001	-3.084894e+001	-1.246238e+001	-9.417938e+001	1.032258e+002	-4.434579e+001	2.427975e+001
6.151563e+006	-4.447058e+001	-9.616270e+001	-3.084520e+001	-1.247144e+001	-9.612771e+001	-8.445175e+001	-4.435171e+001	2.457365e+001
6.151602e+006	-4.442589e+001	-9.608044e+001	-3.085482e+001	-1.248126e+001	-9.274954e+001	-1.872401e+001	-4.429750e+001	2.430240e+001
6.151641e+006	-4.442631e+001	-9.619296e+001	-3.084539e+001	-1.247965e+001	-9.625669e+001	1.349205e+002	-4.429073e+001	2.456694e+001
6.151680e+006	-4.446115e+001	-9.581310e+001	-3.084441e+001	-1.253308e+001	-9.573831e+001	1.022393e+002	-4.430636e+001	2.469293e+001
6.151719e+006	-4.443496e+001	-9.610018e+001	-3.084693e+001	-1.249652e+001	-9.401609e+001	1.750225e+002	-4.428702e+001	2.451551e+001
6.151758e+006	-4.442926e+001	-9.598150e+001	-3.084490e+001	-1.250393e+001	-9.707198e+001	1.059068e+002	-4.429037e+001	2.469730e+001
6.151797e+006	-4.446924e+001	-9.589119e+001	-3.085052e+001	-1.247436e+001	-1.005156e+002	1.033280e+002	-4.433256e+001	2.423492e+001
6.151836e+006	-4.446344e+001	-9.605800e+001	-3.084812e+001	-1.251852e+001	-1.051266e+002	1.374739e+002	-4.430888e+001	2.471855e+001
6.151875e+006	-4.442815e+001	-9.570970e+001	-3.085087e+001	-1.246315e+001	-9.248146e+001	-1.664458e+002	-4.429588e+001	2.440883e+001
6.151914e+006	-4.442315e+001	-9.607524e+001	-3.084577e+001	-1.250580e+001	-1.004446e+002	2.663980e+000	-4.433757e+001	2.459511e+001
6.151953e+006	-4.446980e+001	-9.613592e+001	-3.085391e+001	-1.246930e+001	-8.879880e+001	1.394103e+002	-4.437906e+001	2.470455e+001
6.151992e+006	-4.446437e+001	-9.602842e+001	-3.085220e+001	-1.253130e+001	-9.958472e+001	1.015415e+002	-4.430912e+001	2.443351e+001
6.152031e+006	-4.444674e+001	-9.632947e+001	-3.085953e+001	-1.256048e+001	-9.721065e+001	-4.325423e+001	-4.432147e+001	2.443462e+001
6.152070e+006	-4.448886e+001	-9.570260e+001	-3.085010e+001	-1.249177e+001	-9.057611e+001	-7.938349e+001	-4.432629e+001	2.452599e+001
6.152109e+006	-4.449369e+001	-9.598364e+001	-3.084994e+001	-1.252483e+001	-9.721570e+001	8.885468e+001	-4.432276e+001	2.445384e+001
6.152148e+006	-4.443931e+001	-9.598514e+001	-3.084422e+001	-1.248969e+001	-9.215301e+001	-5.423485e+000	-4.435872e+001	2.454633e+001
6.152188e+006	-4.443687e+001	-9.590451e+001	-3.084654e+001	-1.248246e+001	-1.014259e+002	-9.611645e+000	-4.433679e+001	2.455725e+001
6.152227e+006	-4.442211e+001	-9.615155e+001	-3.085221e+001	-1.250581e+001	-9.750848e+001	-8.380634e+001	-4.430649e+001	2.416470e+001
6.152266e+006	-4.449179e+001	-9.594888e+001	-3.085915e+001	-1.245694e+001	-1.009765e+002	-7.556841e+001	-4.433116e+001	2.439373e+001
6.152305e+006	-4.442379e+001	-9.573363e+001	-3.084801e+001	-1.249457e+001	-9.175166e+001	-2.047756e+001	-4.431772e+001	2.462765e+001
6.152344e+006	-4.446034e+001	-9.624093e+001	-3.084677e+001	-1.243445e+001	-8.996539e+001	5.091812e+001	-4.433583e+001	2.482792e+001
6.152383e+006	-4.448213e+001	-9.635078e+001	-3.085400e+001	-1.249555e+001	-9.902674e+001	1.580170e+002	-4.430181e+001	2.451240e+001
6.152422e+006	-4.445698e+001	-9.613149e+001	-3.084264e+001	-1.247123e+001	-1.063129e+002	-1.535532e+002	-4.428803e+001	2.456334e+001
6.152461e+006	-4.446773e+001	-9.620133e+001	-3.085200e+001	-1.249870e+001	-9.306933e+001	1.087624e+002	-4.428820e+001	2.475815e+001
6.152500e+006	-4.448543e+001	-9.596089e+001	-3.083929e+001	-1.248847e+001	-9.862225e+001	-1.505138e+002	-4.430888e+001	2.443896e+001
6.152539e+006	-4.447072e+001	-9.629130e+001	-3.084904e+001	-1.253416e+001	-8.658485e+001	-1.743568e+002	-4.434242e+001	2.464337e+001
6.152578e+006	-4.444856e+001	-9.564413e+001	-3.084956e+001	-1.249596e+001	-1.023490e+002	1.548762e+002	-4.432624e+001	2.442393e+001
6.152617e+006	-4.442253e+001	-9.599572e+001	-3.083386e+001	-1.249484e+001	-9.503649e+001	-1.779872e+002	-4.428681e+001	2.466539e+001
6.152656e+006	-4.442982e+001	-9.639925e+001	-3.085497e+001	-1.252570e+001	-9.500149e+001	7.476103e+001	-4.427025e+001	2.446108e+001
6.152695e+006	-4.447517e+001	-9.589889e+001	-3.085283e+001	-1.251539e+001	-9.314028e+001	-1.777816e+002	-4.430702e+001	2.469332e+001
6.152734e+006	-4.445942e+001	-9.590002e+001	-3.086108e+001	-1.245108e+001	-9.076041e+001	1.026597e+002	-4.430320e+001	2.471990e+001
6.152773e+006	-4.445213e+001	-9.606337e+001	-3.085305e+001	-1.254712e+001	-9.528758e+001	2.926181e+001	-4.427410e+001	2.452284e+001
6.152813e+006	-4.447533e+001	-9.601765e+001	-3.084615e+001	-1.249209e+001	-9.582792e+001	-3.064320e+001	-4.432933e+001	2.480569e+001
6.152852e+006	-4.444526e+001	-9.612896e+001	-3.084335e+001	-1.254633e+001	-9.128561e+001	2.232069e+001	-4.427835e+001	2.459070e+001
6.152891e+006	-4.445447e+001	-9.654753e+001	-3.084903e+001	-1.243366e+001	-9.270046e+001	6.812321e+001	-4.434561e+001	2.454754e+001
6.152930e+006	-4.446118e+001	-9.612911e+001	-3.083860e+001	-1.252724e+001	-9.229303e+001	-8.895977e+001	-4.429913e+001	2.443279e+001
6.152969e+006	-4.444574e+001	-9.600596e+001	-3.085212e+001	-1.250314e+001	-9.485756e+001	7.061680e-001	-4.427927e+001	2.455401e+001
6.153008e+006	-4.445847e+001	-9.591705e+001	-3.085032e+001	-1.249332e+001	-9.625348e+001	1.391999e+002	-4.429587e+001	2.418973e+001
6.153047e+006	-4.446579e+001	-9.610901e+001	-3.086028e+001	-1.239684e+001	-1.066104e+002	1.427763e+002	-4.429948e+001	2.451294e+001
6.153086e+006	-4.450167e+001	-9.594013e+001	-3.084949e+001	-1.246814e+001	-8.740495e+001	3.620252e+001	-4.426593e+001	2.455991e+001
6.153125e+006	-4.443131e+001	-9.602069e+001	-3.085337e+001	-1.249912e+001	-9.764701e+001	3.990336e+001	-4.435141e+001	2.457903e+001
6.153164e+006	-4.443986e+001	-9.602175e+001	-3.084235e+001	-1.243708e+001	-9.973655e+001	1.703530e+002	-4.429748e+001	2.466055e+001
6.153203e+006	-4.441812e+001	-9.629936e+001	-3.084797e+001	-1.253484e+001	-1.026412e+002	1.196962e+002	-4.430753e+001	2.472175e+001
6.153242e+006	-4.451522e+001	-9.606011e+001	-3.084457e+001	-1.248288e+001	-8.874374e+001	-1.737336e+002	-4.431184e+001	2.449393e+001
6.153281e+006	-4.444007e+001	-9.596700e+001	-3.084837e+001	-1.252235e+001	-9.096086e+001	1.235753e+002	-4.430196e+001	2.404878e+001
6.153320e+006	-4.439662e+001	-9.600894e+001	-3.084876e+001	-1.248767e+001	-9.765137e+001	1.219639e+002	-4.432768e+001	2.465647e+001
6.153359e+006	-4.446859e+001	-9.607053e+001	-3.085285e+001	-1.246807e+001	-9.232821e+001	7.169834e+001	-4.428620e+001	2.430608e+001
6.153398e+006	-4.443273e+001	-9.615660e+001	-3.084918e+001	-1.251775e+001	-1.012747e+002	3.951722e+001	-4.430527e+001	2.452104e+001
6.153438e+006	-4.446521e+001	-9.605030e+001	-3.085493e+001	-1.247255e+001	-9.383546e+001	-5.474090e+000	-4.429802e+001	2.448684e+001
6.153477e+006	-4.447564e+001	-9.620006e+001	-3.086179e+001	-1.249676e+001	-1.003383e+002	1.571278e+002	-4.433002e+001	2.470999e+001
6.153516e+006	-4.448442e+001	-9.616655e+001	-3.085581e+001	-1.246538e+001	-9.234628e+001	1.049961e+002	-4.431911e+001	2.449164e+001
6.153555e+006	-4.446453e+001	-9.594502e+001	-3.084381e+001	-1.241033e+001	-8.951754e+001	-1.674974e+002	-4.427812e+001	2.414211e+001
6.153594e+006	-4.448710e+001	-9.602074e+001	-3.084130e+001	-1.249921e+001	-9.325613e+001	8.096842e+001	-4.427095e+001	2.489241e+001
6.153633e+006	-4.449380e+001	-9.584468e+001	-3.084485e+001	-1.247594e+001	-9.587482e+001	3.000292e+001	-4.430349e+001	2.473952e+001
6.153672e+006	-4.444247e+001	-9.604944e+001	-3.084465e+001	-1.247478e+001	-9.493150e+001	-6.819762e+001	-4.431720e+001	2.465992e+001
6.153711e+006	-4.442449e+001	-9.617259e+001	-3.083440e+001	-1.249227e+001	-9.702509e+001	8.205361e+001	-4.433040e+001	2.444132e+001
6.153750e+006	-4.442345e+001	-9.608227e+001	-3.084420e+001	-1.250508e+001	-9.086207e+001	-2.815373e+001	-4.434578e+001	2.452541e+001
6.153789e+006	-4.445984e+001	-9.612895e+001	-3.085328e+001	-1.248611e+001	-8.919162e+001	-3.211194e+001	-4.428765e+001	2.463568e+001
6.153828e+006	-4.445343e+001	-9.580334e+001	-3.083800e+001	-1.243377e+001	-1.018320e+002	1.534747e+002	-4.428059e+001	2.466423e+001
6.153867e+006	-4.445732e+001	-9.593641e+001	-3.083413e+001	-1.243249e+001	-9.228131e+001	1.591671e+001	-4.435034e+001	2.474083e+001
6.153906e+006	-4.446175e+001	-9.588622e+001	-3.084365e+001	-1.248987e+001	-9.551795e+001	-8.274758e+001	-4.432478e+001	2.432777e+001
6.153945e+006	-4.447469e+001	-9.594493e+001	-3.084827e+001	-1.241564e+001	-9.418782e+001	2.227483e+001	-4.429503e+001	2.440668e+001
6.153984e+006	-4.446881e+001	-9.608467e+001	-3.085816e+001	-1.248098e+001	-9.086388e+001	1.008751e+002	-4.429256e+001	2.425997e+001
6.154023e+006	-4.444860e+001	-9.593330e+001	-3.084276e+001	-1.245719e+001	-9.079096e+001	-7.075693e+000	-4.427868e+001	2.475703e+001
6.154063e+006	-4.446787e+001	-9.589001e+001	-3.084171e+001	-1.244598e+001	-8.928465e+001	7.273687e+001	-4.429586e+001	2.439512e+001
6.154102e+006	-4.438635e+001	-9.585228e+001	-3.084883e+001	-1.256097e+001	-9.716474e+001	-5.907524e+001	-4.427808e+001	2.462290e+001
6.154141e+006	-4.445011e+001	-9.582366e+001	-3.084850e+001	-1.249119e+001	-9.239951e+001	1.313779e+002	-4.432182e+001	2.432096e+001
6.154180e+006	-4.446743e+001	-9.606227e+001	-3.084591e+001	-1.248504e+001	-8.791117e+001	1.300201e+002	-4.429490e+001	2.439414e+001
6.154219e+006	-4.447304e+001	-9.581992e+001	-3.085327e+001	-1.244320e+001	-8.824485e+001	1.316455e+002	-4.428944e+001	2.449606e+001
6.154258e+006	-4.448732e+001	-9.627235e+001	-3.085557e+001	-1.249073e+001	-9.955826e+001	1.720999e+002	-4.431202e+001	2.436824e+001
6.154297e+006	-4.447082e+001	-9.632443e+001	-3.085540e+001	-1.251628e+001	-9.018553e+001	-1.344346e+002	-4.430254e+001	2.468184e+001
6.154336e+006	-4.442098e+001	-9.598577e+001	-3.083644e+001	-1.250323e+001	-9.474798e+001	-3.553258e+001	-4.429084e+001	2.471533e+001
6.154375e+006	-4.445144e+001	-9.601621e+001	-3.085844e+001	-1.247572e+001	-8.879261e+001	1.173040e+002	-4.431697e+001	2.466495e+001
6.154414e+006	-4.443132e+001	-9.593021e+001	-3.085065e+001	-1.245565e+001	-8.877133e+001	1.642365e+002	-4.428311e+001	2.413965e+001
6.154453e+006	-4.449455e+001	-9.617888e+001	-3.084464e+001	-1.243518e+001	-9.502541e+001	-5.821054e+001	-4.430616e+001	2.442999e+001
6.154492e+006	-4.442991e+001	-9.600826e+001	-3.085002e+001	-1.246879e+001	-8.930701e+001	-1.517968e+002	-4.430610e+001	2.475530e+001
6.154531e+006	-4.447049e+001	-9.616686e+001	-3.084688e+001	-1.252407e+001	-9.018745e+001	-1.533938e+002	-4.427213e+001	2.447652e+001
6.154570e+006	-4.446194e+001	-9.607203e+001	-3.084888e+001	-1.244247e+001	-9.761824e+001	-1.775487e+002	-4.430258e+001	2.457454e+001
6.154609e+006	-4.443639e+001	-9.590221e+001	-3.085037e+001	-1.249914e+001	-9.087353e+001	-1.645035e+002	-4.435833e+001	2.452949e+001
6.154648e+006	-4.440869e+001	-9.585613e+001	-3.084408e+001	-1.247373e+001	-1.007117e+002	5.585750e+001	-4.431776e+001	2.448613e+001
6.154688e+006	-4.448608e+001	-9.623226e+001	-3.084390e+001	-1.247619e+001	-9.301543e+001	2.057093e+001	-4.425693e+001	2.467501e+001
6.154727e+006	-4.443706e+001	-9.600030e+001	-3.085108e+001	-1.248984e+001	-9.205691e+001	3.679297e+001	-4.431977e+001	2.452547e+001
6.154766e+006	-4.438914e+001	-9.609913e+001	-3.085409e+001	-1.249103e+001	-9.183641e+001	1.070335e+002	-4.432711e+001	2.427950e+001
6.154805e+006	-4.444479e+001	-9.592756e+001	-3.084248e+001	-1.244966e+001	-9.191638e+001	-1.759986e+002	-4.431690e+001	2.432884e+001
6.154844e+006	-4.438116e+001	-9.595184e+001	-3.083532e+001	-1.251669e+001	-8.985633e+001	-1.685875e+002	-4.428601e+001	2.460414e+001
6.154883e+006	-4.445939e+001	-9.619095e+001	-3.084403e+001	-1.243243e+001	-9.204144e+001	-5.166264e+001	-4.428475e+001	2.407564e+001
6.154922e+006	-4.444023e+001	-9.581584e+001	-3.084025e+001	-1.244360e+001	-9.501421e+001	1.098860e+002	-4.430004e+001	2.462423e+001
6.154961e+006	-4.445260e+001	-9.605981e+001	-3.084829e+001	-1.244993e+001	-9.200755e+001	8.467033e+001	-4.429304e+001	2.463772e+001
6.155000e+006	-4.445195e+001	-9.628285e+001	-3.084671e+001	-1.251799e+001	-1.029312e+002	-1.685517e+002	-4.424529e+001	2.437496e+001
6.155039e+006	-4.445781e+001	-9.595296e+001	-3.084127e+001	-1.248266e+001	-9.385000e+001	-1.175641e+002	-4.431057e+001	2.452629e+001
6.155078e+006	-4.443419e+001	-9.601235e+001	-3.085636e+001	-1.248996e+001	-9.014979e+001	9.916579e+001	-4.434838e+001	2.468220e+001
6.155117e+006	-4.445479e+001	-9.606515e+001	-3.084031e+001	-1.247925e+001	-9.950791e+001	6.180740e+001	-4.433650e+001	2.423567e+001
6.155156e+006	-4.447317e+001	-9.608804e+001	-3.084826e+001	-1.251432e+001	-9.929055e+001	1.199502e+002	-4.436968e+001	2.463517e+001
6.155195e+006	-4.444786e+001	-9.573914e+001	-3.084847e+001	-1.253053e+001	-8.974492e+001	1.294352e+002	-4.424079e+001	2.473354e+001
6.155234e+006	-4.440118e+001	-9.621194e+001	-3.083975e+001	-1.247037e+001	-9.517027e+001	-2.833271e+001	-4.426408e+001	2.482227e+001
6.155273e+006	-4.446021e+001	-9.588206e+001	-3.084760e+001	-1.250129e+001	-9.267791e+001	8.346039e+000	-4.432708e+001	2.455247e+001
6.155313e+006	-4.443592e+001	-9.599447e+001	-3.084613e+001	-1.242399e+001	-9.289635e+001	-4.198925e+001	-4.430301e+001	2.456627e+001
6.155352e+006	-4.448554e+001	-9.618678e+001	-3.084823e+001	-1.241788e+001	-9.033438e+001	1.767495e+002	-4.428238e+001	2.447923e+001
6.155391e+006	-4.446356e+001	-9.601960e+001	-3.085122e+001	-1.248658e+001	-9.848671e+001	-1.471165e+002	-4.428918e+001	2.433414e+001
6.155430e+006	-4.445503e+001	-9.613646e+001	-3.083009e+001	-1.245559e+001	-9.640980e+001	-1.618946e+002	-4.430882e+001	2.453884e+001
6.155469e+006	-4.443364e+001	-9.614005e+001	-3.085113e+001	-1.246717e+001	-9.579433e+001	1.090939e+002	-4.430765e+001	2.427538e+001
6.155508e+006	-4.450625e+001	-9.584821e+001	-3.083378e+001	-1.256422e+001	-8.814314e+001	3.604435e+001	-4.431514e+001	2.455747e+001
6.155547e+006	-4.443329e+001	-9.616099e+001	-3.084171e+001	-1.250985e+001	-9.619351e+001	9.838023e+001	-4.434293e+001	2.453295e+001
6.155586e+006	-4.442210e+001	-9.603088e+001	-3.083510e+001	-1.252322e+001	-9.209813e+001	3.225501e+001	-4.429967e+001	2.462603e+001
6.155625e+006	-4.445391e+001	-9.570862e+001	-3.084738e+001	-1.251540e+001	-9.468961e+001	-1.438495e+002	-4.428901e+001	2.457989e+001
6.155664e+006	-4.449082e+001	-9.602055e+001	-3.082884e+001	-1.244828e+001	-9.291929e+001	1.116273e+002	-4.430540e+001	2.453017e+001
6.155703e+006	-4.443418e+001	-9.614119e+001	-3.084537e+001	-1.246746e+001	-9.673580e+001	9.173265e+001	-4.432793e+001	2.453825e+001
6.155742e+006	-4.442293e+001	-9.609365e+001	-3.084611e+001	-1.244139e+001	-9.036676e+001	-9.877422e+001	-4.425241e+001	2.465803e+001
