!CETC41,AV3656A,ZGL00048,1.3.2
!Calibration ON (Full Solt 2-Port(Omit Isolation))
!Measurements: S11 S21 S12 S22
!2025-07-09 20:16
# Hz  S  dB  R 50.000
6.150000e+006	-4.432821e+001	-9.600254e+001	-3.082358e+001	-1.219994e+001	-8.457219e+001	9.784357e+001	-4.862127e+001	3.825567e+001
6.150039e+006	-4.430904e+001	-9.595124e+001	-3.082485e+001	-1.221633e+001	-8.913736e+001	1.659518e+002	-4.858140e+001	3.840440e+001
6.150078e+006	-4.429033e+001	-9.631943e+001	-3.082945e+001	-1.225773e+001	-1.007203e+002	1.239360e+002	-4.858984e+001	3.832709e+001
6.150117e+006	-4.433420e+001	-9.582105e+001	-3.081803e+001	-1.223554e+001	-9.194340e+001	1.029940e+002	-4.857770e+001	3.890785e+001
6.150156e+006	-4.432149e+001	-9.635529e+001	-3.082699e+001	-1.220122e+001	-9.007414e+001	9.999327e+001	-4.854074e+001	3.838620e+001
6.150195e+006	-4.432423e+001	-9.631438e+001	-3.083965e+001	-1.229877e+001	-9.247816e+001	-8.719468e+001	-4.865180e+001	3.875595e+001
6.150234e+006	-4.431187e+001	-9.610886e+001	-3.083222e+001	-1.226008e+001	-1.020626e+002	-4.363639e+001	-4.861026e+001	3.840890e+001
6.150273e+006	-4.426705e+001	-9.636059e+001	-3.083100e+001	-1.227191e+001	-9.806653e+001	1.791012e+002	-4.861404e+001	3.869725e+001
6.150313e+006	-4.431430e+001	-9.627600e+001	-3.082610e+001	-1.232946e+001	-9.713951e+001	-1.058640e+002	-4.852717e+001	3.857206e+001
6.150352e+006	-4.430931e+001	-9.605662e+001	-3.082858e+001	-1.231481e+001	-9.636104e+001	1.278333e+002	-4.861478e+001	3.844153e+001
6.150391e+006	-4.433866e+001	-9.608771e+001	-3.082578e+001	-1.226430e+001	-9.573305e+001	1.789928e+002	-4.856767e+001	3.829054e+001
6.150430e+006	-4.431482e+001	-9.625517e+001	-3.082423e+001	-1.228742e+001	-9.459241e+001	1.124649e+002	-4.853070e+001	3.861493e+001
6.150469e+006	-4.429085e+001	-9.602851e+001	-3.082941e+001	-1.226544e+001	-1.040397e+002	-3.987787e+001	-4.853565e+001	3.815294e+001
6.150508e+006	-4.431195e+001	-9.609911e+001	-3.081819e+001	-1.225030e+001	-9.799186e+001	1.197765e+002	-4.856279e+001	3.849871e+001
6.150547e+006	-4.426792e+001	-9.656758e+001	-3.083239e+001	-1.228177e+001	-8.994019e+001	9.953027e+001	-4.864476e+001	3.823929e+001
6.150586e+006	-4.433747e+001	-9.666200e+001	-3.082573e+001	-1.224042e+001	-8.952836e+001	2.310449e+001	-4.861559e+001	3.839874e+001
6.150625e+006	-4.429136e+001	-9.638854e+001	-3.082068e+001	-1.230764e+001	-9.049907e+001	1.528383e+002	-4.853164e+001	3.856002e+001
6.150664e+006	-4.431600e+001	-9.630984e+001	-3.083121e+001	-1.231182e+001	-8.696377e+001	9.841007e+001	-4.859294e+001	3.832191e+001
6.150703e+006	-4.431256e+001	-9.643623e+001	-3.082253e+001	-1.229812e+001	-9.940103e+001	-6.292918e+001	-4.857896e+001	3.794374e+001
6.150742e+006	-4.434918e+001	-9.633883e+001	-3.083341e+001	-1.225290e+001	-9.260236e+001	5.031530e+001	-4.863707e+001	3.864963e+001
6.150781e+006	-4.434916e+001	-9.607540e+001	-3.083094e+001	-1.225576e+001	-9.097747e+001	2.492806e+001	-4.863941e+001	3.829829e+001
6.150820e+006	-4.430217e+001	-9.621377e+001	-3.083133e+001	-1.225699e+001	-9.722785e+001	7.205989e+001	-4.858268e+001	3.868333e+001
6.150859e+006	-4.430200e+001	-9.611112e+001	-3.082684e+001	-1.231906e+001	-9.318806e+001	-5.727173e+001	-4.858236e+001	3.825311e+001
6.150898e+006	-4.430448e+001	-9.642641e+001	-3.082253e+001	-1.226605e+001	-9.428852e+001	-3.820405e+001	-4.856382e+001	3.865386e+001
6.150938e+006	-4.430720e+001	-9.608547e+001	-3.082771e+001	-1.226235e+001	-1.028852e+002	1.131469e+002	-4.849278e+001	3.867667e+001
6.150977e+006	-4.429117e+001	-9.589254e+001	-3.082909e+001	-1.224415e+001	-9.808958e+001	1.792439e+002	-4.850168e+001	3.881355e+001
6.151016e+006	-4.431591e+001	-9.620652e+001	-3.082857e+001	-1.225092e+001	-9.440864e+001	4.841466e+001	-4.862395e+001	3.866879e+001
6.151055e+006	-4.439610e+001	-9.651902e+001	-3.081636e+001	-1.224833e+001	-8.977668e+001	4.569208e+001	-4.855823e+001	3.857479e+001
6.151094e+006	-4.433321e+001	-9.634803e+001	-3.082419e+001	-1.227634e+001	-9.847021e+001	-6.252691e+001	-4.860026e+001	3.868180e+001
6.151133e+006	-4.430951e+001	-9.643292e+001	-3.081722e+001	-1.225647e+001	-9.091293e+001	1.185134e+002	-4.858219e+001	3.884918e+001
6.151172e+006	-4.433526e+001	-9.617718e+001	-3.081526e+001	-1.227960e+001	-9.092761e+001	9.153673e+001	-4.862401e+001	3.851214e+001
6.151211e+006	-4.434512e+001	-9.631326e+001	-3.082412e+001	-1.224325e+001	-1.003669e+002	1.295966e+002	-4.852471e+001	3.838109e+001
6.151250e+006	-4.430389e+001	-9.635295e+001	-3.081311e+001	-1.227756e+001	-9.981806e+001	5.370569e+001	-4.853523e+001	3.858199e+001
6.151289e+006	-4.434328e+001	-9.649208e+001	-3.082297e+001	-1.233212e+001	-9.106759e+001	6.485759e+001	-4.861859e+001	3.863519e+001
6.151328e+006	-4.431644e+001	-9.637296e+001	-3.082368e+001	-1.225945e+001	-9.734096e+001	4.194195e+001	-4.862099e+001	3.836476e+001
6.151367e+006	-4.431998e+001	-9.620059e+001	-3.082669e+001	-1.230843e+001	-9.647004e+001	1.782327e+001	-4.850908e+001	3.859811e+001
6.151406e+006	-4.430742e+001	-9.626386e+001	-3.082144e+001	-1.228748e+001	-9.529519e+001	1.262990e+002	-4.852932e+001	3.796335e+001
6.151445e+006	-4.434462e+001	-9.622194e+001	-3.082532e+001	-1.228812e+001	-8.752118e+001	6.530302e+001	-4.859886e+001	3.836594e+001
6.151484e+006	-4.432759e+001	-9.619021e+001	-3.082520e+001	-1.222918e+001	-9.816019e+001	1.203912e+002	-4.859380e+001	3.861566e+001
6.151523e+006	-4.431702e+001	-9.604784e+001	-3.082321e+001	-1.222206e+001	-9.161385e+001	-3.659166e+001	-4.858841e+001	3.819015e+001
6.151563e+006	-4.434323e+001	-9.661471e+001	-3.082703e+001	-1.222444e+001	-9.237774e+001	1.972020e+001	-4.857200e+001	3.862159e+001
6.151602e+006	-4.432031e+001	-9.629127e+001	-3.082024e+001	-1.224979e+001	-9.250477e+001	-2.278726e+001	-4.860137e+001	3.847447e+001
6.151641e+006	-4.430862e+001	-9.605724e+001	-3.083215e+001	-1.230175e+001	-8.987182e+001	5.183556e+001	-4.854946e+001	3.842578e+001
6.151680e+006	-4.433004e+001	-9.622423e+001	-3.082676e+001	-1.230288e+001	-9.346350e+001	7.418232e+001	-4.854431e+001	3.786442e+001
6.151719e+006	-4.433516e+001	-9.644109e+001	-3.082399e+001	-1.221607e+001	-1.088973e+002	-8.374530e+001	-4.857744e+001	3.868083e+001
6.151758e+006	-4.429680e+001	-9.589619e+001	-3.081943e+001	-1.225492e+001	-9.935867e+001	-1.300655e+001	-4.865740e+001	3.851442e+001
6.151797e+006	-4.429886e+001	-9.635478e+001	-3.082117e+001	-1.231586e+001	-1.010698e+002	6.810801e+001	-4.857373e+001	3.845520e+001
6.151836e+006	-4.431892e+001	-9.616529e+001	-3.082356e+001	-1.225134e+001	-9.250939e+001	-7.934300e+001	-4.855095e+001	3.825257e+001
6.151875e+006	-4.433881e+001	-9.626535e+001	-3.083624e+001	-1.224772e+001	-9.563588e+001	6.978318e+001	-4.861414e+001	3.847957e+001
6.151914e+006	-4.431966e+001	-9.637289e+001	-3.082603e+001	-1.218643e+001	-8.658624e+001	7.110415e+001	-4.853049e+001	3.847391e+001
6.151953e+006	-4.430063e+001	-9.633261e+001	-3.082330e+001	-1.232517e+001	-9.313769e+001	1.645189e+002	-4.856566e+001	3.920204e+001
6.151992e+006	-4.434075e+001	-9.653845e+001	-3.083321e+001	-1.213876e+001	-9.517532e+001	-1.552746e+002	-4.857598e+001	3.847985e+001
6.152031e+006	-4.433055e+001	-9.628749e+001	-3.083357e+001	-1.220294e+001	-9.720131e+001	1.494321e+002	-4.861989e+001	3.820120e+001
6.152070e+006	-4.432631e+001	-9.632173e+001	-3.081508e+001	-1.225778e+001	-9.391756e+001	9.105145e+001	-4.853708e+001	3.855055e+001
6.152109e+006	-4.432508e+001	-9.622909e+001	-3.082775e+001	-1.224105e+001	-8.844414e+001	1.014389e+002	-4.855970e+001	3.898546e+001
6.152148e+006	-4.433942e+001	-9.637056e+001	-3.082941e+001	-1.216116e+001	-9.752003e+001	-1.041239e+002	-4.860190e+001	3.796631e+001
6.152188e+006	-4.432454e+001	-9.623357e+001	-3.083055e+001	-1.225865e+001	-8.772782e+001	1.747487e+002	-4.861348e+001	3.841006e+001
6.152227e+006	-4.428159e+001	-9.631419e+001	-3.083528e+001	-1.223822e+001	-9.651060e+001	-8.141621e+001	-4.859300e+001	3.866421e+001
6.152266e+006	-4.436988e+001	-9.609700e+001	-3.082923e+001	-1.227660e+001	-9.638321e+001	-1.594984e+001	-4.863654e+001	3.855409e+001
6.152305e+006	-4.430449e+001	-9.614426e+001	-3.082767e+001	-1.223785e+001	-9.087248e+001	1.589683e+002	-4.865127e+001	3.904871e+001
6.152344e+006	-4.431596e+001	-9.627350e+001	-3.082891e+001	-1.226643e+001	-1.063307e+002	1.697765e+002	-4.862053e+001	3.820553e+001
6.152383e+006	-4.432267e+001	-9.630339e+001	-3.082189e+001	-1.225707e+001	-9.326298e+001	9.250691e+001	-4.856295e+001	3.847237e+001
6.152422e+006	-4.429656e+001	-9.604837e+001	-3.081735e+001	-1.222148e+001	-9.339757e+001	3.680134e+001	-4.863253e+001	3.801074e+001
6.152461e+006	-4.435060e+001	-9.635408e+001	-3.082865e+001	-1.227681e+001	-1.029998e+002	1.668469e+002	-4.854933e+001	3.858170e+001
6.152500e+006	-4.428381e+001	-9.605745e+001	-3.083721e+001	-1.223145e+001	-9.265391e+001	1.046845e+002	-4.856724e+001	3.853436e+001
6.152539e+006	-4.432977e+001	-9.622956e+001	-3.081900e+001	-1.222342e+001	-9.115247e+001	-3.916386e+001	-4.858637e+001	3.849161e+001
6.152578e+006	-4.428503e+001	-9.611514e+001	-3.082835e+001	-1.221425e+001	-1.038669e+002	1.279573e+002	-4.867451e+001	3.855222e+001
6.152617e+006	-4.433545e+001	-9.628585e+001	-3.082486e+001	-1.222391e+001	-9.860013e+001	1.209468e+002	-4.856669e+001	3.844997e+001
6.152656e+006	-4.435141e+001	-9.653532e+001	-3.081506e+001	-1.226336e+001	-8.941309e+001	6.410848e+001	-4.854888e+001	3.826572e+001
6.152695e+006	-4.429875e+001	-9.652068e+001	-3.082879e+001	-1.222391e+001	-8.738747e+001	5.503029e+001	-4.853064e+001	3.899912e+001
6.152734e+006	-4.434752e+001	-9.592659e+001	-3.082077e+001	-1.229211e+001	-1.083708e+002	-4.774951e+001	-4.864035e+001	3.828943e+001
6.152773e+006	-4.429985e+001	-9.618669e+001	-3.082345e+001	-1.224578e+001	-9.492935e+001	3.118174e-001	-4.861663e+001	3.856409e+001
6.152813e+006	-4.430038e+001	-9.632228e+001	-3.083368e+001	-1.230811e+001	-1.083166e+002	-1.179372e+002	-4.861428e+001	3.837966e+001
6.152852e+006	-4.429926e+001	-9.610248e+001	-3.081743e+001	-1.228727e+001	-9.961038e+001	-2.868227e+001	-4.856856e+001	3.852849e+001
6.152891e+006	-4.433891e+001	-9.608116e+001	-3.081923e+001	-1.213663e+001	-9.288500e+001	9.502115e+001	-4.863087e+001	3.885699e+001
6.152930e+006	-4.430193e+001	-9.629604e+001	-3.082227e+001	-1.226215e+001	-9.197665e+001	1.803173e+000	-4.855462e+001	3.843324e+001
6.152969e+006	-4.433582e+001	-9.638841e+001	-3.081720e+001	-1.227505e+001	-9.119363e+001	1.327504e+002	-4.849168e+001	3.841622e+001
6.153008e+006	-4.429189e+001	-9.605755e+001	-3.081981e+001	-1.214825e+001	-1.044270e+002	2.564241e+001	-4.855978e+001	3.835171e+001
6.153047e+006	-4.429291e+001	-9.606692e+001	-3.082756e+001	-1.224156e+001	-9.670604e+001	1.173862e+002	-4.863957e+001	3.852614e+001
6.153086e+006	-4.430625e+001	-9.606674e+001	-3.081007e+001	-1.228461e+001	-9.060678e+001	1.543934e+002	-4.863109e+001	3.804420e+001
6.153125e+006	-4.433818e+001	-9.636010e+001	-3.081837e+001	-1.227151e+001	-1.026740e+002	-1.153897e+002	-4.860298e+001	3.842636e+001
6.153164e+006	-4.431715e+001	-9.611220e+001	-3.082578e+001	-1.222635e+001	-8.917245e+001	-8.206108e+001	-4.856207e+001	3.808150e+001
6.153203e+006	-4.432533e+001	-9.615963e+001	-3.081822e+001	-1.221762e+001	-8.747875e+001	7.681748e+001	-4.863761e+001	3.857838e+001
6.153242e+006	-4.431166e+001	-9.636927e+001	-3.082791e+001	-1.221408e+001	-8.996285e+001	-1.301078e+002	-4.857272e+001	3.825909e+001
6.153281e+006	-4.435960e+001	-9.638284e+001	-3.082509e+001	-1.223054e+001	-9.403206e+001	5.096698e+001	-4.856496e+001	3.815477e+001
6.153320e+006	-4.432096e+001	-9.605286e+001	-3.082666e+001	-1.227505e+001	-9.014466e+001	8.680605e+000	-4.865491e+001	3.864235e+001
6.153359e+006	-4.431303e+001	-9.621994e+001	-3.083160e+001	-1.224399e+001	-9.225326e+001	3.947689e+001	-4.858770e+001	3.838090e+001
6.153398e+006	-4.433711e+001	-9.607216e+001	-3.082046e+001	-1.227576e+001	-9.790423e+001	1.751152e+002	-4.856006e+001	3.831355e+001
6.153438e+006	-4.432241e+001	-9.611681e+001	-3.082103e+001	-1.224743e+001	-8.941175e+001	1.450115e+000	-4.859769e+001	3.824084e+001
6.153477e+006	-4.436818e+001	-9.619137e+001	-3.082761e+001	-1.228927e+001	-9.141918e+001	1.259187e+002	-4.855481e+001	3.862358e+001
6.153516e+006	-4.434244e+001	-9.623949e+001	-3.081683e+001	-1.225457e+001	-9.137462e+001	2.971606e+001	-4.854915e+001	3.806372e+001
6.153555e+006	-4.429349e+001	-9.629510e+001	-3.081792e+001	-1.223654e+001	-9.763436e+001	-1.399625e+000	-4.856617e+001	3.818994e+001
6.153594e+006	-4.430000e+001	-9.608101e+001	-3.082104e+001	-1.219804e+001	-9.559257e+001	1.791245e+001	-4.856280e+001	3.802473e+001
6.153633e+006	-4.431988e+001	-9.674873e+001	-3.082523e+001	-1.219874e+001	-9.733062e+001	1.079607e+001	-4.851454e+001	3.848857e+001
6.153672e+006	-4.431662e+001	-9.627716e+001	-3.082524e+001	-1.225352e+001	-9.473956e+001	-1.505979e+001	-4.857174e+001	3.881846e+001
6.153711e+006	-4.431658e+001	-9.632625e+001	-3.082764e+001	-1.222192e+001	-8.556558e+001	5.718759e+001	-4.856739e+001	3.815673e+001
6.153750e+006	-4.430920e+001	-9.644284e+001	-3.082091e+001	-1.232031e+001	-1.011811e+002	-2.462014e+001	-4.859455e+001	3.867443e+001
6.153789e+006	-4.430099e+001	-9.627705e+001	-3.082285e+001	-1.221947e+001	-8.784444e+001	1.348396e+002	-4.859170e+001	3.876177e+001
6.153828e+006	-4.431759e+001	-9.634747e+001	-3.082486e+001	-1.226849e+001	-9.465236e+001	8.258409e+001	-4.856905e+001	3.807693e+001
6.153867e+006	-4.428400e+001	-9.629809e+001	-3.082565e+001	-1.223512e+001	-8.972325e+001	8.347834e+001	-4.847841e+001	3.883495e+001
6.153906e+006	-4.430462e+001	-9.631378e+001	-3.082533e+001	-1.228418e+001	-8.726122e+001	5.392411e+001	-4.857798e+001	3.860450e+001
6.153945e+006	-4.431796e+001	-9.639508e+001	-3.081839e+001	-1.228315e+001	-8.969381e+001	-1.849514e+001	-4.855246e+001	3.874425e+001
6.153984e+006	-4.430497e+001	-9.629090e+001	-3.080665e+001	-1.227800e+001	-9.461934e+001	1.679180e+002	-4.856678e+001	3.880252e+001
6.154023e+006	-4.433700e+001	-9.636270e+001	-3.081614e+001	-1.229201e+001	-9.784120e+001	7.799681e+001	-4.855318e+001	3.838436e+001
6.154063e+006	-4.433689e+001	-9.610848e+001	-3.082281e+001	-1.225571e+001	-8.933201e+001	1.377066e+002	-4.860157e+001	3.801096e+001
6.154102e+006	-4.432127e+001	-9.620815e+001	-3.081412e+001	-1.226214e+001	-8.832429e+001	2.418506e+001	-4.863625e+001	3.835234e+001
6.154141e+006	-4.432010e+001	-9.622032e+001	-3.082803e+001	-1.223964e+001	-1.056958e+002	-3.401886e+001	-4.853246e+001	3.836075e+001
6.154180e+006	-4.427786e+001	-9.627795e+001	-3.082238e+001	-1.219682e+001	-9.365232e+001	-1.637906e+002	-4.851660e+001	3.854073e+001
6.154219e+006	-4.429295e+001	-9.599351e+001	-3.082458e+001	-1.226041e+001	-9.676701e+001	5.357623e+001	-4.858790e+001	3.804925e+001
6.154258e+006	-4.431475e+001	-9.604647e+001	-3.080952e+001	-1.229431e+001	-9.972500e+001	1.431597e+002	-4.867666e+001	3.853607e+001
6.154297e+006	-4.430422e+001	-9.639892e+001	-3.081210e+001	-1.228093e+001	-9.081764e+001	-1.461336e+001	-4.867854e+001	3.861174e+001
6.154336e+006	-4.433644e+001	-9.626168e+001	-3.082734e+001	-1.224909e+001	-9.360324e+001	1.043210e+002	-4.857172e+001	3.894159e+001
6.154375e+006	-4.428613e+001	-9.601985e+001	-3.082083e+001	-1.226257e+001	-8.915644e+001	1.277568e+002	-4.853187e+001	3.825316e+001
6.154414e+006	-4.429096e+001	-9.652860e+001	-3.081125e+001	-1.226030e+001	-9.492683e+001	5.704711e+001	-4.858893e+001	3.821134e+001
6.154453e+006	-4.433612e+001	-9.625305e+001	-3.083447e+001	-1.226016e+001	-1.051485e+002	3.344768e+000	-4.855215e+001	3.907684e+001
6.154492e+006	-4.433101e+001	-9.631738e+001	-3.081710e+001	-1.221899e+001	-1.097039e+002	3.191177e+001	-4.866619e+001	3.830775e+001
6.154531e+006	-4.432920e+001	-9.601512e+001	-3.081659e+001	-1.222576e+001	-9.915963e+001	6.033115e+001	-4.861853e+001	3.809353e+001
6.154570e+006	-4.434484e+001	-9.610473e+001	-3.082209e+001	-1.233315e+001	-9.600348e+001	-1.067471e+002	-4.863276e+001	3.855956e+001
6.154609e+006	-4.428094e+001	-9.623180e+001	-3.081633e+001	-1.229873e+001	-9.737659e+001	-1.093826e+002	-4.859029e+001	3.872944e+001
6.154648e+006	-4.431731e+001	-9.609398e+001	-3.081577e+001	-1.225283e+001	-9.501879e+001	4.035629e+000	-4.864462e+001	3.851516e+001
6.154688e+006	-4.433825e+001	-9.652593e+001	-3.082174e+001	-1.229950e+001	-8.754455e+001	6.944015e+000	-4.863814e+001	3.826387e+001
6.154727e+006	-4.432172e+001	-9.626508e+001	-3.082194e+001	-1.225312e+001	-1.010296e+002	-1.695014e+002	-4.859506e+001	3.839085e+001
6.154766e+006	-4.432704e+001	-9.636339e+001	-3.081735e+001	-1.220902e+001	-9.200131e+001	9.074485e+001	-4.858664e+001	3.868566e+001
6.154805e+006	-4.433542e+001	-9.620758e+001	-3.082185e+001	-1.227221e+001	-1.009901e+002	8.735311e+001	-4.859572e+001	3.850922e+001
6.154844e+006	-4.429058e+001	-9.620399e+001	-3.081756e+001	-1.223686e+001	-9.080974e+001	-2.438882e+001	-4.857569e+001	3.837991e+001
6.154883e+006	-4.432391e+001	-9.649467e+001	-3.080559e+001	-1.228355e+001	-9.541728e+001	1.744945e+002	-4.862848e+001	3.829764e+001
6.154922e+006	-4.432942e+001	-9.651914e+001	-3.081895e+001	-1.222943e+001	-9.931454e+001	1.611759e+002	-4.855132e+001	3.825396e+001
6.154961e+006	-4.429643e+001	-9.644107e+001	-3.081597e+001	-1.222366e+001	-9.997537e+001	1.267084e+002	-4.862423e+001	3.862117e+001
6.155000e+006	-4.431807e+001	-9.631564e+001	-3.082296e+001	-1.221859e+001	-9.458059e+001	9.556088e+001	-4.863042e+001	3.827234e+001
6.155039e+006	-4.432443e+001	-9.617582e+001	-3.081330e+001	-1.221152e+001	-9.031592e+001	1.172918e+002	-4.862453e+001	3.838751e+001
6.155078e+006	-4.432058e+001	-9.663485e+001	-3.081981e+001	-1.228840e+001	-9.746305e+001	-2.568666e+000	-4.857562e+001	3.864682e+001
6.155117e+006	-4.432939e+001	-9.621182e+001	-3.082831e+001	-1.222704e+001	-9.364319e+001	-4.702408e+001	-4.853976e+001	3.824789e+001
6.155156e+006	-4.433161e+001	-9.620489e+001	-3.082410e+001	-1.221162e+001	-9.355168e+001	2.909281e+000	-4.861046e+001	3.838226e+001
6.155195e+006	-4.433711e+001	-9.612022e+001	-3.081829e+001	-1.225138e+001	-9.417260e+001	1.539646e+001	-4.863402e+001	3.921406e+001
6.155234e+006	-4.430993e+001	-9.618292e+001	-3.082204e+001	-1.231177e+001	-9.017995e+001	1.097661e+002	-4.859096e+001	3.808738e+001
6.155273e+006	-4.428749e+001	-9.617171e+001	-3.082431e+001	-1.218918e+001	-9.794193e+001	1.565702e+002	-4.852558e+001	3.827059e+001
6.155313e+006	-4.427763e+001	-9.637811e+001	-3.082280e+001	-1.228914e+001	-9.027698e+001	8.417686e+001	-4.862748e+001	3.813233e+001
6.155352e+006	-4.433036e+001	-9.648503e+001	-3.080733e+001	-1.224595e+001	-9.209349e+001	1.013431e+002	-4.859182e+001	3.802356e+001
6.155391e+006	-4.433523e+001	-9.620554e+001	-3.082290e+001	-1.223670e+001	-8.924683e+001	1.105341e+002	-4.860969e+001	3.839778e+001
6.155430e+006	-4.430804e+001	-9.612311e+001	-3.081617e+001	-1.226753e+001	-9.212071e+001	-4.368621e+001	-4.857889e+001	3.908778e+001
6.155469e+006	-4.430208e+001	-9.642834e+001	-3.082299e+001	-1.222529e+001	-9.760902e+001	1.322864e+002	-4.860955e+001	3.836366e+001
6.155508e+006	-4.431321e+001	-9.623498e+001	-3.080692e+001	-1.223833e+001	-1.043987e+002	7.926838e+001	-4.862567e+001	3.824943e+001
6.155547e+006	-4.432434e+001	-9.653763e+001	-3.081868e+001	-1.227183e+001	-9.285738e+001	5.882124e+001	-4.856205e+001	3.800306e+001
6.155586e+006	-4.433083e+001	-9.632841e+001	-3.082807e+001	-1.230171e+001	-9.921071e+001	-6.137775e+001	-4.859779e+001	3.894048e+001
6.155625e+006	-4.433042e+001	-9.634264e+001	-3.082365e+001	-1.220865e+001	-9.172494e+001	1.781249e+002	-4.859238e+001	3.875331e+001
6.155664e+006	-4.433153e+001	-9.623300e+001	-3.082554e+001	-1.231144e+001	-9.416114e+001	4.421286e+001	-4.858266e+001	3.795832e+001
6.155703e+006	-4.431517e+001	-9.608113e+001	-3.081958e+001	-1.226272e+001	-8.887352e+001	-1.723131e+001	-4.857198e+001	3.862637e+001
6.155742e+006	-4.431952e+001	-9.610592e+001	-3.081871e+001	-1.229821e+001	-9.735089e+001	-1.197633e+002	-4.871352e+001	3.888371e+001
