!CETC41,AV3656A,ZGL00048,1.3.2
!Calibration ON (Full Solt 2-Port(Omit Isolation))
!Measurements: S11 S21 S12 S22
!2025-07-09 20:33
# Hz  S  dB  R 50.000
6.150000e+006	-4.455219e+001	-9.597775e+001	-3.082098e+001	-1.238713e+001	-8.902394e+001	2.670993e+001	-4.785433e+001	4.038024e+001
6.150039e+006	-4.458769e+001	-9.615606e+001	-3.083300e+001	-1.244424e+001	-9.327869e+001	-1.648288e+002	-4.784766e+001	4.034694e+001
6.150078e+006	-4.462638e+001	-9.595468e+001	-3.083372e+001	-1.238858e+001	-9.112281e+001	-1.129661e+002	-4.792697e+001	4.025675e+001
6.150117e+006	-4.456013e+001	-9.609074e+001	-3.083347e+001	-1.238021e+001	-9.323877e+001	6.397963e+001	-4.781940e+001	3.989779e+001
6.150156e+006	-4.458994e+001	-9.586254e+001	-3.082705e+001	-1.229448e+001	-9.063316e+001	1.489802e+002	-4.783410e+001	4.077786e+001
6.150195e+006	-4.455890e+001	-9.613997e+001	-3.084170e+001	-1.232139e+001	-9.523175e+001	2.657422e+001	-4.782801e+001	4.023664e+001
6.150234e+006	-4.458397e+001	-9.626537e+001	-3.083924e+001	-1.240108e+001	-9.475666e+001	1.300431e+002	-4.786109e+001	4.072661e+001
6.150273e+006	-4.459509e+001	-9.608834e+001	-3.083167e+001	-1.235484e+001	-9.014925e+001	9.956277e+001	-4.784197e+001	4.028830e+001
6.150313e+006	-4.457000e+001	-9.600546e+001	-3.082840e+001	-1.234335e+001	-8.950429e+001	1.170143e+002	-4.794366e+001	4.056516e+001
6.150352e+006	-4.456330e+001	-9.621978e+001	-3.082445e+001	-1.235778e+001	-9.084544e+001	3.256604e+001	-4.783839e+001	4.011775e+001
6.150391e+006	-4.455975e+001	-9.599894e+001	-3.082949e+001	-1.233884e+001	-9.842621e+001	-4.746689e+001	-4.790348e+001	4.053043e+001
6.150430e+006	-4.459533e+001	-9.627901e+001	-3.083613e+001	-1.234901e+001	-1.100659e+002	1.147751e+002	-4.787519e+001	4.035775e+001
6.150469e+006	-4.455226e+001	-9.587314e+001	-3.082636e+001	-1.232952e+001	-1.024305e+002	8.771530e+001	-4.790727e+001	4.038632e+001
6.150508e+006	-4.455548e+001	-9.576348e+001	-3.082490e+001	-1.233943e+001	-8.826307e+001	-1.978668e+001	-4.783682e+001	4.004238e+001
6.150547e+006	-4.458401e+001	-9.567128e+001	-3.082501e+001	-1.237983e+001	-1.020232e+002	1.206139e+002	-4.793490e+001	4.041893e+001
6.150586e+006	-4.453188e+001	-9.609272e+001	-3.082891e+001	-1.241437e+001	-8.953782e+001	1.437261e+002	-4.794995e+001	4.097728e+001
6.150625e+006	-4.457808e+001	-9.609147e+001	-3.082386e+001	-1.242875e+001	-9.521734e+001	7.666837e+001	-4.783350e+001	4.062806e+001
6.150664e+006	-4.454716e+001	-9.567444e+001	-3.082329e+001	-1.235882e+001	-8.590566e+001	6.246562e+001	-4.787498e+001	4.051538e+001
6.150703e+006	-4.457899e+001	-9.571989e+001	-3.082655e+001	-1.230230e+001	-1.001600e+002	-8.841816e+000	-4.795529e+001	4.059160e+001
6.150742e+006	-4.460609e+001	-9.617602e+001	-3.083311e+001	-1.236383e+001	-9.218485e+001	1.197682e+002	-4.781611e+001	4.059096e+001
6.150781e+006	-4.461541e+001	-9.604716e+001	-3.083638e+001	-1.237670e+001	-1.042227e+002	5.912888e+001	-4.790014e+001	4.039526e+001
6.150820e+006	-4.451931e+001	-9.621286e+001	-3.083382e+001	-1.234444e+001	-9.210843e+001	1.621001e+002	-4.790693e+001	4.030224e+001
6.150859e+006	-4.459528e+001	-9.609753e+001	-3.083235e+001	-1.236108e+001	-8.669876e+001	7.213129e+001	-4.782223e+001	4.086442e+001
6.150898e+006	-4.456952e+001	-9.600234e+001	-3.083094e+001	-1.240684e+001	-9.832622e+001	-1.144132e+002	-4.789357e+001	4.055312e+001
6.150938e+006	-4.458217e+001	-9.611017e+001	-3.082707e+001	-1.235600e+001	-8.526020e+001	5.469264e+001	-4.792050e+001	4.026273e+001
6.150977e+006	-4.460421e+001	-9.590852e+001	-3.083260e+001	-1.237228e+001	-8.949518e+001	3.371724e+001	-4.786947e+001	4.061788e+001
6.151016e+006	-4.456841e+001	-9.624926e+001	-3.082733e+001	-1.239026e+001	-9.210763e+001	2.542847e+001	-4.785551e+001	4.056413e+001
6.151055e+006	-4.457324e+001	-9.587923e+001	-3.082319e+001	-1.235312e+001	-9.624223e+001	-5.497248e+001	-4.785591e+001	4.033144e+001
6.151094e+006	-4.458220e+001	-9.604501e+001	-3.083025e+001	-1.239678e+001	-9.463119e+001	3.916565e+001	-4.786571e+001	4.070208e+001
6.151133e+006	-4.459641e+001	-9.606825e+001	-3.082731e+001	-1.235297e+001	-1.018381e+002	-1.621739e+002	-4.794752e+001	4.093420e+001
6.151172e+006	-4.461555e+001	-9.610946e+001	-3.082529e+001	-1.241140e+001	-9.042745e+001	1.668291e+002	-4.782614e+001	4.079427e+001
6.151211e+006	-4.454488e+001	-9.600754e+001	-3.082417e+001	-1.224626e+001	-9.980990e+001	-6.335063e+000	-4.791267e+001	4.067401e+001
6.151250e+006	-4.458673e+001	-9.604020e+001	-3.083001e+001	-1.237664e+001	-9.418259e+001	7.826924e+001	-4.788013e+001	4.035679e+001
6.151289e+006	-4.458748e+001	-9.579076e+001	-3.082462e+001	-1.231739e+001	-8.840349e+001	-8.149936e+001	-4.788860e+001	3.994884e+001
6.151328e+006	-4.457151e+001	-9.597609e+001	-3.082677e+001	-1.235465e+001	-9.183944e+001	-1.181345e+002	-4.787556e+001	4.095674e+001
6.151367e+006	-4.456377e+001	-9.585813e+001	-3.082457e+001	-1.227094e+001	-9.878598e+001	-1.619356e+002	-4.786984e+001	4.029628e+001
6.151406e+006	-4.459943e+001	-9.580450e+001	-3.082978e+001	-1.236054e+001	-9.197842e+001	-3.018175e+001	-4.789332e+001	4.019921e+001
6.151445e+006	-4.457771e+001	-9.594399e+001	-3.082589e+001	-1.230602e+001	-9.692892e+001	-7.985856e+001	-4.782978e+001	4.054583e+001
6.151484e+006	-4.457190e+001	-9.629188e+001	-3.081940e+001	-1.238406e+001	-1.031781e+002	-8.160406e+001	-4.792774e+001	4.035854e+001
6.151523e+006	-4.457469e+001	-9.594709e+001	-3.081819e+001	-1.235916e+001	-9.636705e+001	1.096384e+002	-4.788271e+001	4.098630e+001
6.151563e+006	-4.458921e+001	-9.606975e+001	-3.082525e+001	-1.231082e+001	-9.914075e+001	-1.788392e+001	-4.787966e+001	4.003916e+001
6.151602e+006	-4.458080e+001	-9.597659e+001	-3.081891e+001	-1.232422e+001	-1.021503e+002	3.611782e+001	-4.794372e+001	4.049956e+001
6.151641e+006	-4.461420e+001	-9.591996e+001	-3.082738e+001	-1.241697e+001	-9.129796e+001	3.573436e+001	-4.786406e+001	4.047263e+001
6.151680e+006	-4.457194e+001	-9.619673e+001	-3.082853e+001	-1.239008e+001	-8.989630e+001	-1.037924e+002	-4.794196e+001	4.064124e+001
6.151719e+006	-4.458861e+001	-9.567909e+001	-3.082795e+001	-1.233388e+001	-9.325741e+001	-9.265751e+001	-4.793672e+001	4.087793e+001
6.151758e+006	-4.457672e+001	-9.617232e+001	-3.082104e+001	-1.236602e+001	-8.909532e+001	1.152488e+002	-4.789753e+001	4.049893e+001
6.151797e+006	-4.457318e+001	-9.589053e+001	-3.082203e+001	-1.236705e+001	-9.425601e+001	1.339244e+002	-4.787418e+001	4.046522e+001
6.151836e+006	-4.455833e+001	-9.609761e+001	-3.082969e+001	-1.236206e+001	-1.129912e+002	6.840719e+001	-4.782447e+001	4.079529e+001
6.151875e+006	-4.461551e+001	-9.584950e+001	-3.082515e+001	-1.232147e+001	-9.355639e+001	4.272523e+001	-4.785902e+001	4.025463e+001
6.151914e+006	-4.452553e+001	-9.607644e+001	-3.083333e+001	-1.235678e+001	-9.327149e+001	1.123590e+002	-4.783646e+001	4.036663e+001
6.151953e+006	-4.452798e+001	-9.628591e+001	-3.082150e+001	-1.235465e+001	-1.023303e+002	-6.033199e+001	-4.778589e+001	4.033486e+001
6.151992e+006	-4.458593e+001	-9.618635e+001	-3.081536e+001	-1.240409e+001	-1.021059e+002	1.477700e+002	-4.797634e+001	4.003924e+001
6.152031e+006	-4.456294e+001	-9.579308e+001	-3.083168e+001	-1.234236e+001	-9.100876e+001	1.670651e+002	-4.790781e+001	4.055917e+001
6.152070e+006	-4.455500e+001	-9.573819e+001	-3.082854e+001	-1.229660e+001	-9.498534e+001	-4.864768e+001	-4.785192e+001	4.031171e+001
6.152109e+006	-4.462582e+001	-9.588859e+001	-3.082671e+001	-1.238717e+001	-9.145007e+001	1.457436e+002	-4.786741e+001	4.017821e+001
6.152148e+006	-4.456675e+001	-9.625291e+001	-3.083569e+001	-1.231784e+001	-8.960549e+001	4.612779e+001	-4.790664e+001	4.011847e+001
6.152188e+006	-4.459413e+001	-9.616282e+001	-3.083255e+001	-1.234655e+001	-1.068288e+002	7.239412e+000	-4.786707e+001	4.099289e+001
6.152227e+006	-4.457292e+001	-9.592354e+001	-3.083137e+001	-1.233506e+001	-9.501873e+001	5.096809e+001	-4.792588e+001	4.029680e+001
6.152266e+006	-4.458379e+001	-9.619244e+001	-3.082368e+001	-1.238107e+001	-8.815340e+001	-6.176039e+001	-4.794215e+001	4.102443e+001
6.152305e+006	-4.457911e+001	-9.619343e+001	-3.082616e+001	-1.238553e+001	-9.211404e+001	-3.785035e+001	-4.793665e+001	4.077941e+001
6.152344e+006	-4.458463e+001	-9.591436e+001	-3.083281e+001	-1.234892e+001	-9.040743e+001	6.843774e+001	-4.784170e+001	4.049509e+001
6.152383e+006	-4.458001e+001	-9.586370e+001	-3.081966e+001	-1.232715e+001	-9.430416e+001	1.253068e+002	-4.785159e+001	4.059458e+001
6.152422e+006	-4.461952e+001	-9.599242e+001	-3.082597e+001	-1.239358e+001	-9.642539e+001	1.046899e+002	-4.782596e+001	4.027136e+001
6.152461e+006	-4.456589e+001	-9.585781e+001	-3.082629e+001	-1.231806e+001	-8.890179e+001	-9.628106e+000	-4.791101e+001	4.073070e+001
6.152500e+006	-4.457017e+001	-9.594108e+001	-3.083003e+001	-1.236187e+001	-9.561967e+001	-1.678928e+002	-4.786540e+001	4.088441e+001
6.152539e+006	-4.461768e+001	-9.595036e+001	-3.081893e+001	-1.239317e+001	-9.075144e+001	1.222991e+002	-4.785380e+001	4.059063e+001
6.152578e+006	-4.456801e+001	-9.602218e+001	-3.082553e+001	-1.234334e+001	-1.158734e+002	1.018507e+002	-4.791052e+001	3.986046e+001
6.152617e+006	-4.457694e+001	-9.591905e+001	-3.082041e+001	-1.230931e+001	-9.852200e+001	4.221948e+001	-4.788044e+001	4.044446e+001
6.152656e+006	-4.460047e+001	-9.613879e+001	-3.083353e+001	-1.240929e+001	-9.832142e+001	-6.810383e+001	-4.789451e+001	4.061544e+001
6.152695e+006	-4.454706e+001	-9.612726e+001	-3.082749e+001	-1.236824e+001	-8.960473e+001	7.271021e+001	-4.789655e+001	4.040761e+001
6.152734e+006	-4.458940e+001	-9.607128e+001	-3.082584e+001	-1.236028e+001	-9.865835e+001	5.511189e+001	-4.788083e+001	4.082703e+001
6.152773e+006	-4.459203e+001	-9.608235e+001	-3.082279e+001	-1.232283e+001	-9.242305e+001	1.189618e+002	-4.792453e+001	4.050309e+001
6.152813e+006	-4.460526e+001	-9.609603e+001	-3.083472e+001	-1.238846e+001	-9.715809e+001	-9.729947e-001	-4.785772e+001	4.028511e+001
6.152852e+006	-4.457189e+001	-9.574788e+001	-3.082021e+001	-1.234318e+001	-8.963810e+001	-1.722059e+002	-4.788256e+001	4.037938e+001
6.152891e+006	-4.461206e+001	-9.601496e+001	-3.083150e+001	-1.236446e+001	-9.427848e+001	9.097561e+001	-4.786080e+001	4.030328e+001
6.152930e+006	-4.458589e+001	-9.604062e+001	-3.081742e+001	-1.239773e+001	-9.908442e+001	-1.171876e+002	-4.785415e+001	4.061943e+001
6.152969e+006	-4.461229e+001	-9.596885e+001	-3.081973e+001	-1.237342e+001	-1.032033e+002	1.594830e+002	-4.793233e+001	4.023244e+001
6.153008e+006	-4.459838e+001	-9.568619e+001	-3.082524e+001	-1.239399e+001	-9.241305e+001	5.685965e+001	-4.788143e+001	4.072584e+001
6.153047e+006	-4.457314e+001	-9.547794e+001	-3.083061e+001	-1.235919e+001	-9.757655e+001	-4.152219e+001	-4.787766e+001	4.010505e+001
6.153086e+006	-4.462864e+001	-9.609122e+001	-3.081807e+001	-1.233922e+001	-9.813919e+001	7.763933e+001	-4.786644e+001	4.010262e+001
6.153125e+006	-4.458208e+001	-9.612016e+001	-3.082263e+001	-1.236146e+001	-1.067775e+002	2.378743e+001	-4.784423e+001	4.030844e+001
6.153164e+006	-4.453374e+001	-9.631807e+001	-3.082411e+001	-1.231177e+001	-1.009238e+002	-1.198743e+002	-4.790299e+001	4.075289e+001
6.153203e+006	-4.460661e+001	-9.616517e+001	-3.082066e+001	-1.238469e+001	-9.314554e+001	2.521532e+001	-4.790147e+001	4.062019e+001
6.153242e+006	-4.458742e+001	-9.636760e+001	-3.082499e+001	-1.233977e+001	-9.743865e+001	-1.029643e+002	-4.788686e+001	4.049733e+001
6.153281e+006	-4.462952e+001	-9.611171e+001	-3.082271e+001	-1.235266e+001	-8.967756e+001	4.024942e+001	-4.792930e+001	4.049180e+001
6.153320e+006	-4.460978e+001	-9.602468e+001	-3.082324e+001	-1.235171e+001	-9.810202e+001	1.630433e+000	-4.790432e+001	3.993938e+001
6.153359e+006	-4.461763e+001	-9.632406e+001	-3.082180e+001	-1.239821e+001	-9.339326e+001	3.727043e+001	-4.784933e+001	4.050365e+001
6.153398e+006	-4.456979e+001	-9.591979e+001	-3.082265e+001	-1.232487e+001	-9.287685e+001	1.625264e+002	-4.787409e+001	4.086421e+001
6.153438e+006	-4.462450e+001	-9.598303e+001	-3.081861e+001	-1.227986e+001	-9.120916e+001	-6.008863e+001	-4.788501e+001	4.077987e+001
6.153477e+006	-4.457996e+001	-9.618126e+001	-3.082201e+001	-1.235935e+001	-9.205104e+001	7.816303e+001	-4.783657e+001	4.065080e+001
6.153516e+006	-4.458486e+001	-9.595154e+001	-3.083009e+001	-1.228053e+001	-9.948428e+001	2.944429e+001	-4.784116e+001	4.052088e+001
6.153555e+006	-4.457245e+001	-9.629568e+001	-3.083193e+001	-1.240194e+001	-9.119386e+001	5.600817e+001	-4.783281e+001	4.019787e+001
6.153594e+006	-4.459487e+001	-9.599174e+001	-3.083112e+001	-1.232407e+001	-9.316389e+001	-4.418587e+000	-4.788107e+001	4.000802e+001
6.153633e+006	-4.459365e+001	-9.614789e+001	-3.081983e+001	-1.235486e+001	-1.020505e+002	1.518820e+002	-4.784383e+001	4.040605e+001
6.153672e+006	-4.457696e+001	-9.612268e+001	-3.081916e+001	-1.228276e+001	-1.022541e+002	-1.320872e+002	-4.785923e+001	4.059348e+001
6.153711e+006	-4.459904e+001	-9.595088e+001	-3.082429e+001	-1.234132e+001	-9.433556e+001	3.794522e+001	-4.790117e+001	4.082450e+001
6.153750e+006	-4.457616e+001	-9.628989e+001	-3.082539e+001	-1.233825e+001	-1.005188e+002	-1.079341e+002	-4.792153e+001	4.100493e+001
6.153789e+006	-4.461606e+001	-9.603266e+001	-3.081659e+001	-1.246741e+001	-9.018837e+001	1.040222e+002	-4.787820e+001	4.045825e+001
6.153828e+006	-4.455299e+001	-9.593688e+001	-3.082765e+001	-1.237984e+001	-9.009897e+001	3.236791e+001	-4.788841e+001	4.078345e+001
6.153867e+006	-4.453675e+001	-9.597693e+001	-3.081991e+001	-1.234693e+001	-9.683455e+001	7.424126e+001	-4.793105e+001	4.026555e+001
6.153906e+006	-4.458277e+001	-9.605985e+001	-3.082537e+001	-1.243041e+001	-9.582273e+001	-1.285622e+002	-4.791387e+001	4.049148e+001
6.153945e+006	-4.458671e+001	-9.580848e+001	-3.082389e+001	-1.234635e+001	-9.550970e+001	5.216275e+001	-4.795376e+001	4.037235e+001
6.153984e+006	-4.457975e+001	-9.577314e+001	-3.081617e+001	-1.234175e+001	-8.917735e+001	-7.774592e+001	-4.791396e+001	4.043741e+001
6.154023e+006	-4.456737e+001	-9.576182e+001	-3.081279e+001	-1.238283e+001	-8.810101e+001	1.176882e+002	-4.783562e+001	4.081279e+001
6.154063e+006	-4.463604e+001	-9.635267e+001	-3.082633e+001	-1.239106e+001	-1.008434e+002	-7.865158e+001	-4.790259e+001	4.072412e+001
6.154102e+006	-4.459511e+001	-9.614415e+001	-3.081550e+001	-1.234419e+001	-9.241043e+001	1.527348e+002	-4.793995e+001	4.089063e+001
6.154141e+006	-4.462266e+001	-9.616835e+001	-3.082124e+001	-1.238146e+001	-9.845898e+001	-4.276280e+000	-4.783964e+001	4.030139e+001
6.154180e+006	-4.462137e+001	-9.624213e+001	-3.081529e+001	-1.241748e+001	-8.939032e+001	3.559852e+001	-4.792873e+001	4.121171e+001
6.154219e+006	-4.465413e+001	-9.600913e+001	-3.081971e+001	-1.237845e+001	-9.709699e+001	6.041621e+001	-4.793859e+001	4.052817e+001
6.154258e+006	-4.458431e+001	-9.606344e+001	-3.083305e+001	-1.237406e+001	-9.198264e+001	-9.182589e+001	-4.788576e+001	4.011492e+001
6.154297e+006	-4.460313e+001	-9.609003e+001	-3.081357e+001	-1.234575e+001	-9.646364e+001	1.535853e+002	-4.784856e+001	4.012613e+001
6.154336e+006	-4.458785e+001	-9.600737e+001	-3.082369e+001	-1.228240e+001	-8.961306e+001	1.395368e+002	-4.793476e+001	4.005119e+001
6.154375e+006	-4.452418e+001	-9.625851e+001	-3.081892e+001	-1.235841e+001	-9.592519e+001	-1.204732e+002	-4.786878e+001	4.064488e+001
6.154414e+006	-4.461286e+001	-9.644095e+001	-3.081822e+001	-1.244163e+001	-9.865119e+001	4.266546e+001	-4.789188e+001	4.070241e+001
6.154453e+006	-4.461357e+001	-9.597437e+001	-3.081470e+001	-1.243361e+001	-9.340817e+001	-2.367779e+001	-4.786156e+001	4.011164e+001
6.154492e+006	-4.457096e+001	-9.607380e+001	-3.083675e+001	-1.238551e+001	-9.213637e+001	-5.363470e+001	-4.787046e+001	4.091557e+001
6.154531e+006	-4.459107e+001	-9.627951e+001	-3.081681e+001	-1.241074e+001	-1.012020e+002	1.649464e+002	-4.785687e+001	4.047495e+001
6.154570e+006	-4.458661e+001	-9.594009e+001	-3.082363e+001	-1.231699e+001	-8.913003e+001	8.566898e+001	-4.780893e+001	4.024900e+001
6.154609e+006	-4.459927e+001	-9.588723e+001	-3.082062e+001	-1.232717e+001	-8.863508e+001	-8.401126e+000	-4.786284e+001	4.055194e+001
6.154648e+006	-4.457315e+001	-9.620389e+001	-3.082448e+001	-1.229916e+001	-1.083706e+002	-1.128536e+002	-4.793591e+001	4.031607e+001
6.154688e+006	-4.454849e+001	-9.607902e+001	-3.082984e+001	-1.235381e+001	-9.221605e+001	-1.495163e+002	-4.790905e+001	4.052688e+001
6.154727e+006	-4.459332e+001	-9.582142e+001	-3.082136e+001	-1.238852e+001	-9.548901e+001	9.945724e-001	-4.788614e+001	4.050925e+001
6.154766e+006	-4.459806e+001	-9.624635e+001	-3.081873e+001	-1.239848e+001	-9.185223e+001	1.286323e+002	-4.790365e+001	4.022563e+001
6.154805e+006	-4.452803e+001	-9.623860e+001	-3.082453e+001	-1.238672e+001	-9.946984e+001	1.067915e+002	-4.789147e+001	4.026111e+001
6.154844e+006	-4.458776e+001	-9.605439e+001	-3.082885e+001	-1.234464e+001	-9.997061e+001	9.799378e+001	-4.789310e+001	4.073650e+001
6.154883e+006	-4.455722e+001	-9.595725e+001	-3.081405e+001	-1.236948e+001	-9.446696e+001	-9.817685e+001	-4.784096e+001	4.056186e+001
6.154922e+006	-4.458912e+001	-9.611511e+001	-3.082455e+001	-1.234358e+001	-8.559356e+001	-6.265085e+001	-4.790259e+001	4.093311e+001
6.154961e+006	-4.462252e+001	-9.601381e+001	-3.082011e+001	-1.230985e+001	-1.049277e+002	1.015524e+002	-4.789747e+001	3.998370e+001
6.155000e+006	-4.457998e+001	-9.592953e+001	-3.082053e+001	-1.236622e+001	-9.300618e+001	2.169949e+001	-4.788396e+001	4.037947e+001
6.155039e+006	-4.461910e+001	-9.597392e+001	-3.081635e+001	-1.233342e+001	-8.776681e+001	3.310988e+001	-4.789324e+001	4.017784e+001
6.155078e+006	-4.457916e+001	-9.588452e+001	-3.082366e+001	-1.241459e+001	-1.028565e+002	-4.180309e+001	-4.791331e+001	4.066434e+001
6.155117e+006	-4.460911e+001	-9.597327e+001	-3.082227e+001	-1.230524e+001	-9.332477e+001	1.360782e+002	-4.782237e+001	4.053722e+001
6.155156e+006	-4.457260e+001	-9.611181e+001	-3.081783e+001	-1.236294e+001	-9.284923e+001	5.657994e+001	-4.788867e+001	4.073918e+001
6.155195e+006	-4.463881e+001	-9.637469e+001	-3.082472e+001	-1.233243e+001	-8.459613e+001	1.194045e+002	-4.790279e+001	4.068661e+001
6.155234e+006	-4.456236e+001	-9.605692e+001	-3.082699e+001	-1.236032e+001	-9.751035e+001	3.815268e+001	-4.795394e+001	4.061605e+001
6.155273e+006	-4.458016e+001	-9.624865e+001	-3.082331e+001	-1.228676e+001	-8.605980e+001	1.550344e+002	-4.784444e+001	4.031405e+001
6.155313e+006	-4.455773e+001	-9.586283e+001	-3.082207e+001	-1.233397e+001	-9.127342e+001	-6.962222e+001	-4.784820e+001	4.027168e+001
6.155352e+006	-4.461752e+001	-9.607165e+001	-3.082430e+001	-1.235871e+001	-1.183902e+002	4.840233e+001	-4.792958e+001	4.052266e+001
6.155391e+006	-4.461427e+001	-9.599325e+001	-3.082092e+001	-1.239496e+001	-8.635783e+001	-8.673847e+001	-4.793351e+001	4.060073e+001
6.155430e+006	-4.461256e+001	-9.587536e+001	-3.082145e+001	-1.240103e+001	-8.660726e+001	1.448878e+001	-4.785297e+001	4.072155e+001
6.155469e+006	-4.463322e+001	-9.644440e+001	-3.082221e+001	-1.243894e+001	-9.010746e+001	1.120857e+002	-4.785737e+001	4.027559e+001
6.155508e+006	-4.454460e+001	-9.590437e+001	-3.082087e+001	-1.241033e+001	-8.906755e+001	5.377495e+001	-4.784488e+001	4.098585e+001
6.155547e+006	-4.457137e+001	-9.616049e+001	-3.081486e+001	-1.233040e+001	-1.039722e+002	-1.095567e+002	-4.788534e+001	4.050399e+001
6.155586e+006	-4.460802e+001	-9.602625e+001	-3.081930e+001	-1.227391e+001	-9.012242e+001	1.009675e+002	-4.779669e+001	4.037020e+001
6.155625e+006	-4.456678e+001	-9.614458e+001	-3.081816e+001	-1.237525e+001	-1.083971e+002	1.673149e+002	-4.785891e+001	4.092174e+001
6.155664e+006	-4.460053e+001	-9.575453e+001	-3.081801e+001	-1.230211e+001	-1.001807e+002	2.561598e+001	-4.791302e+001	4.083095e+001
6.155703e+006	-4.462042e+001	-9.634000e+001	-3.082321e+001	-1.237180e+001	-9.241019e+001	1.329873e+002	-4.788238e+001	4.043344e+001
6.155742e+006	-4.458275e+001	-9.592950e+001	-3.082361e+001	-1.238808e+001	-1.016833e+002	1.232859e+002	-4.784826e+001	4.117643e+001
