!CETC41,AV3656A,ZGL00048,1.3.2
!Calibration ON (Full Solt 2-Port(Omit Isolation))
!Measurements: S11 S21 S12 S22
!2025-07-09 21:36
# Hz  S  dB  R 50.000
6.150000e+006	-4.380638e+001	-8.951544e+001	-3.084490e+001	-1.258032e+001	-8.928050e+001	-2.718674e+001	-4.675011e+001	2.707046e+001
6.150039e+006	-4.382162e+001	-8.970946e+001	-3.084874e+001	-1.255023e+001	-9.008866e+001	3.749698e+001	-4.669654e+001	2.674586e+001
6.150078e+006	-4.383937e+001	-8.946813e+001	-3.084707e+001	-1.257036e+001	-9.433433e+001	-4.893205e+001	-4.670686e+001	2.684716e+001
6.150117e+006	-4.384642e+001	-8.960642e+001	-3.084159e+001	-1.254723e+001	-1.008357e+002	-5.628307e+001	-4.670576e+001	2.653172e+001
6.150156e+006	-4.385139e+001	-8.938004e+001	-3.085258e+001	-1.262271e+001	-9.647153e+001	-1.594408e+002	-4.664159e+001	2.676166e+001
6.150195e+006	-4.383684e+001	-8.946243e+001	-3.084694e+001	-1.255970e+001	-9.981421e+001	-1.290127e+002	-4.668746e+001	2.708796e+001
6.150234e+006	-4.381587e+001	-8.960465e+001	-3.084065e+001	-1.265642e+001	-9.000741e+001	4.150594e+001	-4.664477e+001	2.661184e+001
6.150273e+006	-4.381196e+001	-8.968327e+001	-3.084562e+001	-1.262580e+001	-9.425743e+001	1.516812e+002	-4.670615e+001	2.686415e+001
6.150313e+006	-4.384973e+001	-8.949752e+001	-3.084959e+001	-1.259113e+001	-8.549176e+001	-9.462888e+001	-4.661047e+001	2.724382e+001
6.150352e+006	-4.385195e+001	-8.968369e+001	-3.084913e+001	-1.260768e+001	-9.183394e+001	7.528087e+001	-4.668667e+001	2.718639e+001
6.150391e+006	-4.377327e+001	-8.989560e+001	-3.085096e+001	-1.264481e+001	-1.027953e+002	8.221652e+001	-4.670099e+001	2.693234e+001
6.150430e+006	-4.381608e+001	-8.943962e+001	-3.085608e+001	-1.254606e+001	-9.292607e+001	1.162376e+002	-4.667610e+001	2.689215e+001
6.150469e+006	-4.383103e+001	-8.968677e+001	-3.084422e+001	-1.258413e+001	-9.610408e+001	6.120186e+001	-4.667299e+001	2.704672e+001
6.150508e+006	-4.381965e+001	-8.917038e+001	-3.085219e+001	-1.263563e+001	-1.029616e+002	-1.120815e+002	-4.669191e+001	2.719402e+001
6.150547e+006	-4.382438e+001	-8.957747e+001	-3.085657e+001	-1.256588e+001	-9.525796e+001	6.197803e+001	-4.664357e+001	2.713573e+001
6.150586e+006	-4.383993e+001	-8.973694e+001	-3.085286e+001	-1.268147e+001	-1.055174e+002	6.268157e-001	-4.674541e+001	2.695417e+001
6.150625e+006	-4.382608e+001	-8.979456e+001	-3.083970e+001	-1.258132e+001	-9.449377e+001	7.232084e+001	-4.660117e+001	2.663843e+001
6.150664e+006	-4.379468e+001	-8.962868e+001	-3.085106e+001	-1.254860e+001	-9.624393e+001	-2.547641e+001	-4.667058e+001	2.652326e+001
6.150703e+006	-4.381059e+001	-8.963091e+001	-3.083926e+001	-1.257073e+001	-8.961010e+001	1.555038e+002	-4.662438e+001	2.679428e+001
6.150742e+006	-4.384201e+001	-8.963799e+001	-3.085075e+001	-1.268871e+001	-8.783728e+001	-1.080850e+002	-4.661594e+001	2.662114e+001
6.150781e+006	-4.383465e+001	-8.946900e+001	-3.084911e+001	-1.250633e+001	-9.566663e+001	-6.743780e+001	-4.673291e+001	2.672083e+001
6.150820e+006	-4.385412e+001	-8.985672e+001	-3.085424e+001	-1.263317e+001	-1.014708e+002	8.447399e+001	-4.668891e+001	2.671114e+001
6.150859e+006	-4.384050e+001	-8.983870e+001	-3.085293e+001	-1.264125e+001	-8.537924e+001	3.594493e+001	-4.669383e+001	2.705016e+001
6.150898e+006	-4.387039e+001	-8.968410e+001	-3.084123e+001	-1.255705e+001	-9.363583e+001	1.670353e+002	-4.666164e+001	2.695661e+001
6.150938e+006	-4.380474e+001	-8.948563e+001	-3.084675e+001	-1.253091e+001	-1.022006e+002	6.109885e+001	-4.669173e+001	2.689656e+001
6.150977e+006	-4.380338e+001	-8.960903e+001	-3.085154e+001	-1.260249e+001	-9.968886e+001	6.627168e+001	-4.672363e+001	2.668422e+001
6.151016e+006	-4.383740e+001	-8.952250e+001	-3.085662e+001	-1.268109e+001	-9.411548e+001	8.871083e+001	-4.661536e+001	2.668727e+001
6.151055e+006	-4.381877e+001	-8.939043e+001	-3.085373e+001	-1.255191e+001	-1.038509e+002	1.595464e+002	-4.668152e+001	2.683282e+001
6.151094e+006	-4.382013e+001	-8.942674e+001	-3.084727e+001	-1.264300e+001	-1.022101e+002	-6.110698e+001	-4.668197e+001	2.718260e+001
6.151133e+006	-4.384165e+001	-8.997075e+001	-3.084805e+001	-1.258511e+001	-9.867910e+001	1.077491e+002	-4.670772e+001	2.759173e+001
6.151172e+006	-4.384618e+001	-8.968845e+001	-3.085085e+001	-1.253828e+001	-9.602688e+001	-8.604160e+001	-4.669534e+001	2.723763e+001
6.151211e+006	-4.381634e+001	-8.959350e+001	-3.086185e+001	-1.260842e+001	-8.794228e+001	5.646458e+001	-4.666939e+001	2.698183e+001
6.151250e+006	-4.381809e+001	-8.965097e+001	-3.085549e+001	-1.259741e+001	-9.930570e+001	-7.171826e+001	-4.665182e+001	2.725388e+001
6.151289e+006	-4.385080e+001	-8.950672e+001	-3.084150e+001	-1.260350e+001	-9.458292e+001	-5.569515e+001	-4.667342e+001	2.707252e+001
6.151328e+006	-4.380510e+001	-8.960667e+001	-3.083576e+001	-1.257397e+001	-9.298566e+001	2.752313e+001	-4.665118e+001	2.750551e+001
6.151367e+006	-4.381654e+001	-8.984086e+001	-3.085522e+001	-1.267127e+001	-9.378173e+001	7.907228e+001	-4.670656e+001	2.689284e+001
6.151406e+006	-4.385426e+001	-8.981222e+001	-3.084600e+001	-1.260713e+001	-9.890117e+001	-1.029753e+001	-4.669527e+001	2.708292e+001
6.151445e+006	-4.381888e+001	-8.941883e+001	-3.084977e+001	-1.258083e+001	-9.288367e+001	4.649831e+001	-4.669696e+001	2.705116e+001
6.151484e+006	-4.379916e+001	-8.958023e+001	-3.084395e+001	-1.261078e+001	-9.197690e+001	-1.786011e+002	-4.670202e+001	2.732148e+001
6.151523e+006	-4.380163e+001	-8.993007e+001	-3.084753e+001	-1.257276e+001	-8.878157e+001	2.962388e+001	-4.658541e+001	2.723832e+001
6.151563e+006	-4.381902e+001	-8.986347e+001	-3.084805e+001	-1.260155e+001	-9.550377e+001	-8.032893e+001	-4.668594e+001	2.649626e+001
6.151602e+006	-4.384186e+001	-8.946871e+001	-3.084373e+001	-1.254927e+001	-9.033286e+001	-1.527634e+002	-4.668519e+001	2.683856e+001
6.151641e+006	-4.385251e+001	-8.985039e+001	-3.084395e+001	-1.265281e+001	-9.636043e+001	1.032557e+002	-4.664998e+001	2.712932e+001
6.151680e+006	-4.385246e+001	-8.979286e+001	-3.085399e+001	-1.262726e+001	-1.104622e+002	-6.564508e+001	-4.661970e+001	2.706553e+001
6.151719e+006	-4.384423e+001	-8.958090e+001	-3.085235e+001	-1.261306e+001	-9.347890e+001	9.235140e+001	-4.668893e+001	2.711343e+001
6.151758e+006	-4.385636e+001	-8.960818e+001	-3.084768e+001	-1.265446e+001	-9.213116e+001	1.416222e+002	-4.670401e+001	2.675158e+001
6.151797e+006	-4.382505e+001	-8.956937e+001	-3.084796e+001	-1.266617e+001	-8.904971e+001	1.572767e+001	-4.671250e+001	2.724555e+001
6.151836e+006	-4.380584e+001	-8.933164e+001	-3.085492e+001	-1.261544e+001	-9.928758e+001	8.804960e+001	-4.666815e+001	2.692706e+001
6.151875e+006	-4.383874e+001	-8.948943e+001	-3.083748e+001	-1.261514e+001	-8.769867e+001	9.204632e+001	-4.663392e+001	2.724868e+001
6.151914e+006	-4.382333e+001	-8.942644e+001	-3.084890e+001	-1.257498e+001	-9.181776e+001	1.171423e+002	-4.661861e+001	2.686455e+001
6.151953e+006	-4.381887e+001	-8.953373e+001	-3.085410e+001	-1.257343e+001	-8.934691e+001	1.329051e+002	-4.672579e+001	2.713656e+001
6.151992e+006	-4.389617e+001	-8.967117e+001	-3.085613e+001	-1.251908e+001	-1.037997e+002	1.315107e+002	-4.670242e+001	2.673817e+001
6.152031e+006	-4.381078e+001	-8.962915e+001	-3.085251e+001	-1.260696e+001	-9.710008e+001	1.056853e+002	-4.670753e+001	2.699281e+001
6.152070e+006	-4.386668e+001	-8.976329e+001	-3.084438e+001	-1.259495e+001	-8.999013e+001	6.180240e+001	-4.662816e+001	2.689090e+001
6.152109e+006	-4.385185e+001	-8.953741e+001	-3.085024e+001	-1.256560e+001	-9.497072e+001	6.343164e+001	-4.670564e+001	2.704779e+001
6.152148e+006	-4.381544e+001	-8.987235e+001	-3.084307e+001	-1.258657e+001	-9.271874e+001	1.551066e+002	-4.662674e+001	2.672819e+001
6.152188e+006	-4.382648e+001	-8.969781e+001	-3.084020e+001	-1.261788e+001	-8.661401e+001	1.038748e+002	-4.661825e+001	2.727600e+001
6.152227e+006	-4.381503e+001	-8.955247e+001	-3.084776e+001	-1.257762e+001	-9.561365e+001	2.134117e+001	-4.669986e+001	2.698258e+001
6.152266e+006	-4.379893e+001	-8.952432e+001	-3.085142e+001	-1.265997e+001	-9.034616e+001	1.108924e+002	-4.669685e+001	2.682028e+001
6.152305e+006	-4.386170e+001	-8.957051e+001	-3.084141e+001	-1.259862e+001	-9.381496e+001	5.768904e+001	-4.665256e+001	2.723337e+001
6.152344e+006	-4.384827e+001	-8.977101e+001	-3.084553e+001	-1.261906e+001	-8.724883e+001	1.022916e+002	-4.675402e+001	2.688880e+001
6.152383e+006	-4.381741e+001	-8.949265e+001	-3.085056e+001	-1.257370e+001	-9.203424e+001	4.002103e+001	-4.661987e+001	2.710653e+001
6.152422e+006	-4.379108e+001	-8.965321e+001	-3.084551e+001	-1.268755e+001	-9.379135e+001	-4.851605e+000	-4.670338e+001	2.727037e+001
6.152461e+006	-4.381656e+001	-8.972154e+001	-3.084459e+001	-1.262002e+001	-9.352525e+001	9.315180e+001	-4.659910e+001	2.681440e+001
6.152500e+006	-4.380850e+001	-8.949653e+001	-3.085056e+001	-1.262279e+001	-9.420002e+001	-2.664080e+001	-4.671081e+001	2.694504e+001
6.152539e+006	-4.384388e+001	-8.953850e+001	-3.084924e+001	-1.262837e+001	-9.328961e+001	1.121554e+002	-4.666514e+001	2.670297e+001
6.152578e+006	-4.384528e+001	-8.974415e+001	-3.084699e+001	-1.253167e+001	-9.380559e+001	-8.380688e+000	-4.672051e+001	2.682939e+001
6.152617e+006	-4.383267e+001	-8.980944e+001	-3.084615e+001	-1.269555e+001	-8.954356e+001	8.183645e+001	-4.669191e+001	2.676739e+001
6.152656e+006	-4.385024e+001	-8.970365e+001	-3.083888e+001	-1.259906e+001	-1.033124e+002	-1.124617e+002	-4.671404e+001	2.720315e+001
6.152695e+006	-4.380227e+001	-8.943641e+001	-3.084255e+001	-1.265488e+001	-9.525279e+001	1.119356e+002	-4.664643e+001	2.718366e+001
6.152734e+006	-4.380848e+001	-8.935739e+001	-3.084980e+001	-1.259265e+001	-9.464277e+001	-4.035590e+001	-4.664282e+001	2.689971e+001
6.152773e+006	-4.383716e+001	-8.962682e+001	-3.085664e+001	-1.255703e+001	-9.564355e+001	1.780120e+002	-4.669236e+001	2.679305e+001
6.152813e+006	-4.381121e+001	-8.965458e+001	-3.085239e+001	-1.258420e+001	-9.936385e+001	7.353026e+001	-4.667126e+001	2.688881e+001
6.152852e+006	-4.386822e+001	-8.947575e+001	-3.084014e+001	-1.268150e+001	-9.555454e+001	-1.605580e+001	-4.670610e+001	2.701640e+001
6.152891e+006	-4.388525e+001	-8.961930e+001	-3.083727e+001	-1.263384e+001	-9.254495e+001	-3.354528e+000	-4.665347e+001	2.685042e+001
6.152930e+006	-4.380452e+001	-8.957385e+001	-3.083905e+001	-1.259531e+001	-9.953308e+001	-1.448769e+002	-4.667675e+001	2.681684e+001
6.152969e+006	-4.384580e+001	-8.943936e+001	-3.083504e+001	-1.262713e+001	-9.385416e+001	1.173540e+002	-4.676466e+001	2.698112e+001
6.153008e+006	-4.382769e+001	-8.959128e+001	-3.085142e+001	-1.264903e+001	-9.785687e+001	8.496036e+001	-4.668919e+001	2.700589e+001
6.153047e+006	-4.383679e+001	-8.967214e+001	-3.084871e+001	-1.253669e+001	-9.480115e+001	-1.353544e+002	-4.672649e+001	2.706703e+001
6.153086e+006	-4.384726e+001	-8.955643e+001	-3.084900e+001	-1.254430e+001	-9.430428e+001	-1.015431e+002	-4.673520e+001	2.726631e+001
6.153125e+006	-4.386431e+001	-8.976120e+001	-3.084435e+001	-1.255593e+001	-1.022374e+002	-9.337457e+001	-4.663585e+001	2.694009e+001
6.153164e+006	-4.380149e+001	-8.966352e+001	-3.084019e+001	-1.261445e+001	-9.163115e+001	1.529897e+002	-4.672351e+001	2.716730e+001
6.153203e+006	-4.387347e+001	-8.978062e+001	-3.085059e+001	-1.254550e+001	-9.913077e+001	-1.623621e+001	-4.667501e+001	2.676619e+001
6.153242e+006	-4.384201e+001	-8.939361e+001	-3.084530e+001	-1.260389e+001	-9.094383e+001	-1.269282e+002	-4.670828e+001	2.669980e+001
6.153281e+006	-4.382168e+001	-8.937852e+001	-3.084052e+001	-1.261537e+001	-9.472196e+001	1.179560e+002	-4.665617e+001	2.712850e+001
6.153320e+006	-4.383741e+001	-8.949230e+001	-3.083803e+001	-1.268199e+001	-9.429649e+001	1.121495e+002	-4.666073e+001	2.692537e+001
6.153359e+006	-4.382058e+001	-8.978025e+001	-3.084801e+001	-1.266573e+001	-9.613668e+001	-8.196003e+001	-4.665363e+001	2.705219e+001
6.153398e+006	-4.380596e+001	-8.990605e+001	-3.084959e+001	-1.263473e+001	-9.532617e+001	-3.848580e+001	-4.673036e+001	2.692373e+001
6.153438e+006	-4.386390e+001	-8.965510e+001	-3.083412e+001	-1.259420e+001	-9.760223e+001	-4.318678e+000	-4.675606e+001	2.699947e+001
6.153477e+006	-4.382122e+001	-8.940801e+001	-3.084078e+001	-1.265665e+001	-9.859844e+001	1.390431e+002	-4.669434e+001	2.692551e+001
6.153516e+006	-4.382670e+001	-8.970447e+001	-3.084103e+001	-1.253453e+001	-9.601514e+001	8.221323e+001	-4.669821e+001	2.737056e+001
6.153555e+006	-4.381424e+001	-8.970321e+001	-3.083825e+001	-1.257019e+001	-9.477053e+001	-1.698929e+002	-4.666679e+001	2.736132e+001
6.153594e+006	-4.383640e+001	-8.950311e+001	-3.083575e+001	-1.262493e+001	-9.867061e+001	4.776432e+001	-4.664848e+001	2.686268e+001
6.153633e+006	-4.383791e+001	-8.970574e+001	-3.083982e+001	-1.263676e+001	-1.045007e+002	1.466896e+002	-4.670066e+001	2.671676e+001
6.153672e+006	-4.384690e+001	-8.963976e+001	-3.084718e+001	-1.263623e+001	-9.533560e+001	6.866580e+001	-4.673388e+001	2.750527e+001
6.153711e+006	-4.382780e+001	-8.965095e+001	-3.085308e+001	-1.253916e+001	-9.349888e+001	1.092704e+001	-4.666442e+001	2.748789e+001
6.153750e+006	-4.382999e+001	-8.955451e+001	-3.085520e+001	-1.263120e+001	-9.797485e+001	1.212634e+002	-4.664958e+001	2.719205e+001
6.153789e+006	-4.383003e+001	-8.948611e+001	-3.085498e+001	-1.260857e+001	-9.196779e+001	1.575410e+002	-4.660766e+001	2.693128e+001
6.153828e+006	-4.383003e+001	-8.958554e+001	-3.085033e+001	-1.263117e+001	-9.989062e+001	1.583983e+002	-4.667173e+001	2.746422e+001
6.153867e+006	-4.385420e+001	-8.962358e+001	-3.085278e+001	-1.259222e+001	-9.053379e+001	1.470013e+002	-4.661962e+001	2.705962e+001
6.153906e+006	-4.382248e+001	-8.985510e+001	-3.084769e+001	-1.261009e+001	-9.343970e+001	2.959221e+001	-4.667766e+001	2.706694e+001
6.153945e+006	-4.383403e+001	-8.946178e+001	-3.084221e+001	-1.265940e+001	-9.659567e+001	7.589851e+001	-4.672040e+001	2.696297e+001
6.153984e+006	-4.381919e+001	-8.955800e+001	-3.083246e+001	-1.263793e+001	-9.676009e+001	-1.701693e+002	-4.669263e+001	2.727571e+001
6.154023e+006	-4.384870e+001	-8.943069e+001	-3.084998e+001	-1.261056e+001	-1.008848e+002	1.088959e+002	-4.662668e+001	2.658683e+001
6.154063e+006	-4.387998e+001	-8.953717e+001	-3.084311e+001	-1.260297e+001	-1.069872e+002	-1.425760e+002	-4.668447e+001	2.732742e+001
6.154102e+006	-4.383582e+001	-8.920593e+001	-3.084848e+001	-1.263310e+001	-9.255450e+001	1.695970e+002	-4.674560e+001	2.729969e+001
6.154141e+006	-4.385661e+001	-8.977080e+001	-3.085756e+001	-1.259875e+001	-1.021896e+002	-1.845714e+001	-4.669933e+001	2.668690e+001
6.154180e+006	-4.381416e+001	-8.956990e+001	-3.083200e+001	-1.260174e+001	-1.107084e+002	-1.023799e+001	-4.668511e+001	2.738422e+001
6.154219e+006	-4.387474e+001	-8.965934e+001	-3.085650e+001	-1.263017e+001	-9.761732e+001	-7.882739e+001	-4.667313e+001	2.695431e+001
6.154258e+006	-4.383929e+001	-8.980892e+001	-3.084543e+001	-1.260775e+001	-8.929206e+001	1.284626e+002	-4.664710e+001	2.735599e+001
6.154297e+006	-4.381809e+001	-8.977311e+001	-3.084158e+001	-1.263305e+001	-9.263070e+001	-5.364369e+001	-4.668493e+001	2.707180e+001
6.154336e+006	-4.382420e+001	-8.991836e+001	-3.085031e+001	-1.257206e+001	-9.645697e+001	1.682231e+001	-4.664084e+001	2.703345e+001
6.154375e+006	-4.385978e+001	-8.940406e+001	-3.085219e+001	-1.262157e+001	-9.843521e+001	9.105288e+001	-4.669327e+001	2.675171e+001
6.154414e+006	-4.382614e+001	-8.990227e+001	-3.084018e+001	-1.259058e+001	-8.800760e+001	-9.420964e+001	-4.667122e+001	2.672942e+001
6.154453e+006	-4.386865e+001	-8.946560e+001	-3.084189e+001	-1.256628e+001	-9.231664e+001	7.964814e+001	-4.666517e+001	2.713163e+001
6.154492e+006	-4.381145e+001	-8.951680e+001	-3.085149e+001	-1.263540e+001	-9.030138e+001	-1.060417e+002	-4.675166e+001	2.649300e+001
6.154531e+006	-4.380562e+001	-8.957049e+001	-3.083859e+001	-1.264052e+001	-9.393548e+001	1.485501e+002	-4.665223e+001	2.719242e+001
6.154570e+006	-4.379637e+001	-8.953206e+001	-3.085134e+001	-1.259467e+001	-9.504742e+001	-8.543823e+001	-4.668433e+001	2.690098e+001
6.154609e+006	-4.381099e+001	-8.907878e+001	-3.084104e+001	-1.259473e+001	-9.308313e+001	9.382379e+001	-4.665810e+001	2.741892e+001
6.154648e+006	-4.387215e+001	-8.968559e+001	-3.083933e+001	-1.261993e+001	-1.023758e+002	-8.519865e+001	-4.672363e+001	2.696273e+001
6.154688e+006	-4.380178e+001	-8.955858e+001	-3.084276e+001	-1.263340e+001	-9.099393e+001	1.963352e+001	-4.668961e+001	2.717392e+001
6.154727e+006	-4.384014e+001	-8.975380e+001	-3.084054e+001	-1.261013e+001	-9.066852e+001	-8.746279e+001	-4.672866e+001	2.705389e+001
6.154766e+006	-4.379947e+001	-8.956269e+001	-3.085066e+001	-1.255295e+001	-9.018587e+001	9.936930e+001	-4.665905e+001	2.730579e+001
6.154805e+006	-4.386871e+001	-8.956109e+001	-3.084705e+001	-1.259762e+001	-9.110191e+001	1.790687e+002	-4.671352e+001	2.706373e+001
6.154844e+006	-4.376597e+001	-8.974911e+001	-3.084031e+001	-1.256203e+001	-9.900575e+001	8.301932e+001	-4.663359e+001	2.702398e+001
6.154883e+006	-4.378562e+001	-8.948941e+001	-3.084563e+001	-1.256941e+001	-9.178463e+001	1.323781e+002	-4.666326e+001	2.697924e+001
6.154922e+006	-4.388302e+001	-8.961448e+001	-3.084164e+001	-1.253935e+001	-1.042195e+002	-1.657850e+002	-4.672260e+001	2.678152e+001
6.154961e+006	-4.384860e+001	-8.985219e+001	-3.084995e+001	-1.260323e+001	-1.143596e+002	3.398159e+001	-4.670022e+001	2.669093e+001
6.155000e+006	-4.383427e+001	-8.979720e+001	-3.085002e+001	-1.258611e+001	-1.117554e+002	-1.358967e+002	-4.671764e+001	2.675609e+001
6.155039e+006	-4.378436e+001	-8.950610e+001	-3.084533e+001	-1.267339e+001	-9.699055e+001	4.293519e+001	-4.668556e+001	2.711778e+001
6.155078e+006	-4.386543e+001	-8.944973e+001	-3.084482e+001	-1.260247e+001	-9.192345e+001	1.179582e+002	-4.666421e+001	2.746633e+001
6.155117e+006	-4.383777e+001	-8.964396e+001	-3.083177e+001	-1.256040e+001	-9.192473e+001	-8.954460e+001	-4.666091e+001	2.708752e+001
6.155156e+006	-4.386431e+001	-8.996189e+001	-3.082857e+001	-1.258632e+001	-9.211525e+001	7.776921e+001	-4.666775e+001	2.698033e+001
6.155195e+006	-4.383567e+001	-8.972589e+001	-3.084479e+001	-1.255544e+001	-8.961526e+001	1.016885e+002	-4.671948e+001	2.678952e+001
6.155234e+006	-4.386109e+001	-8.994044e+001	-3.085122e+001	-1.259335e+001	-9.250994e+001	-2.907636e+001	-4.664718e+001	2.672044e+001
6.155273e+006	-4.386573e+001	-8.982782e+001	-3.083712e+001	-1.266937e+001	-9.643962e+001	9.686697e-001	-4.667847e+001	2.698069e+001
6.155313e+006	-4.384701e+001	-8.969144e+001	-3.084867e+001	-1.262060e+001	-9.871013e+001	1.291136e+002	-4.669914e+001	2.681113e+001
6.155352e+006	-4.384666e+001	-8.990700e+001	-3.084596e+001	-1.258547e+001	-9.733536e+001	-2.015448e+001	-4.666949e+001	2.711444e+001
6.155391e+006	-4.383506e+001	-8.963482e+001	-3.084144e+001	-1.255205e+001	-9.285424e+001	1.008993e+002	-4.668307e+001	2.725214e+001
6.155430e+006	-4.384499e+001	-8.951582e+001	-3.083176e+001	-1.258149e+001	-9.549702e+001	6.069537e+001	-4.659972e+001	2.704267e+001
6.155469e+006	-4.380027e+001	-8.946184e+001	-3.084663e+001	-1.262950e+001	-9.315501e+001	-1.452305e+002	-4.667766e+001	2.690793e+001
6.155508e+006	-4.382263e+001	-8.987552e+001	-3.085070e+001	-1.256192e+001	-1.035373e+002	1.581248e+002	-4.668648e+001	2.749213e+001
6.155547e+006	-4.385306e+001	-8.934312e+001	-3.083301e+001	-1.262069e+001	-9.698039e+001	-6.074433e+000	-4.671178e+001	2.769197e+001
6.155586e+006	-4.380620e+001	-8.935900e+001	-3.083477e+001	-1.259442e+001	-8.923559e+001	9.534418e+001	-4.661269e+001	2.727147e+001
6.155625e+006	-4.383396e+001	-8.971027e+001	-3.084020e+001	-1.260068e+001	-1.045675e+002	-1.734615e+002	-4.662524e+001	2.693701e+001
6.155664e+006	-4.390048e+001	-8.920651e+001	-3.083538e+001	-1.260624e+001	-1.051009e+002	3.296501e+000	-4.666528e+001	2.674233e+001
6.155703e+006	-4.386135e+001	-9.008641e+001	-3.084389e+001	-1.255632e+001	-9.225300e+001	5.317092e+001	-4.671196e+001	2.734751e+001
6.155742e+006	-4.383628e+001	-8.949547e+001	-3.083823e+001	-1.254797e+001	-9.507963e+001	9.495954e+001	-4.665949e+001	2.726601e+001
