!CETC41,AV3656A,ZGL00048,1.3.2
!Calibration ON (Full Solt 2-Port(Omit Isolation))
!Measurements: S11 S21 S12 S22
!2025-07-09 22:43
# Hz  S  dB  R 50.000
6.150000e+006	-4.431777e+001	-9.113356e+001	-3.081262e+001	-1.352642e+001	-1.165241e+002	-6.116683e+001	-5.202895e+001	7.088181e+001
6.150039e+006	-4.426387e+001	-9.099143e+001	-3.081639e+001	-1.345870e+001	-8.987828e+001	1.587369e+002	-5.217478e+001	7.063402e+001
6.150078e+006	-4.430036e+001	-9.127973e+001	-3.081638e+001	-1.353167e+001	-9.509900e+001	-1.285947e+002	-5.225821e+001	7.127695e+001
6.150117e+006	-4.431177e+001	-9.097925e+001	-3.080628e+001	-1.357022e+001	-9.378131e+001	-2.560690e+001	-5.207333e+001	7.119258e+001
6.150156e+006	-4.430352e+001	-9.079794e+001	-3.082236e+001	-1.350820e+001	-9.162812e+001	8.263401e+001	-5.207507e+001	7.081428e+001
6.150195e+006	-4.431758e+001	-9.108980e+001	-3.081441e+001	-1.345143e+001	-8.961099e+001	6.704535e+001	-5.202005e+001	7.099772e+001
6.150234e+006	-4.431502e+001	-9.076484e+001	-3.082053e+001	-1.350906e+001	-8.818844e+001	1.342101e+002	-5.203116e+001	7.128545e+001
6.150273e+006	-4.432144e+001	-9.077145e+001	-3.082274e+001	-1.343656e+001	-8.538037e+001	8.190705e+001	-5.202215e+001	7.102383e+001
6.150313e+006	-4.426847e+001	-9.097059e+001	-3.082125e+001	-1.347017e+001	-1.011251e+002	-4.170603e+001	-5.209853e+001	7.131260e+001
6.150352e+006	-4.428565e+001	-9.101725e+001	-3.081916e+001	-1.350439e+001	-9.035631e+001	1.230442e+002	-5.212635e+001	7.035670e+001
6.150391e+006	-4.430325e+001	-9.108738e+001	-3.081257e+001	-1.350756e+001	-9.603096e+001	8.731521e+001	-5.207425e+001	7.079400e+001
6.150430e+006	-4.426025e+001	-9.084658e+001	-3.081628e+001	-1.354153e+001	-9.425753e+001	1.162979e+002	-5.205431e+001	7.124624e+001
6.150469e+006	-4.431093e+001	-9.115171e+001	-3.080913e+001	-1.353380e+001	-1.048448e+002	-1.777575e+002	-5.206643e+001	7.095887e+001
6.150508e+006	-4.432442e+001	-9.109842e+001	-3.081664e+001	-1.349425e+001	-1.040660e+002	1.436146e+002	-5.205557e+001	7.160920e+001
6.150547e+006	-4.429699e+001	-9.090437e+001	-3.082324e+001	-1.347305e+001	-8.881499e+001	8.700839e+001	-5.200044e+001	7.069528e+001
6.150586e+006	-4.429594e+001	-9.103221e+001	-3.081248e+001	-1.352692e+001	-9.293386e+001	1.328171e+002	-5.210962e+001	7.084523e+001
6.150625e+006	-4.433658e+001	-9.105719e+001	-3.080939e+001	-1.344957e+001	-9.251915e+001	1.550976e+002	-5.216674e+001	7.113028e+001
6.150664e+006	-4.431464e+001	-9.091172e+001	-3.081814e+001	-1.346624e+001	-9.463850e+001	8.947229e+001	-5.209295e+001	7.089788e+001
6.150703e+006	-4.429520e+001	-9.087488e+001	-3.080982e+001	-1.355028e+001	-9.372304e+001	1.581140e+002	-5.208381e+001	7.062101e+001
6.150742e+006	-4.432089e+001	-9.094623e+001	-3.081733e+001	-1.354584e+001	-9.927330e+001	3.406513e+001	-5.204786e+001	7.090916e+001
6.150781e+006	-4.425479e+001	-9.064119e+001	-3.082182e+001	-1.351851e+001	-1.022613e+002	2.005219e+001	-5.209628e+001	7.046282e+001
6.150820e+006	-4.429285e+001	-9.082759e+001	-3.081511e+001	-1.355083e+001	-8.964811e+001	1.124690e+002	-5.208116e+001	7.091403e+001
6.150859e+006	-4.430628e+001	-9.101109e+001	-3.081107e+001	-1.351480e+001	-9.261875e+001	-1.376302e+002	-5.214308e+001	7.102336e+001
6.150898e+006	-4.430116e+001	-9.096341e+001	-3.081325e+001	-1.343061e+001	-9.592359e+001	1.791002e+002	-5.201821e+001	7.152437e+001
6.150938e+006	-4.428060e+001	-9.101719e+001	-3.081356e+001	-1.350920e+001	-8.905518e+001	1.180640e+002	-5.204253e+001	7.132955e+001
6.150977e+006	-4.430445e+001	-9.084759e+001	-3.081206e+001	-1.349085e+001	-9.984275e+001	1.540322e+002	-5.199271e+001	7.160740e+001
6.151016e+006	-4.425558e+001	-9.099830e+001	-3.081209e+001	-1.355184e+001	-1.052524e+002	3.051087e+001	-5.196869e+001	7.099750e+001
6.151055e+006	-4.436866e+001	-9.084902e+001	-3.081264e+001	-1.347847e+001	-1.001212e+002	-9.503834e+001	-5.204791e+001	7.113650e+001
6.151094e+006	-4.426923e+001	-9.080273e+001	-3.081233e+001	-1.352389e+001	-9.176422e+001	1.243104e+002	-5.209755e+001	7.089056e+001
6.151133e+006	-4.429430e+001	-9.094452e+001	-3.080627e+001	-1.351912e+001	-1.007941e+002	-4.837291e+001	-5.207497e+001	7.162306e+001
6.151172e+006	-4.429569e+001	-9.104447e+001	-3.081199e+001	-1.349391e+001	-9.553627e+001	1.750814e+002	-5.216441e+001	7.030068e+001
6.151211e+006	-4.428970e+001	-9.080185e+001	-3.081915e+001	-1.352873e+001	-9.189010e+001	9.719580e+001	-5.198609e+001	7.152730e+001
6.151250e+006	-4.429481e+001	-9.132997e+001	-3.080914e+001	-1.356321e+001	-9.705592e+001	-8.676480e+001	-5.202416e+001	7.063587e+001
6.151289e+006	-4.430790e+001	-9.111507e+001	-3.082364e+001	-1.356829e+001	-9.405609e+001	1.358106e+002	-5.204594e+001	7.095481e+001
6.151328e+006	-4.429275e+001	-9.070012e+001	-3.081212e+001	-1.349408e+001	-9.904930e+001	-5.360615e+001	-5.210806e+001	7.163186e+001
6.151367e+006	-4.427782e+001	-9.082991e+001	-3.081519e+001	-1.350101e+001	-9.116603e+001	1.340229e+002	-5.217388e+001	7.045081e+001
6.151406e+006	-4.428273e+001	-9.085760e+001	-3.081575e+001	-1.351294e+001	-8.810446e+001	-1.375101e+002	-5.196643e+001	7.071911e+001
6.151445e+006	-4.430889e+001	-9.104525e+001	-3.082307e+001	-1.353757e+001	-8.919967e+001	2.952754e+001	-5.208767e+001	7.051383e+001
6.151484e+006	-4.427287e+001	-9.100826e+001	-3.081225e+001	-1.355053e+001	-1.156552e+002	-1.343871e+002	-5.204305e+001	7.161536e+001
6.151523e+006	-4.427038e+001	-9.091794e+001	-3.082151e+001	-1.353234e+001	-9.449479e+001	-6.650895e+000	-5.202647e+001	7.128117e+001
6.151563e+006	-4.430472e+001	-9.093243e+001	-3.082142e+001	-1.351036e+001	-8.656795e+001	1.662347e+002	-5.223200e+001	7.138550e+001
6.151602e+006	-4.430664e+001	-9.109756e+001	-3.081349e+001	-1.350104e+001	-9.489903e+001	1.007577e+002	-5.205265e+001	7.130750e+001
6.151641e+006	-4.427665e+001	-9.085498e+001	-3.080573e+001	-1.350977e+001	-1.001343e+002	1.715913e+002	-5.200659e+001	7.069405e+001
6.151680e+006	-4.432510e+001	-9.099464e+001	-3.080825e+001	-1.354866e+001	-9.267791e+001	6.202502e+001	-5.212557e+001	7.151599e+001
6.151719e+006	-4.428362e+001	-9.099873e+001	-3.081482e+001	-1.354794e+001	-9.754934e+001	1.346783e+002	-5.207685e+001	7.159163e+001
6.151758e+006	-4.428415e+001	-9.088659e+001	-3.081679e+001	-1.354691e+001	-9.416284e+001	-4.959426e+000	-5.209285e+001	7.090328e+001
6.151797e+006	-4.429868e+001	-9.094742e+001	-3.082011e+001	-1.355338e+001	-9.124033e+001	-1.521527e+002	-5.201045e+001	7.100815e+001
6.151836e+006	-4.430949e+001	-9.086706e+001	-3.082108e+001	-1.352049e+001	-9.174500e+001	9.292015e+001	-5.209589e+001	7.067123e+001
6.151875e+006	-4.426305e+001	-9.086124e+001	-3.081668e+001	-1.352276e+001	-9.571412e+001	-9.713884e+001	-5.206947e+001	7.057936e+001
6.151914e+006	-4.430495e+001	-9.132147e+001	-3.081103e+001	-1.349548e+001	-1.001609e+002	-1.654516e+002	-5.209458e+001	7.091012e+001
6.151953e+006	-4.431808e+001	-9.114419e+001	-3.081660e+001	-1.356267e+001	-9.240296e+001	-1.483751e+002	-5.218877e+001	7.137182e+001
6.151992e+006	-4.430940e+001	-9.086588e+001	-3.081167e+001	-1.350430e+001	-9.636890e+001	8.486522e+001	-5.201197e+001	7.116844e+001
6.152031e+006	-4.428040e+001	-9.092057e+001	-3.081777e+001	-1.353410e+001	-1.061029e+002	-9.190036e+001	-5.210339e+001	7.100437e+001
6.152070e+006	-4.425816e+001	-9.068993e+001	-3.081965e+001	-1.344969e+001	-9.230419e+001	-1.452036e+002	-5.208309e+001	7.083673e+001
6.152109e+006	-4.431671e+001	-9.122907e+001	-3.082169e+001	-1.347359e+001	-8.572083e+001	1.038081e+002	-5.206801e+001	7.010639e+001
6.152148e+006	-4.431130e+001	-9.098042e+001	-3.081160e+001	-1.350689e+001	-8.998551e+001	-1.707147e+002	-5.206166e+001	7.141690e+001
6.152188e+006	-4.429785e+001	-9.083463e+001	-3.079604e+001	-1.346488e+001	-9.635067e+001	1.668086e+001	-5.210055e+001	7.123553e+001
6.152227e+006	-4.430881e+001	-9.099653e+001	-3.081926e+001	-1.352352e+001	-9.139529e+001	1.009374e+002	-5.206807e+001	7.114601e+001
6.152266e+006	-4.434139e+001	-9.093250e+001	-3.080766e+001	-1.349254e+001	-9.579520e+001	5.831195e+001	-5.221886e+001	7.079309e+001
6.152305e+006	-4.427663e+001	-9.107106e+001	-3.082038e+001	-1.346411e+001	-8.892798e+001	-1.728208e+002	-5.209515e+001	7.146393e+001
6.152344e+006	-4.427252e+001	-9.092083e+001	-3.080907e+001	-1.353076e+001	-1.049275e+002	-1.786453e+002	-5.195055e+001	7.069510e+001
6.152383e+006	-4.430691e+001	-9.105167e+001	-3.082878e+001	-1.348783e+001	-8.364453e+001	1.090209e+002	-5.197187e+001	7.085068e+001
6.152422e+006	-4.429120e+001	-9.094049e+001	-3.081658e+001	-1.345358e+001	-9.400531e+001	7.167029e+001	-5.203889e+001	7.157047e+001
6.152461e+006	-4.426611e+001	-9.086221e+001	-3.081407e+001	-1.349296e+001	-8.864603e+001	1.026825e+002	-5.213529e+001	7.084621e+001
6.152500e+006	-4.429922e+001	-9.072734e+001	-3.081269e+001	-1.350842e+001	-9.815117e+001	1.090573e+002	-5.202895e+001	7.166607e+001
6.152539e+006	-4.427257e+001	-9.088423e+001	-3.081029e+001	-1.348769e+001	-9.141910e+001	1.451829e+002	-5.202829e+001	7.130504e+001
6.152578e+006	-4.429254e+001	-9.096095e+001	-3.081516e+001	-1.347998e+001	-9.949233e+001	3.840272e+001	-5.205947e+001	7.213724e+001
6.152617e+006	-4.428526e+001	-9.076948e+001	-3.080909e+001	-1.352485e+001	-9.203502e+001	9.005076e+001	-5.217555e+001	7.120197e+001
6.152656e+006	-4.427093e+001	-9.061256e+001	-3.080530e+001	-1.354164e+001	-9.541449e+001	5.900200e+001	-5.202754e+001	7.191083e+001
6.152695e+006	-4.429387e+001	-9.073433e+001	-3.081304e+001	-1.355729e+001	-9.627649e+001	7.385099e+001	-5.197677e+001	7.058908e+001
6.152734e+006	-4.431988e+001	-9.112567e+001	-3.081578e+001	-1.352458e+001	-9.174995e+001	-7.614216e+001	-5.213087e+001	7.085969e+001
6.152773e+006	-4.428064e+001	-9.130737e+001	-3.081857e+001	-1.354232e+001	-9.538524e+001	-1.729682e+002	-5.205001e+001	7.208866e+001
6.152813e+006	-4.429821e+001	-9.090459e+001	-3.081968e+001	-1.347002e+001	-9.889878e+001	1.243838e+002	-5.203481e+001	7.030095e+001
6.152852e+006	-4.431602e+001	-9.116095e+001	-3.081770e+001	-1.349745e+001	-8.852393e+001	1.556001e+002	-5.200854e+001	7.106206e+001
6.152891e+006	-4.433752e+001	-9.084107e+001	-3.081303e+001	-1.347328e+001	-9.268563e+001	1.441270e+002	-5.211693e+001	7.066006e+001
6.152930e+006	-4.429768e+001	-9.097415e+001	-3.081238e+001	-1.348277e+001	-9.555335e+001	5.538599e+001	-5.195191e+001	7.131462e+001
6.152969e+006	-4.431681e+001	-9.078280e+001	-3.082124e+001	-1.350298e+001	-1.067909e+002	-1.103823e+002	-5.210376e+001	6.995195e+001
6.153008e+006	-4.427596e+001	-9.122251e+001	-3.081141e+001	-1.358456e+001	-8.656741e+001	1.622870e+002	-5.216470e+001	7.143478e+001
6.153047e+006	-4.429207e+001	-9.072206e+001	-3.081963e+001	-1.357943e+001	-1.007016e+002	-9.812521e+001	-5.207764e+001	7.150815e+001
6.153086e+006	-4.430396e+001	-9.094390e+001	-3.082189e+001	-1.350061e+001	-9.586729e+001	-3.123556e+001	-5.205321e+001	7.131777e+001
6.153125e+006	-4.430145e+001	-9.105011e+001	-3.081636e+001	-1.352121e+001	-8.896322e+001	1.132581e+002	-5.206969e+001	7.108648e+001
6.153164e+006	-4.428674e+001	-9.089037e+001	-3.081037e+001	-1.352041e+001	-1.017021e+002	2.358495e+001	-5.211685e+001	7.101026e+001
6.153203e+006	-4.430484e+001	-9.082711e+001	-3.080567e+001	-1.349293e+001	-9.474433e+001	-1.761402e+002	-5.203856e+001	7.109488e+001
6.153242e+006	-4.428100e+001	-9.098050e+001	-3.082053e+001	-1.343642e+001	-1.022072e+002	-1.254461e+002	-5.209223e+001	7.165060e+001
6.153281e+006	-4.432669e+001	-9.062285e+001	-3.082358e+001	-1.355772e+001	-9.614766e+001	-1.702958e+002	-5.204093e+001	7.132301e+001
6.153320e+006	-4.431233e+001	-9.109862e+001	-3.081236e+001	-1.348084e+001	-9.691492e+001	-1.562815e+002	-5.205072e+001	7.041198e+001
6.153359e+006	-4.429262e+001	-9.096494e+001	-3.081842e+001	-1.353280e+001	-8.970306e+001	-1.468061e+002	-5.201094e+001	7.096889e+001
6.153398e+006	-4.428940e+001	-9.109788e+001	-3.080872e+001	-1.346169e+001	-9.135109e+001	1.220871e+002	-5.209498e+001	7.083838e+001
6.153438e+006	-4.433035e+001	-9.114110e+001	-3.081649e+001	-1.358000e+001	-9.817948e+001	2.646449e+001	-5.208982e+001	7.102211e+001
6.153477e+006	-4.428909e+001	-9.093219e+001	-3.080850e+001	-1.349810e+001	-9.040652e+001	3.687218e+001	-5.212704e+001	7.135515e+001
6.153516e+006	-4.431006e+001	-9.073932e+001	-3.082192e+001	-1.347574e+001	-1.084077e+002	1.084039e+002	-5.199082e+001	7.120735e+001
6.153555e+006	-4.435138e+001	-9.114581e+001	-3.082334e+001	-1.353058e+001	-1.126249e+002	3.178566e+001	-5.199776e+001	7.045790e+001
6.153594e+006	-4.429980e+001	-9.082833e+001	-3.080688e+001	-1.345793e+001	-9.646492e+001	5.217154e+001	-5.204739e+001	7.129016e+001
6.153633e+006	-4.430368e+001	-9.098126e+001	-3.080944e+001	-1.352030e+001	-9.826848e+001	5.643529e+001	-5.203710e+001	7.009447e+001
6.153672e+006	-4.424885e+001	-9.106214e+001	-3.081480e+001	-1.349138e+001	-1.048518e+002	-8.971612e+001	-5.210025e+001	7.108774e+001
6.153711e+006	-4.429880e+001	-9.100763e+001	-3.081344e+001	-1.347250e+001	-8.928338e+001	1.404019e+002	-5.206778e+001	7.117335e+001
6.153750e+006	-4.432861e+001	-9.075814e+001	-3.080895e+001	-1.352617e+001	-9.440859e+001	-5.220302e+001	-5.193120e+001	7.065804e+001
6.153789e+006	-4.431583e+001	-9.110138e+001	-3.082154e+001	-1.346589e+001	-9.470791e+001	3.700517e+001	-5.202270e+001	7.132345e+001
6.153828e+006	-4.433351e+001	-9.098670e+001	-3.080876e+001	-1.344843e+001	-9.344668e+001	1.403961e+002	-5.205951e+001	7.098657e+001
6.153867e+006	-4.428616e+001	-9.109973e+001	-3.080914e+001	-1.352159e+001	-8.861660e+001	1.198578e+002	-5.222973e+001	7.096851e+001
6.153906e+006	-4.429806e+001	-9.109379e+001	-3.080972e+001	-1.348675e+001	-9.398277e+001	1.133872e+002	-5.201822e+001	7.065080e+001
6.153945e+006	-4.430871e+001	-9.081506e+001	-3.081421e+001	-1.350780e+001	-9.372010e+001	-8.413294e+001	-5.204883e+001	7.094794e+001
6.153984e+006	-4.430886e+001	-9.107297e+001	-3.081484e+001	-1.354115e+001	-1.047012e+002	1.623243e+002	-5.214046e+001	7.105579e+001
6.154023e+006	-4.429182e+001	-9.084603e+001	-3.081811e+001	-1.353821e+001	-9.649333e+001	1.057486e+002	-5.202573e+001	7.126788e+001
6.154063e+006	-4.429156e+001	-9.089973e+001	-3.081463e+001	-1.356134e+001	-9.136998e+001	-7.858345e+001	-5.215838e+001	7.103864e+001
6.154102e+006	-4.427505e+001	-9.095606e+001	-3.082019e+001	-1.349604e+001	-8.989296e+001	-1.432344e+002	-5.212914e+001	7.199161e+001
6.154141e+006	-4.427225e+001	-9.050198e+001	-3.081503e+001	-1.352893e+001	-1.024304e+002	2.634952e+000	-5.209845e+001	7.116211e+001
6.154180e+006	-4.433283e+001	-9.066586e+001	-3.081926e+001	-1.348912e+001	-9.785185e+001	1.512032e+002	-5.204397e+001	7.125487e+001
6.154219e+006	-4.430736e+001	-9.090813e+001	-3.082091e+001	-1.358903e+001	-9.678310e+001	-1.282223e+002	-5.213691e+001	7.089332e+001
6.154258e+006	-4.425469e+001	-9.100223e+001	-3.080650e+001	-1.347988e+001	-8.868630e+001	1.568878e+002	-5.202555e+001	7.102461e+001
6.154297e+006	-4.434829e+001	-9.067165e+001	-3.080868e+001	-1.350699e+001	-9.264305e+001	9.857209e+001	-5.202189e+001	7.083191e+001
6.154336e+006	-4.431656e+001	-9.099633e+001	-3.081572e+001	-1.350937e+001	-9.701033e+001	9.337806e+001	-5.201964e+001	7.201948e+001
6.154375e+006	-4.432055e+001	-9.075212e+001	-3.081600e+001	-1.348822e+001	-8.653905e+001	5.775996e+001	-5.217501e+001	7.151793e+001
6.154414e+006	-4.430068e+001	-9.114962e+001	-3.081634e+001	-1.350667e+001	-9.479852e+001	3.677343e+001	-5.207708e+001	7.061487e+001
6.154453e+006	-4.430341e+001	-9.082354e+001	-3.082161e+001	-1.348005e+001	-9.653399e+001	3.045213e+001	-5.190951e+001	7.153898e+001
6.154492e+006	-4.434645e+001	-9.099135e+001	-3.081921e+001	-1.349734e+001	-1.057683e+002	-1.647641e+002	-5.220287e+001	7.156748e+001
6.154531e+006	-4.429570e+001	-9.086380e+001	-3.080706e+001	-1.350275e+001	-9.151217e+001	2.108751e+001	-5.216755e+001	7.152072e+001
6.154570e+006	-4.434418e+001	-9.091212e+001	-3.081563e+001	-1.351900e+001	-9.240368e+001	1.169826e+001	-5.209055e+001	7.162053e+001
6.154609e+006	-4.431025e+001	-9.087426e+001	-3.080960e+001	-1.349354e+001	-9.424581e+001	-7.430133e+001	-5.197974e+001	7.152987e+001
6.154648e+006	-4.424618e+001	-9.091861e+001	-3.080548e+001	-1.351624e+001	-1.036729e+002	-1.304782e+002	-5.203440e+001	7.161752e+001
6.154688e+006	-4.430371e+001	-9.113348e+001	-3.080640e+001	-1.352397e+001	-8.620699e+001	8.375742e+001	-5.196784e+001	7.085824e+001
6.154727e+006	-4.428696e+001	-9.129351e+001	-3.081143e+001	-1.348529e+001	-9.227852e+001	-9.972506e+001	-5.212752e+001	7.104022e+001
6.154766e+006	-4.431367e+001	-9.101856e+001	-3.080630e+001	-1.346236e+001	-8.958763e+001	9.244547e+001	-5.216233e+001	7.104285e+001
6.154805e+006	-4.431138e+001	-9.088390e+001	-3.080080e+001	-1.351397e+001	-1.037211e+002	-6.814159e+001	-5.204883e+001	7.080734e+001
6.154844e+006	-4.429823e+001	-9.081551e+001	-3.080870e+001	-1.350928e+001	-1.144785e+002	1.291214e+002	-5.205019e+001	7.171494e+001
6.154883e+006	-4.428239e+001	-9.123933e+001	-3.082038e+001	-1.354607e+001	-1.025112e+002	1.373608e+002	-5.212438e+001	7.173620e+001
6.154922e+006	-4.428943e+001	-9.147531e+001	-3.081029e+001	-1.355752e+001	-9.395392e+001	4.386670e+001	-5.208611e+001	7.143893e+001
6.154961e+006	-4.428906e+001	-9.081295e+001	-3.081565e+001	-1.353773e+001	-9.250036e+001	4.601129e+001	-5.188049e+001	7.121937e+001
6.155000e+006	-4.434862e+001	-9.129491e+001	-3.081150e+001	-1.356547e+001	-9.040709e+001	9.393845e+001	-5.205807e+001	7.176909e+001
6.155039e+006	-4.432429e+001	-9.098397e+001	-3.081323e+001	-1.351164e+001	-9.714780e+001	1.586118e+002	-5.196452e+001	7.110436e+001
6.155078e+006	-4.427528e+001	-9.105383e+001	-3.080689e+001	-1.349950e+001	-1.043351e+002	-1.537623e+002	-5.207556e+001	7.098443e+001
6.155117e+006	-4.426388e+001	-9.095787e+001	-3.081214e+001	-1.343502e+001	-9.318409e+001	-1.547495e+002	-5.220719e+001	7.102939e+001
6.155156e+006	-4.433410e+001	-9.107845e+001	-3.081441e+001	-1.348720e+001	-8.895700e+001	1.363588e+002	-5.203286e+001	7.140486e+001
6.155195e+006	-4.429832e+001	-9.100482e+001	-3.081026e+001	-1.353449e+001	-9.620439e+001	-1.268672e+001	-5.207444e+001	7.097961e+001
6.155234e+006	-4.430823e+001	-9.082542e+001	-3.081146e+001	-1.355486e+001	-1.017792e+002	1.434563e+002	-5.196131e+001	7.078903e+001
6.155273e+006	-4.430588e+001	-9.116173e+001	-3.081263e+001	-1.348283e+001	-9.116110e+001	2.236257e+001	-5.213554e+001	7.113013e+001
6.155313e+006	-4.430794e+001	-9.099223e+001	-3.080123e+001	-1.363928e+001	-9.276717e+001	3.379958e+001	-5.218106e+001	7.135580e+001
6.155352e+006	-4.431725e+001	-9.094686e+001	-3.080015e+001	-1.357832e+001	-9.846181e+001	-9.689380e+001	-5.209294e+001	7.103483e+001
6.155391e+006	-4.428312e+001	-9.093448e+001	-3.080675e+001	-1.351521e+001	-8.652570e+001	-6.418588e+001	-5.223745e+001	7.074653e+001
6.155430e+006	-4.434489e+001	-9.111197e+001	-3.081103e+001	-1.352360e+001	-1.103603e+002	1.305663e+002	-5.201913e+001	7.121235e+001
6.155469e+006	-4.432818e+001	-9.108056e+001	-3.080493e+001	-1.356312e+001	-9.440590e+001	-1.572289e+002	-5.204967e+001	7.147033e+001
6.155508e+006	-4.431951e+001	-9.067144e+001	-3.080901e+001	-1.352006e+001	-9.859995e+001	9.675133e+001	-5.201482e+001	7.091493e+001
6.155547e+006	-4.430406e+001	-9.107466e+001	-3.081334e+001	-1.354080e+001	-9.428054e+001	-1.479626e+002	-5.210199e+001	7.204390e+001
6.155586e+006	-4.430299e+001	-9.068019e+001	-3.081281e+001	-1.352104e+001	-9.363496e+001	1.024509e+002	-5.198428e+001	7.131464e+001
6.155625e+006	-4.431210e+001	-9.093899e+001	-3.080862e+001	-1.347844e+001	-1.095979e+002	-1.763025e+002	-5.206079e+001	7.073287e+001
6.155664e+006	-4.431118e+001	-9.107376e+001	-3.081487e+001	-1.358322e+001	-8.994248e+001	-1.491328e+001	-5.210199e+001	7.117580e+001
6.155703e+006	-4.433686e+001	-9.067633e+001	-3.080642e+001	-1.348977e+001	-9.125531e+001	-7.484652e+001	-5.213147e+001	7.075069e+001
6.155742e+006	-4.433194e+001	-9.078765e+001	-3.080137e+001	-1.349113e+001	-9.359793e+001	6.230979e+001	-5.201040e+001	7.082971e+001
