# Hz S dB R 50.000
3.288594e+06	-2.645446e+01	1.720630e+02	-3.113509e+01	-3.981730e+00	-9.083586e+01	-2.402317e+00	-2.641456e+01	1.667862e+02
3.288625e+06	-2.645363e+01	1.720692e+02	-3.113643e+01	-3.973525e+00	-9.084641e+01	2.181754e+00	-2.641435e+01	1.667916e+02
3.288656e+06	-2.645281e+01	1.720754e+02	-3.113778e+01	-3.965317e+00	-9.080156e+01	6.747722e+00	-2.641414e+01	1.667971e+02
3.288688e+06	-2.645198e+01	1.720816e+02	-3.113912e+01	-3.957107e+00	-9.070299e+01	1.123876e+01	-2.641393e+01	1.668025e+02
3.288719e+06	-2.645116e+01	1.720878e+02	-3.114047e+01	-3.948894e+00	-9.055426e+01	1.560349e+01	-2.641372e+01	1.668080e+02
3.288750e+06	-2.645034e+01	1.720939e+02	-3.114179e+01	-3.940779e+00	-9.037520e+01	1.978801e+01	-2.641351e+01	1.668134e+02
3.288782e+06	-2.645050e+01	1.720842e+02	-3.114036e+01	-3.945155e+00	-9.217114e+01	2.313106e+01	-2.641299e+01	1.668131e+02
3.288813e+06	-2.645065e+01	1.720744e+02	-3.113894e+01	-3.949530e+00	-9.437703e+01	2.843511e+01	-2.641248e+01	1.668128e+02
3.288844e+06	-2.645080e+01	1.720647e+02	-3.113751e+01	-3.953903e+00	-9.715544e+01	3.787943e+01	-2.641197e+01	1.668126e+02
3.288875e+06	-2.645096e+01	1.720549e+02	-3.113608e+01	-3.958275e+00	-1.005012e+02	5.727650e+01	-2.641145e+01	1.668123e+02
3.288906e+06	-2.645110e+01	1.720453e+02	-3.113468e+01	-3.962646e+00	-1.026561e+02	9.381238e+01	-2.641096e+01	1.668121e+02
3.288938e+06	-2.645062e+01	1.720468e+02	-3.113475e+01	-3.967012e+00	-9.892224e+01	3.129560e+01	-2.641164e+01	1.668162e+02
3.288969e+06	-2.645014e+01	1.720482e+02	-3.113482e+01	-3.971378e+00	-9.384056e+01	1.254037e+01	-2.641231e+01	1.668204e+02
3.289000e+06	-2.644966e+01	1.720496e+02	-3.113488e+01	-3.975744e+00	-9.041566e+01	5.604985e+00	-2.641299e+01	1.668245e+02
3.289032e+06	-2.644918e+01	1.720511e+02	-3.113495e+01	-3.980111e+00	-8.791728e+01	2.104603e+00	-2.641366e+01	1.668287e+02
3.289063e+06	-2.644870e+01	1.720525e+02	-3.113502e+01	-3.984477e+00	-8.596378e+01	8.811128e-03	-2.641433e+01	1.668329e+02
3.289094e+06	-2.644885e+01	1.720541e+02	-3.113569e+01	-3.989858e+00	-8.675675e+01	2.507968e+00	-2.641425e+01	1.668191e+02
3.289125e+06	-2.644900e+01	1.720557e+02	-3.113636e+01	-3.995249e+00	-8.763128e+01	5.582247e+00	-2.641416e+01	1.668051e+02
3.289156e+06	-2.644914e+01	1.720574e+02	-3.113703e+01	-4.000640e+00	-8.856937e+01	9.370878e+00	-2.641407e+01	1.667912e+02
3.289188e+06	-2.644929e+01	1.720590e+02	-3.113771e+01	-4.006032e+00	-8.956763e+01	1.410760e+01	-2.641398e+01	1.667772e+02
3.289219e+06	-2.644944e+01	1.720606e+02	-3.113838e+01	-4.011425e+00	-9.061024e+01	2.010302e+01	-2.641389e+01	1.667633e+02
3.289250e+06	-2.644982e+01	1.720595e+02	-3.113890e+01	-4.003129e+00	-9.110698e+01	1.948807e+01	-2.641408e+01	1.667724e+02
3.289282e+06	-2.645019e+01	1.720584e+02	-3.113943e+01	-3.994833e+00	-9.163266e+01	1.879630e+01	-2.641426e+01	1.667814e+02
3.289313e+06	-2.645057e+01	1.720572e+02	-3.113995e+01	-3.986535e+00	-9.219068e+01	1.801259e+01	-2.641445e+01	1.667905e+02
3.289344e+06	-2.645095e+01	1.720561e+02	-3.114047e+01	-3.978236e+00	-9.278505e+01	1.711769e+01	-2.641464e+01	1.667995e+02
3.289375e+06	-2.645132e+01	1.720550e+02	-3.114099e+01	-3.969986e+00	-9.339962e+01	1.616977e+01	-2.641482e+01	1.668085e+02
3.289406e+06	-2.645100e+01	1.720499e+02	-3.114059e+01	-3.967916e+00	-9.156749e+01	2.369298e+01	-2.641422e+01	1.668118e+02
3.289438e+06	-2.645068e+01	1.720448e+02	-3.114020e+01	-3.965846e+00	-8.997064e+01	2.875438e+01	-2.641362e+01	1.668150e+02
3.289469e+06	-2.645037e+01	1.720398e+02	-3.113980e+01	-3.963776e+00	-8.858114e+01	3.234088e+01	-2.641302e+01	1.668183e+02
3.289500e+06	-2.645005e+01	1.720347e+02	-3.113941e+01	-3.961706e+00	-8.736163e+01	3.499606e+01	-2.641242e+01	1.668215e+02
3.289532e+06	-2.644975e+01	1.720299e+02	-3.113903e+01	-3.959822e+00	-8.632512e+01	3.701945e+01	-2.641183e+01	1.668247e+02
3.289563e+06	-2.645033e+01	1.720400e+02	-3.113958e+01	-3.969321e+00	-8.835688e+01	3.823596e+01	-2.641170e+01	1.668218e+02
3.289594e+06	-2.645090e+01	1.720501e+02	-3.114013e+01	-3.978822e+00	-9.100475e+01	4.032122e+01	-2.641158e+01	1.668189e+02
3.289625e+06	-2.645148e+01	1.720602e+02	-3.114068e+01	-3.988323e+00	-9.479516e+01	4.470049e+01	-2.641145e+01	1.668161e+02
3.289656e+06	-2.645206e+01	1.720703e+02	-3.114123e+01	-3.997826e+00	-1.013086e+02	5.918172e+01	-2.641133e+01	1.668132e+02
3.289688e+06	-2.645264e+01	1.720804e+02	-3.114178e+01	-4.007330e+00	-1.067963e+02	1.545260e+02	-2.641120e+01	1.668103e+02
3.289719e+06	-2.645227e+01	1.720769e+02	-3.114128e+01	-4.000552e+00	-1.055493e+02	1.754053e+02	-2.641127e+01	1.668148e+02
3.289750e+06	-2.645189e+01	1.720732e+02	-3.114077e+01	-3.993644e+00	-1.038375e+02	-1.702403e+02	-2.641133e+01	1.668193e+02
3.289782e+06	-2.645151e+01	1.720696e+02	-3.114027e+01	-3.986737e+00	-1.020990e+02	-1.606475e+02	-2.641140e+01	1.668238e+02
3.289813e+06	-2.645114e+01	1.720659e+02	-3.113977e+01	-3.979830e+00	-1.005109e+02	-1.541233e+02	-2.641146e+01	1.668283e+02
3.289844e+06	-2.645076e+01	1.720623e+02	-3.113926e+01	-3.972924e+00	-9.910047e+01	-1.495088e+02	-2.641153e+01	1.668328e+02
3.289875e+06	-2.645109e+01	1.720591e+02	-3.113785e+01	-3.988592e+00	-9.617038e+01	-1.417187e+02	-2.641132e+01	1.668341e+02
3.289906e+06	-2.645141e+01	1.720559e+02	-3.113644e+01	-4.004255e+00	-9.391471e+01	-1.374399e+02	-2.641110e+01	1.668353e+02
3.289938e+06	-2.645174e+01	1.720526e+02	-3.113503e+01	-4.019913e+00	-9.210104e+01	-1.347631e+02	-2.641089e+01	1.668366e+02
3.289969e+06	-2.645207e+01	1.720494e+02	-3.113362e+01	-4.035565e+00	-9.059056e+01	-1.329379e+02	-2.641067e+01	1.668378e+02
3.290000e+06	-2.645239e+01	1.720462e+02	-3.113221e+01	-4.051116e+00	-8.931138e+01	-1.316208e+02	-2.641047e+01	1.668390e+02
3.290032e+06	-2.645179e+01	1.720474e+02	-3.113122e+01	-4.054571e+00	-8.969618e+01	-1.310488e+02	-2.641142e+01	1.668316e+02
3.290063e+06	-2.645120e+01	1.720485e+02	-3.113022e+01	-4.058026e+00	-9.009782e+01	-1.304225e+02	-2.641237e+01	1.668241e+02
3.290094e+06	-2.645061e+01	1.720496e+02	-3.112923e+01	-4.061480e+00	-9.051773e+01	-1.297341e+02	-2.641333e+01	1.668166e+02
3.290125e+06	-2.645002e+01	1.720508e+02	-3.112824e+01	-4.064933e+00	-9.095753e+01	-1.289741e+02	-2.641428e+01	1.668092e+02
3.290156e+06	-2.644945e+01	1.720520e+02	-3.112731e+01	-4.068193e+00	-9.144319e+01	-1.278743e+02	-2.641521e+01	1.668018e+02
3.290188e+06	-2.644983e+01	1.720576e+02	-3.113012e+01	-4.059636e+00	-9.309457e+01	-1.068529e+02	-2.641469e+01	1.668020e+02
3.290219e+06	-2.645022e+01	1.720632e+02	-3.113294e+01	-4.051073e+00	-9.333101e+01	-8.037812e+01	-2.641418e+01	1.668022e+02
3.290250e+06	-2.645061e+01	1.720688e+02	-3.113576e+01	-4.042505e+00	-9.194286e+01	-5.739604e+01	-2.641366e+01	1.668024e+02
3.290282e+06	-2.645100e+01	1.720744e+02	-3.113858e+01	-4.033931e+00	-8.993487e+01	-4.208319e+01	-2.641314e+01	1.668026e+02
3.290313e+06	-2.645139e+01	1.720801e+02	-3.114140e+01	-4.025352e+00	-8.798112e+01	-3.244856e+01	-2.641262e+01	1.668028e+02
3.290344e+06	-2.645071e+01	1.720754e+02	-3.114047e+01	-4.030147e+00	-8.919245e+01	-2.631332e+01	-2.641333e+01	1.668107e+02
3.290375e+06	-2.645003e+01	1.720708e+02	-3.113950e+01	-4.035049e+00	-9.047749e+01	-1.812505e+01	-2.641404e+01	1.668187e+02
3.290406e+06	-2.644935e+01	1.720661e+02	-3.113854e+01	-4.039950e+00	-9.170491e+01	-7.160544e+00	-2.641475e+01	1.668267e+02
3.290438e+06	-2.644866e+01	1.720614e+02	-3.113758e+01	-4.044850e+00	-9.265464e+01	6.984794e+00	-2.641547e+01	1.668346e+02
3.290469e+06	-2.644798e+01	1.720567e+02	-3.113662e+01	-4.049749e+00	-9.302830e+01	2.351992e+01	-2.641618e+01	1.668426e+02
3.290500e+06	-2.644984e+01	1.720563e+02	-3.113641e+01	-4.033302e+00	-9.298001e+01	4.284160e+01	-2.641527e+01	1.668314e+02
3.290532e+06	-2.645169e+01	1.720559e+02	-3.113620e+01	-4.016856e+00	-9.206275e+01	6.006279e+01	-2.641436e+01	1.668202e+02
3.290563e+06	-2.645355e+01	1.720554e+02	-3.113599e+01	-4.000410e+00	-9.068973e+01	7.320923e+01	-2.641345e+01	1.668091e+02
3.290594e+06	-2.645541e+01	1.720550e+02	-3.113577e+01	-3.983965e+00	-8.921820e+01	8.264392e+01	-2.641253e+01	1.667979e+02
3.290625e+06	-2.645724e+01	1.720546e+02	-3.113556e+01	-3.967664e+00	-8.783719e+01	8.935558e+01	-2.641163e+01	1.667869e+02
3.290656e+06	-2.645632e+01	1.720603e+02	-3.113529e+01	-3.969004e+00	-8.951208e+01	8.887716e+01	-2.641187e+01	1.668003e+02
3.290688e+06	-2.645539e+01	1.720660e+02	-3.113502e+01	-3.970345e+00	-9.158780e+01	8.814036e+01	-2.641210e+01	1.668137e+02
3.290719e+06	-2.645447e+01	1.720717e+02	-3.113475e+01	-3.971686e+00	-9.431733e+01	8.685912e+01	-2.641233e+01	1.668271e+02
3.290750e+06	-2.645354e+01	1.720773e+02	-3.113448e+01	-3.973026e+00	-9.830497e+01	8.408180e+01	-2.641256e+01	1.668405e+02
3.290782e+06	-2.645264e+01	1.720829e+02	-3.113418e+01	-3.974177e+00	-1.055025e+02	7.302680e+01	-2.641279e+01	1.668537e+02
3.290813e+06	-2.645341e+01	1.720815e+02	-3.113196e+01	-3.963662e+00	-1.009365e+02	2.970074e+01	-2.641278e+01	1.668554e+02
3.290844e+06	-2.645418e+01	1.720802e+02	-3.112974e+01	-3.953153e+00	-9.673810e+01	1.521443e+01	-2.641276e+01	1.668570e+02
3.290875e+06	-2.645495e+01	1.720789e+02	-3.112752e+01	-3.942649e+00	-9.374537e+01	8.939150e+00	-2.641275e+01	1.668587e+02
3.290906e+06	-2.645572e+01	1.720775e+02	-3.112530e+01	-3.932150e+00	-9.147975e+01	5.518526e+00	-2.641273e+01	1.668603e+02
3.290938e+06	-2.645649e+01	1.720762e+02	-3.112308e+01	-3.921657e+00	-8.966877e+01	3.379983e+00	-2.641272e+01	1.668620e+02
3.290969e+06	-2.645497e+01	1.720683e+02	-3.112607e+01	-3.934978e+00	-9.033425e+01	1.054162e+01	-2.641257e+01	1.668531e+02
3.291000e+06	-2.645343e+01	1.720604e+02	-3.112910e+01	-3.948501e+00	-9.090342e+01	1.890024e+01	-2.641241e+01	1.668441e+02
3.291032e+06	-2.645189e+01	1.720525e+02	-3.113213e+01	-3.962034e+00	-9.129156e+01	2.824104e+01	-2.641226e+01	1.668351e+02
3.291063e+06	-2.645035e+01	1.720445e+02	-3.113517e+01	-3.975576e+00	-9.144110e+01	3.818419e+01	-2.641210e+01	1.668261e+02
3.291094e+06	-2.644881e+01	1.720366e+02	-3.113820e+01	-3.989127e+00	-9.132668e+01	4.816805e+01	-2.641195e+01	1.668171e+02
3.291125e+06	-2.644892e+01	1.720469e+02	-3.113731e+01	-3.988661e+00	-9.333126e+01	5.448043e+01	-2.641358e+01	1.668204e+02
3.291156e+06	-2.644902e+01	1.720572e+02	-3.113643e+01	-3.988195e+00	-9.570633e+01	6.496921e+01	-2.641521e+01	1.668236e+02
3.291188e+06	-2.644913e+01	1.720675e+02	-3.113554e+01	-3.987729e+00	-9.824156e+01	8.365617e+01	-2.641685e+01	1.668269e+02
3.291219e+06	-2.644924e+01	1.720779e+02	-3.113466e+01	-3.987263e+00	-9.967224e+01	1.140411e+02	-2.641848e+01	1.668302e+02
3.291250e+06	-2.644934e+01	1.720881e+02	-3.113375e+01	-3.986817e+00	-9.848984e+01	1.448202e+02	-2.642009e+01	1.668335e+02
3.291282e+06	-2.644883e+01	1.720856e+02	-3.112949e+01	-3.988787e+00	-9.836659e+01	1.106099e+02	-2.641899e+01	1.668412e+02
3.291313e+06	-2.644831e+01	1.720830e+02	-3.112523e+01	-3.990755e+00	-9.603483e+01	8.553485e+01	-2.641789e+01	1.668489e+02
3.291344e+06	-2.644780e+01	1.720805e+02	-3.112098e+01	-3.992722e+00	-9.344716e+01	7.161622e+01	-2.641679e+01	1.668567e+02
3.291375e+06	-2.644729e+01	1.720780e+02	-3.111673e+01	-3.994686e+00	-9.122302e+01	6.367076e+01	-2.641569e+01	1.668644e+02
3.291406e+06	-2.644680e+01	1.720755e+02	-3.111260e+01	-3.996623e+00	-8.941983e+01	5.879649e+01	-2.641460e+01	1.668718e+02
3.291438e+06	-2.644745e+01	1.720778e+02	-3.111566e+01	-3.996995e+00	-9.105434e+01	6.031189e+01	-2.641392e+01	1.668617e+02
3.291469e+06	-2.644809e+01	1.720801e+02	-3.111873e+01	-3.997367e+00	-9.305779e+01	6.261594e+01	-2.641324e+01	1.668515e+02
3.291500e+06	-2.644874e+01	1.720823e+02	-3.112180e+01	-3.997739e+00	-9.563427e+01	6.652171e+01	-2.641256e+01	1.668414e+02
3.291532e+06	-2.644939e+01	1.720846e+02	-3.112487e+01	-3.998112e+00	-9.918882e+01	7.445239e+01	-2.641188e+01	1.668312e+02
3.291563e+06	-2.645003e+01	1.720869e+02	-3.112794e+01	-3.998485e+00	-1.043891e+02	9.666497e+01	-2.641121e+01	1.668211e+02
3.291594e+06	-2.645132e+01	1.720829e+02	-3.113022e+01	-4.001809e+00	-1.088599e+02	7.916646e+01	-2.641233e+01	1.668284e+02
3.291625e+06	-2.645261e+01	1.720790e+02	-3.113250e+01	-4.005159e+00	-1.125014e+02	2.785907e+01	-2.641348e+01	1.668358e+02
3.291656e+06	-2.645391e+01	1.720750e+02	-3.113478e+01	-4.008511e+00	-1.085047e+02	-2.066521e+01	-2.641462e+01	1.668432e+02
3.291688e+06	-2.645520e+01	1.720710e+02	-3.113706e+01	-4.011864e+00	-1.041491e+02	-3.730893e+01	-2.641577e+01	1.668507e+02
3.291719e+06	-2.645649e+01	1.720670e+02	-3.113934e+01	-4.015219e+00	-1.010406e+02	-4.427505e+01	-2.641691e+01	1.668581e+02
3.291750e+06	-2.645569e+01	1.720671e+02	-3.113868e+01	-4.021555e+00	-1.009239e+02	-5.388558e+01	-2.641599e+01	1.668600e+02
3.291782e+06	-2.645489e+01	1.720671e+02	-3.113802e+01	-4.027890e+00	-1.005806e+02	-6.299610e+01	-2.641507e+01	1.668619e+02
3.291813e+06	-2.645409e+01	1.720672e+02	-3.113736e+01	-4.034224e+00	-1.000594e+02	-7.123721e+01	-2.641415e+01	1.668638e+02
3.291844e+06	-2.645328e+01	1.720672e+02	-3.113670e+01	-4.040557e+00	-9.941946e+01	-7.844118e+01	-2.641322e+01	1.668656e+02
3.291875e+06	-2.645249e+01	1.720673e+02	-3.113605e+01	-4.046736e+00	-9.875976e+01	-8.475618e+01	-2.641232e+01	1.668674e+02
3.291906e+06	-2.645281e+01	1.720615e+02	-3.113668e+01	-4.033986e+00	-1.032079e+02	-1.301741e+02	-2.641322e+01	1.668566e+02
3.291938e+06	-2.645312e+01	1.720557e+02	-3.113730e+01	-4.021234e+00	-9.998704e+01	1.747071e+02	-2.641412e+01	1.668459e+02
3.291969e+06	-2.645344e+01	1.720499e+02	-3.113793e+01	-4.008481e+00	-9.536670e+01	1.552800e+02	-2.641502e+01	1.668351e+02
3.292000e+06	-2.645375e+01	1.720441e+02	-3.113855e+01	-3.995725e+00	-9.208487e+01	1.475843e+02	-2.641592e+01	1.668243e+02
3.292032e+06	-2.645406e+01	1.720384e+02	-3.113914e+01	-3.983384e+00	-8.968585e+01	1.436087e+02	-2.641680e+01	1.668137e+02
3.292063e+06	-2.645419e+01	1.720405e+02	-3.113790e+01	-3.996624e+00	-8.995916e+01	1.404439e+02	-2.641645e+01	1.668137e+02
3.292094e+06	-2.645432e+01	1.720426e+02	-3.113665e+01	-4.009861e+00	-9.021227e+01	1.370811e+02	-2.641610e+01	1.668137e+02
3.292125e+06	-2.645444e+01	1.720446e+02	-3.113541e+01	-4.023094e+00	-9.044039e+01	1.335265e+02	-2.641574e+01	1.668138e+02
3.292156e+06	-2.645457e+01	1.720467e+02	-3.113416e+01	-4.036323e+00	-9.063861e+01	1.297929e+02	-2.641539e+01	1.668138e+02
3.292188e+06	-2.645470e+01	1.720488e+02	-3.113292e+01	-4.049548e+00	-9.080211e+01	1.259002e+02	-2.641503e+01	1.668138e+02
3.292219e+06	-2.645358e+01	1.720491e+02	-3.113282e+01	-4.034390e+00	-9.283759e+01	1.320932e+02	-2.641466e+01	1.668203e+02
3.292250e+06	-2.645246e+01	1.720495e+02	-3.113272e+01	-4.019003e+00	-9.528746e+01	1.426473e+02	-2.641430e+01	1.668268e+02
3.292282e+06	-2.645133e+01	1.720498e+02	-3.113263e+01	-4.003616e+00	-9.792986e+01	1.618672e+02	-2.641393e+01	1.668333e+02
3.292313e+06	-2.645021e+01	1.720502e+02	-3.113254e+01	-3.988230e+00	-9.937151e+01	-1.663425e+02	-2.641356e+01	1.668399e+02
3.292344e+06	-2.644908e+01	1.720505e+02	-3.113244e+01	-3.972844e+00	-9.797297e+01	-1.343754e+02	-2.641319e+01	1.668464e+02
3.292375e+06	-2.644933e+01	1.720486e+02	-3.113136e+01	-3.970422e+00	-1.084359e+02	-6.489115e+01	-2.641465e+01	1.668429e+02
3.292406e+06	-2.644958e+01	1.720467e+02	-3.113028e+01	-3.968001e+00	-9.824512e+01	1.021103e+01	-2.641611e+01	1.668393e+02
3.292438e+06	-2.644984e+01	1.720447e+02	-3.112921e+01	-3.965580e+00	-9.247300e+01	1.905925e+01	-2.641758e+01	1.668358e+02
3.292469e+06	-2.645009e+01	1.720428e+02	-3.112813e+01	-3.963160e+00	-8.898767e+01	2.209636e+01	-2.641904e+01	1.668322e+02
3.292500e+06	-2.645034e+01	1.720410e+02	-3.112707e+01	-3.960884e+00	-8.652615e+01	2.364091e+01	-2.642049e+01	1.668288e+02
3.292532e+06	-2.645092e+01	1.720511e+02	-3.112832e+01	-3.976360e+00	-8.797408e+01	2.774405e+01	-2.641991e+01	1.668352e+02
3.292563e+06	-2.645150e+01	1.720612e+02	-3.112957e+01	-3.991841e+00	-8.963482e+01	3.361812e+01	-2.641933e+01	1.668416e+02
3.292594e+06	-2.645207e+01	1.720713e+02	-3.113082e+01	-4.007326e+00	-9.151626e+01	4.246961e+01	-2.641875e+01	1.668480e+02
3.292625e+06	-2.645264e+01	1.720814e+02	-3.113206e+01	-4.022816e+00	-9.349578e+01	5.635620e+01	-2.641817e+01	1.668544e+02
3.292656e+06	-2.645320e+01	1.720913e+02	-3.113329e+01	-4.038033e+00	-9.498858e+01	7.711844e+01	-2.641758e+01	1.668607e+02
3.292688e+06	-2.645253e+01	1.720877e+02	-3.113354e+01	-4.036229e+00	-9.291366e+01	7.934437e+01	-2.641660e+01	1.668610e+02
3.292719e+06	-2.645187e+01	1.720841e+02	-3.113378e+01	-4.034426e+00	-9.123306e+01	8.078872e+01	-2.641562e+01	1.668614e+02
3.292750e+06	-2.645120e+01	1.720805e+02	-3.113402e+01	-4.032622e+00	-8.982222e+01	8.180048e+01	-2.641463e+01	1.668617e+02
3.292782e+06	-2.645053e+01	1.720769e+02	-3.113427e+01	-4.030818e+00	-8.860710e+01	8.254825e+01	-2.641365e+01	1.668621e+02
3.292813e+06	-2.644987e+01	1.720732e+02	-3.113451e+01	-4.029013e+00	-8.754029e+01	8.312325e+01	-2.641267e+01	1.668624e+02
3.292844e+06	-2.644906e+01	1.720819e+02	-3.113481e+01	-4.037004e+00	-9.000218e+01	7.811455e+01	-2.641316e+01	1.668639e+02
3.292875e+06	-2.644826e+01	1.720907e+02	-3.113512e+01	-4.045075e+00	-9.330545e+01	6.825596e+01	-2.641367e+01	1.668653e+02
3.292906e+06	-2.644745e+01	1.720995e+02	-3.113542e+01	-4.053145e+00	-9.756442e+01	4.411770e+01	-2.641418e+01	1.668668e+02
3.292938e+06	-2.644665e+01	1.721083e+02	-3.113573e+01	-4.061217e+00	-9.907704e+01	-8.515424e+00	-2.641469e+01	1.668682e+02
3.292969e+06	-2.644584e+01	1.721171e+02	-3.113603e+01	-4.069289e+00	-9.505070e+01	-4.503157e+01	-2.641520e+01	1.668697e+02
3.293000e+06	-2.644754e+01	1.721212e+02	-3.113554e+01	-4.072924e+00	-9.382917e+01	-4.727483e+01	-2.641469e+01	1.668617e+02
3.293032e+06	-2.644924e+01	1.721253e+02	-3.113504e+01	-4.076559e+00	-9.274941e+01	-4.899579e+01	-2.641418e+01	1.668537e+02
3.293063e+06	-2.645095e+01	1.721294e+02	-3.113455e+01	-4.080193e+00	-9.178361e+01	-5.035557e+01	-2.641367e+01	1.668457e+02
3.293094e+06	-2.645265e+01	1.721334e+02	-3.113406e+01	-4.083827e+00	-9.091095e+01	-5.145592e+01	-2.641317e+01	1.668376e+02
3.293125e+06	-2.645433e+01	1.721374e+02	-3.113357e+01	-4.087186e+00	-9.014844e+01	-5.235177e+01	-2.641267e+01	1.668297e+02
3.293156e+06	-2.645311e+01	1.721225e+02	-3.113317e+01	-4.056449e+00	-9.437468e+01	-5.121248e+01	-2.641409e+01	1.668323e+02
3.293188e+06	-2.645189e+01	1.721077e+02	-3.113276e+01	-4.025716e+00	-1.028940e+02	-4.626450e+01	-2.641551e+01	1.668349e+02
3.293219e+06	-2.645067e+01	1.720929e+02	-3.113236e+01	-3.994985e+00	-1.060439e+02	1.144338e+02	-2.641693e+01	1.668375e+02
3.293250e+06	-2.644945e+01	1.720781e+02	-3.113195e+01	-3.964257e+00	-9.544046e+01	1.224895e+02	-2.641834e+01	1.668401e+02
3.293282e+06	-2.644826e+01	1.720636e+02	-3.113150e+01	-3.934377e+00	-9.087180e+01	1.238462e+02	-2.641972e+01	1.668426e+02
3.293313e+06	-2.644907e+01	1.720699e+02	-3.112847e+01	-3.956471e+00	-9.262040e+01	1.225570e+02	-2.641878e+01	1.668452e+02
3.293344e+06	-2.644988e+01	1.720761e+02	-3.112545e+01	-3.978550e+00	-9.480318e+01	1.205296e+02	-2.641783e+01	1.668478e+02
3.293375e+06	-2.645069e+01	1.720824e+02	-3.112242e+01	-4.000613e+00	-9.769822e+01	1.168903e+02	-2.641688e+01	1.668503e+02
3.293406e+06	-2.645150e+01	1.720887e+02	-3.111939e+01	-4.022661e+00	-1.019395e+02	1.085904e+02	-2.641593e+01	1.668529e+02
3.293438e+06	-2.645231e+01	1.720949e+02	-3.111636e+01	-4.044694e+00	-1.088112e+02	7.733223e+01	-2.641499e+01	1.668555e+02
3.293469e+06	-2.645150e+01	1.721015e+02	-3.111850e+01	-4.048236e+00	-1.053021e+02	7.628950e+01	-2.641434e+01	1.668591e+02
3.293500e+06	-2.645068e+01	1.721081e+02	-3.112068e+01	-4.051631e+00	-1.027611e+02	7.603296e+01	-2.641369e+01	1.668627e+02
3.293532e+06	-2.644985e+01	1.721147e+02	-3.112286e+01	-4.055028e+00	-1.007977e+02	7.588022e+01	-2.641304e+01	1.668663e+02
3.293563e+06	-2.644903e+01	1.721212e+02	-3.112504e+01	-4.058427e+00	-9.919720e+01	7.577889e+01	-2.641240e+01	1.668699e+02
3.293594e+06	-2.644820e+01	1.721278e+02	-3.112722e+01	-4.061827e+00	-9.784624e+01	7.570675e+01	-2.641175e+01	1.668735e+02
3.293625e+06	-2.644801e+01	1.721130e+02	-3.112776e+01	-4.039315e+00	-1.045528e+02	5.922090e+01	-2.641159e+01	1.668739e+02
3.293656e+06	-2.644782e+01	1.720982e+02	-3.112831e+01	-4.016800e+00	-1.087217e+02	-3.777462e+01	-2.641143e+01	1.668743e+02
