# Hz S dB R 50.000
3.288438e+06	-2.644778e+01	1.722181e+02	-3.115667e+01	-4.467138e+00	-9.069479e+01	-4.935883e+01	-2.637037e+01	1.667624e+02
3.288469e+06	-2.644820e+01	1.722263e+02	-3.115581e+01	-4.451521e+00	-9.247271e+01	-5.509556e+01	-2.636942e+01	1.667581e+02
3.288500e+06	-2.644863e+01	1.722344e+02	-3.115495e+01	-4.435907e+00	-9.453560e+01	-6.404397e+01	-2.636847e+01	1.667537e+02
3.288532e+06	-2.644905e+01	1.722426e+02	-3.115409e+01	-4.420296e+00	-9.677256e+01	-7.882828e+01	-2.636753e+01	1.667494e+02
3.288563e+06	-2.644948e+01	1.722508e+02	-3.115323e+01	-4.404688e+00	-9.851100e+01	-1.026123e+02	-2.636658e+01	1.667451e+02
3.288594e+06	-2.644990e+01	1.722589e+02	-3.115238e+01	-4.389179e+00	-9.846091e+01	-1.314294e+02	-2.636565e+01	1.667408e+02
3.288626e+06	-2.645026e+01	1.722531e+02	-3.115187e+01	-4.385592e+00	-1.023003e+02	-1.022746e+02	-2.636692e+01	1.667403e+02
3.288657e+06	-2.645062e+01	1.722474e+02	-3.115135e+01	-4.382005e+00	-1.023627e+02	-5.250655e+01	-2.636819e+01	1.667397e+02
3.288688e+06	-2.645097e+01	1.722417e+02	-3.115084e+01	-4.378418e+00	-9.853839e+01	-2.283141e+01	-2.636945e+01	1.667392e+02
3.288719e+06	-2.645133e+01	1.722359e+02	-3.115033e+01	-4.374832e+00	-9.515997e+01	-1.035471e+01	-2.637072e+01	1.667386e+02
3.288750e+06	-2.645166e+01	1.722303e+02	-3.114982e+01	-4.371434e+00	-9.267016e+01	-3.969327e+00	-2.637194e+01	1.667381e+02
3.288782e+06	-2.645048e+01	1.722283e+02	-3.114905e+01	-4.379618e+00	-9.653975e+01	1.770748e+01	-2.637038e+01	1.667361e+02
3.288813e+06	-2.644930e+01	1.722263e+02	-3.114828e+01	-4.387801e+00	-9.851804e+01	6.410953e+01	-2.636881e+01	1.667341e+02
3.288844e+06	-2.644812e+01	1.722244e+02	-3.114752e+01	-4.395983e+00	-9.526890e+01	1.028376e+02	-2.636724e+01	1.667321e+02
3.288876e+06	-2.644694e+01	1.722224e+02	-3.114675e+01	-4.404163e+00	-9.160174e+01	1.192269e+02	-2.636568e+01	1.667301e+02
3.288907e+06	-2.644579e+01	1.722207e+02	-3.114605e+01	-4.412129e+00	-8.888044e+01	1.269301e+02	-2.636416e+01	1.667281e+02
3.288938e+06	-2.644598e+01	1.722272e+02	-3.114801e+01	-4.411454e+00	-9.058668e+01	1.347377e+02	-2.636471e+01	1.667249e+02
3.288969e+06	-2.644617e+01	1.722338e+02	-3.114998e+01	-4.410779e+00	-9.240360e+01	1.464971e+02	-2.636525e+01	1.667217e+02
3.289000e+06	-2.644636e+01	1.722404e+02	-3.115195e+01	-4.410104e+00	-9.400076e+01	1.640709e+02	-2.636580e+01	1.667185e+02
3.289032e+06	-2.644655e+01	1.722470e+02	-3.115391e+01	-4.409428e+00	-9.464880e+01	-1.729125e+02	-2.636634e+01	1.667153e+02
3.289063e+06	-2.644674e+01	1.722536e+02	-3.115588e+01	-4.408752e+00	-9.387813e+01	-1.502368e+02	-2.636689e+01	1.667121e+02
3.289094e+06	-2.644652e+01	1.722470e+02	-3.115325e+01	-4.411638e+00	-9.950033e+01	-8.910408e+01	-2.636767e+01	1.667145e+02
3.289126e+06	-2.644630e+01	1.722404e+02	-3.115061e+01	-4.414522e+00	-9.352307e+01	-3.189379e+01	-2.636845e+01	1.667169e+02
3.289157e+06	-2.644607e+01	1.722338e+02	-3.114798e+01	-4.417404e+00	-8.852074e+01	-1.815542e+01	-2.636923e+01	1.667193e+02
3.289188e+06	-2.644585e+01	1.722272e+02	-3.114535e+01	-4.420285e+00	-8.523362e+01	-1.290855e+01	-2.637001e+01	1.667216e+02
3.289219e+06	-2.644563e+01	1.722206e+02	-3.114274e+01	-4.423129e+00	-8.286123e+01	-1.018683e+01	-2.637077e+01	1.667240e+02
3.289250e+06	-2.644611e+01	1.722215e+02	-3.114253e+01	-4.421598e+00	-8.553396e+01	-7.231615e+00	-2.637009e+01	1.667209e+02
3.289282e+06	-2.644659e+01	1.722224e+02	-3.114233e+01	-4.420068e+00	-8.933838e+01	-9.926436e-01	-2.636941e+01	1.667178e+02
3.289313e+06	-2.644707e+01	1.722233e+02	-3.114213e+01	-4.418537e+00	-9.554409e+01	1.913198e+01	-2.636873e+01	1.667147e+02
3.289344e+06	-2.644755e+01	1.722242e+02	-3.114192e+01	-4.417007e+00	-9.854740e+01	1.025061e+02	-2.636804e+01	1.667116e+02
3.289376e+06	-2.644802e+01	1.722250e+02	-3.114177e+01	-4.415529e+00	-9.138501e+01	1.396523e+02	-2.636737e+01	1.667086e+02
3.289407e+06	-2.644802e+01	1.722193e+02	-3.114472e+01	-4.417265e+00	-9.312039e+01	1.400846e+02	-2.636732e+01	1.667107e+02
3.289438e+06	-2.644802e+01	1.722135e+02	-3.114767e+01	-4.419003e+00	-9.529032e+01	1.407623e+02	-2.636728e+01	1.667128e+02
3.289469e+06	-2.644801e+01	1.722078e+02	-3.115063e+01	-4.420742e+00	-9.818656e+01	1.419766e+02	-2.636723e+01	1.667148e+02
3.289500e+06	-2.644801e+01	1.722020e+02	-3.115358e+01	-4.422482e+00	-1.025476e+02	1.447778e+02	-2.636718e+01	1.667169e+02
3.289532e+06	-2.644801e+01	1.721965e+02	-3.115644e+01	-4.424008e+00	-1.115043e+02	1.550827e+02	-2.636716e+01	1.667191e+02
3.289563e+06	-2.644816e+01	1.721989e+02	-3.115518e+01	-4.416742e+00	-1.067282e+02	3.017045e+01	-2.636813e+01	1.667257e+02
3.289594e+06	-2.644832e+01	1.722013e+02	-3.115392e+01	-4.409478e+00	-9.920472e+01	1.869204e+01	-2.636909e+01	1.667324e+02
3.289626e+06	-2.644847e+01	1.722037e+02	-3.115267e+01	-4.402216e+00	-9.517646e+01	1.567497e+01	-2.637006e+01	1.667391e+02
3.289657e+06	-2.644862e+01	1.722061e+02	-3.115141e+01	-4.394957e+00	-9.242707e+01	1.429286e+01	-2.637102e+01	1.667457e+02
3.289688e+06	-2.644877e+01	1.722085e+02	-3.115015e+01	-4.387699e+00	-9.033963e+01	1.350095e+01	-2.637199e+01	1.667524e+02
3.289719e+06	-2.644919e+01	1.722117e+02	-3.115340e+01	-4.396538e+00	-9.191587e+01	1.190765e+01	-2.637241e+01	1.667494e+02
3.289750e+06	-2.644961e+01	1.722149e+02	-3.115664e+01	-4.405383e+00	-9.383047e+01	9.525833e+00	-2.637284e+01	1.667463e+02
3.289782e+06	-2.645003e+01	1.722181e+02	-3.115989e+01	-4.414235e+00	-9.625721e+01	5.597657e+00	-2.637326e+01	1.667433e+02
3.289813e+06	-2.645045e+01	1.722212e+02	-3.116314e+01	-4.423093e+00	-9.952080e+01	-1.981737e+00	-2.637368e+01	1.667402e+02
3.289844e+06	-2.645087e+01	1.722244e+02	-3.116633e+01	-4.431773e+00	-1.041069e+02	-2.024998e+01	-2.637409e+01	1.667373e+02
3.289876e+06	-2.645091e+01	1.722289e+02	-3.116277e+01	-4.417564e+00	-1.020102e+02	4.186656e+01	-2.637325e+01	1.667478e+02
3.289907e+06	-2.645095e+01	1.722334e+02	-3.115922e+01	-4.403367e+00	-9.703040e+01	6.490576e+01	-2.637240e+01	1.667584e+02
3.289938e+06	-2.645100e+01	1.722378e+02	-3.115566e+01	-4.389181e+00	-9.352225e+01	7.337586e+01	-2.637156e+01	1.667689e+02
3.289969e+06	-2.645104e+01	1.722423e+02	-3.115211e+01	-4.375007e+00	-9.095963e+01	7.757495e+01	-2.637071e+01	1.667794e+02
3.290000e+06	-2.645109e+01	1.722467e+02	-3.114857e+01	-4.361322e+00	-8.899510e+01	7.992307e+01	-2.636988e+01	1.667897e+02
3.290032e+06	-2.645161e+01	1.722437e+02	-3.114603e+01	-4.377027e+00	-8.925587e+01	7.330003e+01	-2.636965e+01	1.667864e+02
3.290063e+06	-2.645213e+01	1.722407e+02	-3.114348e+01	-4.392723e+00	-8.939943e+01	6.635987e+01	-2.636942e+01	1.667831e+02
3.290094e+06	-2.645265e+01	1.722378e+02	-3.114094e+01	-4.408409e+00	-8.941360e+01	5.929189e+01	-2.636919e+01	1.667798e+02
3.290126e+06	-2.645317e+01	1.722348e+02	-3.113840e+01	-4.424086e+00	-8.929712e+01	5.230709e+01	-2.636895e+01	1.667765e+02
3.290157e+06	-2.645367e+01	1.722319e+02	-3.113599e+01	-4.439237e+00	-8.908312e+01	4.569882e+01	-2.636872e+01	1.667733e+02
3.290188e+06	-2.645326e+01	1.722328e+02	-3.113889e+01	-4.433361e+00	-8.977284e+01	4.299786e+01	-2.636849e+01	1.667716e+02
3.290219e+06	-2.645285e+01	1.722338e+02	-3.114179e+01	-4.427482e+00	-9.049735e+01	3.981885e+01	-2.636826e+01	1.667699e+02
3.290250e+06	-2.645244e+01	1.722347e+02	-3.114469e+01	-4.421599e+00	-9.125310e+01	3.604839e+01	-2.636803e+01	1.667682e+02
3.290282e+06	-2.645203e+01	1.722356e+02	-3.114759e+01	-4.415711e+00	-9.203159e+01	3.154810e+01	-2.636780e+01	1.667665e+02
3.290313e+06	-2.645162e+01	1.722365e+02	-3.115049e+01	-4.409820e+00	-9.281603e+01	2.615820e+01	-2.636757e+01	1.667648e+02
3.290344e+06	-2.645137e+01	1.722452e+02	-3.114939e+01	-4.411947e+00	-9.373554e+01	2.531076e+01	-2.636740e+01	1.667595e+02
3.290376e+06	-2.645111e+01	1.722539e+02	-3.114829e+01	-4.414074e+00	-9.476137e+01	2.425056e+01	-2.636724e+01	1.667542e+02
3.290407e+06	-2.645086e+01	1.722626e+02	-3.114720e+01	-4.416200e+00	-9.592041e+01	2.288708e+01	-2.636707e+01	1.667489e+02
3.290438e+06	-2.645060e+01	1.722713e+02	-3.114610e+01	-4.418325e+00	-9.725064e+01	2.107097e+01	-2.636691e+01	1.667436e+02
3.290469e+06	-2.645035e+01	1.722799e+02	-3.114502e+01	-4.420526e+00	-9.876105e+01	1.843953e+01	-2.636675e+01	1.667383e+02
3.290500e+06	-2.645019e+01	1.722786e+02	-3.114644e+01	-4.432098e+00	-9.525625e+01	8.149640e+00	-2.636802e+01	1.667366e+02
3.290532e+06	-2.645004e+01	1.722774e+02	-3.114785e+01	-4.443675e+00	-9.266207e+01	3.071632e+00	-2.636930e+01	1.667349e+02
3.290563e+06	-2.644989e+01	1.722761e+02	-3.114926e+01	-4.455255e+00	-9.063530e+01	9.124547e-02	-2.637057e+01	1.667332e+02
3.290594e+06	-2.644973e+01	1.722748e+02	-3.115068e+01	-4.466840e+00	-8.898039e+01	-1.858942e+00	-2.637185e+01	1.667316e+02
3.290626e+06	-2.644959e+01	1.722735e+02	-3.115210e+01	-4.477828e+00	-8.764869e+01	-3.183406e+00	-2.637308e+01	1.667301e+02
3.290657e+06	-2.645011e+01	1.722702e+02	-3.115426e+01	-4.451950e+00	-9.087793e+01	-5.141937e-01	-2.637197e+01	1.667414e+02
3.290688e+06	-2.645062e+01	1.722669e+02	-3.115642e+01	-4.426060e+00	-9.598608e+01	6.470899e+00	-2.637086e+01	1.667526e+02
3.290719e+06	-2.645114e+01	1.722635e+02	-3.115857e+01	-4.400156e+00	-1.062904e+02	5.228901e+01	-2.636975e+01	1.667639e+02
3.290750e+06	-2.645166e+01	1.722602e+02	-3.116073e+01	-4.374240e+00	-9.881173e+01	1.491479e+02	-2.636864e+01	1.667752e+02
3.290782e+06	-2.645217e+01	1.722570e+02	-3.116276e+01	-4.349404e+00	-9.260209e+01	1.599912e+02	-2.636759e+01	1.667862e+02
3.290813e+06	-2.645238e+01	1.722594e+02	-3.115992e+01	-4.369034e+00	-9.570657e+01	1.215826e+02	-2.636947e+01	1.667845e+02
3.290844e+06	-2.645260e+01	1.722619e+02	-3.115708e+01	-4.388651e+00	-9.376752e+01	7.630907e+01	-2.637134e+01	1.667829e+02
3.290876e+06	-2.645281e+01	1.722644e+02	-3.115424e+01	-4.408256e+00	-8.998685e+01	5.473164e+01	-2.637322e+01	1.667813e+02
3.290907e+06	-2.645303e+01	1.722668e+02	-3.115140e+01	-4.427847e+00	-8.695111e+01	4.507283e+01	-2.637509e+01	1.667796e+02
3.290938e+06	-2.645324e+01	1.722693e+02	-3.114856e+01	-4.447426e+00	-8.460366e+01	3.989322e+01	-2.637697e+01	1.667780e+02
3.290969e+06	-2.645226e+01	1.722632e+02	-3.114832e+01	-4.448361e+00	-8.659172e+01	3.820511e+01	-2.637588e+01	1.667653e+02
3.291000e+06	-2.645128e+01	1.722570e+02	-3.114809e+01	-4.449296e+00	-8.915710e+01	3.535284e+01	-2.637479e+01	1.667526e+02
3.291032e+06	-2.645031e+01	1.722509e+02	-3.114785e+01	-4.450231e+00	-9.274709e+01	2.955160e+01	-2.637370e+01	1.667399e+02
3.291063e+06	-2.644933e+01	1.722448e+02	-3.114761e+01	-4.451166e+00	-9.844483e+01	1.242578e+01	-2.637261e+01	1.667273e+02
3.291094e+06	-2.644836e+01	1.722387e+02	-3.114736e+01	-4.451981e+00	-1.031402e+02	-6.136986e+01	-2.637152e+01	1.667148e+02
3.291126e+06	-2.644849e+01	1.722423e+02	-3.114517e+01	-4.437915e+00	-1.126213e+02	-1.350931e+02	-2.636988e+01	1.667291e+02
3.291157e+06	-2.644861e+01	1.722459e+02	-3.114298e+01	-4.423855e+00	-1.028285e+02	1.570747e+02	-2.636824e+01	1.667434e+02
3.291188e+06	-2.644874e+01	1.722494e+02	-3.114079e+01	-4.409802e+00	-9.724606e+01	1.480001e+02	-2.636660e+01	1.667577e+02
3.291219e+06	-2.644887e+01	1.722530e+02	-3.113860e+01	-4.395757e+00	-9.382306e+01	1.447941e+02	-2.636495e+01	1.667720e+02
3.291250e+06	-2.644898e+01	1.722565e+02	-3.113652e+01	-4.381988e+00	-9.140318e+01	1.430269e+02	-2.636337e+01	1.667858e+02
3.291282e+06	-2.644854e+01	1.722556e+02	-3.114106e+01	-4.384777e+00	-9.158754e+01	1.328305e+02	-2.636515e+01	1.667753e+02
3.291313e+06	-2.644809e+01	1.722546e+02	-3.114559e+01	-4.387569e+00	-9.149267e+01	1.225273e+02	-2.636693e+01	1.667649e+02
3.291344e+06	-2.644765e+01	1.722537e+02	-3.115013e+01	-4.390364e+00	-9.113580e+01	1.127515e+02	-2.636872e+01	1.667544e+02
3.291376e+06	-2.644720e+01	1.722528e+02	-3.115468e+01	-4.393162e+00	-9.057488e+01	1.039642e+02	-2.637050e+01	1.667439e+02
3.291407e+06	-2.644681e+01	1.722520e+02	-3.115907e+01	-4.395932e+00	-8.993877e+01	9.618882e+01	-2.637226e+01	1.667338e+02
3.291438e+06	-2.644848e+01	1.722545e+02	-3.115752e+01	-4.397422e+00	-9.134612e+01	7.894510e+01	-2.637305e+01	1.667408e+02
3.291469e+06	-2.645016e+01	1.722571e+02	-3.115597e+01	-4.398913e+00	-9.184946e+01	5.726806e+01	-2.637384e+01	1.667479e+02
3.291500e+06	-2.645183e+01	1.722597e+02	-3.115442e+01	-4.400402e+00	-9.111597e+01	3.618534e+01	-2.637462e+01	1.667550e+02
3.291532e+06	-2.645351e+01	1.722623e+02	-3.115287e+01	-4.401891e+00	-8.960968e+01	2.004731e+01	-2.637541e+01	1.667620e+02
3.291563e+06	-2.645518e+01	1.722649e+02	-3.115132e+01	-4.403380e+00	-8.791793e+01	8.957969e+00	-2.637620e+01	1.667691e+02
3.291594e+06	-2.645447e+01	1.722622e+02	-3.115080e+01	-4.393713e+00	-9.079025e+01	1.910467e+01	-2.637511e+01	1.667633e+02
3.291626e+06	-2.645375e+01	1.722594e+02	-3.115028e+01	-4.384048e+00	-9.419268e+01	4.037693e+01	-2.637401e+01	1.667574e+02
3.291657e+06	-2.645304e+01	1.722567e+02	-3.114976e+01	-4.374383e+00	-9.590534e+01	8.120299e+01	-2.637292e+01	1.667516e+02
3.291688e+06	-2.645233e+01	1.722539e+02	-3.114924e+01	-4.364720e+00	-9.336006e+01	1.176448e+02	-2.637182e+01	1.667458e+02
3.291719e+06	-2.645161e+01	1.722512e+02	-3.114872e+01	-4.355140e+00	-9.005985e+01	1.350198e+02	-2.637075e+01	1.667401e+02
3.291750e+06	-2.645066e+01	1.722574e+02	-3.114872e+01	-4.355826e+00	-9.142546e+01	1.208828e+02	-2.637252e+01	1.667489e+02
3.291782e+06	-2.644971e+01	1.722635e+02	-3.114872e+01	-4.356511e+00	-9.223341e+01	1.026013e+02	-2.637428e+01	1.667576e+02
3.291813e+06	-2.644876e+01	1.722696e+02	-3.114873e+01	-4.357197e+00	-9.207935e+01	8.283335e+01	-2.637604e+01	1.667664e+02
3.291844e+06	-2.644781e+01	1.722758e+02	-3.114873e+01	-4.357882e+00	-9.105142e+01	6.566491e+01	-2.637781e+01	1.667752e+02
3.291876e+06	-2.644689e+01	1.722817e+02	-3.114868e+01	-4.358505e+00	-8.966162e+01	5.297799e+01	-2.637951e+01	1.667838e+02
3.291907e+06	-2.644778e+01	1.722781e+02	-3.114570e+01	-4.355269e+00	-9.166728e+01	5.083307e+01	-2.637732e+01	1.667772e+02
3.291938e+06	-2.644866e+01	1.722745e+02	-3.114271e+01	-4.352034e+00	-9.425178e+01	4.719298e+01	-2.637514e+01	1.667706e+02
3.291969e+06	-2.644955e+01	1.722709e+02	-3.113972e+01	-4.348802e+00	-9.783850e+01	3.976970e+01	-2.637295e+01	1.667640e+02
3.292000e+06	-2.645044e+01	1.722672e+02	-3.113674e+01	-4.345572e+00	-1.032214e+02	1.849384e+01	-2.637077e+01	1.667574e+02
3.292032e+06	-2.645129e+01	1.722638e+02	-3.113386e+01	-4.342889e+00	-1.063852e+02	-4.875539e+01	-2.636865e+01	1.667512e+02
3.292063e+06	-2.645098e+01	1.722692e+02	-3.113496e+01	-4.362329e+00	-1.100762e+02	-1.727070e+02	-2.636898e+01	1.667586e+02
3.292094e+06	-2.645067e+01	1.722746e+02	-3.113606e+01	-4.381775e+00	-1.001834e+02	1.633272e+02	-2.636931e+01	1.667661e+02
3.292126e+06	-2.645036e+01	1.722800e+02	-3.113717e+01	-4.401226e+00	-9.551133e+01	1.589718e+02	-2.636965e+01	1.667735e+02
3.292157e+06	-2.645004e+01	1.722854e+02	-3.113827e+01	-4.420681e+00	-9.247535e+01	1.571801e+02	-2.636998e+01	1.667810e+02
3.292188e+06	-2.644973e+01	1.722908e+02	-3.113937e+01	-4.440142e+00	-9.022651e+01	1.562051e+02	-2.637031e+01	1.667884e+02
3.292219e+06	-2.644937e+01	1.722820e+02	-3.113968e+01	-4.434411e+00	-9.108703e+01	1.563400e+02	-2.637001e+01	1.667798e+02
3.292250e+06	-2.644902e+01	1.722732e+02	-3.114000e+01	-4.428680e+00	-9.204221e+01	1.565063e+02	-2.636972e+01	1.667712e+02
3.292282e+06	-2.644866e+01	1.722644e+02	-3.114031e+01	-4.422949e+00	-9.311546e+01	1.567164e+02	-2.636942e+01	1.667626e+02
3.292313e+06	-2.644830e+01	1.722555e+02	-3.114062e+01	-4.417217e+00	-9.434009e+01	1.569900e+02	-2.636912e+01	1.667540e+02
3.292344e+06	-2.644795e+01	1.722469e+02	-3.114092e+01	-4.411417e+00	-9.577302e+01	1.573962e+02	-2.636884e+01	1.667456e+02
3.292376e+06	-2.644827e+01	1.722629e+02	-3.114014e+01	-4.397252e+00	-9.858782e+01	1.640716e+02	-2.636948e+01	1.667558e+02
3.292407e+06	-2.644858e+01	1.722789e+02	-3.113935e+01	-4.383090e+00	-1.023708e+02	1.784581e+02	-2.637013e+01	1.667660e+02
3.292438e+06	-2.644890e+01	1.722949e+02	-3.113856e+01	-4.368931e+00	-1.063479e+02	-1.441613e+02	-2.637077e+01	1.667762e+02
3.292469e+06	-2.644921e+01	1.723109e+02	-3.113778e+01	-4.354774e+00	-1.046618e+02	-9.194348e+01	-2.637142e+01	1.667864e+02
3.292500e+06	-2.644953e+01	1.723266e+02	-3.113705e+01	-4.341013e+00	-1.005418e+02	-6.844493e+01	-2.637205e+01	1.667964e+02
3.292532e+06	-2.644996e+01	1.723193e+02	-3.113987e+01	-4.351425e+00	-1.056209e+02	-4.481558e+01	-2.637210e+01	1.667986e+02
3.292563e+06	-2.645039e+01	1.723120e+02	-3.114269e+01	-4.361844e+00	-1.075317e+02	1.885730e+01	-2.637215e+01	1.668008e+02
3.292594e+06	-2.645083e+01	1.723047e+02	-3.114551e+01	-4.372270e+00	-1.022914e+02	5.651167e+01	-2.637220e+01	1.668029e+02
3.292626e+06	-2.645126e+01	1.722973e+02	-3.114833e+01	-4.382702e+00	-9.819722e+01	6.855002e+01	-2.637225e+01	1.668051e+02
3.292657e+06	-2.645169e+01	1.722902e+02	-3.115108e+01	-4.392843e+00	-9.536761e+01	7.350808e+01	-2.637231e+01	1.668070e+02
3.292688e+06	-2.645204e+01	1.722885e+02	-3.115086e+01	-4.390857e+00	-9.540113e+01	6.079110e+01	-2.637277e+01	1.667993e+02
3.292719e+06	-2.645239e+01	1.722869e+02	-3.115063e+01	-4.388872e+00	-9.502374e+01	4.857553e+01	-2.637323e+01	1.667917e+02
3.292750e+06	-2.645275e+01	1.722853e+02	-3.115040e+01	-4.386886e+00	-9.432869e+01	3.779694e+01	-2.637369e+01	1.667840e+02
3.292782e+06	-2.645310e+01	1.722836e+02	-3.115017e+01	-4.384900e+00	-9.344782e+01	2.882311e+01	-2.637415e+01	1.667763e+02
3.292813e+06	-2.645345e+01	1.722820e+02	-3.114994e+01	-4.382915e+00	-9.249116e+01	2.157066e+01	-2.637461e+01	1.667686e+02
3.292844e+06	-2.645202e+01	1.722806e+02	-3.114870e+01	-4.388917e+00	-9.249779e+01	2.878143e+01	-2.637491e+01	1.667666e+02
3.292876e+06	-2.645058e+01	1.722791e+02	-3.114746e+01	-4.394918e+00	-9.236885e+01	3.589085e+01	-2.637521e+01	1.667647e+02
3.292907e+06	-2.644915e+01	1.722777e+02	-3.114621e+01	-4.400917e+00	-9.211585e+01	4.269294e+01	-2.637551e+01	1.667627e+02
3.292938e+06	-2.644771e+01	1.722762e+02	-3.114497e+01	-4.406914e+00	-9.175920e+01	4.903202e+01	-2.637581e+01	1.667607e+02
3.292969e+06	-2.644630e+01	1.722748e+02	-3.114374e+01	-4.412776e+00	-9.134880e+01	5.480623e+01	-2.637609e+01	1.667589e+02
3.293000e+06	-2.644699e+01	1.722750e+02	-3.114313e+01	-4.401989e+00	-9.454540e+01	6.093587e+01	-2.637339e+01	1.667668e+02
3.293032e+06	-2.644768e+01	1.722751e+02	-3.114252e+01	-4.391205e+00	-9.921520e+01	7.625062e+01	-2.637069e+01	1.667747e+02
3.293063e+06	-2.644837e+01	1.722753e+02	-3.114191e+01	-4.380421e+00	-1.040811e+02	1.286001e+02	-2.636799e+01	1.667826e+02
3.293094e+06	-2.644907e+01	1.722754e+02	-3.114130e+01	-4.369640e+00	-9.962865e+01	-1.752651e+02	-2.636529e+01	1.667904e+02
3.293126e+06	-2.644975e+01	1.722756e+02	-3.114070e+01	-4.359305e+00	-9.493787e+01	-1.588230e+02	-2.636266e+01	1.667981e+02
3.293157e+06	-2.644990e+01	1.722786e+02	-3.114071e+01	-4.376385e+00	-9.902093e+01	-1.613203e+02	-2.636394e+01	1.667947e+02
3.293188e+06	-2.645004e+01	1.722816e+02	-3.114072e+01	-4.393464e+00	-1.068204e+02	-1.711738e+02	-2.636521e+01	1.667912e+02
3.293219e+06	-2.645019e+01	1.722846e+02	-3.114073e+01	-4.410544e+00	-1.113618e+02	5.394308e+01	-2.636649e+01	1.667877e+02
3.293250e+06	-2.645034e+01	1.722876e+02	-3.114074e+01	-4.427623e+00	-1.007147e+02	3.340554e+01	-2.636776e+01	1.667842e+02
3.293282e+06	-2.645047e+01	1.722905e+02	-3.114076e+01	-4.443827e+00	-9.608177e+01	2.975482e+01	-2.636902e+01	1.667808e+02
3.293313e+06	-2.645025e+01	1.722911e+02	-3.114097e+01	-4.424398e+00	-9.720625e+01	1.617716e+01	-2.636957e+01	1.667789e+02
3.293344e+06	-2.645003e+01	1.722917e+02	-3.114118e+01	-4.404968e+00	-9.781148e+01	-4.709894e-01	-2.637012e+01	1.667771e+02
3.293376e+06	-2.644981e+01	1.722924e+02	-3.114139e+01	-4.385537e+00	-9.763843e+01	-1.799522e+01	-2.637067e+01	1.667753e+02
3.293407e+06	-2.644959e+01	1.722930e+02	-3.114159e+01	-4.366106e+00	-9.676835e+01	-3.348311e+01	-2.637121e+01	1.667735e+02
3.293438e+06	-2.644937e+01	1.722936e+02	-3.114180e+01	-4.346673e+00	-9.552616e+01	-4.556967e+01	-2.637176e+01	1.667717e+02
3.293469e+06	-2.645035e+01	1.722864e+02	-3.114014e+01	-4.346095e+00	-1.025766e+02	-5.880152e+01	-2.637170e+01	1.667784e+02
3.293500e+06	-2.645133e+01	1.722792e+02	-3.113849e+01	-4.345517e+00	-1.077693e+02	-1.692312e+02	-2.637164e+01	1.667851e+02
