# Hz S dB R 50.000
3.623906e+06	-4.363729e+01	-9.323872e+01	-3.094635e+01	-7.351359e+00	-9.663974e+01	1.240592e+02	-5.695143e+01	7.236956e+01
3.623937e+06	-4.364217e+01	-9.319875e+01	-3.094299e+01	-7.349753e+00	-9.765481e+01	1.226153e+02	-5.693633e+01	7.229106e+01
3.623968e+06	-4.364705e+01	-9.315873e+01	-3.093963e+01	-7.348149e+00	-9.879632e+01	1.207643e+02	-5.692125e+01	7.221283e+01
3.624000e+06	-4.365193e+01	-9.311867e+01	-3.093628e+01	-7.346546e+00	-1.000969e+02	1.183121e+02	-5.690617e+01	7.213487e+01
3.624031e+06	-4.365681e+01	-9.307856e+01	-3.093292e+01	-7.344944e+00	-1.016010e+02	1.149244e+02	-5.689111e+01	7.205718e+01
3.624062e+06	-4.366168e+01	-9.303840e+01	-3.092957e+01	-7.343343e+00	-1.033666e+02	1.099850e+02	-5.687605e+01	7.197975e+01
3.624094e+06	-4.365911e+01	-9.302483e+01	-3.093014e+01	-7.315260e+00	-1.033733e+02	1.116646e+02	-5.688536e+01	7.180730e+01
3.624125e+06	-4.365636e+01	-9.301191e+01	-3.093079e+01	-7.286522e+00	-1.033241e+02	1.135159e+02	-5.689520e+01	7.163211e+01
3.624156e+06	-4.365361e+01	-9.299901e+01	-3.093145e+01	-7.257779e+00	-1.032662e+02	1.153446e+02	-5.690496e+01	7.145652e+01
3.624187e+06	-4.365086e+01	-9.298611e+01	-3.093211e+01	-7.229032e+00	-1.032001e+02	1.171474e+02	-5.691466e+01	7.128055e+01
3.624218e+06	-4.364810e+01	-9.297322e+01	-3.093276e+01	-7.200280e+00	-1.031260e+02	1.189213e+02	-5.692429e+01	7.110418e+01
3.624250e+06	-4.364991e+01	-9.300732e+01	-3.093098e+01	-7.176585e+00	-1.133656e+02	5.177577e+01	-5.686878e+01	7.127242e+01
3.624281e+06	-4.365178e+01	-9.304220e+01	-3.092915e+01	-7.152982e+00	-1.034475e+02	-2.466399e+01	-5.681251e+01	7.144405e+01
3.624312e+06	-4.365365e+01	-9.307710e+01	-3.092733e+01	-7.129388e+00	-9.764678e+01	-3.382101e+01	-5.675651e+01	7.161348e+01
3.624344e+06	-4.365552e+01	-9.311201e+01	-3.092550e+01	-7.105805e+00	-9.414848e+01	-3.694830e+01	-5.670081e+01	7.178074e+01
3.624375e+06	-4.365739e+01	-9.314694e+01	-3.092367e+01	-7.082232e+00	-9.165174e+01	-3.851597e+01	-5.664538e+01	7.194588e+01
3.624406e+06	-4.366396e+01	-9.314243e+01	-3.091984e+01	-7.069223e+00	-9.402724e+01	-4.052020e+01	-5.669894e+01	7.199612e+01
3.624437e+06	-4.367057e+01	-9.313760e+01	-3.091599e+01	-7.056311e+00	-9.734342e+01	-4.440253e+01	-5.675370e+01	7.204607e+01
3.624468e+06	-4.367719e+01	-9.313276e+01	-3.091215e+01	-7.043411e+00	-1.025754e+02	-5.483951e+01	-5.680881e+01	7.209665e+01
3.624500e+06	-4.368381e+01	-9.312791e+01	-3.090830e+01	-7.030522e+00	-1.107856e+02	-1.132085e+02	-5.686427e+01	7.214788e+01
3.624531e+06	-4.369044e+01	-9.312306e+01	-3.090446e+01	-7.017644e+00	-1.036056e+02	1.733241e+02	-5.692007e+01	7.219977e+01
3.624562e+06	-4.368695e+01	-9.307173e+01	-3.089801e+01	-7.017840e+00	-1.017842e+02	1.284412e+02	-5.692629e+01	7.209070e+01
3.624594e+06	-4.368345e+01	-9.302045e+01	-3.089157e+01	-7.018035e+00	-9.805624e+01	1.065712e+02	-5.693248e+01	7.198148e+01
3.624625e+06	-4.367995e+01	-9.296921e+01	-3.088513e+01	-7.018230e+00	-9.503048e+01	9.671504e+01	-5.693865e+01	7.187210e+01
3.624656e+06	-4.367645e+01	-9.291801e+01	-3.087869e+01	-7.018425e+00	-9.268404e+01	9.142365e+01	-5.694478e+01	7.176257e+01
3.624687e+06	-4.367293e+01	-9.286685e+01	-3.087226e+01	-7.018619e+00	-9.080175e+01	8.817466e+01	-5.695089e+01	7.165288e+01
3.624718e+06	-4.367295e+01	-9.287762e+01	-3.086889e+01	-7.030672e+00	-9.198150e+01	8.627811e+01	-5.697918e+01	7.183857e+01
3.624750e+06	-4.367306e+01	-9.288992e+01	-3.086559e+01	-7.043008e+00	-9.342522e+01	8.372392e+01	-5.700800e+01	7.203279e+01
3.624781e+06	-4.367317e+01	-9.290221e+01	-3.086229e+01	-7.055333e+00	-9.512745e+01	8.005360e+01	-5.703682e+01	7.222830e+01
3.624812e+06	-4.367327e+01	-9.291451e+01	-3.085899e+01	-7.067650e+00	-9.717660e+01	7.439534e+01	-5.706563e+01	7.242512e+01
3.624844e+06	-4.367338e+01	-9.292680e+01	-3.085569e+01	-7.079957e+00	-9.966899e+01	6.482173e+01	-5.709444e+01	7.262324e+01
3.624875e+06	-4.367355e+01	-9.291977e+01	-3.085202e+01	-7.086466e+00	-9.848021e+01	6.951572e+01	-5.703689e+01	7.236114e+01
3.624906e+06	-4.367373e+01	-9.291243e+01	-3.084835e+01	-7.092876e+00	-9.734102e+01	7.330226e+01	-5.697814e+01	7.209515e+01
3.624937e+06	-4.367391e+01	-9.290508e+01	-3.084467e+01	-7.099280e+00	-9.630777e+01	7.625004e+01	-5.691960e+01	7.183273e+01
3.624968e+06	-4.367408e+01	-9.289774e+01	-3.084100e+01	-7.105679e+00	-9.536800e+01	7.859845e+01	-5.686127e+01	7.157381e+01
3.625000e+06	-4.367426e+01	-9.289039e+01	-3.083733e+01	-7.112072e+00	-9.450929e+01	8.050747e+01	-5.680316e+01	7.131834e+01
3.625031e+06	-4.366990e+01	-9.286451e+01	-3.083493e+01	-7.135069e+00	-9.392927e+01	7.028726e+01	-5.685104e+01	7.134573e+01
3.625062e+06	-4.366551e+01	-9.283850e+01	-3.083254e+01	-7.158187e+00	-9.316195e+01	6.145839e+01	-5.690003e+01	7.137572e+01
3.625094e+06	-4.366111e+01	-9.281252e+01	-3.083015e+01	-7.181293e+00	-9.229964e+01	5.414899e+01	-5.694931e+01	7.140606e+01
3.625125e+06	-4.365672e+01	-9.278657e+01	-3.082775e+01	-7.204386e+00	-9.140984e+01	4.818024e+01	-5.699886e+01	7.143674e+01
3.625156e+06	-4.365233e+01	-9.276064e+01	-3.082536e+01	-7.227466e+00	-9.053276e+01	4.331307e+01	-5.704869e+01	7.146777e+01
3.625187e+06	-4.365537e+01	-9.282542e+01	-3.082425e+01	-7.240848e+00	-9.266495e+01	5.854634e+01	-5.702968e+01	7.130386e+01
3.625218e+06	-4.365839e+01	-9.289025e+01	-3.082313e+01	-7.254227e+00	-9.421027e+01	8.220282e+01	-5.701065e+01	7.114067e+01
3.625250e+06	-4.366141e+01	-9.295513e+01	-3.082202e+01	-7.267602e+00	-9.399814e+01	1.100956e+02	-5.699159e+01	7.097819e+01
3.625281e+06	-4.366441e+01	-9.302005e+01	-3.082090e+01	-7.280974e+00	-9.223051e+01	1.319635e+02	-5.697250e+01	7.081642e+01
3.625312e+06	-4.366741e+01	-9.308501e+01	-3.081979e+01	-7.294342e+00	-9.009002e+01	1.457031e+02	-5.695338e+01	7.065537e+01
3.625344e+06	-4.366086e+01	-9.299380e+01	-3.082117e+01	-7.314744e+00	-9.099211e+01	1.281443e+02	-5.690094e+01	7.102402e+01
3.625375e+06	-4.365405e+01	-9.289889e+01	-3.082261e+01	-7.335326e+00	-9.099823e+01	1.076576e+02	-5.684763e+01	7.140108e+01
3.625406e+06	-4.364723e+01	-9.280414e+01	-3.082405e+01	-7.355915e+00	-9.002304e+01	8.941509e+01	-5.679427e+01	7.177355e+01
3.625437e+06	-4.364039e+01	-9.270953e+01	-3.082550e+01	-7.376510e+00	-8.855132e+01	7.575353e+01	-5.674088e+01	7.214146e+01
3.625468e+06	-4.363353e+01	-9.261507e+01	-3.082694e+01	-7.397112e+00	-8.699327e+01	6.616130e+01	-5.668746e+01	7.250488e+01
3.625500e+06	-4.364280e+01	-9.270390e+01	-3.082431e+01	-7.412085e+00	-8.855886e+01	6.478364e+01	-5.677434e+01	7.239058e+01
3.625531e+06	-4.365232e+01	-9.279591e+01	-3.082161e+01	-7.426957e+00	-9.053420e+01	6.286784e+01	-5.686437e+01	7.226603e+01
3.625562e+06	-4.366183e+01	-9.288812e+01	-3.081892e+01	-7.441820e+00	-9.307331e+01	5.964514e+01	-5.695530e+01	7.213886e+01
3.625594e+06	-4.367133e+01	-9.298053e+01	-3.081623e+01	-7.456674e+00	-9.659282e+01	5.316104e+01	-5.704715e+01	7.200898e+01
3.625625e+06	-4.368081e+01	-9.307315e+01	-3.081353e+01	-7.471518e+00	-1.019873e+02	3.479197e+01	-5.713993e+01	7.187631e+01
3.625656e+06	-4.368251e+01	-9.308279e+01	-3.081328e+01	-7.478281e+00	-9.926892e+01	5.842655e+01	-5.708731e+01	7.189087e+01
3.625687e+06	-4.368415e+01	-9.309177e+01	-3.081305e+01	-7.484979e+00	-9.652952e+01	7.093505e+01	-5.703384e+01	7.190643e+01
3.625718e+06	-4.368578e+01	-9.310075e+01	-3.081282e+01	-7.491676e+00	-9.426761e+01	7.792966e+01	-5.698069e+01	7.192180e+01
3.625750e+06	-4.368742e+01	-9.310973e+01	-3.081258e+01	-7.498373e+00	-9.240924e+01	8.227563e+01	-5.692787e+01	7.193698e+01
3.625781e+06	-4.368905e+01	-9.311872e+01	-3.081235e+01	-7.505069e+00	-9.085099e+01	8.520672e+01	-5.687537e+01	7.195198e+01
3.625812e+06	-4.369249e+01	-9.305885e+01	-3.081485e+01	-7.514008e+00	-9.129905e+01	7.737023e+01	-5.687439e+01	7.155836e+01
3.625844e+06	-4.369593e+01	-9.299893e+01	-3.081734e+01	-7.522952e+00	-9.158509e+01	6.883770e+01	-5.687299e+01	7.116484e+01
3.625875e+06	-4.369935e+01	-9.293897e+01	-3.081984e+01	-7.531901e+00	-9.167319e+01	5.992661e+01	-5.687119e+01	7.077147e+01
3.625906e+06	-4.370277e+01	-9.287895e+01	-3.082234e+01	-7.540855e+00	-9.155121e+01	5.105048e+01	-5.686898e+01	7.037829e+01
3.625937e+06	-4.370618e+01	-9.281889e+01	-3.082484e+01	-7.549814e+00	-9.123583e+01	4.261349e+01	-5.686636e+01	6.998532e+01
3.625968e+06	-4.369779e+01	-9.287560e+01	-3.082528e+01	-7.564693e+00	-9.113035e+01	4.971360e+01	-5.689731e+01	7.028466e+01
3.626000e+06	-4.368911e+01	-9.293507e+01	-3.082568e+01	-7.579719e+00	-9.089445e+01	5.690685e+01	-5.692895e+01	7.060331e+01
3.626031e+06	-4.368044e+01	-9.299441e+01	-3.082607e+01	-7.594746e+00	-9.054039e+01	6.362548e+01	-5.696043e+01	7.092429e+01
3.626062e+06	-4.367176e+01	-9.305364e+01	-3.082646e+01	-7.609775e+00	-9.009556e+01	6.975136e+01	-5.699175e+01	7.124760e+01
3.626094e+06	-4.366308e+01	-9.311275e+01	-3.082685e+01	-7.624805e+00	-8.958774e+01	7.523882e+01	-5.702290e+01	7.157324e+01
3.626125e+06	-4.367014e+01	-9.314359e+01	-3.082634e+01	-7.624402e+00	-8.920836e+01	7.340150e+01	-5.695425e+01	7.179151e+01
3.626156e+06	-4.367746e+01	-9.317402e+01	-3.082581e+01	-7.623748e+00	-8.883820e+01	7.160995e+01	-5.688442e+01	7.200458e+01
3.626187e+06	-4.368479e+01	-9.320450e+01	-3.082528e+01	-7.623095e+00	-8.847569e+01	6.996337e+01	-5.681502e+01	7.221426e+01
3.626218e+06	-4.369212e+01	-9.323504e+01	-3.082475e+01	-7.622442e+00	-8.812135e+01	6.844725e+01	-5.674606e+01	7.242062e+01
3.626250e+06	-4.369945e+01	-9.326563e+01	-3.082421e+01	-7.621788e+00	-8.777551e+01	6.704858e+01	-5.667754e+01	7.262375e+01
3.626281e+06	-4.369611e+01	-9.326940e+01	-3.082344e+01	-7.615352e+00	-8.808925e+01	6.046251e+01	-5.672738e+01	7.233469e+01
3.626312e+06	-4.369268e+01	-9.327296e+01	-3.082266e+01	-7.608869e+00	-8.829282e+01	5.342292e+01	-5.677824e+01	7.203824e+01
3.626344e+06	-4.368926e+01	-9.327652e+01	-3.082188e+01	-7.602388e+00	-8.836287e+01	4.615685e+01	-5.682916e+01	7.173830e+01
3.626375e+06	-4.368583e+01	-9.328007e+01	-3.082111e+01	-7.595909e+00	-8.829284e+01	3.889077e+01	-5.688014e+01	7.143482e+01
3.626406e+06	-4.368241e+01	-9.328362e+01	-3.082033e+01	-7.589430e+00	-8.808928e+01	3.185114e+01	-5.693118e+01	7.112775e+01
3.626437e+06	-4.368018e+01	-9.322370e+01	-3.082202e+01	-7.599555e+00	-9.053481e+01	3.356542e+01	-5.697577e+01	7.149720e+01
3.626468e+06	-4.367795e+01	-9.316381e+01	-3.082371e+01	-7.609684e+00	-9.392854e+01	3.692456e+01	-5.702022e+01	7.187047e+01
3.626500e+06	-4.367571e+01	-9.310395e+01	-3.082541e+01	-7.619816e+00	-9.941684e+01	4.630064e+01	-5.706452e+01	7.224756e+01
3.626531e+06	-4.367346e+01	-9.304412e+01	-3.082710e+01	-7.629953e+00	-1.088228e+02	1.111299e+02	-5.710867e+01	7.262852e+01
3.626562e+06	-4.367119e+01	-9.298432e+01	-3.082879e+01	-7.640094e+00	-9.995938e+01	-1.744240e+02	-5.715266e+01	7.301336e+01
3.626594e+06	-4.367614e+01	-9.295035e+01	-3.082984e+01	-7.645247e+00	-1.000069e+02	1.740245e+02	-5.706337e+01	7.256378e+01
3.626625e+06	-4.368127e+01	-9.291696e+01	-3.083087e+01	-7.650278e+00	-9.984395e+01	1.616027e+02	-5.697120e+01	7.210341e+01
3.626656e+06	-4.368640e+01	-9.288354e+01	-3.083190e+01	-7.655311e+00	-9.931542e+01	1.501448e+02	-5.687947e+01	7.165269e+01
3.626687e+06	-4.369152e+01	-9.285008e+01	-3.083293e+01	-7.660345e+00	-9.853607e+01	1.403059e+02	-5.678817e+01	7.121137e+01
3.626718e+06	-4.369665e+01	-9.281658e+01	-3.083396e+01	-7.665380e+00	-9.762719e+01	1.322179e+02	-5.669732e+01	7.077920e+01
3.626750e+06	-4.369163e+01	-9.284575e+01	-3.083221e+01	-7.662385e+00	-1.003278e+02	1.472376e+02	-5.679327e+01	7.093909e+01
3.626781e+06	-4.368645e+01	-9.287590e+01	-3.083041e+01	-7.659260e+00	-1.026381e+02	1.754851e+02	-5.689330e+01	7.111242e+01
3.626812e+06	-4.368126e+01	-9.290602e+01	-3.082861e+01	-7.656137e+00	-1.022047e+02	-1.485393e+02	-5.699442e+01	7.128982e+01
3.626844e+06	-4.367608e+01	-9.293610e+01	-3.082681e+01	-7.653015e+00	-9.959086e+01	-1.241067e+02	-5.709664e+01	7.147142e+01
3.626875e+06	-4.367090e+01	-9.296615e+01	-3.082501e+01	-7.649894e+00	-9.691354e+01	-1.111080e+02	-5.719999e+01	7.165736e+01
3.626906e+06	-4.367250e+01	-9.290271e+01	-3.082574e+01	-7.655252e+00	-9.916762e+01	-9.172706e+01	-5.719104e+01	7.167231e+01
3.626937e+06	-4.367414e+01	-9.283849e+01	-3.082648e+01	-7.660679e+00	-1.002275e+02	-6.243962e+01	-5.718119e+01	7.168582e+01
3.626968e+06	-4.367578e+01	-9.277425e+01	-3.082722e+01	-7.666106e+00	-9.897290e+01	-3.386215e+01	-5.717135e+01	7.169931e+01
3.627000e+06	-4.367740e+01	-9.270998e+01	-3.082796e+01	-7.671535e+00	-9.664586e+01	-1.539811e+01	-5.716153e+01	7.171277e+01
3.627031e+06	-4.367901e+01	-9.264569e+01	-3.082870e+01	-7.676965e+00	-9.438554e+01	-4.634126e+00	-5.715171e+01	7.172619e+01
3.627062e+06	-4.368060e+01	-9.268210e+01	-3.082838e+01	-7.683856e+00	-9.465676e+01	1.126264e+01	-5.711707e+01	7.192372e+01
3.627094e+06	-4.368219e+01	-9.271853e+01	-3.082806e+01	-7.690746e+00	-9.426105e+01	2.692734e+01	-5.708246e+01	7.211967e+01
3.627125e+06	-4.368378e+01	-9.275497e+01	-3.082773e+01	-7.697636e+00	-9.335140e+01	4.036170e+01	-5.704790e+01	7.231408e+01
3.627156e+06	-4.368536e+01	-9.279142e+01	-3.082741e+01	-7.704526e+00	-9.218759e+01	5.090585e+01	-5.701337e+01	7.250694e+01
3.627187e+06	-4.368694e+01	-9.282788e+01	-3.082709e+01	-7.711415e+00	-9.096348e+01	5.889627e+01	-5.697888e+01	7.269828e+01
3.627218e+06	-4.368282e+01	-9.292838e+01	-3.083012e+01	-7.715090e+00	-9.097694e+01	4.658907e+01	-5.697259e+01	7.248795e+01
3.627250e+06	-4.367854e+01	-9.303035e+01	-3.083324e+01	-7.718690e+00	-9.060928e+01	3.428167e+01	-5.696687e+01	7.226804e+01
3.627281e+06	-4.367423e+01	-9.313222e+01	-3.083636e+01	-7.722292e+00	-8.991731e+01	2.340613e+01	-5.696103e+01	7.204843e+01
3.627312e+06	-4.366989e+01	-9.323399e+01	-3.083948e+01	-7.725896e+00	-8.903469e+01	1.435046e+01	-5.695507e+01	7.182912e+01
3.627344e+06	-4.366553e+01	-9.333565e+01	-3.084260e+01	-7.729503e+00	-8.807387e+01	7.037075e+00	-5.694898e+01	7.161011e+01
3.627375e+06	-4.366632e+01	-9.324683e+01	-3.083887e+01	-7.723907e+00	-8.866393e+01	7.614945e-01	-5.696930e+01	7.168588e+01
3.627406e+06	-4.366716e+01	-9.315490e+01	-3.083503e+01	-7.718166e+00	-8.919905e+01	-6.395130e+00	-5.699008e+01	7.176682e+01
3.627437e+06	-4.366799e+01	-9.306294e+01	-3.083119e+01	-7.712430e+00	-8.960820e+01	-1.437872e+01	-5.701090e+01	7.184815e+01
3.627468e+06	-4.366879e+01	-9.297097e+01	-3.082735e+01	-7.706699e+00	-8.984700e+01	-2.298517e+01	-5.703175e+01	7.192988e+01
3.627500e+06	-4.366957e+01	-9.287899e+01	-3.082351e+01	-7.700973e+00	-8.988483e+01	-3.187234e+01	-5.705263e+01	7.201199e+01
3.627531e+06	-4.367189e+01	-9.289640e+01	-3.082673e+01	-7.696987e+00	-9.222520e+01	-3.208584e+01	-5.702876e+01	7.188126e+01
3.627562e+06	-4.367422e+01	-9.291470e+01	-3.083001e+01	-7.693012e+00	-9.547094e+01	-3.235890e+01	-5.700454e+01	7.174954e+01
3.627594e+06	-4.367655e+01	-9.293302e+01	-3.083329e+01	-7.689034e+00	-1.007114e+02	-3.308430e+01	-5.698035e+01	7.161856e+01
3.627625e+06	-4.367887e+01	-9.295135e+01	-3.083657e+01	-7.685053e+00	-1.159249e+02	-4.075024e+01	-5.695618e+01	7.148830e+01
3.627656e+06	-4.368120e+01	-9.296968e+01	-3.083985e+01	-7.681069e+00	-1.043506e+02	1.509516e+02	-5.693203e+01	7.135877e+01
3.627687e+06	-4.368095e+01	-9.297744e+01	-3.083940e+01	-7.691718e+00	-1.044930e+02	1.064344e+02	-5.695219e+01	7.128632e+01
3.627718e+06	-4.368071e+01	-9.298519e+01	-3.083895e+01	-7.702366e+00	-1.012010e+02	7.723297e+01	-5.697239e+01	7.121353e+01
3.627750e+06	-4.368046e+01	-9.299295e+01	-3.083850e+01	-7.713012e+00	-9.802366e+01	6.383826e+01	-5.699262e+01	7.114040e+01
3.627781e+06	-4.368021e+01	-9.300070e+01	-3.083805e+01	-7.723658e+00	-9.551445e+01	5.692478e+01	-5.701288e+01	7.106693e+01
3.627812e+06	-4.367997e+01	-9.300845e+01	-3.083760e+01	-7.734303e+00	-9.350994e+01	5.281964e+01	-5.703317e+01	7.099312e+01
3.627844e+06	-4.368600e+01	-9.298781e+01	-3.083884e+01	-7.735552e+00	-9.559167e+01	5.325392e+01	-5.703731e+01	7.117422e+01
3.627875e+06	-4.369219e+01	-9.296643e+01	-3.084013e+01	-7.736570e+00	-9.849152e+01	5.418957e+01	-5.704097e+01	7.136176e+01
3.627906e+06	-4.369839e+01	-9.294502e+01	-3.084142e+01	-7.737589e+00	-1.028669e+02	5.635208e+01	-5.704453e+01	7.154945e+01
3.627937e+06	-4.370459e+01	-9.292358e+01	-3.084270e+01	-7.738608e+00	-1.119390e+02	6.657406e+01	-5.704800e+01	7.173730e+01
3.627968e+06	-4.371079e+01	-9.290211e+01	-3.084399e+01	-7.739628e+00	-1.124490e+02	-1.457581e+02	-5.705138e+01	7.192529e+01
3.628000e+06	-4.370417e+01	-9.289124e+01	-3.084293e+01	-7.726749e+00	-1.058329e+02	1.459928e+02	-5.702148e+01	7.196661e+01
3.628031e+06	-4.369734e+01	-9.288055e+01	-3.084183e+01	-7.713649e+00	-1.002821e+02	1.320778e+02	-5.699114e+01	7.200528e+01
3.628062e+06	-4.369052e+01	-9.286988e+01	-3.084074e+01	-7.700551e+00	-9.680024e+01	1.272014e+02	-5.696091e+01	7.204368e+01
3.628094e+06	-4.368370e+01	-9.285923e+01	-3.083964e+01	-7.687457e+00	-9.429781e+01	1.247552e+02	-5.693077e+01	7.208181e+01
3.628125e+06	-4.367688e+01	-9.284860e+01	-3.083854e+01	-7.674366e+00	-9.234983e+01	1.232901e+02	-5.690074e+01	7.211968e+01
3.628156e+06	-4.368252e+01	-9.284826e+01	-3.083603e+01	-7.675962e+00	-9.536981e+01	1.032167e+02	-5.692317e+01	7.215988e+01
3.628187e+06	-4.368827e+01	-9.284802e+01	-3.083352e+01	-7.677676e+00	-9.702460e+01	6.682194e+01	-5.694607e+01	7.220030e+01
3.628218e+06	-4.369401e+01	-9.284777e+01	-3.083100e+01	-7.679389e+00	-9.507044e+01	3.184522e+01	-5.696903e+01	7.224095e+01
3.628250e+06	-4.369977e+01	-9.284752e+01	-3.082848e+01	-7.681101e+00	-9.201599e+01	1.305893e+01	-5.699205e+01	7.228180e+01
3.628281e+06	-4.370552e+01	-9.284727e+01	-3.082597e+01	-7.682812e+00	-8.938965e+01	3.419696e+00	-5.701512e+01	7.232288e+01
3.628312e+06	-4.370597e+01	-9.291073e+01	-3.082652e+01	-7.688393e+00	-9.175215e+01	3.484131e-01	-5.704188e+01	7.187313e+01
3.628344e+06	-4.370641e+01	-9.297421e+01	-3.082708e+01	-7.693974e+00	-9.493892e+01	-5.476961e+00	-5.706819e+01	7.142063e+01
3.628375e+06	-4.370684e+01	-9.303768e+01	-3.082763e+01	-7.699556e+00	-9.962675e+01	-2.003108e+01	-5.709402e+01	7.096541e+01
3.628406e+06	-4.370725e+01	-9.310117e+01	-3.082818e+01	-7.705139e+00	-1.048391e+02	-7.180601e+01	-5.711938e+01	7.050749e+01
3.628437e+06	-4.370766e+01	-9.316466e+01	-3.082874e+01	-7.710723e+00	-1.003512e+02	-1.304464e+02	-5.714426e+01	7.004692e+01
3.628468e+06	-4.370076e+01	-9.311603e+01	-3.082989e+01	-7.703962e+00	-1.049519e+02	-1.308654e+02	-5.711022e+01	7.060409e+01
3.628500e+06	-4.369369e+01	-9.306474e+01	-3.083106e+01	-7.696895e+00	-1.167980e+02	-1.289968e+02	-5.707400e+01	7.118158e+01
3.628531e+06	-4.368661e+01	-9.301352e+01	-3.083223e+01	-7.689827e+00	-1.111622e+02	4.718137e+01	-5.703706e+01	7.175424e+01
3.628562e+06	-4.367953e+01	-9.296239e+01	-3.083339e+01	-7.682756e+00	-1.031282e+02	4.797291e+01	-5.699942e+01	7.232200e+01
3.628594e+06	-4.367245e+01	-9.291135e+01	-3.083456e+01	-7.675684e+00	-9.902688e+01	4.816866e+01	-5.696110e+01	7.288482e+01
3.628625e+06	-4.367876e+01	-9.295750e+01	-3.083572e+01	-7.681205e+00	-9.673214e+01	2.254809e+01	-5.704442e+01	7.275470e+01
3.628656e+06	-4.368528e+01	-9.300531e+01	-3.083687e+01	-7.686932e+00	-9.411412e+01	8.003646e+00	-5.713051e+01	7.261055e+01
3.628687e+06	-4.369181e+01	-9.305320e+01	-3.083803e+01	-7.692661e+00	-9.185327e+01	-2.296751e-01	-5.721740e+01	7.246351e+01
3.628718e+06	-4.369833e+01	-9.310115e+01	-3.083918e+01	-7.698391e+00	-8.997062e+01	-5.328595e+00	-5.730511e+01	7.231349e+01
3.628750e+06	-4.370485e+01	-9.314918e+01	-3.084034e+01	-7.704123e+00	-8.838564e+01	-8.746661e+00	-5.739366e+01	7.216039e+01
3.628781e+06	-4.370445e+01	-9.307720e+01	-3.083853e+01	-7.704676e+00	-9.010619e+01	-6.549625e+00	-5.728561e+01	7.160383e+01
3.628812e+06	-4.370399e+01	-9.300425e+01	-3.083670e+01	-7.705188e+00	-9.226549e+01	-3.045847e+00	-5.717654e+01	7.105791e+01
3.628844e+06	-4.370351e+01	-9.293132e+01	-3.083486e+01	-7.705699e+00	-9.506568e+01	3.164148e+00	-5.706806e+01	7.052548e+01
3.628875e+06	-4.370302e+01	-9.285840e+01	-3.083303e+01	-7.706209e+00	-9.887176e+01	1.654580e+01	-5.696020e+01	7.000615e+01
3.628906e+06	-4.370251e+01	-9.278548e+01	-3.083120e+01	-7.706720e+00	-1.031791e+02	5.263062e+01	-5.685297e+01	6.949953e+01
3.628937e+06	-4.370306e+01	-9.279944e+01	-3.083216e+01	-7.718869e+00	-1.057725e+02	1.399682e+01	-5.684947e+01	6.997859e+01
