# Hz S dB R 50.000
3.627344e+06	-4.339817e+01	-9.869034e+01	-3.086796e+01	-7.320187e+00	-8.996287e+01	-2.154683e+01	-4.449870e+01	1.398739e+01
3.627375e+06	-4.339228e+01	-9.869356e+01	-3.086977e+01	-7.311636e+00	-9.276297e+01	-7.228007e+00	-4.450754e+01	1.400352e+01
3.627406e+06	-4.338639e+01	-9.869677e+01	-3.087158e+01	-7.303082e+00	-9.531664e+01	2.003541e+01	-4.451640e+01	1.401968e+01
3.627438e+06	-4.338051e+01	-9.869998e+01	-3.087339e+01	-7.294525e+00	-9.519046e+01	5.732066e+01	-4.452526e+01	1.403587e+01
3.627469e+06	-4.337463e+01	-9.870319e+01	-3.087520e+01	-7.285963e+00	-9.255470e+01	8.347423e+01	-4.453412e+01	1.405209e+01
3.627500e+06	-4.336886e+01	-9.870642e+01	-3.087699e+01	-7.277437e+00	-8.981344e+01	9.701765e+01	-4.454292e+01	1.406681e+01
3.627532e+06	-4.337632e+01	-9.871366e+01	-3.087687e+01	-7.273727e+00	-9.149909e+01	8.883105e+01	-4.454133e+01	1.389082e+01
3.627563e+06	-4.338379e+01	-9.872091e+01	-3.087676e+01	-7.270017e+00	-9.325778e+01	7.660910e+01	-4.453966e+01	1.371490e+01
3.627594e+06	-4.339126e+01	-9.872817e+01	-3.087665e+01	-7.266307e+00	-9.472984e+01	5.872554e+01	-4.453791e+01	1.353904e+01
3.627625e+06	-4.339874e+01	-9.873545e+01	-3.087653e+01	-7.262597e+00	-9.521792e+01	3.609265e+01	-4.453608e+01	1.336326e+01
3.627656e+06	-4.340601e+01	-9.874284e+01	-3.087642e+01	-7.259070e+00	-9.445686e+01	1.460888e+01	-4.453415e+01	1.319191e+01
3.627688e+06	-4.339961e+01	-9.875675e+01	-3.087671e+01	-7.266732e+00	-9.899601e+01	3.252881e+00	-4.453100e+01	1.328878e+01
3.627719e+06	-4.339322e+01	-9.877064e+01	-3.087699e+01	-7.274395e+00	-1.053710e+02	-4.051733e+01	-4.452782e+01	1.338557e+01
3.627750e+06	-4.338684e+01	-9.878451e+01	-3.087728e+01	-7.282059e+00	-1.017113e+02	-1.115387e+02	-4.452462e+01	1.348230e+01
3.627782e+06	-4.338046e+01	-9.879836e+01	-3.087756e+01	-7.289723e+00	-9.617616e+01	-1.306913e+02	-4.452140e+01	1.357896e+01
3.627813e+06	-4.337408e+01	-9.881219e+01	-3.087785e+01	-7.297388e+00	-9.259363e+01	-1.372858e+02	-4.451816e+01	1.367554e+01
3.627844e+06	-4.337324e+01	-9.876905e+01	-3.087500e+01	-7.300479e+00	-9.452768e+01	-1.424072e+02	-4.451665e+01	1.371177e+01
3.627875e+06	-4.337245e+01	-9.872546e+01	-3.087212e+01	-7.303531e+00	-9.692946e+01	-1.508974e+02	-4.451516e+01	1.374750e+01
3.627906e+06	-4.337165e+01	-9.868187e+01	-3.086925e+01	-7.306581e+00	-9.975108e+01	-1.665250e+02	-4.451367e+01	1.378322e+01
3.627938e+06	-4.337084e+01	-9.863830e+01	-3.086637e+01	-7.309630e+00	-1.020847e+02	1.642866e+02	-4.451217e+01	1.381893e+01
3.627969e+06	-4.337003e+01	-9.859473e+01	-3.086350e+01	-7.312676e+00	-1.015042e+02	1.276491e+02	-4.451067e+01	1.385462e+01
3.628000e+06	-4.336531e+01	-9.864542e+01	-3.086549e+01	-7.313842e+00	-1.261416e+02	1.308577e+02	-4.450529e+01	1.387502e+01
3.628032e+06	-4.336059e+01	-9.869606e+01	-3.086747e+01	-7.315009e+00	-1.025855e+02	-5.277682e+01	-4.449991e+01	1.389539e+01
3.628063e+06	-4.335587e+01	-9.874664e+01	-3.086946e+01	-7.316177e+00	-9.628176e+01	-5.266009e+01	-4.449454e+01	1.391574e+01
3.628094e+06	-4.335114e+01	-9.879717e+01	-3.087145e+01	-7.317345e+00	-9.266756e+01	-5.262283e+01	-4.448917e+01	1.393606e+01
3.628125e+06	-4.334650e+01	-9.884717e+01	-3.087341e+01	-7.318399e+00	-9.013966e+01	-5.264215e+01	-4.448386e+01	1.395567e+01
3.628156e+06	-4.335366e+01	-9.883818e+01	-3.087271e+01	-7.305327e+00	-8.999221e+01	-5.726110e+01	-4.448609e+01	1.388951e+01
3.628188e+06	-4.336083e+01	-9.882917e+01	-3.087201e+01	-7.292256e+00	-8.979389e+01	-6.169943e+01	-4.448831e+01	1.382331e+01
3.628219e+06	-4.336801e+01	-9.882015e+01	-3.087130e+01	-7.279188e+00	-8.955158e+01	-6.591781e+01	-4.449051e+01	1.375708e+01
3.628250e+06	-4.337519e+01	-9.881111e+01	-3.087059e+01	-7.266122e+00	-8.927271e+01	-6.989012e+01	-4.449271e+01	1.369082e+01
3.628282e+06	-4.338235e+01	-9.880268e+01	-3.086992e+01	-7.253199e+00	-8.902040e+01	-7.352159e+01	-4.449495e+01	1.362614e+01
3.628313e+06	-4.338773e+01	-9.883281e+01	-3.087134e+01	-7.248950e+00	-9.295672e+01	-7.118561e+01	-4.450031e+01	1.366139e+01
3.628344e+06	-4.339311e+01	-9.886298e+01	-3.087275e+01	-7.244700e+00	-1.002316e+02	-6.266421e+01	-4.450567e+01	1.369667e+01
3.628375e+06	-4.339849e+01	-9.889319e+01	-3.087417e+01	-7.240448e+00	-1.072525e+02	6.712766e+01	-4.451103e+01	1.373200e+01
3.628406e+06	-4.340387e+01	-9.892344e+01	-3.087558e+01	-7.236195e+00	-9.555544e+01	9.377533e+01	-4.451639e+01	1.376738e+01
3.628438e+06	-4.340926e+01	-9.895372e+01	-3.087700e+01	-7.231940e+00	-9.058926e+01	9.755143e+01	-4.452175e+01	1.380280e+01
3.628469e+06	-4.340437e+01	-9.892244e+01	-3.087773e+01	-7.242230e+00	-9.164008e+01	9.518290e+01	-4.451278e+01	1.384252e+01
3.628500e+06	-4.339941e+01	-9.889071e+01	-3.087845e+01	-7.252639e+00	-9.286292e+01	9.204702e+01	-4.450369e+01	1.388219e+01
3.628532e+06	-4.339444e+01	-9.885901e+01	-3.087917e+01	-7.263049e+00	-9.424522e+01	8.781260e+01	-4.449462e+01	1.392178e+01
3.628563e+06	-4.338948e+01	-9.882735e+01	-3.087990e+01	-7.273462e+00	-9.580946e+01	8.186274e+01	-4.448555e+01	1.396129e+01
3.628594e+06	-4.338451e+01	-9.879572e+01	-3.088062e+01	-7.283876e+00	-9.754815e+01	7.314206e+01	-4.447648e+01	1.400071e+01
3.628625e+06	-4.338152e+01	-9.877543e+01	-3.088018e+01	-7.273603e+00	-9.835218e+01	4.204370e+01	-4.449272e+01	1.394552e+01
3.628656e+06	-4.337852e+01	-9.875515e+01	-3.087974e+01	-7.263331e+00	-9.675032e+01	1.393284e+01	-4.450898e+01	1.389012e+01
3.628688e+06	-4.337553e+01	-9.873488e+01	-3.087930e+01	-7.253060e+00	-9.430117e+01	-3.257874e+00	-4.452526e+01	1.383451e+01
3.628719e+06	-4.337253e+01	-9.871463e+01	-3.087887e+01	-7.242791e+00	-9.203115e+01	-1.314241e+01	-4.454156e+01	1.377869e+01
3.628750e+06	-4.336959e+01	-9.869469e+01	-3.087843e+01	-7.232644e+00	-9.012523e+01	-1.922773e+01	-4.455770e+01	1.372315e+01
3.628782e+06	-4.337278e+01	-9.871114e+01	-3.087802e+01	-7.237684e+00	-9.102565e+01	-2.568491e+01	-4.454984e+01	1.372810e+01
3.628813e+06	-4.337597e+01	-9.872760e+01	-3.087761e+01	-7.242723e+00	-9.187894e+01	-3.359512e+01	-4.454200e+01	1.373305e+01
3.628844e+06	-4.337916e+01	-9.874407e+01	-3.087721e+01	-7.247761e+00	-9.260424e+01	-4.309525e+01	-4.453415e+01	1.373798e+01
3.628875e+06	-4.338236e+01	-9.876055e+01	-3.087680e+01	-7.252799e+00	-9.309552e+01	-5.404012e+01	-4.452632e+01	1.374291e+01
3.628906e+06	-4.338558e+01	-9.877665e+01	-3.087638e+01	-7.257685e+00	-9.330176e+01	-6.555216e+01	-4.451870e+01	1.374946e+01
3.628938e+06	-4.339059e+01	-9.876873e+01	-3.087491e+01	-7.253278e+00	-9.673453e+01	-5.573220e+01	-4.452344e+01	1.385665e+01
3.628969e+06	-4.339560e+01	-9.876079e+01	-3.087344e+01	-7.248871e+00	-1.012624e+02	-3.048848e+01	-4.452815e+01	1.396395e+01
3.629000e+06	-4.340061e+01	-9.875284e+01	-3.087197e+01	-7.244466e+00	-1.025520e+02	2.594265e+01	-4.453284e+01	1.407136e+01
3.629032e+06	-4.340563e+01	-9.874489e+01	-3.087050e+01	-7.240063e+00	-9.811157e+01	6.137382e+01	-4.453750e+01	1.417889e+01
3.629063e+06	-4.341065e+01	-9.873692e+01	-3.086903e+01	-7.235661e+00	-9.430054e+01	7.433009e+01	-4.454213e+01	1.428654e+01
3.629094e+06	-4.340990e+01	-9.874992e+01	-3.087135e+01	-7.225196e+00	-9.313716e+01	7.280254e+01	-4.453366e+01	1.418340e+01
3.629125e+06	-4.340911e+01	-9.876308e+01	-3.087370e+01	-7.214676e+00	-9.211908e+01	7.154920e+01	-4.452505e+01	1.407876e+01
3.629156e+06	-4.340832e+01	-9.877624e+01	-3.087605e+01	-7.204150e+00	-9.120491e+01	7.054587e+01	-4.451643e+01	1.397433e+01
3.629188e+06	-4.340752e+01	-9.878940e+01	-3.087840e+01	-7.193618e+00	-9.037587e+01	6.972500e+01	-4.450778e+01	1.387011e+01
3.629219e+06	-4.340673e+01	-9.880255e+01	-3.088075e+01	-7.183081e+00	-8.961776e+01	6.904122e+01	-4.449912e+01	1.376610e+01
3.629250e+06	-4.340069e+01	-9.888708e+01	-3.087870e+01	-7.185376e+00	-9.336259e+01	6.470351e+01	-4.449551e+01	1.384349e+01
3.629282e+06	-4.339463e+01	-9.897149e+01	-3.087666e+01	-7.187671e+00	-9.974259e+01	5.066103e+01	-4.449189e+01	1.392082e+01
3.629313e+06	-4.338856e+01	-9.905579e+01	-3.087461e+01	-7.189964e+00	-1.056549e+02	-4.185191e+01	-4.448825e+01	1.399808e+01
3.629344e+06	-4.338248e+01	-9.913996e+01	-3.087257e+01	-7.192256e+00	-9.649149e+01	-8.525375e+01	-4.448460e+01	1.407528e+01
3.629375e+06	-4.337649e+01	-9.922277e+01	-3.087054e+01	-7.194593e+00	-9.162670e+01	-9.302442e+01	-4.448105e+01	1.415206e+01
3.629406e+06	-4.338397e+01	-9.915072e+01	-3.087014e+01	-7.202584e+00	-9.684627e+01	-9.485434e+01	-4.449195e+01	1.418606e+01
3.629438e+06	-4.339144e+01	-9.907853e+01	-3.086974e+01	-7.210574e+00	-1.114349e+02	-1.130554e+02	-4.450287e+01	1.422015e+01
3.629469e+06	-4.339890e+01	-9.900623e+01	-3.086934e+01	-7.218564e+00	-1.005059e+02	9.537050e+01	-4.451379e+01	1.425432e+01
3.629500e+06	-4.340636e+01	-9.893379e+01	-3.086893e+01	-7.226553e+00	-9.344700e+01	9.193004e+01	-4.452473e+01	1.428858e+01
3.629532e+06	-4.341354e+01	-9.886302e+01	-3.086852e+01	-7.234594e+00	-8.969121e+01	9.080496e+01	-4.453543e+01	1.432103e+01
3.629563e+06	-4.340420e+01	-9.890183e+01	-3.086738e+01	-7.245930e+00	-9.257958e+01	7.704355e+01	-4.453078e+01	1.423753e+01
3.629594e+06	-4.339486e+01	-9.894056e+01	-3.086624e+01	-7.257263e+00	-9.536355e+01	4.984597e+01	-4.452611e+01	1.415411e+01
3.629625e+06	-4.338552e+01	-9.897920e+01	-3.086509e+01	-7.268593e+00	-9.537902e+01	1.073099e+01	-4.452143e+01	1.407078e+01
3.629656e+06	-4.337620e+01	-9.901776e+01	-3.086395e+01	-7.279920e+00	-9.260405e+01	-1.660241e+01	-4.451673e+01	1.398754e+01
3.629688e+06	-4.336687e+01	-9.905623e+01	-3.086281e+01	-7.291244e+00	-8.971218e+01	-3.043743e+01	-4.451202e+01	1.390439e+01
3.629719e+06	-4.337414e+01	-9.898429e+01	-3.086610e+01	-7.283431e+00	-9.445455e+01	-2.121330e+01	-4.451164e+01	1.387236e+01
3.629750e+06	-4.338152e+01	-9.891134e+01	-3.086942e+01	-7.275457e+00	-1.023695e+02	2.332774e+01	-4.451129e+01	1.384074e+01
3.629782e+06	-4.338890e+01	-9.883826e+01	-3.087275e+01	-7.267477e+00	-9.746202e+01	1.059116e+02	-4.451094e+01	1.380912e+01
3.629813e+06	-4.339628e+01	-9.876506e+01	-3.087608e+01	-7.259490e+00	-9.140941e+01	1.222176e+02	-4.451059e+01	1.377750e+01
3.629844e+06	-4.340364e+01	-9.869173e+01	-3.087941e+01	-7.251498e+00	-8.772529e+01	1.274686e+02	-4.451023e+01	1.374589e+01
3.629875e+06	-4.340202e+01	-9.871793e+01	-3.087905e+01	-7.244588e+00	-8.966555e+01	1.279344e+02	-4.451027e+01	1.380288e+01
3.629906e+06	-4.340040e+01	-9.874412e+01	-3.087869e+01	-7.237679e+00	-9.216649e+01	1.287111e+02	-4.451031e+01	1.385988e+01
3.629938e+06	-4.339877e+01	-9.877029e+01	-3.087832e+01	-7.230771e+00	-9.568784e+01	1.302651e+02	-4.451033e+01	1.391687e+01
3.629969e+06	-4.339714e+01	-9.879646e+01	-3.087796e+01	-7.223863e+00	-1.016689e+02	1.349099e+02	-4.451035e+01	1.397386e+01
3.630000e+06	-4.339550e+01	-9.882236e+01	-3.087760e+01	-7.216978e+00	-1.174059e+02	-1.432346e+02	-4.451046e+01	1.403059e+01
3.630032e+06	-4.339141e+01	-9.881621e+01	-3.087700e+01	-7.212796e+00	-1.099595e+02	-1.318421e+02	-4.452240e+01	1.405405e+01
3.630063e+06	-4.338733e+01	-9.881007e+01	-3.087641e+01	-7.208615e+00	-1.059520e+02	-1.288134e+02	-4.453435e+01	1.407759e+01
3.630094e+06	-4.338325e+01	-9.880393e+01	-3.087581e+01	-7.204434e+00	-1.032121e+02	-1.274212e+02	-4.454632e+01	1.410118e+01
3.630125e+06	-4.337917e+01	-9.879780e+01	-3.087522e+01	-7.200254e+00	-1.011300e+02	-1.266221e+02	-4.455831e+01	1.412484e+01
3.630156e+06	-4.337522e+01	-9.879168e+01	-3.087460e+01	-7.196413e+00	-9.952153e+01	-1.258460e+02	-4.457011e+01	1.414693e+01
3.630188e+06	-4.337904e+01	-9.878629e+01	-3.087281e+01	-7.213344e+00	-1.022832e+02	-1.023308e+02	-4.456935e+01	1.406808e+01
3.630219e+06	-4.338286e+01	-9.878089e+01	-3.087102e+01	-7.230269e+00	-1.029991e+02	-6.578621e+01	-4.456858e+01	1.398925e+01
3.630250e+06	-4.338668e+01	-9.877548e+01	-3.086923e+01	-7.247186e+00	-1.007215e+02	-3.595408e+01	-4.456779e+01	1.391043e+01
3.630282e+06	-4.339050e+01	-9.877007e+01	-3.086744e+01	-7.264096e+00	-9.788320e+01	-1.993047e+01	-4.456698e+01	1.383163e+01
3.630313e+06	-4.339432e+01	-9.876465e+01	-3.086565e+01	-7.281000e+00	-9.545956e+01	-1.126793e+01	-4.456616e+01	1.375284e+01
3.630344e+06	-4.339432e+01	-9.877059e+01	-3.086583e+01	-7.278455e+00	-9.794549e+01	-1.317586e+01	-4.456261e+01	1.377392e+01
3.630375e+06	-4.339428e+01	-9.877661e+01	-3.086602e+01	-7.275753e+00	-1.014808e+02	-1.713822e+01	-4.455904e+01	1.379579e+01
3.630406e+06	-4.339425e+01	-9.878264e+01	-3.086620e+01	-7.273051e+00	-1.072970e+02	-2.883875e+01	-4.455547e+01	1.381764e+01
3.630438e+06	-4.339421e+01	-9.878866e+01	-3.086639e+01	-7.270348e+00	-1.151346e+02	-1.064393e+02	-4.455190e+01	1.383947e+01
3.630469e+06	-4.339418e+01	-9.879469e+01	-3.086658e+01	-7.267646e+00	-1.061252e+02	-1.650241e+02	-4.454833e+01	1.386129e+01
3.630500e+06	-4.339997e+01	-9.883871e+01	-3.086668e+01	-7.258345e+00	-1.032733e+02	1.693686e+02	-4.454443e+01	1.389318e+01
3.630532e+06	-4.340575e+01	-9.888279e+01	-3.086679e+01	-7.249044e+00	-1.004380e+02	1.563919e+02	-4.454053e+01	1.392504e+01
3.630563e+06	-4.341154e+01	-9.892692e+01	-3.086689e+01	-7.239742e+00	-9.811238e+01	1.492713e+02	-4.453663e+01	1.395687e+01
3.630594e+06	-4.341732e+01	-9.897112e+01	-3.086700e+01	-7.230441e+00	-9.621307e+01	1.449003e+02	-4.453273e+01	1.398867e+01
3.630625e+06	-4.342310e+01	-9.901430e+01	-3.086712e+01	-7.221224e+00	-9.464117e+01	1.418447e+02	-4.452884e+01	1.402014e+01
3.630656e+06	-4.342749e+01	-9.892407e+01	-3.087003e+01	-7.222632e+00	-9.445480e+01	1.231027e+02	-4.452608e+01	1.401376e+01
3.630688e+06	-4.343187e+01	-9.883375e+01	-3.087294e+01	-7.224041e+00	-9.348394e+01	1.067691e+02	-4.452333e+01	1.400738e+01
3.630719e+06	-4.343622e+01	-9.874334e+01	-3.087585e+01	-7.225451e+00	-9.212608e+01	9.434818e+01	-4.452058e+01	1.400100e+01
3.630750e+06	-4.344056e+01	-9.865284e+01	-3.087876e+01	-7.226862e+00	-9.069448e+01	8.537283e+01	-4.451783e+01	1.399463e+01
3.630782e+06	-4.344455e+01	-9.856397e+01	-3.088155e+01	-7.228415e+00	-8.934196e+01	7.899471e+01	-4.451518e+01	1.398752e+01
3.630813e+06	-4.342859e+01	-9.858110e+01	-3.087701e+01	-7.238686e+00	-8.868126e+01	8.054516e+01	-4.451923e+01	1.393448e+01
3.630844e+06	-4.341265e+01	-9.859816e+01	-3.087247e+01	-7.248947e+00	-8.806217e+01	8.188316e+01	-4.452327e+01	1.388138e+01
3.630875e+06	-4.339674e+01	-9.861516e+01	-3.086794e+01	-7.259196e+00	-8.748043e+01	8.304837e+01	-4.452731e+01	1.382824e+01
3.630906e+06	-4.338086e+01	-9.863209e+01	-3.086341e+01	-7.269435e+00	-8.693225e+01	8.407143e+01	-4.453134e+01	1.377505e+01
3.630938e+06	-4.336501e+01	-9.864897e+01	-3.085888e+01	-7.279663e+00	-8.641432e+01	8.497631e+01	-4.453537e+01	1.372181e+01
3.630969e+06	-4.336610e+01	-9.863628e+01	-3.086102e+01	-7.269718e+00	-8.833059e+01	8.809786e+01	-4.453437e+01	1.377361e+01
3.631000e+06	-4.336732e+01	-9.862336e+01	-3.086322e+01	-7.259606e+00	-9.076554e+01	9.328647e+01	-4.453331e+01	1.382625e+01
3.631032e+06	-4.336855e+01	-9.861043e+01	-3.086541e+01	-7.249488e+00	-9.395992e+01	1.032431e+02	-4.453226e+01	1.387888e+01
3.631063e+06	-4.336977e+01	-9.859750e+01	-3.086761e+01	-7.239365e+00	-9.798739e+01	1.266398e+02	-4.453119e+01	1.393149e+01
3.631094e+06	-4.337100e+01	-9.858456e+01	-3.086981e+01	-7.229237e+00	-9.959213e+01	1.760563e+02	-4.453012e+01	1.398409e+01
3.631125e+06	-4.337631e+01	-9.861937e+01	-3.086812e+01	-7.225842e+00	-1.015491e+02	1.678499e+02	-4.453060e+01	1.398201e+01
3.631156e+06	-4.338163e+01	-9.865422e+01	-3.086644e+01	-7.222448e+00	-1.036976e+02	1.546121e+02	-4.453109e+01	1.397992e+01
3.631188e+06	-4.338694e+01	-9.868912e+01	-3.086476e+01	-7.219056e+00	-1.055445e+02	1.333440e+02	-4.453157e+01	1.397783e+01
3.631219e+06	-4.339226e+01	-9.872406e+01	-3.086307e+01	-7.215665e+00	-1.059101e+02	1.054421e+02	-4.453206e+01	1.397575e+01
3.631250e+06	-4.339747e+01	-9.875901e+01	-3.086141e+01	-7.212362e+00	-1.044106e+02	8.139700e+01	-4.453259e+01	1.397446e+01
3.631282e+06	-4.339022e+01	-9.879058e+01	-3.086289e+01	-7.219809e+00	-9.945784e+01	9.192508e+01	-4.453829e+01	1.407162e+01
3.631313e+06	-4.338297e+01	-9.882210e+01	-3.086436e+01	-7.227259e+00	-9.624365e+01	9.601696e+01	-4.454398e+01	1.416891e+01
3.631344e+06	-4.337573e+01	-9.885357e+01	-3.086583e+01	-7.234712e+00	-9.388507e+01	9.816982e+01	-4.454964e+01	1.426632e+01
3.631375e+06	-4.336848e+01	-9.888498e+01	-3.086731e+01	-7.242167e+00	-9.202599e+01	9.949438e+01	-4.455529e+01	1.436386e+01
3.631406e+06	-4.336142e+01	-9.891568e+01	-3.086872e+01	-7.249448e+00	-9.051908e+01	1.002523e+02	-4.456076e+01	1.445865e+01
3.631438e+06	-4.336505e+01	-9.890544e+01	-3.086627e+01	-7.245888e+00	-9.066396e+01	9.219267e+01	-4.455701e+01	1.437609e+01
3.631469e+06	-4.336868e+01	-9.889519e+01	-3.086382e+01	-7.242331e+00	-9.063446e+01	8.402458e+01	-4.455324e+01	1.429361e+01
3.631500e+06	-4.337231e+01	-9.888493e+01	-3.086137e+01	-7.238775e+00	-9.043403e+01	7.607127e+01	-4.454946e+01	1.421120e+01
3.631532e+06	-4.337595e+01	-9.887467e+01	-3.085892e+01	-7.235221e+00	-9.008478e+01	6.860857e+01	-4.454566e+01	1.412886e+01
3.631563e+06	-4.337958e+01	-9.886439e+01	-3.085647e+01	-7.231669e+00	-8.962012e+01	6.181669e+01	-4.454184e+01	1.404659e+01
3.631594e+06	-4.338562e+01	-9.891436e+01	-3.085837e+01	-7.217424e+00	-9.042107e+01	6.810375e+01	-4.454243e+01	1.402171e+01
3.631625e+06	-4.339167e+01	-9.896488e+01	-3.086031e+01	-7.203085e+00	-9.117342e+01	7.575519e+01	-4.454304e+01	1.399729e+01
3.631656e+06	-4.339772e+01	-9.901547e+01	-3.086224e+01	-7.188741e+00	-9.179791e+01	8.473095e+01	-4.454366e+01	1.397287e+01
3.631688e+06	-4.340377e+01	-9.906613e+01	-3.086418e+01	-7.174390e+00	-9.221179e+01	9.485783e+01	-4.454428e+01	1.394844e+01
3.631719e+06	-4.340981e+01	-9.911686e+01	-3.086611e+01	-7.160032e+00	-9.234347e+01	1.056488e+02	-4.454489e+01	1.392401e+01
3.631750e+06	-4.340818e+01	-9.902392e+01	-3.086463e+01	-7.177271e+00	-9.357515e+01	1.098367e+02	-4.454500e+01	1.391862e+01
3.631782e+06	-4.340652e+01	-9.893101e+01	-3.086314e+01	-7.194503e+00	-9.493705e+01	1.154860e+02	-4.454510e+01	1.391324e+01
3.631813e+06	-4.340485e+01	-9.883813e+01	-3.086166e+01	-7.211730e+00	-9.641206e+01	1.233292e+02	-4.454521e+01	1.390785e+01
3.631844e+06	-4.340315e+01	-9.874530e+01	-3.086017e+01	-7.228951e+00	-9.790910e+01	1.344069e+02	-4.454531e+01	1.390246e+01
3.631875e+06	-4.340144e+01	-9.865309e+01	-3.085872e+01	-7.246083e+00	-9.916864e+01	1.492544e+02	-4.454535e+01	1.389749e+01
3.631906e+06	-4.340133e+01	-9.863474e+01	-3.086085e+01	-7.252911e+00	-9.786163e+01	1.123351e+02	-4.453640e+01	1.394341e+01
3.631938e+06	-4.340123e+01	-9.861639e+01	-3.086297e+01	-7.259744e+00	-9.487541e+01	9.083960e+01	-4.452745e+01	1.398923e+01
3.631969e+06	-4.340112e+01	-9.859804e+01	-3.086510e+01	-7.266579e+00	-9.217148e+01	7.986821e+01	-4.451850e+01	1.403497e+01
3.632000e+06	-4.340102e+01	-9.857969e+01	-3.086723e+01	-7.273418e+00	-8.997007e+01	7.365683e+01	-4.450956e+01	1.408060e+01
3.632032e+06	-4.340091e+01	-9.856284e+01	-3.086929e+01	-7.280052e+00	-8.820775e+01	6.984135e+01	-4.450082e+01	1.412466e+01
3.632063e+06	-4.340079e+01	-9.863851e+01	-3.086706e+01	-7.273864e+00	-8.944165e+01	7.303027e+01	-4.450370e+01	1.407693e+01
3.632094e+06	-4.340066e+01	-9.871418e+01	-3.086482e+01	-7.267680e+00	-9.083735e+01	7.734855e+01	-4.450658e+01	1.402917e+01
3.632125e+06	-4.340051e+01	-9.878984e+01	-3.086259e+01	-7.261499e+00	-9.241695e+01	8.343666e+01	-4.450945e+01	1.398138e+01
3.632156e+06	-4.340035e+01	-9.886551e+01	-3.086035e+01	-7.255321e+00	-9.416951e+01	9.239117e+01	-4.451232e+01	1.393356e+01
3.632188e+06	-4.340017e+01	-9.894116e+01	-3.085812e+01	-7.249146e+00	-9.595768e+01	1.059229e+02	-4.451519e+01	1.388570e+01
3.632219e+06	-4.339610e+01	-9.894285e+01	-3.085875e+01	-7.258395e+00	-9.622480e+01	1.165919e+02	-4.450190e+01	1.394222e+01
3.632250e+06	-4.339200e+01	-9.894393e+01	-3.085941e+01	-7.267769e+00	-9.617537e+01	1.274705e+02	-4.448849e+01	1.399941e+01
3.632282e+06	-4.338790e+01	-9.894502e+01	-3.086007e+01	-7.277145e+00	-9.582965e+01	1.378599e+02	-4.447509e+01	1.405642e+01
3.632313e+06	-4.338380e+01	-9.894610e+01	-3.086072e+01	-7.286522e+00	-9.525077e+01	1.471902e+02	-4.446170e+01	1.411326e+01
3.632344e+06	-4.337970e+01	-9.894718e+01	-3.086138e+01	-7.295900e+00	-9.452235e+01	1.552075e+02	-4.444833e+01	1.416992e+01
3.632375e+06	-4.338412e+01	-9.888190e+01	-3.086172e+01	-7.285193e+00	-9.606236e+01	1.585621e+02	-4.446850e+01	1.411536e+01
