# Hz S dB R 50.000
3.627969e+06	-4.334875e+01	-9.838520e+01	-3.084550e+01	-7.194338e+00	-8.883329e+01	-1.465776e+01	-4.913261e+01	2.263876e+01
3.628000e+06	-4.335366e+01	-9.844498e+01	-3.084532e+01	-7.187218e+00	-9.071278e+01	-1.340180e+01	-4.915939e+01	2.278016e+01
3.628032e+06	-4.335856e+01	-9.850483e+01	-3.084513e+01	-7.180099e+00	-9.310559e+01	-1.134757e+01	-4.918619e+01	2.292243e+01
3.628063e+06	-4.336346e+01	-9.856475e+01	-3.084495e+01	-7.172980e+00	-9.638786e+01	-7.397063e+00	-4.921303e+01	2.306558e+01
3.628094e+06	-4.336835e+01	-9.862474e+01	-3.084476e+01	-7.165861e+00	-1.015258e+02	3.067930e+00	-4.923989e+01	2.320962e+01
3.628125e+06	-4.337316e+01	-9.868412e+01	-3.084457e+01	-7.158744e+00	-1.095112e+02	5.725803e+01	-4.926652e+01	2.335328e+01
3.628156e+06	-4.336930e+01	-9.865996e+01	-3.084392e+01	-7.151908e+00	-1.044760e+02	7.490944e+00	-4.925968e+01	2.334016e+01
3.628188e+06	-4.336544e+01	-9.863583e+01	-3.084326e+01	-7.145072e+00	-9.990214e+01	-7.136419e+00	-4.925285e+01	2.332706e+01
3.628219e+06	-4.336158e+01	-9.861172e+01	-3.084260e+01	-7.138238e+00	-9.675732e+01	-1.309702e+01	-4.924603e+01	2.331398e+01
3.628250e+06	-4.335773e+01	-9.858763e+01	-3.084195e+01	-7.131404e+00	-9.441507e+01	-1.626202e+01	-4.923921e+01	2.330091e+01
3.628282e+06	-4.335393e+01	-9.856384e+01	-3.084134e+01	-7.124953e+00	-9.263661e+01	-1.807976e+01	-4.923235e+01	2.328727e+01
3.628313e+06	-4.335366e+01	-9.855718e+01	-3.084359e+01	-7.141964e+00	-9.645433e+01	-7.458528e+00	-4.922223e+01	2.323679e+01
3.628344e+06	-4.335339e+01	-9.855051e+01	-3.084585e+01	-7.158984e+00	-1.015818e+02	2.361948e+01	-4.921211e+01	2.318642e+01
3.628375e+06	-4.335313e+01	-9.854384e+01	-3.084810e+01	-7.176012e+00	-1.012707e+02	8.761384e+01	-4.920200e+01	2.313617e+01
3.628406e+06	-4.335286e+01	-9.853718e+01	-3.085036e+01	-7.193049e+00	-9.616692e+01	1.164189e+02	-4.919189e+01	2.308604e+01
3.628438e+06	-4.335259e+01	-9.853051e+01	-3.085261e+01	-7.210096e+00	-9.243573e+01	1.264534e+02	-4.918179e+01	2.303602e+01
3.628469e+06	-4.335166e+01	-9.853898e+01	-3.085329e+01	-7.195834e+00	-9.293962e+01	1.254629e+02	-4.918387e+01	2.293856e+01
3.628500e+06	-4.335071e+01	-9.854757e+01	-3.085396e+01	-7.181318e+00	-9.350390e+01	1.242712e+02	-4.918602e+01	2.284067e+01
3.628532e+06	-4.334977e+01	-9.855616e+01	-3.085463e+01	-7.166800e+00	-9.410281e+01	1.229087e+02	-4.918814e+01	2.274273e+01
3.628563e+06	-4.334883e+01	-9.856475e+01	-3.085530e+01	-7.152280e+00	-9.473999e+01	1.213379e+02	-4.919024e+01	2.264474e+01
3.628594e+06	-4.334789e+01	-9.857333e+01	-3.085597e+01	-7.137757e+00	-9.541941e+01	1.195098e+02	-4.919232e+01	2.254671e+01
3.628625e+06	-4.335419e+01	-9.856194e+01	-3.085522e+01	-7.146978e+00	-1.008110e+02	9.289053e+01	-4.918886e+01	2.258234e+01
3.628656e+06	-4.336049e+01	-9.855053e+01	-3.085446e+01	-7.156198e+00	-1.017356e+02	2.489798e+01	-4.918539e+01	2.261794e+01
3.628688e+06	-4.336679e+01	-9.853910e+01	-3.085371e+01	-7.165416e+00	-9.620889e+01	-8.181548e+00	-4.918192e+01	2.265351e+01
3.628719e+06	-4.337310e+01	-9.852766e+01	-3.085296e+01	-7.174633e+00	-9.221869e+01	-1.869524e+01	-4.917845e+01	2.268905e+01
3.628750e+06	-4.337935e+01	-9.851669e+01	-3.085219e+01	-7.183763e+00	-8.943361e+01	-2.341113e+01	-4.917493e+01	2.272407e+01
3.628782e+06	-4.337829e+01	-9.856630e+01	-3.085024e+01	-7.182367e+00	-9.175941e+01	-1.774998e+01	-4.916437e+01	2.269751e+01
3.628813e+06	-4.337722e+01	-9.861590e+01	-3.084828e+01	-7.180971e+00	-9.472057e+01	-7.303856e+00	-4.915382e+01	2.267101e+01
3.628844e+06	-4.337615e+01	-9.866549e+01	-3.084632e+01	-7.179576e+00	-9.822933e+01	1.514595e+01	-4.914328e+01	2.264458e+01
3.628875e+06	-4.337507e+01	-9.871507e+01	-3.084436e+01	-7.178181e+00	-9.973950e+01	5.803336e+01	-4.913276e+01	2.261821e+01
3.628906e+06	-4.337390e+01	-9.876441e+01	-3.084244e+01	-7.176591e+00	-9.701029e+01	9.340593e+01	-4.912281e+01	2.259524e+01
3.628938e+06	-4.336778e+01	-9.880024e+01	-3.084274e+01	-7.162929e+00	-1.024151e+02	1.039740e+02	-4.914766e+01	2.277794e+01
3.628969e+06	-4.336165e+01	-9.883602e+01	-3.084304e+01	-7.149267e+00	-1.107970e+02	1.677280e+02	-4.917249e+01	2.296168e+01
3.629000e+06	-4.335553e+01	-9.887175e+01	-3.084333e+01	-7.135603e+00	-1.028406e+02	-1.218926e+02	-4.919731e+01	2.314648e+01
3.629032e+06	-4.334940e+01	-9.890743e+01	-3.084362e+01	-7.121938e+00	-9.725034e+01	-1.104720e+02	-4.922210e+01	2.333233e+01
3.629063e+06	-4.334328e+01	-9.894306e+01	-3.084392e+01	-7.108272e+00	-9.379450e+01	-1.064647e+02	-4.924687e+01	2.351925e+01
3.629094e+06	-4.334463e+01	-9.884539e+01	-3.084373e+01	-7.119591e+00	-9.636524e+01	-9.922896e+01	-4.923553e+01	2.343531e+01
3.629125e+06	-4.334601e+01	-9.874662e+01	-3.084354e+01	-7.131111e+00	-9.969361e+01	-8.473207e+01	-4.922390e+01	2.334940e+01
3.629156e+06	-4.334736e+01	-9.864782e+01	-3.084335e+01	-7.142631e+00	-1.029638e+02	-5.238116e+01	-4.921226e+01	2.326373e+01
3.629188e+06	-4.334869e+01	-9.854898e+01	-3.084316e+01	-7.154150e+00	-1.021743e+02	-6.984047e+00	-4.920062e+01	2.317829e+01
3.629219e+06	-4.335000e+01	-9.845012e+01	-3.084297e+01	-7.165668e+00	-9.861589e+01	1.858487e+01	-4.918898e+01	2.309307e+01
3.629250e+06	-4.335366e+01	-9.845774e+01	-3.084449e+01	-7.167992e+00	-1.042848e+02	4.874174e+01	-4.919870e+01	2.303412e+01
3.629282e+06	-4.335732e+01	-9.846536e+01	-3.084601e+01	-7.170317e+00	-1.040890e+02	1.193662e+02	-4.920842e+01	2.297504e+01
3.629313e+06	-4.336098e+01	-9.847299e+01	-3.084753e+01	-7.172643e+00	-9.845603e+01	1.481965e+02	-4.921814e+01	2.291583e+01
3.629344e+06	-4.336464e+01	-9.848062e+01	-3.084905e+01	-7.174970e+00	-9.457986e+01	1.574821e+02	-4.922786e+01	2.285649e+01
3.629375e+06	-4.336829e+01	-9.848780e+01	-3.085057e+01	-7.177226e+00	-9.187590e+01	1.617974e+02	-4.923746e+01	2.279783e+01
3.629406e+06	-4.337036e+01	-9.843823e+01	-3.085204e+01	-7.170550e+00	-9.587452e+01	1.666981e+02	-4.923113e+01	2.283986e+01
3.629438e+06	-4.337242e+01	-9.838864e+01	-3.085352e+01	-7.163873e+00	-1.029587e+02	-1.754828e+02	-4.922481e+01	2.288184e+01
3.629469e+06	-4.337448e+01	-9.833903e+01	-3.085499e+01	-7.157193e+00	-1.059547e+02	-7.308307e+01	-4.921848e+01	2.292375e+01
3.629500e+06	-4.337653e+01	-9.828939e+01	-3.085646e+01	-7.150510e+00	-9.737769e+01	-4.217343e+01	-4.921215e+01	2.296561e+01
3.629532e+06	-4.337870e+01	-9.824251e+01	-3.085785e+01	-7.143954e+00	-9.293107e+01	-3.560536e+01	-4.920574e+01	2.300671e+01
3.629563e+06	-4.338887e+01	-9.836704e+01	-3.085440e+01	-7.145268e+00	-9.758067e+01	-2.114627e+01	-4.919357e+01	2.300525e+01
3.629594e+06	-4.339900e+01	-9.849187e+01	-3.085094e+01	-7.146580e+00	-1.027853e+02	2.978991e+01	-4.918143e+01	2.300379e+01
3.629625e+06	-4.340910e+01	-9.861699e+01	-3.084748e+01	-7.147892e+00	-9.843100e+01	8.869371e+01	-4.916930e+01	2.300234e+01
3.629656e+06	-4.341918e+01	-9.874239e+01	-3.084403e+01	-7.149202e+00	-9.349569e+01	1.057831e+02	-4.915718e+01	2.300089e+01
3.629688e+06	-4.342922e+01	-9.886809e+01	-3.084058e+01	-7.150512e+00	-9.016152e+01	1.122954e+02	-4.914509e+01	2.299944e+01
3.629719e+06	-4.341794e+01	-9.884040e+01	-3.084175e+01	-7.141241e+00	-9.186170e+01	1.047418e+02	-4.913442e+01	2.303375e+01
3.629750e+06	-4.340650e+01	-9.881155e+01	-3.084296e+01	-7.131882e+00	-9.373334e+01	9.312499e+01	-4.912377e+01	2.306826e+01
3.629782e+06	-4.339508e+01	-9.878277e+01	-3.084417e+01	-7.122521e+00	-9.541757e+01	7.547301e+01	-4.911313e+01	2.310268e+01
3.629813e+06	-4.338367e+01	-9.875407e+01	-3.084538e+01	-7.113157e+00	-9.614149e+01	5.188757e+01	-4.910251e+01	2.313702e+01
3.629844e+06	-4.337227e+01	-9.872544e+01	-3.084659e+01	-7.103791e+00	-9.536088e+01	2.846476e+01	-4.909189e+01	2.317128e+01
3.629875e+06	-4.337395e+01	-9.874577e+01	-3.084720e+01	-7.115828e+00	-9.461186e+01	3.100830e+01	-4.910683e+01	2.315494e+01
3.629906e+06	-4.337563e+01	-9.876610e+01	-3.084782e+01	-7.127866e+00	-9.390896e+01	3.316011e+01	-4.912179e+01	2.313854e+01
3.629938e+06	-4.337731e+01	-9.878644e+01	-3.084843e+01	-7.139907e+00	-9.324899e+01	3.499932e+01	-4.913678e+01	2.312209e+01
3.629969e+06	-4.337899e+01	-9.880679e+01	-3.084904e+01	-7.151949e+00	-9.262845e+01	3.658636e+01	-4.915180e+01	2.310558e+01
3.630000e+06	-4.338067e+01	-9.882631e+01	-3.084964e+01	-7.163747e+00	-9.206680e+01	3.788022e+01	-4.916672e+01	2.308874e+01
3.630032e+06	-4.338249e+01	-9.874101e+01	-3.084892e+01	-7.145128e+00	-9.451341e+01	2.495366e+01	-4.916726e+01	2.303895e+01
3.630063e+06	-4.338429e+01	-9.865567e+01	-3.084820e+01	-7.126513e+00	-9.680856e+01	2.238392e+00	-4.916779e+01	2.298914e+01
3.630094e+06	-4.338607e+01	-9.857031e+01	-3.084748e+01	-7.107900e+00	-9.731132e+01	-2.996388e+01	-4.916831e+01	2.293934e+01
3.630125e+06	-4.338783e+01	-9.848490e+01	-3.084675e+01	-7.089291e+00	-9.544643e+01	-5.706494e+01	-4.916883e+01	2.288952e+01
3.630156e+06	-4.338946e+01	-9.840106e+01	-3.084606e+01	-7.071032e+00	-9.301632e+01	-7.307208e+01	-4.916937e+01	2.283999e+01
3.630188e+06	-4.338412e+01	-9.841556e+01	-3.084750e+01	-7.074164e+00	-9.485520e+01	-8.860925e+01	-4.917169e+01	2.280811e+01
3.630219e+06	-4.337878e+01	-9.843004e+01	-3.084894e+01	-7.077297e+00	-9.602052e+01	-1.108532e+02	-4.917402e+01	2.277621e+01
3.630250e+06	-4.337345e+01	-9.844450e+01	-3.085039e+01	-7.080431e+00	-9.571098e+01	-1.355456e+02	-4.917634e+01	2.274429e+01
3.630282e+06	-4.336811e+01	-9.845895e+01	-3.085183e+01	-7.083566e+00	-9.417532e+01	-1.552881e+02	-4.917866e+01	2.271236e+01
3.630313e+06	-4.336278e+01	-9.847337e+01	-3.085327e+01	-7.086702e+00	-9.227934e+01	-1.684408e+02	-4.918098e+01	2.268041e+01
3.630344e+06	-4.335888e+01	-9.855267e+01	-3.085217e+01	-7.078323e+00	-9.636724e+01	-1.666064e+02	-4.919023e+01	2.276206e+01
3.630375e+06	-4.335498e+01	-9.863243e+01	-3.085105e+01	-7.069854e+00	-1.044143e+02	-1.587514e+02	-4.919952e+01	2.284481e+01
3.630406e+06	-4.335107e+01	-9.871211e+01	-3.084993e+01	-7.061387e+00	-1.087208e+02	-1.327072e+01	-4.920881e+01	2.292774e+01
3.630438e+06	-4.334714e+01	-9.879171e+01	-3.084881e+01	-7.052922e+00	-9.789060e+01	2.238662e+00	-4.921808e+01	2.301085e+01
3.630469e+06	-4.334319e+01	-9.887125e+01	-3.084769e+01	-7.044459e+00	-9.315595e+01	4.792414e+00	-4.922735e+01	2.309413e+01
3.630500e+06	-4.334026e+01	-9.880064e+01	-3.084703e+01	-7.071571e+00	-9.179705e+01	-2.302520e+00	-4.921995e+01	2.311228e+01
3.630532e+06	-4.333731e+01	-9.873008e+01	-3.084636e+01	-7.098680e+00	-9.053633e+01	-7.544107e+00	-4.921255e+01	2.313039e+01
3.630563e+06	-4.333435e+01	-9.865957e+01	-3.084569e+01	-7.125784e+00	-8.938713e+01	-1.151336e+01	-4.920516e+01	2.314848e+01
3.630594e+06	-4.333138e+01	-9.858911e+01	-3.084503e+01	-7.152884e+00	-8.834356e+01	-1.459606e+01	-4.919777e+01	2.316653e+01
3.630625e+06	-4.332841e+01	-9.851917e+01	-3.084435e+01	-7.179659e+00	-8.740109e+01	-1.696485e+01	-4.919060e+01	2.318394e+01
3.630656e+06	-4.332739e+01	-9.850759e+01	-3.084367e+01	-7.166614e+00	-8.728810e+01	-9.064055e+00	-4.920905e+01	2.312553e+01
3.630688e+06	-4.332637e+01	-9.849602e+01	-3.084299e+01	-7.153572e+00	-8.702075e+01	-1.503784e+00	-4.922754e+01	2.306687e+01
3.630719e+06	-4.332535e+01	-9.848445e+01	-3.084231e+01	-7.140532e+00	-8.662558e+01	5.498374e+00	-4.924606e+01	2.300796e+01
3.630750e+06	-4.332433e+01	-9.847289e+01	-3.084162e+01	-7.127494e+00	-8.613559e+01	1.181919e+01	-4.926461e+01	2.294880e+01
3.630782e+06	-4.332340e+01	-9.846240e+01	-3.084097e+01	-7.114620e+00	-8.562557e+01	1.737484e+01	-4.928270e+01	2.288821e+01
3.630813e+06	-4.332803e+01	-9.851785e+01	-3.084236e+01	-7.111686e+00	-8.800725e+01	2.037188e+01	-4.927095e+01	2.275502e+01
3.630844e+06	-4.333264e+01	-9.857336e+01	-3.084375e+01	-7.108752e+00	-9.123333e+01	2.609463e+01	-4.925917e+01	2.262219e+01
3.630875e+06	-4.333726e+01	-9.862893e+01	-3.084513e+01	-7.105816e+00	-9.602668e+01	4.063328e+01	-4.924735e+01	2.248972e+01
3.630906e+06	-4.334186e+01	-9.868456e+01	-3.084652e+01	-7.102880e+00	-1.013749e+02	9.442520e+01	-4.923551e+01	2.235762e+01
3.630938e+06	-4.334646e+01	-9.874024e+01	-3.084791e+01	-7.099943e+00	-9.652826e+01	1.531676e+02	-4.922364e+01	2.222587e+01
3.630969e+06	-4.334715e+01	-9.867658e+01	-3.084636e+01	-7.103258e+00	-9.695748e+01	1.307552e+02	-4.922274e+01	2.237042e+01
3.631000e+06	-4.334780e+01	-9.861194e+01	-3.084479e+01	-7.106624e+00	-9.609858e+01	1.089579e+02	-4.922187e+01	2.251716e+01
3.631032e+06	-4.334844e+01	-9.854730e+01	-3.084321e+01	-7.109988e+00	-9.446628e+01	9.277317e+01	-4.922095e+01	2.266387e+01
3.631063e+06	-4.334906e+01	-9.848264e+01	-3.084164e+01	-7.113350e+00	-9.269563e+01	8.191465e+01	-4.921997e+01	2.281055e+01
3.631094e+06	-4.334968e+01	-9.841798e+01	-3.084007e+01	-7.116712e+00	-9.104836e+01	7.461255e+01	-4.921893e+01	2.295719e+01
3.631125e+06	-4.335391e+01	-9.846561e+01	-3.084207e+01	-7.106054e+00	-9.137656e+01	8.072601e+01	-4.921970e+01	2.294627e+01
3.631156e+06	-4.335814e+01	-9.851329e+01	-3.084408e+01	-7.095392e+00	-9.160807e+01	8.724809e+01	-4.922048e+01	2.293534e+01
3.631188e+06	-4.336236e+01	-9.856102e+01	-3.084608e+01	-7.084724e+00	-9.172563e+01	9.403886e+01	-4.922125e+01	2.292441e+01
3.631219e+06	-4.336658e+01	-9.860879e+01	-3.084808e+01	-7.074052e+00	-9.171966e+01	1.009178e+02	-4.922202e+01	2.291348e+01
3.631250e+06	-4.337077e+01	-9.865651e+01	-3.085006e+01	-7.063534e+00	-9.161192e+01	1.076697e+02	-4.922277e+01	2.290195e+01
3.631282e+06	-4.337203e+01	-9.869090e+01	-3.084883e+01	-7.072766e+00	-9.448048e+01	1.133792e+02	-4.922068e+01	2.281577e+01
3.631313e+06	-4.337329e+01	-9.872530e+01	-3.084761e+01	-7.081995e+00	-9.848061e+01	1.260518e+02	-4.921858e+01	2.272963e+01
3.631344e+06	-4.337454e+01	-9.875971e+01	-3.084638e+01	-7.091221e+00	-1.033387e+02	1.635171e+02	-4.921645e+01	2.264354e+01
3.631375e+06	-4.337579e+01	-9.879414e+01	-3.084516e+01	-7.100445e+00	-1.015597e+02	-1.363622e+02	-4.921430e+01	2.255748e+01
3.631406e+06	-4.337697e+01	-9.882729e+01	-3.084391e+01	-7.109567e+00	-9.685192e+01	-1.124901e+02	-4.921210e+01	2.247460e+01
3.631438e+06	-4.337400e+01	-9.878152e+01	-3.084148e+01	-7.112579e+00	-1.007842e+02	-9.395261e+01	-4.920760e+01	2.258418e+01
3.631469e+06	-4.337103e+01	-9.873579e+01	-3.083905e+01	-7.115590e+00	-1.037166e+02	-4.946575e+01	-4.920308e+01	2.269365e+01
3.631500e+06	-4.336805e+01	-9.869009e+01	-3.083662e+01	-7.118599e+00	-1.007834e+02	-4.984256e+00	-4.919852e+01	2.280300e+01
3.631532e+06	-4.336507e+01	-9.864442e+01	-3.083420e+01	-7.121606e+00	-9.685125e+01	1.354995e+01	-4.919394e+01	2.291224e+01
3.631563e+06	-4.336208e+01	-9.859878e+01	-3.083177e+01	-7.124611e+00	-9.385687e+01	2.178265e+01	-4.918933e+01	2.302136e+01
3.631594e+06	-4.336635e+01	-9.860143e+01	-3.083416e+01	-7.115816e+00	-9.570942e+01	2.217738e+01	-4.919528e+01	2.300179e+01
3.631625e+06	-4.337067e+01	-9.860446e+01	-3.083659e+01	-7.106920e+00	-9.812262e+01	2.275257e+01	-4.920131e+01	2.298116e+01
3.631656e+06	-4.337500e+01	-9.860750e+01	-3.083902e+01	-7.098020e+00	-1.014733e+02	2.386951e+01	-4.920735e+01	2.296049e+01
3.631688e+06	-4.337933e+01	-9.861054e+01	-3.084146e+01	-7.089114e+00	-1.069825e+02	2.696841e+01	-4.921339e+01	2.293980e+01
3.631719e+06	-4.338366e+01	-9.861358e+01	-3.084389e+01	-7.080204e+00	-1.231611e+02	6.800520e+01	-4.921944e+01	2.291908e+01
3.631750e+06	-4.337814e+01	-9.858289e+01	-3.084214e+01	-7.092843e+00	-1.092021e+02	1.664949e+01	-4.921198e+01	2.290779e+01
3.631782e+06	-4.337262e+01	-9.855223e+01	-3.084039e+01	-7.105477e+00	-1.037128e+02	1.187551e+01	-4.920453e+01	2.289652e+01
3.631813e+06	-4.336711e+01	-9.852162e+01	-3.083864e+01	-7.118106e+00	-1.003607e+02	1.015216e+01	-4.919708e+01	2.288527e+01
3.631844e+06	-4.336159e+01	-9.849104e+01	-3.083689e+01	-7.130730e+00	-9.794497e+01	9.265137e+00	-4.918964e+01	2.287403e+01
3.631875e+06	-4.335620e+01	-9.846067e+01	-3.083515e+01	-7.143255e+00	-9.608438e+01	8.755773e+00	-4.918234e+01	2.286322e+01
3.631906e+06	-4.336588e+01	-9.845054e+01	-3.083458e+01	-7.144124e+00	-9.814365e+01	1.312773e+01	-4.919147e+01	2.290149e+01
3.631938e+06	-4.337557e+01	-9.844039e+01	-3.083402e+01	-7.144993e+00	-1.007302e+02	2.060563e+01	-4.920060e+01	2.293985e+01
3.631969e+06	-4.338526e+01	-9.843022e+01	-3.083346e+01	-7.145862e+00	-1.039872e+02	3.538135e+01	-4.920974e+01	2.297828e+01
3.632000e+06	-4.339497e+01	-9.842002e+01	-3.083290e+01	-7.146731e+00	-1.070895e+02	6.741065e+01	-4.921888e+01	2.301680e+01
3.632032e+06	-4.340447e+01	-9.841115e+01	-3.083239e+01	-7.147352e+00	-1.062369e+02	1.111754e+02	-4.922768e+01	2.305388e+01
3.632063e+06	-4.339993e+01	-9.848458e+01	-3.083471e+01	-7.132730e+00	-1.004682e+02	1.262886e+02	-4.921517e+01	2.299773e+01
3.632094e+06	-4.339538e+01	-9.855794e+01	-3.083704e+01	-7.118100e+00	-9.689401e+01	1.313906e+02	-4.920267e+01	2.294175e+01
3.632125e+06	-4.339082e+01	-9.863122e+01	-3.083936e+01	-7.103462e+00	-9.434375e+01	1.339087e+02	-4.919017e+01	2.288592e+01
3.632156e+06	-4.338624e+01	-9.870442e+01	-3.084169e+01	-7.088817e+00	-9.236686e+01	1.354037e+02	-4.917769e+01	2.283026e+01
3.632188e+06	-4.338166e+01	-9.877755e+01	-3.084401e+01	-7.074163e+00	-9.075428e+01	1.363925e+02	-4.916522e+01	2.277475e+01
3.632219e+06	-4.338357e+01	-9.872799e+01	-3.084237e+01	-7.077571e+00	-9.149379e+01	1.293092e+02	-4.917453e+01	2.280679e+01
3.632250e+06	-4.338553e+01	-9.867742e+01	-3.084070e+01	-7.081123e+00	-9.214932e+01	1.208968e+02	-4.918402e+01	2.283961e+01
3.632282e+06	-4.338748e+01	-9.862683e+01	-3.083903e+01	-7.084674e+00	-9.262733e+01	1.113014e+02	-4.919352e+01	2.287250e+01
3.632313e+06	-4.338942e+01	-9.857622e+01	-3.083736e+01	-7.088224e+00	-9.285386e+01	1.008864e+02	-4.920303e+01	2.290547e+01
3.632344e+06	-4.339136e+01	-9.852558e+01	-3.083569e+01	-7.091772e+00	-9.278707e+01	9.027599e+01	-4.921254e+01	2.293850e+01
3.632375e+06	-4.338650e+01	-9.852726e+01	-3.083368e+01	-7.090626e+00	-9.449889e+01	7.456748e+01	-4.921488e+01	2.301076e+01
3.632406e+06	-4.338165e+01	-9.852894e+01	-3.083167e+01	-7.089480e+00	-9.550227e+01	5.284577e+01	-4.921720e+01	2.308307e+01
3.632438e+06	-4.337680e+01	-9.853062e+01	-3.082966e+01	-7.088335e+00	-9.513240e+01	2.938623e+01	-4.921951e+01	2.315541e+01
3.632469e+06	-4.337196e+01	-9.853229e+01	-3.082765e+01	-7.087190e+00	-9.366503e+01	1.058992e+01	-4.922181e+01	2.322779e+01
3.632500e+06	-4.336714e+01	-9.853421e+01	-3.082568e+01	-7.086015e+00	-9.187285e+01	-1.982412e+00	-4.922405e+01	2.329912e+01
3.632532e+06	-4.336539e+01	-9.856669e+01	-3.082840e+01	-7.081052e+00	-9.137349e+01	1.196678e+01	-4.922179e+01	2.323545e+01
3.632563e+06	-4.336365e+01	-9.859915e+01	-3.083112e+01	-7.076086e+00	-9.048778e+01	2.382728e+01	-4.921951e+01	2.317181e+01
3.632594e+06	-4.336190e+01	-9.863160e+01	-3.083385e+01	-7.071116e+00	-8.941430e+01	3.326798e+01	-4.921722e+01	2.310820e+01
3.632625e+06	-4.336015e+01	-9.866404e+01	-3.083657e+01	-7.066144e+00	-8.829527e+01	4.058939e+01	-4.921493e+01	2.304462e+01
3.632656e+06	-4.335851e+01	-9.869540e+01	-3.083926e+01	-7.061416e+00	-8.724028e+01	4.604276e+01	-4.921270e+01	2.298193e+01
3.632688e+06	-4.336384e+01	-9.866095e+01	-3.083985e+01	-7.071940e+00	-8.825916e+01	3.626127e+01	-4.921500e+01	2.297140e+01
3.632719e+06	-4.336918e+01	-9.862645e+01	-3.084045e+01	-7.082465e+00	-8.905816e+01	2.417159e+01	-4.921730e+01	2.296087e+01
3.632750e+06	-4.337451e+01	-9.859191e+01	-3.084104e+01	-7.092991e+00	-8.944943e+01	1.027307e+01	-4.921960e+01	2.295032e+01
3.632782e+06	-4.337985e+01	-9.855733e+01	-3.084163e+01	-7.103519e+00	-8.931065e+01	-4.044017e+00	-4.922190e+01	2.293978e+01
3.632813e+06	-4.338519e+01	-9.852271e+01	-3.084223e+01	-7.114048e+00	-8.868777e+01	-1.713670e+01	-4.922420e+01	2.292922e+01
3.632844e+06	-4.338940e+01	-9.859000e+01	-3.084028e+01	-7.111241e+00	-8.942474e+01	-1.257007e+01	-4.921743e+01	2.305703e+01
3.632875e+06	-4.339360e+01	-9.865818e+01	-3.083831e+01	-7.108328e+00	-9.016882e+01	-6.988481e+00	-4.921054e+01	2.318574e+01
3.632906e+06	-4.339778e+01	-9.872642e+01	-3.083634e+01	-7.105417e+00	-9.087577e+01	-3.878892e-01	-4.920361e+01	2.331425e+01
3.632938e+06	-4.340196e+01	-9.879473e+01	-3.083438e+01	-7.102507e+00	-9.149876e+01	7.310976e+00	-4.919665e+01	2.344256e+01
3.632969e+06	-4.340612e+01	-9.886311e+01	-3.083241e+01	-7.099598e+00	-9.197788e+01	1.605907e+01	-4.918965e+01	2.357066e+01
3.633000e+06	-4.339639e+01	-9.882096e+01	-3.083400e+01	-7.093291e+00	-9.387570e+01	1.989658e+01	-4.918865e+01	2.337673e+01
