# Hz S dB R 50.000
3.624375e+06	-4.332011e+01	-9.280763e+01	-3.094880e+01	-6.905755e+00	-9.711449e+01	-1.612462e+02	-5.159197e+01	3.085582e+01
3.624406e+06	-4.332409e+01	-9.291573e+01	-3.094599e+01	-6.879254e+00	-1.004329e+02	-1.753459e+02	-5.161289e+01	3.073973e+01
3.624438e+06	-4.332804e+01	-9.302392e+01	-3.094317e+01	-6.852770e+00	-1.037819e+02	1.529937e+02	-5.163383e+01	3.062308e+01
3.624469e+06	-4.333196e+01	-9.313222e+01	-3.094035e+01	-6.826303e+00	-1.031531e+02	1.071116e+02	-5.165479e+01	3.050586e+01
3.624500e+06	-4.333586e+01	-9.324061e+01	-3.093754e+01	-6.799854e+00	-9.958303e+01	8.083412e+01	-5.167576e+01	3.038807e+01
3.624531e+06	-4.333973e+01	-9.334792e+01	-3.093469e+01	-6.773608e+00	-9.647211e+01	6.903946e+01	-5.169653e+01	3.027094e+01
3.624562e+06	-4.334526e+01	-9.330938e+01	-3.092835e+01	-6.770439e+00	-9.758418e+01	5.978722e+01	-5.169119e+01	3.030443e+01
3.624594e+06	-4.335079e+01	-9.327080e+01	-3.092202e+01	-6.767275e+00	-9.852824e+01	4.803242e+01	-5.168586e+01	3.033787e+01
3.624625e+06	-4.335631e+01	-9.323216e+01	-3.091570e+01	-6.764115e+00	-9.909791e+01	3.399773e+01	-5.168052e+01	3.037128e+01
3.624656e+06	-4.336184e+01	-9.319347e+01	-3.090938e+01	-6.760960e+00	-9.911303e+01	1.896337e+01	-5.167519e+01	3.040464e+01
3.624688e+06	-4.336736e+01	-9.315474e+01	-3.090306e+01	-6.757809e+00	-9.856814e+01	4.837668e+00	-5.166986e+01	3.043797e+01
3.624719e+06	-4.336422e+01	-9.311022e+01	-3.089550e+01	-6.771871e+00	-9.917451e+01	3.052690e+00	-5.167927e+01	3.042639e+01
3.624750e+06	-4.336093e+01	-9.306564e+01	-3.088792e+01	-6.786187e+00	-9.984365e+01	1.195968e+00	-5.168894e+01	3.041406e+01
3.624781e+06	-4.335764e+01	-9.302109e+01	-3.088035e+01	-6.800479e+00	-1.005570e+02	-9.812544e-01	-5.169862e+01	3.040171e+01
3.624812e+06	-4.335435e+01	-9.297658e+01	-3.087278e+01	-6.814745e+00	-1.013181e+02	-3.561532e+00	-5.170830e+01	3.038932e+01
3.624844e+06	-4.335105e+01	-9.293210e+01	-3.086522e+01	-6.828987e+00	-1.021290e+02	-6.654167e+00	-5.171800e+01	3.037691e+01
3.624875e+06	-4.334440e+01	-9.297192e+01	-3.086243e+01	-6.852617e+00	-1.032274e+02	-1.947103e+01	-5.173813e+01	3.047535e+01
3.624906e+06	-4.333773e+01	-9.301237e+01	-3.085968e+01	-6.876308e+00	-1.038718e+02	-3.528614e+01	-5.175836e+01	3.057514e+01
3.624938e+06	-4.333105e+01	-9.305276e+01	-3.085693e+01	-6.899984e+00	-1.038073e+02	-5.222478e+01	-5.177861e+01	3.067540e+01
3.624969e+06	-4.332438e+01	-9.309308e+01	-3.085417e+01	-6.923645e+00	-1.030623e+02	-6.761672e+01	-5.179888e+01	3.077612e+01
3.625000e+06	-4.331771e+01	-9.313334e+01	-3.085142e+01	-6.947291e+00	-1.019135e+02	-7.993991e+01	-5.181917e+01	3.087732e+01
3.625031e+06	-4.331859e+01	-9.310635e+01	-3.084691e+01	-6.955483e+00	-1.130532e+02	1.449998e+02	-5.183892e+01	3.078005e+01
3.625062e+06	-4.331946e+01	-9.307935e+01	-3.084240e+01	-6.963666e+00	-9.870594e+01	1.157736e+02	-5.185869e+01	3.068233e+01
3.625094e+06	-4.332033e+01	-9.305235e+01	-3.083790e+01	-6.971841e+00	-9.343280e+01	1.128499e+02	-5.187847e+01	3.058417e+01
3.625125e+06	-4.332120e+01	-9.302535e+01	-3.083339e+01	-6.980007e+00	-9.016933e+01	1.117561e+02	-5.189828e+01	3.048556e+01
3.625156e+06	-4.332208e+01	-9.299879e+01	-3.082896e+01	-6.988392e+00	-8.782746e+01	1.111299e+02	-5.191778e+01	3.038916e+01
3.625188e+06	-4.332402e+01	-9.302851e+01	-3.083246e+01	-7.024923e+00	-8.900611e+01	1.028360e+02	-5.189644e+01	3.062286e+01
3.625219e+06	-4.332596e+01	-9.305825e+01	-3.083596e+01	-7.061484e+00	-9.009426e+01	9.204269e+01	-5.187501e+01	3.085541e+01
3.625250e+06	-4.332790e+01	-9.308800e+01	-3.083946e+01	-7.098074e+00	-9.089777e+01	7.857882e+01	-5.185349e+01	3.108681e+01
3.625281e+06	-4.332983e+01	-9.311776e+01	-3.084295e+01	-7.134693e+00	-9.118436e+01	6.327331e+01	-5.183188e+01	3.131706e+01
3.625312e+06	-4.333177e+01	-9.314753e+01	-3.084644e+01	-7.171342e+00	-9.084745e+01	4.805835e+01	-5.181019e+01	3.154617e+01
3.625344e+06	-4.333816e+01	-9.311192e+01	-3.084516e+01	-7.186535e+00	-9.225938e+01	6.310878e+01	-5.177444e+01	3.122861e+01
3.625375e+06	-4.334463e+01	-9.307518e+01	-3.084379e+01	-7.201373e+00	-9.300719e+01	8.322086e+01	-5.173834e+01	3.090485e+01
3.625406e+06	-4.335109e+01	-9.303839e+01	-3.084242e+01	-7.216207e+00	-9.261659e+01	1.042163e+02	-5.170212e+01	3.058377e+01
3.625438e+06	-4.335756e+01	-9.300155e+01	-3.084106e+01	-7.231037e+00	-9.133335e+01	1.214034e+02	-5.166577e+01	3.026536e+01
3.625469e+06	-4.336403e+01	-9.296465e+01	-3.083969e+01	-7.245861e+00	-8.972675e+01	1.336350e+02	-5.162931e+01	2.994962e+01
3.625500e+06	-4.335516e+01	-9.293574e+01	-3.083823e+01	-7.267932e+00	-9.176690e+01	1.431820e+02	-5.164613e+01	2.994261e+01
3.625531e+06	-4.334618e+01	-9.290696e+01	-3.083676e+01	-7.290055e+00	-9.395312e+01	1.588530e+02	-5.166341e+01	2.993807e+01
3.625562e+06	-4.333721e+01	-9.287824e+01	-3.083529e+01	-7.312169e+00	-9.549756e+01	-1.766259e+02	-5.168073e+01	2.993351e+01
3.625594e+06	-4.332824e+01	-9.284958e+01	-3.083382e+01	-7.334276e+00	-9.516475e+01	-1.481261e+02	-5.169808e+01	2.992893e+01
3.625625e+06	-4.331928e+01	-9.282098e+01	-3.083235e+01	-7.356376e+00	-9.328082e+01	-1.264304e+02	-5.171547e+01	2.992433e+01
3.625656e+06	-4.332231e+01	-9.286934e+01	-3.083464e+01	-7.359210e+00	-9.394247e+01	-1.220080e+02	-5.172571e+01	2.979979e+01
3.625688e+06	-4.332533e+01	-9.291774e+01	-3.083694e+01	-7.362045e+00	-9.459337e+01	-1.168623e+02	-5.173593e+01	2.967495e+01
3.625719e+06	-4.332834e+01	-9.296617e+01	-3.083923e+01	-7.364882e+00	-9.520920e+01	-1.109059e+02	-5.174612e+01	2.954982e+01
3.625750e+06	-4.333135e+01	-9.301463e+01	-3.084152e+01	-7.367720e+00	-9.575633e+01	-1.040925e+02	-5.175627e+01	2.942440e+01
3.625781e+06	-4.333438e+01	-9.306283e+01	-3.084380e+01	-7.370512e+00	-9.620719e+01	-9.663285e+01	-5.176625e+01	2.930097e+01
3.625812e+06	-4.334085e+01	-9.307383e+01	-3.084399e+01	-7.367416e+00	-9.818817e+01	-1.145092e+02	-5.175803e+01	2.946104e+01
3.625844e+06	-4.334733e+01	-9.308484e+01	-3.084419e+01	-7.364320e+00	-9.917978e+01	-1.401184e+02	-5.174974e+01	2.962081e+01
3.625875e+06	-4.335381e+01	-9.309587e+01	-3.084438e+01	-7.361223e+00	-9.834036e+01	-1.662140e+02	-5.174139e+01	2.978027e+01
3.625906e+06	-4.336030e+01	-9.310692e+01	-3.084457e+01	-7.358126e+00	-9.640101e+01	1.751571e+02	-5.173298e+01	2.993942e+01
3.625938e+06	-4.336679e+01	-9.311798e+01	-3.084477e+01	-7.355030e+00	-9.433844e+01	1.635320e+02	-5.172452e+01	3.009826e+01
3.625969e+06	-4.337002e+01	-9.303811e+01	-3.084666e+01	-7.385962e+00	-9.400710e+01	1.603552e+02	-5.170468e+01	3.024921e+01
3.626000e+06	-4.337317e+01	-9.295670e+01	-3.084858e+01	-7.417461e+00	-9.369029e+01	1.574855e+02	-5.168466e+01	3.039934e+01
3.626031e+06	-4.337632e+01	-9.287523e+01	-3.085050e+01	-7.448974e+00	-9.336509e+01	1.548204e+02	-5.166461e+01	3.054878e+01
3.626062e+06	-4.337944e+01	-9.279371e+01	-3.085242e+01	-7.480501e+00	-9.303483e+01	1.523492e+02	-5.164456e+01	3.069753e+01
3.626094e+06	-4.338256e+01	-9.271212e+01	-3.085433e+01	-7.512042e+00	-9.270223e+01	1.500596e+02	-5.162449e+01	3.084560e+01
3.626125e+06	-4.337048e+01	-9.276736e+01	-3.085352e+01	-7.515782e+00	-9.381591e+01	1.584477e+02	-5.163834e+01	3.076769e+01
3.626156e+06	-4.335829e+01	-9.282355e+01	-3.085269e+01	-7.519298e+00	-9.482834e+01	1.693004e+02	-5.165246e+01	3.068770e+01
3.626188e+06	-4.334611e+01	-9.287958e+01	-3.085186e+01	-7.522814e+00	-9.554222e+01	-1.774211e+02	-5.166660e+01	3.060746e+01
3.626219e+06	-4.333393e+01	-9.293545e+01	-3.085102e+01	-7.526328e+00	-9.575532e+01	-1.626147e+02	-5.168074e+01	3.052695e+01
3.626250e+06	-4.332177e+01	-9.299117e+01	-3.085019e+01	-7.529842e+00	-9.539278e+01	-1.480665e+02	-5.169488e+01	3.044618e+01
3.626281e+06	-4.333108e+01	-9.299966e+01	-3.085112e+01	-7.520136e+00	-1.007943e+02	-1.501529e+02	-5.168082e+01	3.047870e+01
3.626312e+06	-4.334040e+01	-9.300817e+01	-3.085206e+01	-7.510428e+00	-1.170166e+02	-1.761862e+02	-5.166678e+01	3.051112e+01
3.626344e+06	-4.334973e+01	-9.301669e+01	-3.085299e+01	-7.500717e+00	-1.034687e+02	4.047910e+01	-5.165277e+01	3.054343e+01
3.626375e+06	-4.335907e+01	-9.302524e+01	-3.085392e+01	-7.491005e+00	-9.673056e+01	3.716672e+01	-5.163877e+01	3.057563e+01
3.626406e+06	-4.336836e+01	-9.303423e+01	-3.085484e+01	-7.481405e+00	-9.300997e+01	3.623091e+01	-5.162520e+01	3.060893e+01
3.626438e+06	-4.337073e+01	-9.309677e+01	-3.085310e+01	-7.486067e+00	-9.415496e+01	4.314385e+01	-5.166223e+01	3.079131e+01
3.626469e+06	-4.337309e+01	-9.315934e+01	-3.085137e+01	-7.490727e+00	-9.528316e+01	5.213995e+01	-5.169934e+01	3.097526e+01
3.626500e+06	-4.337543e+01	-9.322194e+01	-3.084964e+01	-7.495386e+00	-9.626388e+01	6.363824e+01	-5.173651e+01	3.116078e+01
3.626531e+06	-4.337777e+01	-9.328458e+01	-3.084791e+01	-7.500042e+00	-9.689322e+01	7.752098e+01	-5.177375e+01	3.134790e+01
3.626562e+06	-4.338010e+01	-9.334726e+01	-3.084618e+01	-7.504697e+00	-9.697661e+01	9.261799e+01	-5.181106e+01	3.153664e+01
3.626594e+06	-4.336950e+01	-9.330724e+01	-3.084854e+01	-7.501334e+00	-1.060586e+02	1.157414e+02	-5.178477e+01	3.143549e+01
3.626625e+06	-4.335870e+01	-9.326566e+01	-3.085097e+01	-7.497838e+00	-1.037905e+02	-1.242857e+02	-5.175750e+01	3.133027e+01
3.626656e+06	-4.334791e+01	-9.322419e+01	-3.085340e+01	-7.494341e+00	-9.591423e+01	-1.086559e+02	-5.173028e+01	3.122571e+01
3.626688e+06	-4.333712e+01	-9.318281e+01	-3.085584e+01	-7.490842e+00	-9.175196e+01	-1.047925e+02	-5.170312e+01	3.112180e+01
3.626719e+06	-4.332635e+01	-9.314154e+01	-3.085827e+01	-7.487341e+00	-8.893704e+01	-1.030634e+02	-5.167602e+01	3.101854e+01
3.626750e+06	-4.332490e+01	-9.314325e+01	-3.085796e+01	-7.497584e+00	-9.194924e+01	-1.054538e+02	-5.168315e+01	3.100710e+01
3.626781e+06	-4.332353e+01	-9.314531e+01	-3.085763e+01	-7.507936e+00	-9.663134e+01	-1.113435e+02	-5.169057e+01	3.099637e+01
3.626812e+06	-4.332217e+01	-9.314737e+01	-3.085730e+01	-7.518288e+00	-1.059205e+02	-1.421798e+02	-5.169799e+01	3.098563e+01
3.626844e+06	-4.332080e+01	-9.314943e+01	-3.085697e+01	-7.528639e+00	-1.019714e+02	1.092462e+02	-5.170542e+01	3.097487e+01
3.626875e+06	-4.331943e+01	-9.315149e+01	-3.085664e+01	-7.538989e+00	-9.480179e+01	9.396651e+01	-5.171285e+01	3.096409e+01
3.626906e+06	-4.333080e+01	-9.314489e+01	-3.085673e+01	-7.542404e+00	-9.872359e+01	1.023253e+02	-5.168919e+01	3.093178e+01
3.626938e+06	-4.334218e+01	-9.313828e+01	-3.085682e+01	-7.545819e+00	-1.047260e+02	1.294359e+02	-5.166560e+01	3.089965e+01
3.626969e+06	-4.335358e+01	-9.313165e+01	-3.085691e+01	-7.549233e+00	-1.052952e+02	-1.543683e+02	-5.164206e+01	3.086770e+01
3.627000e+06	-4.336499e+01	-9.312500e+01	-3.085700e+01	-7.552648e+00	-9.914524e+01	-1.236526e+02	-5.161859e+01	3.083591e+01
3.627031e+06	-4.337627e+01	-9.311805e+01	-3.085708e+01	-7.556025e+00	-9.510480e+01	-1.145029e+02	-5.159554e+01	3.080407e+01
3.627062e+06	-4.336895e+01	-9.307612e+01	-3.085600e+01	-7.554679e+00	-9.434527e+01	-9.980024e+01	-5.161847e+01	3.074426e+01
3.627094e+06	-4.336162e+01	-9.303426e+01	-3.085491e+01	-7.553333e+00	-9.322432e+01	-8.800612e+01	-5.164144e+01	3.068413e+01
3.627125e+06	-4.335430e+01	-9.299246e+01	-3.085383e+01	-7.551988e+00	-9.198245e+01	-7.904785e+01	-5.166446e+01	3.062368e+01
3.627156e+06	-4.334698e+01	-9.295074e+01	-3.085274e+01	-7.550642e+00	-9.075541e+01	-7.231799e+01	-5.168754e+01	3.056291e+01
3.627188e+06	-4.333966e+01	-9.290909e+01	-3.085166e+01	-7.549298e+00	-8.960005e+01	-6.720749e+01	-5.171067e+01	3.050182e+01
3.627219e+06	-4.333818e+01	-9.294059e+01	-3.085215e+01	-7.541853e+00	-9.063005e+01	-6.740092e+01	-5.171594e+01	3.059462e+01
3.627250e+06	-4.333679e+01	-9.297326e+01	-3.085267e+01	-7.534309e+00	-9.184229e+01	-6.774996e+01	-5.172091e+01	3.069002e+01
3.627281e+06	-4.333541e+01	-9.300593e+01	-3.085318e+01	-7.526764e+00	-9.325108e+01	-6.822195e+01	-5.172585e+01	3.078554e+01
3.627312e+06	-4.333401e+01	-9.303859e+01	-3.085370e+01	-7.519218e+00	-9.493243e+01	-6.889561e+01	-5.173077e+01	3.088117e+01
3.627344e+06	-4.333262e+01	-9.307124e+01	-3.085422e+01	-7.511671e+00	-9.701697e+01	-6.993493e+01	-5.173567e+01	3.097690e+01
3.627375e+06	-4.333700e+01	-9.305755e+01	-3.085490e+01	-7.520140e+00	-9.956036e+01	-8.133479e+01	-5.173023e+01	3.081098e+01
3.627406e+06	-4.334142e+01	-9.304347e+01	-3.085559e+01	-7.528738e+00	-1.022188e+02	-1.025291e+02	-5.172463e+01	3.064317e+01
3.627438e+06	-4.334585e+01	-9.302938e+01	-3.085628e+01	-7.537339e+00	-1.033006e+02	-1.363161e+02	-5.171896e+01	3.047557e+01
3.627469e+06	-4.335028e+01	-9.301528e+01	-3.085696e+01	-7.545940e+00	-1.014893e+02	-1.670672e+02	-5.171322e+01	3.030819e+01
3.627500e+06	-4.335471e+01	-9.300116e+01	-3.085765e+01	-7.554543e+00	-9.877457e+01	1.752554e+02	-5.170741e+01	3.014103e+01
3.627531e+06	-4.335296e+01	-9.299967e+01	-3.085822e+01	-7.546838e+00	-9.749907e+01	-1.453035e+02	-5.171089e+01	3.020539e+01
3.627562e+06	-4.335122e+01	-9.299818e+01	-3.085879e+01	-7.539133e+00	-9.432202e+01	-1.229395e+02	-5.171437e+01	3.026980e+01
3.627594e+06	-4.334947e+01	-9.299669e+01	-3.085936e+01	-7.531426e+00	-9.149985e+01	-1.119452e+02	-5.171783e+01	3.033427e+01
3.627625e+06	-4.334773e+01	-9.299521e+01	-3.085993e+01	-7.523718e+00	-8.923429e+01	-1.058507e+02	-5.172128e+01	3.039878e+01
3.627656e+06	-4.334601e+01	-9.299379e+01	-3.086048e+01	-7.516036e+00	-8.741859e+01	-1.020676e+02	-5.172480e+01	3.046364e+01
3.627688e+06	-4.334766e+01	-9.300153e+01	-3.085969e+01	-7.511604e+00	-8.965711e+01	-9.958670e+01	-5.173749e+01	3.056455e+01
3.627719e+06	-4.334931e+01	-9.300927e+01	-3.085889e+01	-7.507173e+00	-9.263864e+01	-9.505849e+01	-5.175017e+01	3.066576e+01
3.627750e+06	-4.335096e+01	-9.301701e+01	-3.085809e+01	-7.502743e+00	-9.700092e+01	-8.446246e+01	-5.176284e+01	3.076727e+01
3.627781e+06	-4.335261e+01	-9.302476e+01	-3.085729e+01	-7.498314e+00	-1.033174e+02	-4.550430e+01	-5.177550e+01	3.086907e+01
3.627812e+06	-4.335426e+01	-9.303251e+01	-3.085649e+01	-7.493886e+00	-1.006560e+02	2.777319e+01	-5.178815e+01	3.097117e+01
3.627844e+06	-4.335882e+01	-9.306625e+01	-3.085735e+01	-7.509063e+00	-9.618320e+01	1.862167e+01	-5.178252e+01	3.102139e+01
3.627875e+06	-4.336343e+01	-9.310045e+01	-3.085823e+01	-7.524561e+00	-9.317334e+01	1.438140e+01	-5.177659e+01	3.107068e+01
3.627906e+06	-4.336804e+01	-9.313469e+01	-3.085911e+01	-7.540063e+00	-9.092226e+01	1.206898e+01	-5.177066e+01	3.111992e+01
3.627938e+06	-4.337265e+01	-9.316896e+01	-3.085999e+01	-7.555568e+00	-8.912891e+01	1.061763e+01	-5.176473e+01	3.116908e+01
3.627969e+06	-4.337725e+01	-9.320328e+01	-3.086087e+01	-7.571076e+00	-8.763999e+01	9.623055e+00	-5.175880e+01	3.121818e+01
3.628000e+06	-4.337286e+01	-9.318161e+01	-3.086110e+01	-7.567400e+00	-8.999952e+01	6.365699e+00	-5.175480e+01	3.127097e+01
3.628031e+06	-4.336839e+01	-9.315952e+01	-3.086133e+01	-7.563569e+00	-9.322360e+01	1.166149e-01	-5.175081e+01	3.132375e+01
3.628062e+06	-4.336393e+01	-9.313745e+01	-3.086156e+01	-7.559738e+00	-9.794017e+01	-1.564048e+01	-5.174682e+01	3.137647e+01
3.628094e+06	-4.335946e+01	-9.311540e+01	-3.086178e+01	-7.555907e+00	-1.026709e+02	-6.932888e+01	-5.174282e+01	3.142915e+01
3.628125e+06	-4.335500e+01	-9.309338e+01	-3.086201e+01	-7.552075e+00	-9.806416e+01	-1.241536e+02	-5.173881e+01	3.148178e+01
3.628156e+06	-4.335150e+01	-9.311142e+01	-3.086219e+01	-7.546955e+00	-1.014618e+02	-1.353915e+02	-5.174107e+01	3.122355e+01
3.628188e+06	-4.334800e+01	-9.312945e+01	-3.086236e+01	-7.541836e+00	-1.056054e+02	-1.630589e+02	-5.174316e+01	3.096519e+01
3.628219e+06	-4.334451e+01	-9.314746e+01	-3.086254e+01	-7.536716e+00	-1.061210e+02	1.443842e+02	-5.174508e+01	3.070672e+01
3.628250e+06	-4.334101e+01	-9.316546e+01	-3.086272e+01	-7.531595e+00	-1.020634e+02	1.125084e+02	-5.174681e+01	3.044813e+01
3.628281e+06	-4.333754e+01	-9.318318e+01	-3.086287e+01	-7.526501e+00	-9.853138e+01	9.997655e+01	-5.174832e+01	3.019196e+01
3.628312e+06	-4.333792e+01	-9.316871e+01	-3.086037e+01	-7.524600e+00	-9.737877e+01	1.120157e+02	-5.174364e+01	3.024745e+01
3.628344e+06	-4.333830e+01	-9.315423e+01	-3.085788e+01	-7.522701e+00	-9.610439e+01	1.210911e+02	-5.173895e+01	3.030287e+01
3.628375e+06	-4.333868e+01	-9.313975e+01	-3.085538e+01	-7.520803e+00	-9.485026e+01	1.278617e+02	-5.173425e+01	3.035823e+01
3.628406e+06	-4.333906e+01	-9.312527e+01	-3.085288e+01	-7.518905e+00	-9.367385e+01	1.329747e+02	-5.172955e+01	3.041353e+01
3.628438e+06	-4.333943e+01	-9.311079e+01	-3.085039e+01	-7.517009e+00	-9.259063e+01	1.369143e+02	-5.172485e+01	3.046878e+01
3.628469e+06	-4.334389e+01	-9.307059e+01	-3.084995e+01	-7.534979e+00	-9.640860e+01	1.227085e+02	-5.175415e+01	3.056672e+01
3.628500e+06	-4.334840e+01	-9.302994e+01	-3.084954e+01	-7.553270e+00	-1.005374e+02	8.393769e+01	-5.178409e+01	3.066604e+01
3.628531e+06	-4.335292e+01	-9.298923e+01	-3.084913e+01	-7.571560e+00	-9.857577e+01	3.045606e+01	-5.181410e+01	3.076604e+01
3.628562e+06	-4.335743e+01	-9.294849e+01	-3.084872e+01	-7.589848e+00	-9.420234e+01	7.654290e+00	-5.184419e+01	3.086674e+01
3.628594e+06	-4.336194e+01	-9.290771e+01	-3.084830e+01	-7.608134e+00	-9.090507e+01	-1.566861e+00	-5.187436e+01	3.096814e+01
3.628625e+06	-4.335700e+01	-9.293843e+01	-3.085131e+01	-7.592877e+00	-9.165985e+01	-3.084593e+00	-5.185711e+01	3.099621e+01
3.628656e+06	-4.335198e+01	-9.296969e+01	-3.085435e+01	-7.577339e+00	-9.251319e+01	-4.869663e+00	-5.183951e+01	3.102358e+01
3.628688e+06	-4.334697e+01	-9.300092e+01	-3.085739e+01	-7.561790e+00	-9.344804e+01	-7.062976e+00	-5.182194e+01	3.105084e+01
3.628719e+06	-4.334195e+01	-9.303211e+01	-3.086043e+01	-7.546231e+00	-9.447778e+01	-9.813345e+00	-5.180441e+01	3.107799e+01
3.628750e+06	-4.333693e+01	-9.306326e+01	-3.086347e+01	-7.530660e+00	-9.561684e+01	-1.334468e+01	-5.178691e+01	3.110503e+01
3.628781e+06	-4.334168e+01	-9.306365e+01	-3.086342e+01	-7.559632e+00	-9.549521e+01	-6.908173e+00	-5.178058e+01	3.088208e+01
3.628812e+06	-4.334643e+01	-9.306404e+01	-3.086336e+01	-7.588603e+00	-9.527147e+01	-7.235757e-01	-5.177412e+01	3.065945e+01
3.628844e+06	-4.335118e+01	-9.306444e+01	-3.086330e+01	-7.617573e+00	-9.496064e+01	5.090557e+00	-5.176753e+01	3.043716e+01
3.628875e+06	-4.335593e+01	-9.306483e+01	-3.086324e+01	-7.646544e+00	-9.458082e+01	1.045893e+01	-5.176082e+01	3.021521e+01
3.628906e+06	-4.336063e+01	-9.306566e+01	-3.086317e+01	-7.675067e+00	-9.414445e+01	1.542477e+01	-5.175397e+01	2.999700e+01
3.628938e+06	-4.335868e+01	-9.312116e+01	-3.086183e+01	-7.648169e+00	-9.282766e+01	2.775656e+01	-5.174480e+01	3.019953e+01
3.628969e+06	-4.335672e+01	-9.317663e+01	-3.086048e+01	-7.621280e+00	-9.142750e+01	3.674331e+01	-5.173553e+01	3.040164e+01
3.629000e+06	-4.335476e+01	-9.323207e+01	-3.085914e+01	-7.594399e+00	-9.008665e+01	4.328536e+01	-5.172617e+01	3.060331e+01
3.629031e+06	-4.335278e+01	-9.328749e+01	-3.085779e+01	-7.567526e+00	-8.885181e+01	4.814390e+01	-5.171670e+01	3.080454e+01
3.629062e+06	-4.335080e+01	-9.334288e+01	-3.085644e+01	-7.540662e+00	-8.772886e+01	5.184556e+01	-5.170714e+01	3.100533e+01
3.629094e+06	-4.334737e+01	-9.327531e+01	-3.085703e+01	-7.538024e+00	-8.960461e+01	5.198611e+01	-5.171360e+01	3.098081e+01
3.629125e+06	-4.334390e+01	-9.320579e+01	-3.085765e+01	-7.535779e+00	-9.207386e+01	5.213496e+01	-5.172032e+01	3.095258e+01
3.629156e+06	-4.334043e+01	-9.313633e+01	-3.085827e+01	-7.533535e+00	-9.553677e+01	5.242963e+01	-5.172705e+01	3.092432e+01
3.629188e+06	-4.333694e+01	-9.306692e+01	-3.085889e+01	-7.531289e+00	-1.013816e+02	5.329013e+01	-5.173378e+01	3.089600e+01
3.629219e+06	-4.333344e+01	-9.299756e+01	-3.085951e+01	-7.529044e+00	-1.274222e+02	8.944996e+01	-5.174051e+01	3.086765e+01
3.629250e+06	-4.333658e+01	-9.297198e+01	-3.085729e+01	-7.530234e+00	-1.067542e+02	-8.488213e+01	-5.173561e+01	3.086842e+01
3.629281e+06	-4.333977e+01	-9.294672e+01	-3.085505e+01	-7.531451e+00	-1.003491e+02	-8.486322e+01	-5.173063e+01	3.086942e+01
3.629312e+06	-4.334297e+01	-9.292145e+01	-3.085281e+01	-7.532667e+00	-9.670275e+01	-8.485727e+01	-5.172565e+01	3.087043e+01
3.629344e+06	-4.334616e+01	-9.289616e+01	-3.085057e+01	-7.533883e+00	-9.414238e+01	-8.485436e+01	-5.172067e+01	3.087143e+01
3.629375e+06	-4.334935e+01	-9.287085e+01	-3.084833e+01	-7.535098e+00	-9.216744e+01	-8.485263e+01	-5.171569e+01	3.087243e+01
