!CETC41,AV3656A,ZGL00048,1.3.2
!Calibration ON (Full Solt 2-Port(Omit Isolation))
!Measurements: S11 S21 S12 S22
!2025-04-18 01:32
# Hz  S  dB  R 50.000
1.095000e+007	-3.663367e+001	-1.787373e+002	-3.059091e+001	-2.451211e+001	-9.667139e+001	7.249142e+001	-3.405057e+001	1.477540e+002
1.095001e+007	-3.664792e+001	-1.785959e+002	-3.060487e+001	-2.456469e+001	-9.642128e+001	9.195809e+001	-3.404752e+001	1.476907e+002
1.095002e+007	-3.662718e+001	-1.785642e+002	-3.060331e+001	-2.442600e+001	-9.590493e+001	9.361854e+001	-3.404951e+001	1.476800e+002
1.095002e+007	-3.665328e+001	-1.787023e+002	-3.058943e+001	-2.457138e+001	-9.577440e+001	9.111753e+001	-3.405202e+001	1.477717e+002
1.095003e+007	-3.664742e+001	-1.786803e+002	-3.061970e+001	-2.449090e+001	-9.584834e+001	9.683448e+001	-3.404047e+001	1.477322e+002
1.095004e+007	-3.663342e+001	-1.786336e+002	-3.060095e+001	-2.443360e+001	-9.553299e+001	9.461815e+001	-3.405675e+001	1.476635e+002
1.095005e+007	-3.663532e+001	-1.786899e+002	-3.059561e+001	-2.451754e+001	-9.541520e+001	6.572248e+001	-3.405248e+001	1.477320e+002
1.095005e+007	-3.664669e+001	-1.787728e+002	-3.060644e+001	-2.443743e+001	-9.503637e+001	9.296269e+001	-3.405396e+001	1.477131e+002
1.095006e+007	-3.663720e+001	-1.786019e+002	-3.058706e+001	-2.456633e+001	-9.888709e+001	9.791367e+001	-3.405321e+001	1.478265e+002
1.095007e+007	-3.664469e+001	-1.787059e+002	-3.060440e+001	-2.448842e+001	-9.604614e+001	8.305341e+001	-3.405306e+001	1.477131e+002
1.095008e+007	-3.664646e+001	-1.786144e+002	-3.060027e+001	-2.447544e+001	-9.589439e+001	1.021748e+002	-3.405138e+001	1.477760e+002
1.095009e+007	-3.663524e+001	-1.787495e+002	-3.060173e+001	-2.447972e+001	-9.666516e+001	9.697657e+001	-3.404673e+001	1.477259e+002
1.095009e+007	-3.663669e+001	-1.787869e+002	-3.060240e+001	-2.446863e+001	-1.008844e+002	1.110868e+002	-3.403703e+001	1.477344e+002
1.095010e+007	-3.664600e+001	-1.787314e+002	-3.058684e+001	-2.453807e+001	-9.836996e+001	1.232731e+002	-3.404962e+001	1.477636e+002
1.095011e+007	-3.662381e+001	-1.787064e+002	-3.060035e+001	-2.444807e+001	-9.782882e+001	8.370889e+001	-3.404575e+001	1.477337e+002
1.095012e+007	-3.663613e+001	-1.787377e+002	-3.059620e+001	-2.448838e+001	-9.534072e+001	1.036879e+002	-3.404451e+001	1.477138e+002
1.095013e+007	-3.663209e+001	-1.787077e+002	-3.060182e+001	-2.451790e+001	-9.396929e+001	9.106594e+001	-3.404583e+001	1.477406e+002
1.095013e+007	-3.664980e+001	-1.785988e+002	-3.059042e+001	-2.444704e+001	-9.560467e+001	7.844664e+001	-3.405677e+001	1.477517e+002
1.095014e+007	-3.665369e+001	-1.787104e+002	-3.060147e+001	-2.449856e+001	-9.668570e+001	9.565773e+001	-3.404247e+001	1.476815e+002
1.095015e+007	-3.662911e+001	-1.786541e+002	-3.059656e+001	-2.445129e+001	-9.441798e+001	9.874266e+001	-3.403045e+001	1.477084e+002
1.095016e+007	-3.664407e+001	-1.786496e+002	-3.060023e+001	-2.450983e+001	-9.512033e+001	9.674634e+001	-3.404742e+001	1.476969e+002
1.095016e+007	-3.664289e+001	-1.786511e+002	-3.060435e+001	-2.451891e+001	-9.502277e+001	9.348706e+001	-3.404304e+001	1.476715e+002
1.095017e+007	-3.664599e+001	-1.786444e+002	-3.060200e+001	-2.447039e+001	-1.035494e+002	1.156875e+002	-3.405245e+001	1.476458e+002
1.095018e+007	-3.663427e+001	-1.786285e+002	-3.060697e+001	-2.451390e+001	-1.012820e+002	7.110540e+001	-3.405054e+001	1.476819e+002
1.095019e+007	-3.664358e+001	-1.786181e+002	-3.058269e+001	-2.447310e+001	-1.004221e+002	6.617340e+001	-3.403960e+001	1.476357e+002
1.095020e+007	-3.663626e+001	-1.786041e+002	-3.059509e+001	-2.446346e+001	-9.467654e+001	8.651278e+001	-3.404977e+001	1.476852e+002
1.095020e+007	-3.665253e+001	-1.787604e+002	-3.058828e+001	-2.443108e+001	-9.508368e+001	1.017243e+002	-3.404697e+001	1.477275e+002
1.095021e+007	-3.663876e+001	-1.787041e+002	-3.059906e+001	-2.447884e+001	-9.379875e+001	1.020002e+002	-3.404031e+001	1.476860e+002
1.095022e+007	-3.663640e+001	-1.786331e+002	-3.058858e+001	-2.451480e+001	-9.859760e+001	8.643990e+001	-3.405752e+001	1.477228e+002
1.095023e+007	-3.662877e+001	-1.787321e+002	-3.059187e+001	-2.443454e+001	-9.341337e+001	1.010796e+002	-3.405357e+001	1.477151e+002
1.095023e+007	-3.664458e+001	-1.785934e+002	-3.059426e+001	-2.449969e+001	-9.995177e+001	1.014479e+002	-3.404517e+001	1.476470e+002
1.095024e+007	-3.662685e+001	-1.787588e+002	-3.059890e+001	-2.438011e+001	-9.798817e+001	7.957431e+001	-3.405015e+001	1.477011e+002
1.095025e+007	-3.664973e+001	-1.786852e+002	-3.058757e+001	-2.456117e+001	-9.574911e+001	8.735290e+001	-3.404381e+001	1.476904e+002
1.095026e+007	-3.663466e+001	-1.786748e+002	-3.059266e+001	-2.443822e+001	-9.741694e+001	1.020974e+002	-3.405627e+001	1.477358e+002
1.095027e+007	-3.663199e+001	-1.787319e+002	-3.059439e+001	-2.441942e+001	-9.639944e+001	7.534588e+001	-3.404658e+001	1.476768e+002
1.095027e+007	-3.664061e+001	-1.786765e+002	-3.058601e+001	-2.451859e+001	-9.811346e+001	9.889018e+001	-3.404932e+001	1.477011e+002
1.095028e+007	-3.663765e+001	-1.786629e+002	-3.060019e+001	-2.446728e+001	-9.996314e+001	9.939885e+001	-3.404411e+001	1.477664e+002
1.095029e+007	-3.664253e+001	-1.785962e+002	-3.058726e+001	-2.448624e+001	-9.487677e+001	9.430029e+001	-3.404637e+001	1.477087e+002
1.095030e+007	-3.662964e+001	-1.787031e+002	-3.058761e+001	-2.446827e+001	-9.641157e+001	8.340128e+001	-3.406099e+001	1.477307e+002
1.095030e+007	-3.664080e+001	-1.787088e+002	-3.059038e+001	-2.446547e+001	-9.564551e+001	8.907939e+001	-3.404398e+001	1.476630e+002
1.095031e+007	-3.663515e+001	-1.786375e+002	-3.058634e+001	-2.451564e+001	-9.678154e+001	1.181673e+002	-3.405884e+001	1.477294e+002
1.095032e+007	-3.665182e+001	-1.787927e+002	-3.058866e+001	-2.441993e+001	-9.527211e+001	1.059361e+002	-3.404524e+001	1.477279e+002
1.095033e+007	-3.661680e+001	-1.787312e+002	-3.060144e+001	-2.451893e+001	-9.550884e+001	1.036267e+002	-3.405701e+001	1.477248e+002
1.095034e+007	-3.663570e+001	-1.787398e+002	-3.058250e+001	-2.450484e+001	-9.699208e+001	9.625824e+001	-3.404848e+001	1.477671e+002
1.095034e+007	-3.664658e+001	-1.786200e+002	-3.060009e+001	-2.445052e+001	-9.912116e+001	9.348624e+001	-3.405317e+001	1.477892e+002
1.095035e+007	-3.664428e+001	-1.788231e+002	-3.058752e+001	-2.455838e+001	-9.794259e+001	9.369290e+001	-3.403742e+001	1.477550e+002
1.095036e+007	-3.663996e+001	-1.786408e+002	-3.058904e+001	-2.445874e+001	-9.500659e+001	1.255437e+002	-3.405285e+001	1.477169e+002
1.095037e+007	-3.665895e+001	-1.787245e+002	-3.059556e+001	-2.447107e+001	-9.561899e+001	1.064588e+002	-3.405003e+001	1.477516e+002
1.095038e+007	-3.663114e+001	-1.786760e+002	-3.060190e+001	-2.456522e+001	-9.597323e+001	1.116225e+002	-3.403441e+001	1.477309e+002
1.095038e+007	-3.665175e+001	-1.787620e+002	-3.058066e+001	-2.450408e+001	-9.436476e+001	9.424416e+001	-3.404755e+001	1.477240e+002
1.095039e+007	-3.661597e+001	-1.788700e+002	-3.059137e+001	-2.447475e+001	-9.777052e+001	7.284222e+001	-3.405255e+001	1.477183e+002
1.095040e+007	-3.664308e+001	-1.788122e+002	-3.059619e+001	-2.447624e+001	-9.669270e+001	6.639247e+001	-3.405411e+001	1.477402e+002
1.095041e+007	-3.664410e+001	-1.786230e+002	-3.058011e+001	-2.456017e+001	-9.639204e+001	1.005639e+002	-3.403986e+001	1.477159e+002
1.095041e+007	-3.663592e+001	-1.787196e+002	-3.057743e+001	-2.447122e+001	-9.795147e+001	9.756747e+001	-3.404703e+001	1.477316e+002
1.095042e+007	-3.664015e+001	-1.787905e+002	-3.059463e+001	-2.442224e+001	-9.569572e+001	8.824718e+001	-3.405894e+001	1.476774e+002
1.095043e+007	-3.663259e+001	-1.787560e+002	-3.059175e+001	-2.456509e+001	-9.771007e+001	9.973724e+001	-3.404238e+001	1.476370e+002
1.095044e+007	-3.663578e+001	-1.787587e+002	-3.057363e+001	-2.447817e+001	-9.814857e+001	9.745858e+001	-3.404180e+001	1.477095e+002
1.095045e+007	-3.664407e+001	-1.788097e+002	-3.057703e+001	-2.433130e+001	-9.893104e+001	1.069998e+002	-3.403964e+001	1.477251e+002
1.095045e+007	-3.665159e+001	-1.786555e+002	-3.059466e+001	-2.450529e+001	-9.737938e+001	1.027234e+002	-3.404569e+001	1.476455e+002
1.095046e+007	-3.662468e+001	-1.787316e+002	-3.059231e+001	-2.454832e+001	-9.623854e+001	1.050188e+002	-3.404574e+001	1.477215e+002
1.095047e+007	-3.664756e+001	-1.786852e+002	-3.057218e+001	-2.450391e+001	-9.888212e+001	1.120043e+002	-3.402473e+001	1.476855e+002
1.095048e+007	-3.663772e+001	-1.786119e+002	-3.056962e+001	-2.444639e+001	-9.519968e+001	9.896639e+001	-3.404076e+001	1.476916e+002
1.095048e+007	-3.662730e+001	-1.787232e+002	-3.058424e+001	-2.432230e+001	-9.395666e+001	8.941065e+001	-3.405189e+001	1.476933e+002
1.095049e+007	-3.665054e+001	-1.786067e+002	-3.060193e+001	-2.446479e+001	-9.436869e+001	1.177553e+002	-3.405346e+001	1.476886e+002
1.095050e+007	-3.664862e+001	-1.786659e+002	-3.058839e+001	-2.454588e+001	-9.257861e+001	8.466118e+001	-3.404949e+001	1.477087e+002
1.095051e+007	-3.664714e+001	-1.785554e+002	-3.057346e+001	-2.455372e+001	-9.414258e+001	1.074201e+002	-3.404417e+001	1.476799e+002
1.095052e+007	-3.664078e+001	-1.788016e+002	-3.055712e+001	-2.448367e+001	-9.819432e+001	8.264851e+001	-3.405274e+001	1.477043e+002
1.095052e+007	-3.664796e+001	-1.785930e+002	-3.057909e+001	-2.443681e+001	-9.385660e+001	9.047610e+001	-3.405511e+001	1.476868e+002
1.095053e+007	-3.664411e+001	-1.787546e+002	-3.059008e+001	-2.441229e+001	-9.553430e+001	9.217675e+001	-3.404830e+001	1.476643e+002
1.095054e+007	-3.664617e+001	-1.787456e+002	-3.058692e+001	-2.446083e+001	-9.638544e+001	8.456490e+001	-3.404520e+001	1.476961e+002
1.095055e+007	-3.662836e+001	-1.786561e+002	-3.058805e+001	-2.448117e+001	-9.811564e+001	9.313487e+001	-3.404171e+001	1.477538e+002
1.095055e+007	-3.663091e+001	-1.787525e+002	-3.058325e+001	-2.454591e+001	-9.507136e+001	8.002062e+001	-3.404516e+001	1.476682e+002
1.095056e+007	-3.661816e+001	-1.787034e+002	-3.057082e+001	-2.445325e+001	-9.419212e+001	1.074284e+002	-3.403798e+001	1.477429e+002
1.095057e+007	-3.664512e+001	-1.788193e+002	-3.056776e+001	-2.444988e+001	-9.627515e+001	7.881202e+001	-3.405269e+001	1.478095e+002
1.095058e+007	-3.664842e+001	-1.786159e+002	-3.058000e+001	-2.442715e+001	-9.725439e+001	1.193935e+002	-3.404743e+001	1.477247e+002
1.095059e+007	-3.663360e+001	-1.786952e+002	-3.058984e+001	-2.434839e+001	-9.379234e+001	9.544863e+001	-3.404902e+001	1.477149e+002
1.095059e+007	-3.664666e+001	-1.787417e+002	-3.058697e+001	-2.449313e+001	-9.796341e+001	9.633093e+001	-3.406341e+001	1.476800e+002
1.095060e+007	-3.664159e+001	-1.788033e+002	-3.058546e+001	-2.455396e+001	-9.596288e+001	1.055076e+002	-3.404956e+001	1.476938e+002
1.095061e+007	-3.664084e+001	-1.787877e+002	-3.058012e+001	-2.454393e+001	-9.621424e+001	9.194701e+001	-3.405519e+001	1.477073e+002
1.095062e+007	-3.663040e+001	-1.787405e+002	-3.057932e+001	-2.458810e+001	-9.407837e+001	1.166794e+002	-3.405297e+001	1.477103e+002
1.095063e+007	-3.664067e+001	-1.786379e+002	-3.057272e+001	-2.451072e+001	-9.740839e+001	1.007355e+002	-3.404355e+001	1.477625e+002
1.095063e+007	-3.664868e+001	-1.786614e+002	-3.056000e+001	-2.452744e+001	-9.779204e+001	8.497567e+001	-3.405384e+001	1.477849e+002
1.095064e+007	-3.664215e+001	-1.786345e+002	-3.056680e+001	-2.448872e+001	-9.615906e+001	1.064300e+002	-3.404842e+001	1.477426e+002
1.095065e+007	-3.663495e+001	-1.786260e+002	-3.056443e+001	-2.441218e+001	-9.705582e+001	1.139032e+002	-3.404856e+001	1.477666e+002
1.095066e+007	-3.663674e+001	-1.786896e+002	-3.056360e+001	-2.448978e+001	-9.860054e+001	8.229115e+001	-3.404960e+001	1.477084e+002
1.095066e+007	-3.663311e+001	-1.786099e+002	-3.056315e+001	-2.444256e+001	-9.509836e+001	1.183844e+002	-3.404535e+001	1.477670e+002
1.095067e+007	-3.663084e+001	-1.787148e+002	-3.056245e+001	-2.442088e+001	-9.879770e+001	1.179098e+002	-3.403951e+001	1.477215e+002
1.095068e+007	-3.663308e+001	-1.787715e+002	-3.055898e+001	-2.443260e+001	-9.686834e+001	9.696662e+001	-3.405535e+001	1.477353e+002
1.095069e+007	-3.663750e+001	-1.787534e+002	-3.056514e+001	-2.450544e+001	-9.457993e+001	8.912017e+001	-3.405702e+001	1.477508e+002
1.095070e+007	-3.663187e+001	-1.787673e+002	-3.056981e+001	-2.449156e+001	-9.875590e+001	1.050605e+002	-3.405546e+001	1.476369e+002
1.095070e+007	-3.664140e+001	-1.787587e+002	-3.056549e+001	-2.450548e+001	-9.560631e+001	8.382393e+001	-3.403825e+001	1.477698e+002
1.095071e+007	-3.664794e+001	-1.787040e+002	-3.057548e+001	-2.445836e+001	-9.881677e+001	9.644137e+001	-3.404921e+001	1.477101e+002
1.095072e+007	-3.664193e+001	-1.786248e+002	-3.056084e+001	-2.450055e+001	-9.626993e+001	9.890491e+001	-3.405354e+001	1.477327e+002
1.095073e+007	-3.664422e+001	-1.786248e+002	-3.056464e+001	-2.458231e+001	-9.506997e+001	8.048174e+001	-3.406090e+001	1.477386e+002
1.095073e+007	-3.663465e+001	-1.787032e+002	-3.056876e+001	-2.454342e+001	-9.795763e+001	6.142339e+001	-3.405645e+001	1.477097e+002
1.095074e+007	-3.663050e+001	-1.787205e+002	-3.056957e+001	-2.459709e+001	-9.646788e+001	9.699501e+001	-3.404347e+001	1.476414e+002
1.095075e+007	-3.665436e+001	-1.785821e+002	-3.057175e+001	-2.466555e+001	-9.623804e+001	1.178492e+002	-3.404402e+001	1.477129e+002
1.095076e+007	-3.663090e+001	-1.786475e+002	-3.058324e+001	-2.463176e+001	-9.870167e+001	8.422593e+001	-3.404266e+001	1.477111e+002
1.095077e+007	-3.664506e+001	-1.786945e+002	-3.058611e+001	-2.462350e+001	-9.580324e+001	9.957067e+001	-3.404149e+001	1.477652e+002
1.095077e+007	-3.664969e+001	-1.787288e+002	-3.060002e+001	-2.460432e+001	-9.567063e+001	9.531823e+001	-3.405014e+001	1.477212e+002
1.095078e+007	-3.662942e+001	-1.788140e+002	-3.061272e+001	-2.451613e+001	-9.759719e+001	1.182004e+002	-3.405705e+001	1.476729e+002
1.095079e+007	-3.663211e+001	-1.787006e+002	-3.060559e+001	-2.446073e+001	-9.503454e+001	9.026818e+001	-3.404450e+001	1.476729e+002
1.095080e+007	-3.665541e+001	-1.786764e+002	-3.058719e+001	-2.435657e+001	-9.889234e+001	1.024084e+002	-3.404563e+001	1.477570e+002
1.095080e+007	-3.662461e+001	-1.786575e+002	-3.059007e+001	-2.431412e+001	-1.010074e+002	1.034407e+002	-3.405455e+001	1.476452e+002
1.095081e+007	-3.664928e+001	-1.787359e+002	-3.057250e+001	-2.429205e+001	-9.618515e+001	9.998963e+001	-3.405234e+001	1.476858e+002
1.095082e+007	-3.664558e+001	-1.786296e+002	-3.056357e+001	-2.438995e+001	-9.838434e+001	9.433641e+001	-3.405074e+001	1.477345e+002
1.095083e+007	-3.664882e+001	-1.787291e+002	-3.055295e+001	-2.453404e+001	-1.004474e+002	9.179658e+001	-3.405100e+001	1.476661e+002
1.095084e+007	-3.663774e+001	-1.787301e+002	-3.056452e+001	-2.462109e+001	-9.558449e+001	1.007504e+002	-3.404316e+001	1.476912e+002
1.095084e+007	-3.665007e+001	-1.787430e+002	-3.058832e+001	-2.457001e+001	-9.613000e+001	1.100788e+002	-3.404259e+001	1.477177e+002
1.095085e+007	-3.663719e+001	-1.786969e+002	-3.058611e+001	-2.454801e+001	-9.871870e+001	1.024199e+002	-3.405282e+001	1.476959e+002
1.095086e+007	-3.665311e+001	-1.786979e+002	-3.059501e+001	-2.441600e+001	-9.720493e+001	9.293327e+001	-3.404738e+001	1.476862e+002
1.095087e+007	-3.664661e+001	-1.787507e+002	-3.057745e+001	-2.438442e+001	-9.744156e+001	9.449357e+001	-3.405425e+001	1.477451e+002
1.095088e+007	-3.663438e+001	-1.786644e+002	-3.055353e+001	-2.437226e+001	-9.826712e+001	1.064003e+002	-3.403501e+001	1.477270e+002
1.095088e+007	-3.664807e+001	-1.785679e+002	-3.056154e+001	-2.449277e+001	-9.474807e+001	8.741596e+001	-3.405033e+001	1.477133e+002
1.095089e+007	-3.663892e+001	-1.786294e+002	-3.057149e+001	-2.458443e+001	-9.628689e+001	1.036094e+002	-3.403610e+001	1.477269e+002
1.095090e+007	-3.664423e+001	-1.787950e+002	-3.058404e+001	-2.453747e+001	-9.607540e+001	9.654998e+001	-3.404710e+001	1.477012e+002
1.095091e+007	-3.663415e+001	-1.788501e+002	-3.059908e+001	-2.437928e+001	-9.448411e+001	9.275424e+001	-3.403921e+001	1.476915e+002
1.095091e+007	-3.664796e+001	-1.786667e+002	-3.058283e+001	-2.432279e+001	-9.642757e+001	9.878390e+001	-3.404774e+001	1.476742e+002
1.095092e+007	-3.663638e+001	-1.786884e+002	-3.056033e+001	-2.443351e+001	-9.519654e+001	9.129421e+001	-3.405080e+001	1.477533e+002
1.095093e+007	-3.664834e+001	-1.786513e+002	-3.056724e+001	-2.464001e+001	-9.667114e+001	9.763802e+001	-3.404866e+001	1.476700e+002
1.095094e+007	-3.662573e+001	-1.786154e+002	-3.059085e+001	-2.454716e+001	-9.627389e+001	6.834737e+001	-3.405553e+001	1.477507e+002
1.095095e+007	-3.663209e+001	-1.786803e+002	-3.058724e+001	-2.435956e+001	-9.820467e+001	9.417907e+001	-3.405137e+001	1.477357e+002
1.095095e+007	-3.664534e+001	-1.786803e+002	-3.056019e+001	-2.438238e+001	-9.445148e+001	8.977229e+001	-3.406258e+001	1.477199e+002
1.095096e+007	-3.663557e+001	-1.787392e+002	-3.055769e+001	-2.459008e+001	-9.449813e+001	9.785985e+001	-3.404264e+001	1.477331e+002
1.095097e+007	-3.663640e+001	-1.787389e+002	-3.057715e+001	-2.452608e+001	-9.687667e+001	9.094611e+001	-3.404203e+001	1.477706e+002
1.095098e+007	-3.664442e+001	-1.786410e+002	-3.058542e+001	-2.436824e+001	-9.434872e+001	1.126352e+002	-3.404885e+001	1.476709e+002
1.095098e+007	-3.665089e+001	-1.788133e+002	-3.056780e+001	-2.438125e+001	-9.615243e+001	9.429545e+001	-3.404637e+001	1.477171e+002
1.095099e+007	-3.665148e+001	-1.787503e+002	-3.057367e+001	-2.450146e+001	-9.592230e+001	9.375487e+001	-3.404787e+001	1.476932e+002
1.095100e+007	-3.662862e+001	-1.786677e+002	-3.057573e+001	-2.450929e+001	-9.608815e+001	1.188947e+002	-3.404857e+001	1.476802e+002
1.095101e+007	-3.665587e+001	-1.786638e+002	-3.057795e+001	-2.443423e+001	-9.480617e+001	8.800484e+001	-3.404492e+001	1.476697e+002
1.095102e+007	-3.665462e+001	-1.786968e+002	-3.055677e+001	-2.452077e+001	-9.592035e+001	9.061890e+001	-3.404801e+001	1.477130e+002
1.095102e+007	-3.661902e+001	-1.786793e+002	-3.057852e+001	-2.450224e+001	-9.317903e+001	1.003320e+002	-3.404350e+001	1.476708e+002
1.095103e+007	-3.663512e+001	-1.786944e+002	-3.058435e+001	-2.443406e+001	-9.428125e+001	9.647368e+001	-3.404708e+001	1.476832e+002
1.095104e+007	-3.662685e+001	-1.787243e+002	-3.056062e+001	-2.440859e+001	-9.566137e+001	1.127975e+002	-3.404476e+001	1.477223e+002
1.095105e+007	-3.664063e+001	-1.787182e+002	-3.056704e+001	-2.459854e+001	-1.014945e+002	1.157547e+002	-3.403482e+001	1.476744e+002
1.095105e+007	-3.664791e+001	-1.786796e+002	-3.058447e+001	-2.443467e+001	-9.821095e+001	9.728639e+001	-3.403862e+001	1.477043e+002
1.095106e+007	-3.663243e+001	-1.786735e+002	-3.056600e+001	-2.448862e+001	-9.529433e+001	1.129949e+002	-3.406241e+001	1.477434e+002
1.095107e+007	-3.664430e+001	-1.786605e+002	-3.057200e+001	-2.461315e+001	-9.860485e+001	1.063409e+002	-3.404503e+001	1.477348e+002
1.095108e+007	-3.663910e+001	-1.787716e+002	-3.056866e+001	-2.444486e+001	-9.358173e+001	1.017187e+002	-3.404403e+001	1.476824e+002
1.095109e+007	-3.663598e+001	-1.786646e+002	-3.055702e+001	-2.446740e+001	-9.683112e+001	8.937929e+001	-3.404202e+001	1.477485e+002
1.095109e+007	-3.664928e+001	-1.788062e+002	-3.056946e+001	-2.455310e+001	-9.888067e+001	1.140613e+002	-3.404440e+001	1.477368e+002
1.095110e+007	-3.664499e+001	-1.786282e+002	-3.057728e+001	-2.442547e+001	-9.906082e+001	8.274457e+001	-3.405429e+001	1.477982e+002
1.095111e+007	-3.663004e+001	-1.786648e+002	-3.055925e+001	-2.446397e+001	-1.014459e+002	9.964561e+001	-3.405053e+001	1.477644e+002
1.095112e+007	-3.664491e+001	-1.786421e+002	-3.057391e+001	-2.453416e+001	-9.858147e+001	8.708033e+001	-3.405940e+001	1.477746e+002
1.095113e+007	-3.665217e+001	-1.787151e+002	-3.056836e+001	-2.444013e+001	-9.663406e+001	1.023344e+002	-3.405167e+001	1.477262e+002
1.095113e+007	-3.666015e+001	-1.787065e+002	-3.056153e+001	-2.454877e+001	-9.790037e+001	1.098771e+002	-3.403800e+001	1.477162e+002
1.095114e+007	-3.663281e+001	-1.787008e+002	-3.058011e+001	-2.445037e+001	-9.516343e+001	1.071833e+002	-3.403933e+001	1.476658e+002
1.095115e+007	-3.663997e+001	-1.786969e+002	-3.056072e+001	-2.447153e+001	-9.602591e+001	9.345383e+001	-3.404772e+001	1.477403e+002
1.095116e+007	-3.664059e+001	-1.786998e+002	-3.056231e+001	-2.442548e+001	-1.012883e+002	1.382667e+002	-3.405426e+001	1.477197e+002
