!CETC41,AV3656A,ZGL00048,1.3.2
!Calibration ON (Full Solt 2-Port(Omit Isolation))
!Measurements: S11 S21 S12 S22
!2025-04-29 17:52
# Hz  S  dB  R 50.000
1.095000e+007	-4.253890e+001	-8.261448e+001	-3.074904e+001	-2.186420e+001	-9.783714e+001	9.127084e+001	-4.595862e+001	1.114574e+002
1.095001e+007	-4.255144e+001	-8.270218e+001	-3.074884e+001	-2.190571e+001	-1.012914e+002	7.747655e+001	-4.595239e+001	1.110937e+002
1.095002e+007	-4.254792e+001	-8.265901e+001	-3.073863e+001	-2.191685e+001	-9.406046e+001	8.331219e+001	-4.596607e+001	1.114106e+002
1.095002e+007	-4.258496e+001	-8.274141e+001	-3.074943e+001	-2.187251e+001	-9.499728e+001	1.097695e+002	-4.598510e+001	1.110493e+002
1.095003e+007	-4.254625e+001	-8.275717e+001	-3.074639e+001	-2.191489e+001	-9.813234e+001	1.057614e+002	-4.603136e+001	1.115040e+002
1.095004e+007	-4.254782e+001	-8.269939e+001	-3.074065e+001	-2.191950e+001	-9.507416e+001	7.978486e+001	-4.604462e+001	1.114281e+002
1.095005e+007	-4.258136e+001	-8.291447e+001	-3.074872e+001	-2.191455e+001	-9.539087e+001	9.964729e+001	-4.598121e+001	1.113682e+002
1.095005e+007	-4.255428e+001	-8.272159e+001	-3.075233e+001	-2.192059e+001	-9.717486e+001	9.833067e+001	-4.600424e+001	1.114282e+002
1.095006e+007	-4.256485e+001	-8.274759e+001	-3.075403e+001	-2.193283e+001	-9.596131e+001	6.531530e+001	-4.601473e+001	1.114710e+002
1.095007e+007	-4.258520e+001	-8.245348e+001	-3.074716e+001	-2.200309e+001	-9.738002e+001	9.645243e+001	-4.600040e+001	1.111601e+002
1.095008e+007	-4.258113e+001	-8.268431e+001	-3.075783e+001	-2.184183e+001	-9.931583e+001	1.000602e+002	-4.600342e+001	1.115945e+002
1.095009e+007	-4.256152e+001	-8.263366e+001	-3.076012e+001	-2.185482e+001	-9.558840e+001	9.228774e+001	-4.603179e+001	1.110390e+002
1.095009e+007	-4.257924e+001	-8.255824e+001	-3.075648e+001	-2.189266e+001	-9.456414e+001	9.853497e+001	-4.600352e+001	1.115381e+002
1.095010e+007	-4.258866e+001	-8.255138e+001	-3.075869e+001	-2.191204e+001	-9.426249e+001	7.721579e+001	-4.602594e+001	1.114525e+002
1.095011e+007	-4.253526e+001	-8.255851e+001	-3.075586e+001	-2.189475e+001	-9.761359e+001	9.597522e+001	-4.595500e+001	1.113521e+002
1.095012e+007	-4.258177e+001	-8.246568e+001	-3.074896e+001	-2.193030e+001	-9.692659e+001	8.685431e+001	-4.599462e+001	1.114596e+002
1.095013e+007	-4.254429e+001	-8.269796e+001	-3.074444e+001	-2.191657e+001	-9.460874e+001	1.091936e+002	-4.600701e+001	1.111644e+002
1.095013e+007	-4.254171e+001	-8.282205e+001	-3.074387e+001	-2.185928e+001	-9.647083e+001	1.013379e+002	-4.601293e+001	1.112783e+002
1.095014e+007	-4.252960e+001	-8.263756e+001	-3.073839e+001	-2.183811e+001	-9.550413e+001	8.968611e+001	-4.606473e+001	1.113933e+002
1.095015e+007	-4.255663e+001	-8.271607e+001	-3.073574e+001	-2.183328e+001	-9.749480e+001	9.958339e+001	-4.593172e+001	1.113885e+002
1.095016e+007	-4.253546e+001	-8.272194e+001	-3.073879e+001	-2.195785e+001	-9.639758e+001	1.085696e+002	-4.594703e+001	1.113838e+002
1.095016e+007	-4.254715e+001	-8.267811e+001	-3.072769e+001	-2.197162e+001	-9.334629e+001	8.796422e+001	-4.599496e+001	1.114157e+002
1.095017e+007	-4.256371e+001	-8.269805e+001	-3.075683e+001	-2.202032e+001	-9.552633e+001	9.236118e+001	-4.599345e+001	1.112706e+002
1.095018e+007	-4.258982e+001	-8.276924e+001	-3.075154e+001	-2.200175e+001	-1.016889e+002	1.088010e+002	-4.598411e+001	1.110875e+002
1.095019e+007	-4.257518e+001	-8.241740e+001	-3.075642e+001	-2.198243e+001	-9.642138e+001	1.029099e+002	-4.600833e+001	1.110303e+002
1.095020e+007	-4.261032e+001	-8.246206e+001	-3.075290e+001	-2.190082e+001	-9.693791e+001	8.606505e+001	-4.597201e+001	1.113882e+002
1.095020e+007	-4.255132e+001	-8.274943e+001	-3.074661e+001	-2.184388e+001	-9.539637e+001	9.172861e+001	-4.604311e+001	1.113898e+002
1.095021e+007	-4.258487e+001	-8.279336e+001	-3.074815e+001	-2.187354e+001	-9.524458e+001	9.023329e+001	-4.601418e+001	1.111636e+002
1.095022e+007	-4.257755e+001	-8.253396e+001	-3.073568e+001	-2.192415e+001	-9.588746e+001	1.051369e+002	-4.598236e+001	1.113018e+002
1.095023e+007	-4.252294e+001	-8.278507e+001	-3.073412e+001	-2.196214e+001	-9.417844e+001	8.403642e+001	-4.598201e+001	1.116105e+002
1.095023e+007	-4.254372e+001	-8.272403e+001	-3.074624e+001	-2.196331e+001	-9.643964e+001	1.009112e+002	-4.597517e+001	1.112783e+002
1.095024e+007	-4.254227e+001	-8.259289e+001	-3.074965e+001	-2.196783e+001	-9.445457e+001	1.041660e+002	-4.602401e+001	1.115994e+002
1.095025e+007	-4.257710e+001	-8.249885e+001	-3.075974e+001	-2.192658e+001	-9.614275e+001	1.100771e+002	-4.597412e+001	1.113614e+002
1.095026e+007	-4.257469e+001	-8.269129e+001	-3.076109e+001	-2.182506e+001	-9.592623e+001	1.080738e+002	-4.599184e+001	1.112409e+002
1.095027e+007	-4.257920e+001	-8.270303e+001	-3.073530e+001	-2.185266e+001	-9.683247e+001	8.887560e+001	-4.596537e+001	1.115117e+002
1.095027e+007	-4.257462e+001	-8.263031e+001	-3.072707e+001	-2.192601e+001	-9.547073e+001	1.031192e+002	-4.599030e+001	1.113766e+002
1.095028e+007	-4.257447e+001	-8.267357e+001	-3.074591e+001	-2.195218e+001	-9.764133e+001	9.073598e+001	-4.598641e+001	1.110337e+002
1.095029e+007	-4.257196e+001	-8.280449e+001	-3.074924e+001	-2.201640e+001	-9.863834e+001	1.104521e+002	-4.597930e+001	1.110557e+002
1.095030e+007	-4.255550e+001	-8.268608e+001	-3.074961e+001	-2.180990e+001	-9.679281e+001	9.590194e+001	-4.595270e+001	1.114318e+002
1.095030e+007	-4.259328e+001	-8.269221e+001	-3.073645e+001	-2.189360e+001	-1.007765e+002	1.113988e+002	-4.600672e+001	1.114892e+002
1.095031e+007	-4.257470e+001	-8.275976e+001	-3.072972e+001	-2.190712e+001	-9.556864e+001	7.886539e+001	-4.598639e+001	1.115208e+002
1.095032e+007	-4.255090e+001	-8.265750e+001	-3.075816e+001	-2.197542e+001	-9.628633e+001	9.818849e+001	-4.601566e+001	1.112295e+002
1.095033e+007	-4.257436e+001	-8.272045e+001	-3.076188e+001	-2.183622e+001	-9.523705e+001	1.306039e+002	-4.598694e+001	1.116568e+002
1.095034e+007	-4.254082e+001	-8.278964e+001	-3.074716e+001	-2.180664e+001	-9.666158e+001	1.195645e+002	-4.600150e+001	1.113092e+002
1.095034e+007	-4.256164e+001	-8.270465e+001	-3.072888e+001	-2.194633e+001	-9.795321e+001	8.262552e+001	-4.598127e+001	1.114585e+002
1.095035e+007	-4.257901e+001	-8.251590e+001	-3.075043e+001	-2.200717e+001	-9.567426e+001	1.065229e+002	-4.602248e+001	1.116261e+002
1.095036e+007	-4.255218e+001	-8.268193e+001	-3.076119e+001	-2.188657e+001	-9.604757e+001	9.316532e+001	-4.601918e+001	1.112863e+002
1.095037e+007	-4.255967e+001	-8.257829e+001	-3.074454e+001	-2.180482e+001	-9.877903e+001	8.600024e+001	-4.598664e+001	1.111928e+002
1.095038e+007	-4.258863e+001	-8.290056e+001	-3.073150e+001	-2.198211e+001	-9.666818e+001	8.977015e+001	-4.600519e+001	1.115679e+002
1.095038e+007	-4.256674e+001	-8.265224e+001	-3.075752e+001	-2.195737e+001	-1.029903e+002	1.046525e+002	-4.603415e+001	1.113612e+002
1.095039e+007	-4.256399e+001	-8.245306e+001	-3.075573e+001	-2.181509e+001	-9.714299e+001	1.248798e+002	-4.594401e+001	1.113614e+002
1.095040e+007	-4.258274e+001	-8.257678e+001	-3.073041e+001	-2.193871e+001	-9.783635e+001	9.288214e+001	-4.595518e+001	1.113987e+002
1.095041e+007	-4.253301e+001	-8.267901e+001	-3.075627e+001	-2.205989e+001	-9.562351e+001	1.127545e+002	-4.601654e+001	1.114815e+002
1.095041e+007	-4.255938e+001	-8.277500e+001	-3.075354e+001	-2.190939e+001	-9.573989e+001	1.075712e+002	-4.595094e+001	1.114408e+002
1.095042e+007	-4.256308e+001	-8.265655e+001	-3.073064e+001	-2.192585e+001	-9.694081e+001	1.066354e+002	-4.600003e+001	1.116518e+002
1.095043e+007	-4.252775e+001	-8.278096e+001	-3.074823e+001	-2.198816e+001	-9.813589e+001	9.289123e+001	-4.599664e+001	1.112047e+002
1.095044e+007	-4.255838e+001	-8.260508e+001	-3.075196e+001	-2.182471e+001	-9.784297e+001	9.461216e+001	-4.596712e+001	1.115634e+002
1.095045e+007	-4.256497e+001	-8.271127e+001	-3.073342e+001	-2.190587e+001	-9.643204e+001	9.944342e+001	-4.598474e+001	1.116248e+002
1.095045e+007	-4.256172e+001	-8.270022e+001	-3.075448e+001	-2.197035e+001	-9.647809e+001	1.100440e+002	-4.607332e+001	1.115912e+002
1.095046e+007	-4.258010e+001	-8.258232e+001	-3.074587e+001	-2.189836e+001	-9.522177e+001	1.012818e+002	-4.595688e+001	1.114758e+002
1.095047e+007	-4.257049e+001	-8.263327e+001	-3.072063e+001	-2.196122e+001	-9.600726e+001	1.051406e+002	-4.596590e+001	1.118209e+002
1.095048e+007	-4.260424e+001	-8.267887e+001	-3.074883e+001	-2.187678e+001	-9.592039e+001	9.182826e+001	-4.599391e+001	1.115759e+002
1.095048e+007	-4.256381e+001	-8.281017e+001	-3.073837e+001	-2.179197e+001	-9.761626e+001	9.126873e+001	-4.595631e+001	1.113198e+002
1.095049e+007	-4.255113e+001	-8.276262e+001	-3.075061e+001	-2.205543e+001	-9.471402e+001	1.043745e+002	-4.600145e+001	1.112624e+002
1.095050e+007	-4.258702e+001	-8.260450e+001	-3.075296e+001	-2.191589e+001	-9.370238e+001	9.210029e+001	-4.597838e+001	1.116184e+002
1.095051e+007	-4.255778e+001	-8.266663e+001	-3.073684e+001	-2.196432e+001	-9.584861e+001	5.519011e+001	-4.600563e+001	1.114768e+002
1.095052e+007	-4.252833e+001	-8.274984e+001	-3.075775e+001	-2.194750e+001	-9.844808e+001	1.034035e+002	-4.595851e+001	1.112091e+002
1.095052e+007	-4.255842e+001	-8.252341e+001	-3.073039e+001	-2.188653e+001	-9.248416e+001	1.197771e+002	-4.601435e+001	1.114000e+002
1.095053e+007	-4.254352e+001	-8.262803e+001	-3.074714e+001	-2.201275e+001	-9.635250e+001	1.215707e+002	-4.598485e+001	1.114441e+002
1.095054e+007	-4.256200e+001	-8.266282e+001	-3.074850e+001	-2.187657e+001	-9.748680e+001	1.165703e+002	-4.595898e+001	1.115890e+002
1.095055e+007	-4.253987e+001	-8.271097e+001	-3.074160e+001	-2.198867e+001	-9.659492e+001	1.207888e+002	-4.596961e+001	1.112354e+002
1.095055e+007	-4.254834e+001	-8.256531e+001	-3.075392e+001	-2.184697e+001	-9.344213e+001	1.157921e+002	-4.604352e+001	1.114267e+002
1.095056e+007	-4.256432e+001	-8.273585e+001	-3.073580e+001	-2.198358e+001	-9.743445e+001	8.393248e+001	-4.597893e+001	1.114346e+002
1.095057e+007	-4.254977e+001	-8.260525e+001	-3.074094e+001	-2.187353e+001	-9.749657e+001	9.221553e+001	-4.596768e+001	1.117173e+002
1.095058e+007	-4.257331e+001	-8.267548e+001	-3.073085e+001	-2.194315e+001	-9.662669e+001	1.140632e+002	-4.596106e+001	1.115432e+002
1.095059e+007	-4.256101e+001	-8.263444e+001	-3.075259e+001	-2.191702e+001	-9.556551e+001	1.107132e+002	-4.596531e+001	1.116170e+002
1.095059e+007	-4.256519e+001	-8.246848e+001	-3.073589e+001	-2.201068e+001	-9.382461e+001	9.349537e+001	-4.599869e+001	1.112589e+002
1.095060e+007	-4.252446e+001	-8.262663e+001	-3.074759e+001	-2.187865e+001	-9.319418e+001	8.602129e+001	-4.596671e+001	1.113379e+002
1.095061e+007	-4.256889e+001	-8.265846e+001	-3.072498e+001	-2.188177e+001	-9.656580e+001	9.672405e+001	-4.598950e+001	1.114822e+002
1.095062e+007	-4.255702e+001	-8.263890e+001	-3.075275e+001	-2.188876e+001	-9.464454e+001	7.833526e+001	-4.599217e+001	1.114290e+002
1.095063e+007	-4.258210e+001	-8.260382e+001	-3.073381e+001	-2.195397e+001	-9.656795e+001	9.057372e+001	-4.597307e+001	1.113634e+002
1.095063e+007	-4.256119e+001	-8.271316e+001	-3.073950e+001	-2.187916e+001	-9.259646e+001	9.953563e+001	-4.598598e+001	1.114562e+002
1.095064e+007	-4.257206e+001	-8.265042e+001	-3.073928e+001	-2.194494e+001	-9.398228e+001	8.477420e+001	-4.599771e+001	1.115456e+002
1.095065e+007	-4.254699e+001	-8.251372e+001	-3.073915e+001	-2.185214e+001	-9.572549e+001	9.779447e+001	-4.602821e+001	1.115616e+002
1.095066e+007	-4.258422e+001	-8.272473e+001	-3.073877e+001	-2.192464e+001	-9.971076e+001	9.593170e+001	-4.598412e+001	1.115313e+002
1.095066e+007	-4.256748e+001	-8.263713e+001	-3.074533e+001	-2.188092e+001	-9.602149e+001	8.138081e+001	-4.597166e+001	1.113089e+002
1.095067e+007	-4.256478e+001	-8.254786e+001	-3.074817e+001	-2.195754e+001	-9.513842e+001	9.116114e+001	-4.602256e+001	1.113501e+002
1.095068e+007	-4.260453e+001	-8.262538e+001	-3.073654e+001	-2.184687e+001	-9.611599e+001	9.394589e+001	-4.596626e+001	1.116992e+002
1.095069e+007	-4.257168e+001	-8.249068e+001	-3.075624e+001	-2.194455e+001	-9.753016e+001	1.013236e+002	-4.601217e+001	1.115812e+002
1.095070e+007	-4.260177e+001	-8.273309e+001	-3.073022e+001	-2.198342e+001	-9.454257e+001	1.197393e+002	-4.601181e+001	1.115479e+002
1.095070e+007	-4.255577e+001	-8.276825e+001	-3.073531e+001	-2.185915e+001	-9.379104e+001	9.472956e+001	-4.596580e+001	1.114426e+002
1.095071e+007	-4.255703e+001	-8.251229e+001	-3.074696e+001	-2.195482e+001	-9.369847e+001	8.965632e+001	-4.600398e+001	1.112727e+002
1.095072e+007	-4.252702e+001	-8.255453e+001	-3.073581e+001	-2.187691e+001	-9.364882e+001	9.711981e+001	-4.600081e+001	1.114556e+002
1.095073e+007	-4.256664e+001	-8.268079e+001	-3.073957e+001	-2.197996e+001	-9.832331e+001	7.387273e+001	-4.598159e+001	1.117527e+002
1.095073e+007	-4.255675e+001	-8.265637e+001	-3.073441e+001	-2.197028e+001	-9.622546e+001	9.959955e+001	-4.601973e+001	1.116044e+002
1.095074e+007	-4.258635e+001	-8.285964e+001	-3.074191e+001	-2.185686e+001	-9.927606e+001	9.986633e+001	-4.600069e+001	1.113572e+002
1.095075e+007	-4.255129e+001	-8.262964e+001	-3.074776e+001	-2.200058e+001	-9.355883e+001	1.058098e+002	-4.600680e+001	1.115046e+002
1.095076e+007	-4.256268e+001	-8.275441e+001	-3.074220e+001	-2.195394e+001	-9.850120e+001	9.900222e+001	-4.601623e+001	1.109603e+002
1.095077e+007	-4.256435e+001	-8.268001e+001	-3.075568e+001	-2.186771e+001	-9.817922e+001	1.089191e+002	-4.598248e+001	1.114719e+002
1.095077e+007	-4.257957e+001	-8.256420e+001	-3.074902e+001	-2.196300e+001	-9.474300e+001	7.587749e+001	-4.606576e+001	1.114749e+002
1.095078e+007	-4.257447e+001	-8.271949e+001	-3.073598e+001	-2.195540e+001	-9.745257e+001	1.019510e+002	-4.601083e+001	1.113964e+002
1.095079e+007	-4.256286e+001	-8.277962e+001	-3.074124e+001	-2.184710e+001	-1.018308e+002	7.315576e+001	-4.597601e+001	1.113221e+002
1.095080e+007	-4.255000e+001	-8.268435e+001	-3.074869e+001	-2.195104e+001	-9.741719e+001	1.226751e+002	-4.595865e+001	1.114247e+002
1.095080e+007	-4.257230e+001	-8.285158e+001	-3.073426e+001	-2.190808e+001	-9.492294e+001	9.991245e+001	-4.597945e+001	1.115303e+002
1.095081e+007	-4.254752e+001	-8.264442e+001	-3.074721e+001	-2.191675e+001	-9.788819e+001	8.850363e+001	-4.603214e+001	1.113079e+002
1.095082e+007	-4.256765e+001	-8.258688e+001	-3.075071e+001	-2.192335e+001	-9.666379e+001	7.850800e+001	-4.596595e+001	1.115710e+002
1.095083e+007	-4.255664e+001	-8.269569e+001	-3.073454e+001	-2.189758e+001	-9.857925e+001	6.363845e+001	-4.600886e+001	1.113504e+002
1.095084e+007	-4.257937e+001	-8.282331e+001	-3.074915e+001	-2.179844e+001	-9.580836e+001	1.055228e+002	-4.599796e+001	1.111875e+002
1.095084e+007	-4.252875e+001	-8.256851e+001	-3.074352e+001	-2.189868e+001	-1.026771e+002	7.845833e+001	-4.599436e+001	1.112511e+002
1.095085e+007	-4.255030e+001	-8.277375e+001	-3.074439e+001	-2.201714e+001	-9.532486e+001	1.061838e+002	-4.596526e+001	1.113668e+002
1.095086e+007	-4.254706e+001	-8.276775e+001	-3.074389e+001	-2.193052e+001	-1.009011e+002	8.944913e+001	-4.601637e+001	1.113927e+002
1.095087e+007	-4.254999e+001	-8.252337e+001	-3.075103e+001	-2.189337e+001	-9.891197e+001	1.196575e+002	-4.596400e+001	1.114784e+002
1.095088e+007	-4.257698e+001	-8.256540e+001	-3.074683e+001	-2.193027e+001	-9.784391e+001	1.057687e+002	-4.600638e+001	1.112311e+002
1.095088e+007	-4.254691e+001	-8.268205e+001	-3.075258e+001	-2.188746e+001	-1.004025e+002	9.308745e+001	-4.599271e+001	1.114995e+002
1.095089e+007	-4.253924e+001	-8.252537e+001	-3.074470e+001	-2.191160e+001	-9.652481e+001	1.080497e+002	-4.598619e+001	1.114887e+002
1.095090e+007	-4.256282e+001	-8.265766e+001	-3.074369e+001	-2.192189e+001	-9.730481e+001	9.458958e+001	-4.593729e+001	1.112570e+002
1.095091e+007	-4.255693e+001	-8.256607e+001	-3.074717e+001	-2.192682e+001	-1.008397e+002	7.927073e+001	-4.596075e+001	1.117488e+002
1.095091e+007	-4.254996e+001	-8.265944e+001	-3.075093e+001	-2.196403e+001	-9.436265e+001	9.787025e+001	-4.600496e+001	1.115353e+002
1.095092e+007	-4.255602e+001	-8.262426e+001	-3.074558e+001	-2.196341e+001	-9.399839e+001	1.046044e+002	-4.599306e+001	1.115191e+002
1.095093e+007	-4.258957e+001	-8.257570e+001	-3.073765e+001	-2.192608e+001	-9.712377e+001	6.931850e+001	-4.599789e+001	1.117414e+002
1.095094e+007	-4.257329e+001	-8.266310e+001	-3.073609e+001	-2.188882e+001	-9.773559e+001	8.644001e+001	-4.601599e+001	1.116516e+002
1.095095e+007	-4.258011e+001	-8.274317e+001	-3.073806e+001	-2.186419e+001	-9.747447e+001	1.035617e+002	-4.597187e+001	1.115003e+002
1.095095e+007	-4.255536e+001	-8.259354e+001	-3.074831e+001	-2.191099e+001	-9.466374e+001	9.757011e+001	-4.600195e+001	1.115894e+002
1.095096e+007	-4.257042e+001	-8.257401e+001	-3.074391e+001	-2.191207e+001	-9.290142e+001	9.123806e+001	-4.595637e+001	1.113941e+002
1.095097e+007	-4.257705e+001	-8.267234e+001	-3.073707e+001	-2.191482e+001	-9.681862e+001	1.001279e+002	-4.597810e+001	1.112110e+002
1.095098e+007	-4.255933e+001	-8.275938e+001	-3.074076e+001	-2.191002e+001	-9.845041e+001	1.079443e+002	-4.602301e+001	1.113676e+002
1.095098e+007	-4.256212e+001	-8.268907e+001	-3.073253e+001	-2.189427e+001	-9.512708e+001	9.586667e+001	-4.599432e+001	1.116083e+002
1.095099e+007	-4.255159e+001	-8.270416e+001	-3.074795e+001	-2.184531e+001	-9.707739e+001	9.650887e+001	-4.597357e+001	1.117176e+002
1.095100e+007	-4.253478e+001	-8.258499e+001	-3.074328e+001	-2.190032e+001	-9.485204e+001	1.126342e+002	-4.600843e+001	1.114064e+002
1.095101e+007	-4.254100e+001	-8.277537e+001	-3.074753e+001	-2.189894e+001	-9.861523e+001	1.281659e+002	-4.598771e+001	1.116289e+002
1.095102e+007	-4.259096e+001	-8.271634e+001	-3.074121e+001	-2.195388e+001	-9.540915e+001	1.089778e+002	-4.601570e+001	1.116225e+002
1.095102e+007	-4.253326e+001	-8.265833e+001	-3.074361e+001	-2.199347e+001	-9.824317e+001	1.159907e+002	-4.597541e+001	1.112544e+002
1.095103e+007	-4.257626e+001	-8.254280e+001	-3.074359e+001	-2.194329e+001	-9.715339e+001	1.027436e+002	-4.598736e+001	1.117594e+002
1.095104e+007	-4.257252e+001	-8.265746e+001	-3.074802e+001	-2.197366e+001	-9.760850e+001	1.253965e+002	-4.597105e+001	1.117493e+002
1.095105e+007	-4.255810e+001	-8.289643e+001	-3.074385e+001	-2.193971e+001	-9.698406e+001	1.176550e+002	-4.593500e+001	1.115435e+002
1.095105e+007	-4.253910e+001	-8.270464e+001	-3.074400e+001	-2.185751e+001	-9.749430e+001	8.871723e+001	-4.592610e+001	1.114114e+002
1.095106e+007	-4.254482e+001	-8.251316e+001	-3.074899e+001	-2.193350e+001	-9.639438e+001	8.825784e+001	-4.597803e+001	1.118192e+002
1.095107e+007	-4.256372e+001	-8.267599e+001	-3.074405e+001	-2.194509e+001	-9.640807e+001	1.010389e+002	-4.595574e+001	1.116041e+002
1.095108e+007	-4.254578e+001	-8.250116e+001	-3.074549e+001	-2.186624e+001	-9.387333e+001	1.242436e+002	-4.594209e+001	1.113176e+002
1.095109e+007	-4.256501e+001	-8.272208e+001	-3.074105e+001	-2.191722e+001	-9.611018e+001	9.941163e+001	-4.601493e+001	1.117096e+002
1.095109e+007	-4.256170e+001	-8.275908e+001	-3.073687e+001	-2.192224e+001	-9.763259e+001	1.058633e+002	-4.598946e+001	1.113998e+002
1.095110e+007	-4.257778e+001	-8.268469e+001	-3.074897e+001	-2.187038e+001	-9.545222e+001	8.204926e+001	-4.599811e+001	1.114887e+002
1.095111e+007	-4.254006e+001	-8.258108e+001	-3.073852e+001	-2.189921e+001	-9.390492e+001	1.011925e+002	-4.595415e+001	1.115901e+002
1.095112e+007	-4.258335e+001	-8.262762e+001	-3.074621e+001	-2.190481e+001	-9.749957e+001	9.199679e+001	-4.598418e+001	1.115796e+002
1.095113e+007	-4.255984e+001	-8.265292e+001	-3.074837e+001	-2.193367e+001	-9.723710e+001	1.155302e+002	-4.599244e+001	1.116896e+002
1.095113e+007	-4.253324e+001	-8.278315e+001	-3.074148e+001	-2.193291e+001	-9.572261e+001	1.215854e+002	-4.595054e+001	1.113599e+002
1.095114e+007	-4.256433e+001	-8.259574e+001	-3.074757e+001	-2.194331e+001	-9.532654e+001	9.568264e+001	-4.598919e+001	1.114880e+002
1.095115e+007	-4.255369e+001	-8.270089e+001	-3.074078e+001	-2.190560e+001	-9.482138e+001	8.833706e+001	-4.597966e+001	1.112281e+002
1.095116e+007	-4.258060e+001	-8.274830e+001	-3.074238e+001	-2.191496e+001	-9.636435e+001	8.624981e+001	-4.602561e+001	1.116010e+002
