!CETC41,AV3656A,ZGL00048,1.3.2
!Calibration ON (Full Solt 2-Port(Omit Isolation))
!Measurements: S11 S21 S12 S22
!2025-04-18 00:10
# Hz  S  dB  R 50.000
1.095000e+007	-3.661575e+001	-1.782166e+002	-3.069871e+001	-2.303678e+001	-9.688370e+001	1.138683e+002	-3.449324e+001	1.474782e+002
1.095001e+007	-3.659986e+001	-1.782475e+002	-3.070549e+001	-2.311926e+001	-1.014667e+002	7.889665e+001	-3.448897e+001	1.475426e+002
1.095002e+007	-3.660974e+001	-1.781921e+002	-3.069504e+001	-2.310798e+001	-9.605139e+001	1.113790e+002	-3.447742e+001	1.474641e+002
1.095002e+007	-3.661041e+001	-1.780699e+002	-3.070242e+001	-2.306210e+001	-9.661955e+001	7.855986e+001	-3.448987e+001	1.474897e+002
1.095003e+007	-3.658883e+001	-1.781028e+002	-3.071021e+001	-2.317311e+001	-9.748827e+001	1.166799e+002	-3.449205e+001	1.474473e+002
1.095004e+007	-3.660098e+001	-1.780468e+002	-3.070471e+001	-2.310659e+001	-9.713660e+001	1.179945e+002	-3.448990e+001	1.474788e+002
1.095005e+007	-3.660836e+001	-1.782400e+002	-3.071219e+001	-2.304741e+001	-9.801917e+001	8.706970e+001	-3.449649e+001	1.475458e+002
1.095005e+007	-3.660408e+001	-1.780721e+002	-3.070583e+001	-2.305207e+001	-9.978828e+001	9.369888e+001	-3.449364e+001	1.474857e+002
1.095006e+007	-3.659898e+001	-1.781542e+002	-3.070607e+001	-2.309019e+001	-1.003444e+002	9.378815e+001	-3.449065e+001	1.475430e+002
1.095007e+007	-3.659362e+001	-1.781364e+002	-3.070704e+001	-2.311461e+001	-1.046028e+002	9.564567e+001	-3.449193e+001	1.475557e+002
1.095008e+007	-3.661779e+001	-1.781907e+002	-3.070790e+001	-2.304839e+001	-9.737064e+001	9.795482e+001	-3.449834e+001	1.475024e+002
1.095009e+007	-3.658760e+001	-1.782333e+002	-3.070447e+001	-2.308044e+001	-9.777632e+001	1.197219e+002	-3.448585e+001	1.476118e+002
1.095009e+007	-3.659259e+001	-1.781228e+002	-3.070300e+001	-2.309899e+001	-9.787865e+001	1.003407e+002	-3.449224e+001	1.474989e+002
1.095010e+007	-3.660116e+001	-1.780843e+002	-3.069845e+001	-2.307027e+001	-9.817490e+001	1.299803e+002	-3.449971e+001	1.475481e+002
1.095011e+007	-3.660471e+001	-1.782429e+002	-3.070842e+001	-2.304189e+001	-9.786835e+001	1.074707e+002	-3.450175e+001	1.474873e+002
1.095012e+007	-3.660103e+001	-1.781857e+002	-3.071223e+001	-2.303546e+001	-9.829305e+001	1.072334e+002	-3.449166e+001	1.474868e+002
1.095013e+007	-3.659425e+001	-1.781974e+002	-3.070380e+001	-2.309703e+001	-9.315024e+001	9.284704e+001	-3.449121e+001	1.474959e+002
1.095013e+007	-3.661304e+001	-1.780393e+002	-3.070014e+001	-2.302977e+001	-9.747129e+001	1.096315e+002	-3.448677e+001	1.475018e+002
1.095014e+007	-3.660802e+001	-1.782314e+002	-3.071363e+001	-2.311510e+001	-9.546009e+001	1.140851e+002	-3.450146e+001	1.474767e+002
1.095015e+007	-3.660314e+001	-1.781225e+002	-3.070150e+001	-2.309638e+001	-9.588168e+001	9.800619e+001	-3.448369e+001	1.474474e+002
1.095016e+007	-3.661163e+001	-1.780213e+002	-3.070906e+001	-2.310295e+001	-9.472704e+001	8.519335e+001	-3.448895e+001	1.474518e+002
1.095016e+007	-3.659603e+001	-1.781337e+002	-3.070252e+001	-2.312098e+001	-9.700369e+001	8.018461e+001	-3.448644e+001	1.474894e+002
1.095017e+007	-3.661361e+001	-1.782319e+002	-3.069434e+001	-2.309454e+001	-9.850106e+001	9.878768e+001	-3.448274e+001	1.474413e+002
1.095018e+007	-3.660576e+001	-1.781658e+002	-3.070499e+001	-2.310633e+001	-9.744135e+001	1.054611e+002	-3.449173e+001	1.475557e+002
1.095019e+007	-3.659851e+001	-1.781645e+002	-3.070190e+001	-2.308968e+001	-9.820395e+001	1.011658e+002	-3.448998e+001	1.474695e+002
1.095020e+007	-3.660705e+001	-1.780779e+002	-3.069915e+001	-2.311564e+001	-1.009969e+002	1.017037e+002	-3.449350e+001	1.474853e+002
1.095020e+007	-3.661277e+001	-1.781288e+002	-3.070585e+001	-2.311847e+001	-9.937900e+001	9.200621e+001	-3.448962e+001	1.474814e+002
1.095021e+007	-3.660944e+001	-1.780772e+002	-3.071447e+001	-2.308615e+001	-9.590608e+001	9.547347e+001	-3.449436e+001	1.474586e+002
1.095022e+007	-3.661620e+001	-1.781335e+002	-3.070472e+001	-2.307298e+001	-9.865303e+001	9.896695e+001	-3.449183e+001	1.474900e+002
1.095023e+007	-3.659412e+001	-1.781209e+002	-3.070325e+001	-2.309435e+001	-9.775765e+001	7.434239e+001	-3.448637e+001	1.474924e+002
1.095023e+007	-3.661201e+001	-1.781029e+002	-3.070728e+001	-2.307034e+001	-9.688731e+001	1.230648e+002	-3.448516e+001	1.474955e+002
1.095024e+007	-3.661189e+001	-1.780945e+002	-3.069064e+001	-2.313260e+001	-9.423893e+001	1.014372e+002	-3.450056e+001	1.474775e+002
1.095025e+007	-3.662092e+001	-1.781892e+002	-3.070906e+001	-2.312643e+001	-9.866396e+001	8.387380e+001	-3.449616e+001	1.474582e+002
1.095026e+007	-3.661051e+001	-1.781634e+002	-3.069931e+001	-2.309317e+001	-9.724705e+001	1.092216e+002	-3.449059e+001	1.474353e+002
1.095027e+007	-3.661055e+001	-1.780825e+002	-3.071025e+001	-2.309505e+001	-1.010134e+002	6.362530e+001	-3.448492e+001	1.475480e+002
1.095027e+007	-3.661153e+001	-1.781146e+002	-3.069491e+001	-2.308365e+001	-9.489230e+001	1.069767e+002	-3.449755e+001	1.475180e+002
1.095028e+007	-3.660202e+001	-1.781092e+002	-3.071374e+001	-2.306590e+001	-1.005633e+002	1.235792e+002	-3.448468e+001	1.474610e+002
1.095029e+007	-3.660954e+001	-1.780110e+002	-3.070876e+001	-2.304452e+001	-9.779503e+001	9.365403e+001	-3.448118e+001	1.475534e+002
1.095030e+007	-3.660598e+001	-1.781757e+002	-3.069004e+001	-2.306994e+001	-9.402719e+001	1.143629e+002	-3.449360e+001	1.475183e+002
1.095030e+007	-3.660711e+001	-1.781751e+002	-3.071105e+001	-2.306466e+001	-9.449887e+001	9.139144e+001	-3.447334e+001	1.475159e+002
1.095031e+007	-3.661791e+001	-1.780908e+002	-3.070180e+001	-2.307216e+001	-1.002357e+002	6.886677e+001	-3.448522e+001	1.475372e+002
1.095032e+007	-3.660689e+001	-1.782361e+002	-3.070220e+001	-2.308832e+001	-9.641660e+001	8.908133e+001	-3.449056e+001	1.475442e+002
1.095033e+007	-3.659417e+001	-1.781412e+002	-3.069672e+001	-2.305800e+001	-1.008808e+002	1.161900e+002	-3.449515e+001	1.475003e+002
1.095034e+007	-3.660469e+001	-1.781070e+002	-3.070336e+001	-2.309084e+001	-9.632163e+001	1.050205e+002	-3.449394e+001	1.475402e+002
1.095034e+007	-3.661977e+001	-1.780848e+002	-3.070082e+001	-2.301544e+001	-9.759752e+001	1.013965e+002	-3.448200e+001	1.475435e+002
1.095035e+007	-3.660876e+001	-1.780935e+002	-3.070590e+001	-2.307836e+001	-9.659523e+001	9.909464e+001	-3.450109e+001	1.474390e+002
1.095036e+007	-3.662356e+001	-1.781451e+002	-3.070084e+001	-2.314902e+001	-9.684369e+001	9.075033e+001	-3.449761e+001	1.474970e+002
1.095037e+007	-3.660493e+001	-1.781824e+002	-3.070486e+001	-2.312246e+001	-9.489822e+001	1.133686e+002	-3.449341e+001	1.474859e+002
1.095038e+007	-3.661062e+001	-1.782092e+002	-3.069768e+001	-2.306348e+001	-9.794149e+001	1.067760e+002	-3.449248e+001	1.474915e+002
1.095038e+007	-3.660356e+001	-1.782032e+002	-3.070383e+001	-2.307733e+001	-9.735752e+001	9.828502e+001	-3.449015e+001	1.474795e+002
1.095039e+007	-3.661097e+001	-1.782597e+002	-3.070024e+001	-2.314026e+001	-9.715437e+001	1.150955e+002	-3.449009e+001	1.474400e+002
1.095040e+007	-3.660521e+001	-1.782208e+002	-3.069753e+001	-2.306892e+001	-9.567032e+001	8.994518e+001	-3.448700e+001	1.475325e+002
1.095041e+007	-3.661466e+001	-1.782094e+002	-3.069156e+001	-2.310294e+001	-9.698865e+001	1.017279e+002	-3.448999e+001	1.474705e+002
1.095041e+007	-3.660134e+001	-1.781654e+002	-3.070568e+001	-2.308782e+001	-9.813623e+001	9.815732e+001	-3.449306e+001	1.475186e+002
1.095042e+007	-3.660041e+001	-1.781373e+002	-3.070503e+001	-2.313166e+001	-9.575254e+001	8.338438e+001	-3.448861e+001	1.474724e+002
1.095043e+007	-3.659926e+001	-1.781492e+002	-3.069213e+001	-2.308720e+001	-9.619768e+001	1.032343e+002	-3.449891e+001	1.473954e+002
1.095044e+007	-3.659428e+001	-1.780939e+002	-3.070171e+001	-2.304252e+001	-9.623081e+001	8.721609e+001	-3.449231e+001	1.474747e+002
1.095045e+007	-3.660292e+001	-1.780879e+002	-3.070866e+001	-2.304018e+001	-9.894772e+001	1.337592e+002	-3.448522e+001	1.474445e+002
1.095045e+007	-3.660997e+001	-1.780852e+002	-3.070328e+001	-2.309728e+001	-1.000958e+002	7.087499e+001	-3.450094e+001	1.475008e+002
1.095046e+007	-3.660148e+001	-1.781464e+002	-3.070190e+001	-2.312951e+001	-9.621122e+001	7.608484e+001	-3.449429e+001	1.474992e+002
1.095047e+007	-3.658803e+001	-1.781260e+002	-3.069346e+001	-2.309112e+001	-9.787562e+001	8.827315e+001	-3.449478e+001	1.475350e+002
1.095048e+007	-3.661379e+001	-1.781899e+002	-3.070132e+001	-2.309401e+001	-9.534094e+001	8.656105e+001	-3.448124e+001	1.474509e+002
1.095048e+007	-3.661056e+001	-1.781493e+002	-3.069583e+001	-2.316112e+001	-9.608412e+001	8.866195e+001	-3.449604e+001	1.473885e+002
1.095049e+007	-3.660245e+001	-1.782488e+002	-3.070204e+001	-2.311539e+001	-9.603488e+001	8.834570e+001	-3.449883e+001	1.474365e+002
1.095050e+007	-3.661353e+001	-1.780374e+002	-3.070115e+001	-2.303600e+001	-9.488046e+001	9.954088e+001	-3.449302e+001	1.474680e+002
1.095051e+007	-3.661392e+001	-1.782462e+002	-3.069937e+001	-2.312808e+001	-9.890737e+001	1.005793e+002	-3.448342e+001	1.474269e+002
1.095052e+007	-3.660047e+001	-1.780601e+002	-3.069788e+001	-2.305064e+001	-9.669015e+001	1.046589e+002	-3.450245e+001	1.474713e+002
1.095052e+007	-3.660652e+001	-1.782038e+002	-3.069934e+001	-2.311821e+001	-1.003363e+002	1.013102e+002	-3.448329e+001	1.474953e+002
1.095053e+007	-3.661144e+001	-1.781172e+002	-3.070137e+001	-2.310801e+001	-9.679351e+001	8.945477e+001	-3.449030e+001	1.475520e+002
1.095054e+007	-3.660870e+001	-1.780639e+002	-3.069371e+001	-2.309164e+001	-9.773867e+001	9.546892e+001	-3.449900e+001	1.474720e+002
1.095055e+007	-3.661709e+001	-1.781047e+002	-3.070360e+001	-2.307472e+001	-9.743475e+001	1.170932e+002	-3.450196e+001	1.475197e+002
1.095055e+007	-3.660487e+001	-1.781271e+002	-3.071046e+001	-2.308294e+001	-9.605986e+001	1.228839e+002	-3.449435e+001	1.475502e+002
1.095056e+007	-3.661075e+001	-1.781918e+002	-3.070555e+001	-2.308923e+001	-1.014371e+002	7.650859e+001	-3.449714e+001	1.475068e+002
1.095057e+007	-3.662013e+001	-1.780547e+002	-3.070828e+001	-2.309016e+001	-9.715612e+001	9.364060e+001	-3.449238e+001	1.475094e+002
1.095058e+007	-3.662469e+001	-1.780437e+002	-3.069057e+001	-2.310728e+001	-9.642130e+001	1.029775e+002	-3.448950e+001	1.474711e+002
1.095059e+007	-3.660987e+001	-1.782405e+002	-3.069733e+001	-2.310767e+001	-9.749470e+001	8.717028e+001	-3.448056e+001	1.475050e+002
1.095059e+007	-3.662584e+001	-1.781642e+002	-3.069283e+001	-2.311767e+001	-9.862922e+001	8.468786e+001	-3.448648e+001	1.475339e+002
1.095060e+007	-3.659832e+001	-1.781252e+002	-3.070554e+001	-2.307532e+001	-9.907841e+001	1.163688e+002	-3.448643e+001	1.474345e+002
1.095061e+007	-3.660882e+001	-1.781164e+002	-3.071013e+001	-2.307939e+001	-9.522626e+001	7.569419e+001	-3.449653e+001	1.474520e+002
1.095062e+007	-3.660089e+001	-1.781499e+002	-3.069780e+001	-2.315407e+001	-9.532258e+001	1.045161e+002	-3.448897e+001	1.475610e+002
1.095063e+007	-3.660091e+001	-1.781445e+002	-3.069190e+001	-2.317934e+001	-9.756446e+001	9.579039e+001	-3.447812e+001	1.475429e+002
1.095063e+007	-3.660051e+001	-1.781135e+002	-3.070413e+001	-2.303924e+001	-9.583755e+001	1.034179e+002	-3.449118e+001	1.474950e+002
1.095064e+007	-3.661751e+001	-1.780902e+002	-3.070658e+001	-2.308830e+001	-1.007611e+002	8.805282e+001	-3.449170e+001	1.475356e+002
1.095065e+007	-3.660084e+001	-1.782097e+002	-3.069832e+001	-2.309681e+001	-9.499221e+001	9.649777e+001	-3.448829e+001	1.474860e+002
1.095066e+007	-3.660984e+001	-1.781906e+002	-3.069585e+001	-2.310621e+001	-9.839567e+001	9.137309e+001	-3.449399e+001	1.474653e+002
1.095066e+007	-3.660036e+001	-1.781453e+002	-3.069403e+001	-2.304671e+001	-9.474889e+001	9.313326e+001	-3.448911e+001	1.474925e+002
1.095067e+007	-3.661020e+001	-1.782571e+002	-3.070117e+001	-2.299106e+001	-9.654705e+001	8.258973e+001	-3.449439e+001	1.475034e+002
1.095068e+007	-3.660663e+001	-1.780690e+002	-3.069680e+001	-2.300751e+001	-9.681378e+001	1.089844e+002	-3.449471e+001	1.474786e+002
1.095069e+007	-3.660508e+001	-1.781681e+002	-3.069992e+001	-2.312473e+001	-9.731572e+001	9.789133e+001	-3.449397e+001	1.474763e+002
1.095070e+007	-3.659564e+001	-1.781814e+002	-3.069547e+001	-2.314739e+001	-9.445795e+001	1.056404e+002	-3.449908e+001	1.475726e+002
1.095070e+007	-3.659201e+001	-1.780944e+002	-3.069650e+001	-2.305717e+001	-9.798945e+001	8.511435e+001	-3.448379e+001	1.475158e+002
1.095071e+007	-3.661420e+001	-1.782036e+002	-3.069361e+001	-2.306787e+001	-9.804213e+001	1.127600e+002	-3.449055e+001	1.474477e+002
1.095072e+007	-3.660966e+001	-1.781669e+002	-3.070451e+001	-2.312666e+001	-9.731965e+001	1.034808e+002	-3.449840e+001	1.474199e+002
1.095073e+007	-3.659875e+001	-1.781308e+002	-3.070621e+001	-2.306387e+001	-1.017704e+002	1.340781e+002	-3.450370e+001	1.475679e+002
1.095073e+007	-3.658382e+001	-1.782274e+002	-3.069553e+001	-2.313361e+001	-9.961475e+001	9.855640e+001	-3.448839e+001	1.474740e+002
1.095074e+007	-3.659660e+001	-1.780995e+002	-3.070895e+001	-2.313146e+001	-9.867970e+001	8.250867e+001	-3.449808e+001	1.474392e+002
1.095075e+007	-3.661334e+001	-1.781530e+002	-3.070088e+001	-2.315843e+001	-9.622036e+001	9.318852e+001	-3.449860e+001	1.475065e+002
1.095076e+007	-3.660621e+001	-1.780362e+002	-3.068498e+001	-2.313507e+001	-9.570897e+001	1.032085e+002	-3.448641e+001	1.474529e+002
1.095077e+007	-3.660165e+001	-1.780881e+002	-3.069766e+001	-2.309275e+001	-1.002954e+002	9.309264e+001	-3.450526e+001	1.474721e+002
1.095077e+007	-3.660790e+001	-1.780671e+002	-3.069406e+001	-2.310282e+001	-9.914316e+001	1.001086e+002	-3.448810e+001	1.475210e+002
1.095078e+007	-3.660863e+001	-1.779984e+002	-3.069876e+001	-2.310821e+001	-9.794027e+001	8.744602e+001	-3.448575e+001	1.474941e+002
1.095079e+007	-3.660207e+001	-1.781718e+002	-3.070840e+001	-2.306346e+001	-9.709523e+001	7.872197e+001	-3.449067e+001	1.475322e+002
1.095080e+007	-3.662416e+001	-1.781722e+002	-3.070820e+001	-2.302502e+001	-9.756973e+001	9.686881e+001	-3.449403e+001	1.475292e+002
1.095080e+007	-3.660277e+001	-1.780520e+002	-3.069870e+001	-2.307355e+001	-1.004879e+002	9.550255e+001	-3.449723e+001	1.474445e+002
1.095081e+007	-3.660333e+001	-1.781292e+002	-3.069509e+001	-2.305833e+001	-9.703720e+001	9.420203e+001	-3.449955e+001	1.474751e+002
1.095082e+007	-3.661418e+001	-1.781146e+002	-3.069899e+001	-2.309631e+001	-9.599587e+001	8.791642e+001	-3.449609e+001	1.475286e+002
1.095083e+007	-3.661602e+001	-1.780660e+002	-3.069652e+001	-2.311063e+001	-9.661825e+001	7.642437e+001	-3.448241e+001	1.474763e+002
1.095084e+007	-3.660197e+001	-1.781341e+002	-3.069546e+001	-2.307370e+001	-9.649078e+001	9.414369e+001	-3.448683e+001	1.475526e+002
1.095084e+007	-3.661499e+001	-1.782682e+002	-3.069679e+001	-2.312496e+001	-9.773187e+001	8.658328e+001	-3.449184e+001	1.474233e+002
1.095085e+007	-3.661527e+001	-1.780930e+002	-3.069406e+001	-2.315180e+001	-9.473435e+001	1.228671e+002	-3.448793e+001	1.475075e+002
1.095086e+007	-3.661499e+001	-1.782402e+002	-3.069791e+001	-2.314001e+001	-9.948902e+001	9.026638e+001	-3.449723e+001	1.474798e+002
1.095087e+007	-3.661132e+001	-1.781517e+002	-3.069452e+001	-2.312209e+001	-9.716856e+001	1.194454e+002	-3.448983e+001	1.475116e+002
1.095088e+007	-3.660602e+001	-1.781389e+002	-3.069203e+001	-2.310282e+001	-1.003850e+002	1.173114e+002	-3.449959e+001	1.474946e+002
1.095088e+007	-3.662982e+001	-1.780521e+002	-3.069462e+001	-2.318545e+001	-9.697532e+001	9.172381e+001	-3.449375e+001	1.474496e+002
1.095089e+007	-3.660930e+001	-1.781932e+002	-3.069428e+001	-2.312703e+001	-9.717474e+001	9.266049e+001	-3.449645e+001	1.475260e+002
1.095090e+007	-3.660946e+001	-1.780846e+002	-3.069757e+001	-2.313607e+001	-9.772567e+001	9.523292e+001	-3.449189e+001	1.474716e+002
1.095091e+007	-3.661191e+001	-1.780509e+002	-3.070255e+001	-2.306182e+001	-1.003971e+002	9.484878e+001	-3.448685e+001	1.474898e+002
1.095091e+007	-3.661876e+001	-1.780797e+002	-3.068964e+001	-2.311845e+001	-9.847018e+001	1.018486e+002	-3.448505e+001	1.474557e+002
1.095092e+007	-3.661728e+001	-1.780766e+002	-3.069965e+001	-2.313376e+001	-9.598797e+001	9.872609e+001	-3.447802e+001	1.475274e+002
1.095093e+007	-3.662005e+001	-1.781754e+002	-3.069445e+001	-2.312378e+001	-9.705647e+001	1.072925e+002	-3.448291e+001	1.475186e+002
1.095094e+007	-3.660235e+001	-1.780553e+002	-3.069531e+001	-2.307039e+001	-9.375652e+001	8.836221e+001	-3.448962e+001	1.475345e+002
1.095095e+007	-3.661793e+001	-1.781198e+002	-3.070223e+001	-2.304998e+001	-9.716666e+001	1.130423e+002	-3.448388e+001	1.475956e+002
1.095095e+007	-3.660217e+001	-1.780981e+002	-3.069588e+001	-2.308128e+001	-9.772556e+001	1.031095e+002	-3.448545e+001	1.475091e+002
1.095096e+007	-3.660475e+001	-1.780410e+002	-3.070222e+001	-2.303865e+001	-9.958390e+001	1.000358e+002	-3.449269e+001	1.475538e+002
1.095097e+007	-3.662214e+001	-1.781968e+002	-3.069394e+001	-2.301462e+001	-9.580092e+001	9.325608e+001	-3.449463e+001	1.474896e+002
1.095098e+007	-3.661010e+001	-1.782016e+002	-3.069711e+001	-2.308536e+001	-9.682880e+001	9.598787e+001	-3.449753e+001	1.475430e+002
1.095098e+007	-3.662424e+001	-1.782186e+002	-3.069826e+001	-2.306689e+001	-9.654992e+001	8.539990e+001	-3.448294e+001	1.474714e+002
1.095099e+007	-3.661282e+001	-1.781803e+002	-3.068702e+001	-2.310405e+001	-9.468083e+001	8.537121e+001	-3.448968e+001	1.475665e+002
1.095100e+007	-3.660585e+001	-1.781043e+002	-3.069787e+001	-2.312749e+001	-9.600310e+001	9.464206e+001	-3.449867e+001	1.474867e+002
1.095101e+007	-3.660232e+001	-1.782322e+002	-3.069448e+001	-2.306161e+001	-9.538424e+001	1.005148e+002	-3.448003e+001	1.475262e+002
1.095102e+007	-3.661257e+001	-1.781032e+002	-3.070305e+001	-2.313809e+001	-9.547810e+001	9.589993e+001	-3.448336e+001	1.474871e+002
1.095102e+007	-3.658726e+001	-1.781483e+002	-3.070068e+001	-2.300366e+001	-9.726391e+001	1.023941e+002	-3.448308e+001	1.474956e+002
1.095103e+007	-3.659925e+001	-1.781592e+002	-3.070098e+001	-2.308689e+001	-9.675297e+001	9.799768e+001	-3.448958e+001	1.474698e+002
1.095104e+007	-3.659945e+001	-1.781575e+002	-3.069524e+001	-2.311140e+001	-9.643035e+001	9.978891e+001	-3.449528e+001	1.475272e+002
1.095105e+007	-3.660408e+001	-1.781309e+002	-3.069656e+001	-2.311063e+001	-9.815196e+001	9.371120e+001	-3.450013e+001	1.474630e+002
1.095105e+007	-3.660190e+001	-1.781913e+002	-3.070428e+001	-2.310191e+001	-9.854154e+001	9.053711e+001	-3.449075e+001	1.474488e+002
1.095106e+007	-3.661383e+001	-1.781306e+002	-3.068422e+001	-2.307273e+001	-9.653700e+001	9.781813e+001	-3.449523e+001	1.475122e+002
1.095107e+007	-3.659666e+001	-1.782137e+002	-3.069007e+001	-2.307336e+001	-9.847609e+001	9.018718e+001	-3.449298e+001	1.474020e+002
1.095108e+007	-3.661213e+001	-1.782472e+002	-3.069843e+001	-2.309336e+001	-9.493688e+001	8.851142e+001	-3.449035e+001	1.474363e+002
1.095109e+007	-3.660747e+001	-1.780816e+002	-3.070910e+001	-2.304409e+001	-9.464499e+001	9.936651e+001	-3.448837e+001	1.473934e+002
1.095109e+007	-3.659945e+001	-1.781713e+002	-3.070060e+001	-2.308577e+001	-9.894082e+001	1.147024e+002	-3.448125e+001	1.475048e+002
1.095110e+007	-3.662065e+001	-1.781059e+002	-3.069588e+001	-2.301171e+001	-9.921232e+001	1.138030e+002	-3.448695e+001	1.474391e+002
1.095111e+007	-3.661812e+001	-1.780606e+002	-3.069168e+001	-2.303217e+001	-9.511023e+001	9.099204e+001	-3.449379e+001	1.474908e+002
1.095112e+007	-3.661562e+001	-1.781742e+002	-3.069712e+001	-2.312343e+001	-9.765808e+001	1.040594e+002	-3.449777e+001	1.474304e+002
1.095113e+007	-3.660851e+001	-1.780927e+002	-3.069283e+001	-2.318040e+001	-9.876942e+001	9.592945e+001	-3.449794e+001	1.474863e+002
1.095113e+007	-3.662375e+001	-1.780021e+002	-3.069251e+001	-2.302457e+001	-9.628288e+001	7.734295e+001	-3.448792e+001	1.475011e+002
1.095114e+007	-3.661831e+001	-1.780976e+002	-3.069090e+001	-2.308295e+001	-9.871446e+001	7.868390e+001	-3.448665e+001	1.474368e+002
1.095115e+007	-3.660136e+001	-1.782103e+002	-3.069181e+001	-2.304959e+001	-9.679904e+001	9.647329e+001	-3.450015e+001	1.475531e+002
1.095116e+007	-3.662127e+001	-1.781581e+002	-3.069923e+001	-2.313586e+001	-9.504793e+001	9.797700e+001	-3.449066e+001	1.475492e+002
