!CETC41,AV3656A,ZGL00048,1.3.2
!Calibration ON (Full Solt 2-Port(Omit Isolation))
!Measurements: S11 S21 S12 S22
!2025-04-18 01:07
# Hz  S  dB  R 50.000
1.095000e+007	-3.663225e+001	-1.785474e+002	-3.064560e+001	-2.416742e+001	-9.489881e+001	9.092892e+001	-3.416106e+001	1.469318e+002
1.095001e+007	-3.662354e+001	-1.784719e+002	-3.062769e+001	-2.414140e+001	-9.654003e+001	7.028031e+001	-3.414849e+001	1.469934e+002
1.095002e+007	-3.661376e+001	-1.785179e+002	-3.062624e+001	-2.411161e+001	-9.396585e+001	1.132684e+002	-3.413629e+001	1.469904e+002
1.095002e+007	-3.661493e+001	-1.785474e+002	-3.062904e+001	-2.414257e+001	-9.728307e+001	8.882736e+001	-3.414266e+001	1.469603e+002
1.095003e+007	-3.661853e+001	-1.784730e+002	-3.061322e+001	-2.411346e+001	-9.742875e+001	1.078632e+002	-3.412985e+001	1.470392e+002
1.095004e+007	-3.662230e+001	-1.784818e+002	-3.062072e+001	-2.410722e+001	-9.427336e+001	1.060278e+002	-3.412318e+001	1.471030e+002
1.095005e+007	-3.662109e+001	-1.785107e+002	-3.062421e+001	-2.403133e+001	-9.971114e+001	1.023673e+002	-3.414516e+001	1.471262e+002
1.095005e+007	-3.661410e+001	-1.784888e+002	-3.062267e+001	-2.407194e+001	-9.744455e+001	8.872618e+001	-3.414365e+001	1.470964e+002
1.095006e+007	-3.661938e+001	-1.784949e+002	-3.062371e+001	-2.408498e+001	-9.560961e+001	1.012111e+002	-3.415295e+001	1.471502e+002
1.095007e+007	-3.661689e+001	-1.785033e+002	-3.061995e+001	-2.405601e+001	-9.525081e+001	6.851221e+001	-3.414740e+001	1.471338e+002
1.095008e+007	-3.661681e+001	-1.785686e+002	-3.063660e+001	-2.413532e+001	-9.514712e+001	8.427322e+001	-3.415036e+001	1.470711e+002
1.095009e+007	-3.662220e+001	-1.785624e+002	-3.062559e+001	-2.407564e+001	-9.414940e+001	1.149583e+002	-3.415490e+001	1.471570e+002
1.095009e+007	-3.662736e+001	-1.785186e+002	-3.062189e+001	-2.409864e+001	-9.620131e+001	7.974997e+001	-3.416855e+001	1.471659e+002
1.095010e+007	-3.661679e+001	-1.784906e+002	-3.062806e+001	-2.413204e+001	-9.634094e+001	9.069324e+001	-3.415390e+001	1.471228e+002
1.095011e+007	-3.663844e+001	-1.784137e+002	-3.062770e+001	-2.412180e+001	-9.859728e+001	8.933565e+001	-3.415453e+001	1.470953e+002
1.095012e+007	-3.660249e+001	-1.785101e+002	-3.062227e+001	-2.412303e+001	-9.535969e+001	8.969831e+001	-3.415389e+001	1.471446e+002
1.095013e+007	-3.662769e+001	-1.784101e+002	-3.062317e+001	-2.416155e+001	-9.907615e+001	8.569684e+001	-3.415685e+001	1.471077e+002
1.095013e+007	-3.663133e+001	-1.785460e+002	-3.062566e+001	-2.416800e+001	-9.567290e+001	9.329623e+001	-3.416426e+001	1.471275e+002
1.095014e+007	-3.661452e+001	-1.784066e+002	-3.063206e+001	-2.425900e+001	-9.628220e+001	8.507480e+001	-3.416669e+001	1.471144e+002
1.095015e+007	-3.660370e+001	-1.785664e+002	-3.061751e+001	-2.432548e+001	-9.346889e+001	1.045240e+002	-3.415493e+001	1.470687e+002
1.095016e+007	-3.661569e+001	-1.784724e+002	-3.063765e+001	-2.429617e+001	-9.671507e+001	9.219159e+001	-3.414199e+001	1.471600e+002
1.095016e+007	-3.660963e+001	-1.784565e+002	-3.064060e+001	-2.429142e+001	-9.856632e+001	1.006211e+002	-3.414863e+001	1.470492e+002
1.095017e+007	-3.662592e+001	-1.784802e+002	-3.064860e+001	-2.434816e+001	-9.647102e+001	8.388041e+001	-3.413632e+001	1.470589e+002
1.095018e+007	-3.662278e+001	-1.784407e+002	-3.065609e+001	-2.427700e+001	-9.749069e+001	8.252411e+001	-3.413696e+001	1.470737e+002
1.095019e+007	-3.662612e+001	-1.784973e+002	-3.066032e+001	-2.423279e+001	-9.362867e+001	9.776937e+001	-3.412601e+001	1.471420e+002
1.095020e+007	-3.661965e+001	-1.785448e+002	-3.066692e+001	-2.419095e+001	-9.699980e+001	1.044172e+002	-3.413818e+001	1.470097e+002
1.095020e+007	-3.663305e+001	-1.784360e+002	-3.066691e+001	-2.402813e+001	-9.470411e+001	6.479777e+001	-3.413996e+001	1.470294e+002
1.095021e+007	-3.661775e+001	-1.785626e+002	-3.065959e+001	-2.403780e+001	-9.804725e+001	1.083008e+002	-3.415411e+001	1.469563e+002
1.095022e+007	-3.661960e+001	-1.785670e+002	-3.064119e+001	-2.395687e+001	-9.524177e+001	1.077587e+002	-3.415133e+001	1.470001e+002
1.095023e+007	-3.661253e+001	-1.783867e+002	-3.062477e+001	-2.401840e+001	-9.455168e+001	9.627419e+001	-3.415682e+001	1.471058e+002
1.095023e+007	-3.661747e+001	-1.783890e+002	-3.060997e+001	-2.406833e+001	-9.841680e+001	1.095825e+002	-3.414732e+001	1.470399e+002
1.095024e+007	-3.661686e+001	-1.783335e+002	-3.061578e+001	-2.419391e+001	-9.487580e+001	9.777424e+001	-3.414661e+001	1.471119e+002
1.095025e+007	-3.661616e+001	-1.784735e+002	-3.063298e+001	-2.427310e+001	-9.863526e+001	8.691236e+001	-3.414071e+001	1.470755e+002
1.095026e+007	-3.662537e+001	-1.784749e+002	-3.065028e+001	-2.423514e+001	-9.629418e+001	1.091904e+002	-3.414338e+001	1.470612e+002
1.095027e+007	-3.661956e+001	-1.784218e+002	-3.066056e+001	-2.413571e+001	-9.779159e+001	7.864786e+001	-3.415107e+001	1.469713e+002
1.095027e+007	-3.663326e+001	-1.783874e+002	-3.064639e+001	-2.405351e+001	-9.469598e+001	7.558013e+001	-3.415782e+001	1.469324e+002
1.095028e+007	-3.662066e+001	-1.784587e+002	-3.063496e+001	-2.403130e+001	-1.001702e+002	8.719932e+001	-3.414685e+001	1.470603e+002
1.095029e+007	-3.661297e+001	-1.784974e+002	-3.062252e+001	-2.407639e+001	-9.753664e+001	9.455050e+001	-3.414471e+001	1.470819e+002
1.095030e+007	-3.662185e+001	-1.784920e+002	-3.062465e+001	-2.417966e+001	-9.578323e+001	9.681541e+001	-3.414420e+001	1.470426e+002
1.095030e+007	-3.663027e+001	-1.784730e+002	-3.063904e+001	-2.423879e+001	-9.599059e+001	8.262595e+001	-3.413403e+001	1.470161e+002
1.095031e+007	-3.660970e+001	-1.784534e+002	-3.063847e+001	-2.410842e+001	-9.650075e+001	9.907657e+001	-3.413452e+001	1.470218e+002
1.095032e+007	-3.660711e+001	-1.784910e+002	-3.064357e+001	-2.405453e+001	-9.614266e+001	1.012977e+002	-3.413985e+001	1.469939e+002
1.095033e+007	-3.663783e+001	-1.785788e+002	-3.062555e+001	-2.405889e+001	-9.629924e+001	1.010132e+002	-3.414303e+001	1.470128e+002
1.095034e+007	-3.661863e+001	-1.783603e+002	-3.062698e+001	-2.413425e+001	-9.574973e+001	9.209578e+001	-3.415221e+001	1.471440e+002
1.095034e+007	-3.660427e+001	-1.784846e+002	-3.063691e+001	-2.418703e+001	-9.543326e+001	8.298355e+001	-3.414844e+001	1.471254e+002
1.095035e+007	-3.664258e+001	-1.783428e+002	-3.064709e+001	-2.411554e+001	-9.512054e+001	1.016531e+002	-3.415006e+001	1.470019e+002
1.095036e+007	-3.662715e+001	-1.784506e+002	-3.063852e+001	-2.410056e+001	-9.531581e+001	9.700861e+001	-3.414093e+001	1.469067e+002
1.095037e+007	-3.660806e+001	-1.785258e+002	-3.061643e+001	-2.407268e+001	-9.783198e+001	9.765879e+001	-3.414186e+001	1.471056e+002
1.095038e+007	-3.662157e+001	-1.784536e+002	-3.061998e+001	-2.421008e+001	-9.998108e+001	9.332377e+001	-3.414394e+001	1.471502e+002
1.095038e+007	-3.664336e+001	-1.785342e+002	-3.064237e+001	-2.413729e+001	-9.525585e+001	8.130058e+001	-3.414781e+001	1.470634e+002
1.095039e+007	-3.661847e+001	-1.784605e+002	-3.063309e+001	-2.400612e+001	-9.352619e+001	8.005751e+001	-3.414037e+001	1.469953e+002
1.095040e+007	-3.661948e+001	-1.784593e+002	-3.061851e+001	-2.411239e+001	-9.493555e+001	1.112982e+002	-3.415190e+001	1.471018e+002
1.095041e+007	-3.661219e+001	-1.784755e+002	-3.062725e+001	-2.413495e+001	-9.711332e+001	9.550655e+001	-3.412978e+001	1.471203e+002
1.095041e+007	-3.662223e+001	-1.783584e+002	-3.064257e+001	-2.417543e+001	-9.592701e+001	1.039803e+002	-3.414557e+001	1.470378e+002
1.095042e+007	-3.662344e+001	-1.785138e+002	-3.063287e+001	-2.403741e+001	-9.836972e+001	1.041993e+002	-3.415036e+001	1.470478e+002
1.095043e+007	-3.660536e+001	-1.784819e+002	-3.062816e+001	-2.417634e+001	-9.767849e+001	1.211358e+002	-3.414653e+001	1.470292e+002
1.095044e+007	-3.663120e+001	-1.784926e+002	-3.063269e+001	-2.413498e+001	-9.717341e+001	8.828160e+001	-3.415050e+001	1.470787e+002
1.095045e+007	-3.661808e+001	-1.783905e+002	-3.062112e+001	-2.414799e+001	-9.398866e+001	1.054798e+002	-3.414725e+001	1.470119e+002
1.095045e+007	-3.660180e+001	-1.783626e+002	-3.062692e+001	-2.409777e+001	-9.443409e+001	9.648807e+001	-3.413611e+001	1.469677e+002
1.095046e+007	-3.663395e+001	-1.784632e+002	-3.063210e+001	-2.412771e+001	-9.641776e+001	8.828574e+001	-3.414130e+001	1.470526e+002
1.095047e+007	-3.663336e+001	-1.784859e+002	-3.062580e+001	-2.406378e+001	-9.538837e+001	9.775436e+001	-3.413952e+001	1.470152e+002
1.095048e+007	-3.662083e+001	-1.785402e+002	-3.061123e+001	-2.409191e+001	-1.026630e+002	8.202342e+001	-3.414986e+001	1.470637e+002
1.095048e+007	-3.662628e+001	-1.785437e+002	-3.063518e+001	-2.406306e+001	-9.547822e+001	8.508099e+001	-3.414890e+001	1.470003e+002
1.095049e+007	-3.661221e+001	-1.784143e+002	-3.063627e+001	-2.413364e+001	-9.669218e+001	1.042894e+002	-3.415494e+001	1.470437e+002
1.095050e+007	-3.663447e+001	-1.785076e+002	-3.062530e+001	-2.411745e+001	-9.552494e+001	9.347248e+001	-3.414907e+001	1.470846e+002
1.095051e+007	-3.662272e+001	-1.782560e+002	-3.064932e+001	-2.412283e+001	-9.684625e+001	9.133803e+001	-3.415151e+001	1.469858e+002
1.095052e+007	-3.663396e+001	-1.784593e+002	-3.062914e+001	-2.408905e+001	-9.827229e+001	8.257142e+001	-3.415086e+001	1.470346e+002
1.095052e+007	-3.660150e+001	-1.785558e+002	-3.063206e+001	-2.403242e+001	-9.417084e+001	8.589565e+001	-3.416646e+001	1.470033e+002
1.095053e+007	-3.661120e+001	-1.785104e+002	-3.062237e+001	-2.411586e+001	-9.768686e+001	8.698181e+001	-3.413965e+001	1.470402e+002
1.095054e+007	-3.660596e+001	-1.784943e+002	-3.063717e+001	-2.410974e+001	-9.990784e+001	1.136107e+002	-3.415341e+001	1.470666e+002
1.095055e+007	-3.661679e+001	-1.783817e+002	-3.062428e+001	-2.414970e+001	-9.750215e+001	1.211261e+002	-3.415033e+001	1.469767e+002
1.095055e+007	-3.663150e+001	-1.784962e+002	-3.063331e+001	-2.414282e+001	-9.385416e+001	9.424516e+001	-3.414538e+001	1.470256e+002
1.095056e+007	-3.663619e+001	-1.784849e+002	-3.063038e+001	-2.418925e+001	-9.461775e+001	9.886927e+001	-3.414950e+001	1.470658e+002
1.095057e+007	-3.662704e+001	-1.784867e+002	-3.062830e+001	-2.411330e+001	-9.675627e+001	1.220450e+002	-3.414833e+001	1.470432e+002
1.095058e+007	-3.662573e+001	-1.784346e+002	-3.062975e+001	-2.406688e+001	-9.379263e+001	9.820952e+001	-3.414683e+001	1.470467e+002
1.095059e+007	-3.662464e+001	-1.785605e+002	-3.062724e+001	-2.409317e+001	-9.522422e+001	1.016060e+002	-3.414138e+001	1.470814e+002
1.095059e+007	-3.662347e+001	-1.785063e+002	-3.062708e+001	-2.410784e+001	-9.665572e+001	1.009753e+002	-3.414785e+001	1.469701e+002
1.095060e+007	-3.662102e+001	-1.785723e+002	-3.062344e+001	-2.415673e+001	-9.616712e+001	1.048623e+002	-3.414921e+001	1.470257e+002
1.095061e+007	-3.662111e+001	-1.784243e+002	-3.062593e+001	-2.411970e+001	-9.570210e+001	9.389778e+001	-3.416294e+001	1.470275e+002
1.095062e+007	-3.661213e+001	-1.785558e+002	-3.062454e+001	-2.417898e+001	-9.603622e+001	6.116773e+001	-3.414584e+001	1.469631e+002
1.095063e+007	-3.661519e+001	-1.785077e+002	-3.062437e+001	-2.412925e+001	-9.585012e+001	7.374028e+001	-3.415643e+001	1.469504e+002
1.095063e+007	-3.662434e+001	-1.783336e+002	-3.062798e+001	-2.410821e+001	-9.666095e+001	9.229168e+001	-3.414831e+001	1.470104e+002
1.095064e+007	-3.662642e+001	-1.785215e+002	-3.061972e+001	-2.413401e+001	-9.644382e+001	8.013203e+001	-3.414757e+001	1.470867e+002
1.095065e+007	-3.661382e+001	-1.785401e+002	-3.063533e+001	-2.412214e+001	-9.734605e+001	1.092444e+002	-3.413277e+001	1.470404e+002
1.095066e+007	-3.662650e+001	-1.785125e+002	-3.062543e+001	-2.419356e+001	-9.940258e+001	8.512091e+001	-3.414885e+001	1.471087e+002
1.095066e+007	-3.663220e+001	-1.784125e+002	-3.062872e+001	-2.405814e+001	-9.425216e+001	8.328844e+001	-3.415310e+001	1.470665e+002
1.095067e+007	-3.662098e+001	-1.786070e+002	-3.061622e+001	-2.416482e+001	-1.007123e+002	9.834773e+001	-3.414685e+001	1.470067e+002
1.095068e+007	-3.662400e+001	-1.783563e+002	-3.062267e+001	-2.409394e+001	-9.755043e+001	7.602918e+001	-3.414020e+001	1.470466e+002
1.095069e+007	-3.661613e+001	-1.785076e+002	-3.062920e+001	-2.410362e+001	-9.848462e+001	1.067900e+002	-3.414205e+001	1.470448e+002
1.095070e+007	-3.661272e+001	-1.784467e+002	-3.063010e+001	-2.408504e+001	-9.368833e+001	6.889015e+001	-3.414816e+001	1.470695e+002
1.095070e+007	-3.661865e+001	-1.783414e+002	-3.062433e+001	-2.413072e+001	-9.804016e+001	1.147277e+002	-3.415612e+001	1.470570e+002
1.095071e+007	-3.662913e+001	-1.784786e+002	-3.060635e+001	-2.410998e+001	-9.543605e+001	9.633106e+001	-3.414909e+001	1.470328e+002
1.095072e+007	-3.661853e+001	-1.785619e+002	-3.063455e+001	-2.410101e+001	-9.495575e+001	1.015562e+002	-3.414788e+001	1.471065e+002
1.095073e+007	-3.662830e+001	-1.784417e+002	-3.061693e+001	-2.417824e+001	-9.817640e+001	1.046718e+002	-3.414804e+001	1.470569e+002
1.095073e+007	-3.661399e+001	-1.785009e+002	-3.062173e+001	-2.414357e+001	-9.769652e+001	9.394905e+001	-3.414597e+001	1.470778e+002
1.095074e+007	-3.661283e+001	-1.784411e+002	-3.063072e+001	-2.415351e+001	-9.555125e+001	1.079065e+002	-3.413629e+001	1.469990e+002
1.095075e+007	-3.663619e+001	-1.782973e+002	-3.062418e+001	-2.412778e+001	-9.966902e+001	9.816219e+001	-3.414191e+001	1.470653e+002
1.095076e+007	-3.662091e+001	-1.785562e+002	-3.062342e+001	-2.417545e+001	-9.906914e+001	1.023124e+002	-3.414405e+001	1.470203e+002
1.095077e+007	-3.661371e+001	-1.784645e+002	-3.061628e+001	-2.416182e+001	-9.562995e+001	9.058530e+001	-3.414031e+001	1.470556e+002
1.095077e+007	-3.662867e+001	-1.783641e+002	-3.063003e+001	-2.413738e+001	-9.541151e+001	9.604252e+001	-3.414898e+001	1.470790e+002
1.095078e+007	-3.664166e+001	-1.785200e+002	-3.061528e+001	-2.418039e+001	-9.699672e+001	8.766845e+001	-3.415494e+001	1.470085e+002
1.095079e+007	-3.662552e+001	-1.785016e+002	-3.062453e+001	-2.409352e+001	-9.576754e+001	1.036140e+002	-3.414759e+001	1.470669e+002
1.095080e+007	-3.661157e+001	-1.785452e+002	-3.063328e+001	-2.413705e+001	-9.721719e+001	9.684769e+001	-3.415230e+001	1.471190e+002
1.095080e+007	-3.662294e+001	-1.784656e+002	-3.062673e+001	-2.418016e+001	-9.687067e+001	8.493850e+001	-3.415584e+001	1.469223e+002
1.095081e+007	-3.662501e+001	-1.785538e+002	-3.061530e+001	-2.411502e+001	-9.629799e+001	9.385065e+001	-3.414056e+001	1.469822e+002
1.095082e+007	-3.663986e+001	-1.784941e+002	-3.062048e+001	-2.409936e+001	-9.707687e+001	1.080195e+002	-3.414423e+001	1.470431e+002
1.095083e+007	-3.662374e+001	-1.783784e+002	-3.062308e+001	-2.411287e+001	-9.737855e+001	1.005090e+002	-3.414457e+001	1.470286e+002
1.095084e+007	-3.661527e+001	-1.783451e+002	-3.062110e+001	-2.414585e+001	-9.563412e+001	1.056745e+002	-3.414175e+001	1.469719e+002
1.095084e+007	-3.661717e+001	-1.784181e+002	-3.062110e+001	-2.409856e+001	-9.587151e+001	7.357744e+001	-3.415451e+001	1.469904e+002
1.095085e+007	-3.664368e+001	-1.784568e+002	-3.061298e+001	-2.415315e+001	-9.744337e+001	1.127371e+002	-3.415337e+001	1.470230e+002
1.095086e+007	-3.662082e+001	-1.784227e+002	-3.060846e+001	-2.413717e+001	-9.721610e+001	8.217604e+001	-3.414031e+001	1.469878e+002
1.095087e+007	-3.661823e+001	-1.785892e+002	-3.061968e+001	-2.409483e+001	-9.692108e+001	1.042190e+002	-3.414553e+001	1.470946e+002
1.095088e+007	-3.662199e+001	-1.784277e+002	-3.061735e+001	-2.416927e+001	-9.965547e+001	6.960176e+001	-3.414179e+001	1.470359e+002
1.095088e+007	-3.661849e+001	-1.784709e+002	-3.061910e+001	-2.414630e+001	-9.635187e+001	9.953855e+001	-3.414187e+001	1.470275e+002
1.095089e+007	-3.662147e+001	-1.784693e+002	-3.061285e+001	-2.409108e+001	-9.731807e+001	8.652294e+001	-3.413972e+001	1.470560e+002
1.095090e+007	-3.660969e+001	-1.784608e+002	-3.062870e+001	-2.412353e+001	-9.495265e+001	7.993274e+001	-3.414983e+001	1.470774e+002
1.095091e+007	-3.663600e+001	-1.785814e+002	-3.062965e+001	-2.420494e+001	-9.827953e+001	8.095818e+001	-3.415134e+001	1.469505e+002
1.095091e+007	-3.662944e+001	-1.786366e+002	-3.061065e+001	-2.417767e+001	-9.517052e+001	1.034534e+002	-3.414746e+001	1.470392e+002
1.095092e+007	-3.662255e+001	-1.785917e+002	-3.062446e+001	-2.406362e+001	-9.786187e+001	1.032154e+002	-3.413795e+001	1.470364e+002
1.095093e+007	-3.662476e+001	-1.783870e+002	-3.062290e+001	-2.407456e+001	-9.551983e+001	1.009215e+002	-3.413322e+001	1.470307e+002
1.095094e+007	-3.661852e+001	-1.785099e+002	-3.062318e+001	-2.412681e+001	-9.622564e+001	9.476931e+001	-3.414050e+001	1.470036e+002
1.095095e+007	-3.662186e+001	-1.785295e+002	-3.060668e+001	-2.414333e+001	-9.852411e+001	8.572110e+001	-3.415581e+001	1.469927e+002
1.095095e+007	-3.662294e+001	-1.784650e+002	-3.061311e+001	-2.409516e+001	-9.892984e+001	9.609112e+001	-3.414171e+001	1.471077e+002
1.095096e+007	-3.661855e+001	-1.785908e+002	-3.061712e+001	-2.408161e+001	-9.574513e+001	1.189773e+002	-3.414114e+001	1.471072e+002
1.095097e+007	-3.662547e+001	-1.784980e+002	-3.062043e+001	-2.407922e+001	-9.578114e+001	8.833744e+001	-3.414826e+001	1.470750e+002
1.095098e+007	-3.660585e+001	-1.784689e+002	-3.061416e+001	-2.414732e+001	-9.602290e+001	1.167012e+002	-3.414125e+001	1.469431e+002
1.095098e+007	-3.662493e+001	-1.784873e+002	-3.061558e+001	-2.416061e+001	-9.623686e+001	1.129367e+002	-3.415074e+001	1.470228e+002
1.095099e+007	-3.661989e+001	-1.785442e+002	-3.061324e+001	-2.409879e+001	-9.677275e+001	1.070420e+002	-3.415134e+001	1.469539e+002
1.095100e+007	-3.663918e+001	-1.784813e+002	-3.061583e+001	-2.404200e+001	-9.786589e+001	9.874686e+001	-3.414592e+001	1.469963e+002
1.095101e+007	-3.662057e+001	-1.784456e+002	-3.061918e+001	-2.404627e+001	-1.012003e+002	8.393575e+001	-3.413812e+001	1.470395e+002
1.095102e+007	-3.662268e+001	-1.784806e+002	-3.062678e+001	-2.410824e+001	-1.017361e+002	1.141320e+002	-3.414932e+001	1.471508e+002
1.095102e+007	-3.663260e+001	-1.784772e+002	-3.061224e+001	-2.413542e+001	-9.606678e+001	9.538262e+001	-3.414296e+001	1.470687e+002
1.095103e+007	-3.661990e+001	-1.784524e+002	-3.061352e+001	-2.419726e+001	-9.636061e+001	8.835213e+001	-3.414773e+001	1.471164e+002
1.095104e+007	-3.661800e+001	-1.785193e+002	-3.060466e+001	-2.408321e+001	-9.611451e+001	1.335965e+002	-3.414318e+001	1.469471e+002
1.095105e+007	-3.662044e+001	-1.785002e+002	-3.060221e+001	-2.407906e+001	-9.978173e+001	1.051405e+002	-3.414449e+001	1.469871e+002
1.095105e+007	-3.662432e+001	-1.784689e+002	-3.061839e+001	-2.404514e+001	-9.416123e+001	1.091462e+002	-3.415430e+001	1.470466e+002
1.095106e+007	-3.662145e+001	-1.784429e+002	-3.062013e+001	-2.404473e+001	-9.707421e+001	8.756614e+001	-3.413892e+001	1.470250e+002
1.095107e+007	-3.662688e+001	-1.783803e+002	-3.063043e+001	-2.413783e+001	-9.361156e+001	9.080918e+001	-3.413188e+001	1.470678e+002
1.095108e+007	-3.662793e+001	-1.784735e+002	-3.062285e+001	-2.412473e+001	-9.697613e+001	9.696836e+001	-3.414994e+001	1.470334e+002
1.095109e+007	-3.661776e+001	-1.784745e+002	-3.061627e+001	-2.417173e+001	-9.701196e+001	1.101035e+002	-3.414491e+001	1.470079e+002
1.095109e+007	-3.660499e+001	-1.784875e+002	-3.060610e+001	-2.417381e+001	-9.881748e+001	9.748133e+001	-3.414119e+001	1.470309e+002
1.095110e+007	-3.662549e+001	-1.784622e+002	-3.060885e+001	-2.413006e+001	-9.368197e+001	1.011863e+002	-3.414734e+001	1.470416e+002
1.095111e+007	-3.663075e+001	-1.784767e+002	-3.060745e+001	-2.411845e+001	-9.576995e+001	1.044440e+002	-3.414830e+001	1.470736e+002
1.095112e+007	-3.662633e+001	-1.784071e+002	-3.061686e+001	-2.418316e+001	-9.546538e+001	1.094192e+002	-3.415328e+001	1.470339e+002
1.095113e+007	-3.660527e+001	-1.784284e+002	-3.060301e+001	-2.416259e+001	-9.526040e+001	9.561612e+001	-3.415283e+001	1.471330e+002
1.095113e+007	-3.663593e+001	-1.784204e+002	-3.060241e+001	-2.411484e+001	-9.732169e+001	9.880172e+001	-3.414736e+001	1.469967e+002
1.095114e+007	-3.661620e+001	-1.784758e+002	-3.060959e+001	-2.406279e+001	-9.725551e+001	9.486308e+001	-3.413345e+001	1.469966e+002
1.095115e+007	-3.661152e+001	-1.784555e+002	-3.060372e+001	-2.416623e+001	-9.642953e+001	8.853731e+001	-3.415271e+001	1.469804e+002
1.095116e+007	-3.661317e+001	-1.785281e+002	-3.060830e+001	-2.409621e+001	-9.511492e+001	1.152233e+002	-3.414608e+001	1.470006e+002
