!CETC41,AV3656A,ZGL00048,1.3.2
!Calibration ON (Full Solt 2-Port(Omit Isolation))
!Measurements: S11 S21 S12 S22
!2025-04-18 01:51
# Hz  S  dB  R 50.000
1.095000e+007	-3.662845e+001	-1.785648e+002	-3.055703e+001	-2.480993e+001	-9.564254e+001	8.568430e+001	-3.405639e+001	1.473199e+002
1.095001e+007	-3.661511e+001	-1.786086e+002	-3.054941e+001	-2.476946e+001	-9.961566e+001	8.656031e+001	-3.405234e+001	1.473453e+002
1.095002e+007	-3.663135e+001	-1.785823e+002	-3.055442e+001	-2.477889e+001	-9.889730e+001	1.171129e+002	-3.405728e+001	1.473309e+002
1.095002e+007	-3.662055e+001	-1.784412e+002	-3.055253e+001	-2.475857e+001	-9.706825e+001	1.050582e+002	-3.406026e+001	1.473898e+002
1.095003e+007	-3.661616e+001	-1.785207e+002	-3.055623e+001	-2.472977e+001	-9.963171e+001	1.252570e+002	-3.405416e+001	1.473117e+002
1.095004e+007	-3.661154e+001	-1.785080e+002	-3.054943e+001	-2.480623e+001	-9.584000e+001	9.101974e+001	-3.405016e+001	1.473515e+002
1.095005e+007	-3.661784e+001	-1.785145e+002	-3.055342e+001	-2.478422e+001	-9.656224e+001	1.146871e+002	-3.404903e+001	1.473310e+002
1.095005e+007	-3.661906e+001	-1.786078e+002	-3.055209e+001	-2.471855e+001	-9.494108e+001	1.019757e+002	-3.405814e+001	1.473518e+002
1.095006e+007	-3.662859e+001	-1.785726e+002	-3.054303e+001	-2.482742e+001	-9.681476e+001	1.024977e+002	-3.404935e+001	1.473672e+002
1.095007e+007	-3.661967e+001	-1.785636e+002	-3.054981e+001	-2.474685e+001	-9.713480e+001	8.004494e+001	-3.406355e+001	1.473370e+002
1.095008e+007	-3.659919e+001	-1.785329e+002	-3.055098e+001	-2.476690e+001	-9.965146e+001	9.769007e+001	-3.405795e+001	1.474321e+002
1.095009e+007	-3.660313e+001	-1.785507e+002	-3.054875e+001	-2.480863e+001	-9.852618e+001	1.029352e+002	-3.406091e+001	1.473551e+002
1.095009e+007	-3.660491e+001	-1.786278e+002	-3.054863e+001	-2.474655e+001	-9.878881e+001	7.813107e+001	-3.406025e+001	1.473915e+002
1.095010e+007	-3.662102e+001	-1.786403e+002	-3.055216e+001	-2.479820e+001	-9.691652e+001	1.098594e+002	-3.405832e+001	1.473565e+002
1.095011e+007	-3.661833e+001	-1.785620e+002	-3.055858e+001	-2.479391e+001	-9.821948e+001	1.099982e+002	-3.405807e+001	1.473743e+002
1.095012e+007	-3.661752e+001	-1.787492e+002	-3.054691e+001	-2.482250e+001	-9.374304e+001	9.910390e+001	-3.405725e+001	1.473992e+002
1.095013e+007	-3.661415e+001	-1.784865e+002	-3.055404e+001	-2.481364e+001	-9.786045e+001	8.888439e+001	-3.405994e+001	1.473232e+002
1.095013e+007	-3.660973e+001	-1.785599e+002	-3.055364e+001	-2.478874e+001	-1.001762e+002	1.050072e+002	-3.405354e+001	1.473240e+002
1.095014e+007	-3.661253e+001	-1.785252e+002	-3.053834e+001	-2.472493e+001	-9.837547e+001	8.966113e+001	-3.404695e+001	1.474102e+002
1.095015e+007	-3.660588e+001	-1.785772e+002	-3.054513e+001	-2.469967e+001	-9.582407e+001	8.218023e+001	-3.405330e+001	1.473018e+002
1.095016e+007	-3.662251e+001	-1.785862e+002	-3.055379e+001	-2.475911e+001	-9.691837e+001	1.075874e+002	-3.405485e+001	1.473538e+002
1.095016e+007	-3.661302e+001	-1.785498e+002	-3.054609e+001	-2.476975e+001	-9.741674e+001	7.437621e+001	-3.405157e+001	1.473373e+002
1.095017e+007	-3.661359e+001	-1.785809e+002	-3.053489e+001	-2.480001e+001	-9.594843e+001	7.703863e+001	-3.404191e+001	1.474132e+002
1.095018e+007	-3.661574e+001	-1.785026e+002	-3.054090e+001	-2.477218e+001	-9.749794e+001	1.034030e+002	-3.405517e+001	1.473226e+002
1.095019e+007	-3.661344e+001	-1.785697e+002	-3.055348e+001	-2.477108e+001	-9.392583e+001	9.495029e+001	-3.406028e+001	1.473514e+002
1.095020e+007	-3.662330e+001	-1.784745e+002	-3.053918e+001	-2.481343e+001	-9.775520e+001	1.021249e+002	-3.405552e+001	1.473698e+002
1.095020e+007	-3.662610e+001	-1.785737e+002	-3.052777e+001	-2.479610e+001	-9.866051e+001	1.334739e+002	-3.405733e+001	1.473119e+002
1.095021e+007	-3.661629e+001	-1.784382e+002	-3.054034e+001	-2.469757e+001	-9.725553e+001	9.274971e+001	-3.405614e+001	1.473986e+002
1.095022e+007	-3.663433e+001	-1.784748e+002	-3.054828e+001	-2.475698e+001	-9.748751e+001	9.604386e+001	-3.404969e+001	1.474001e+002
1.095023e+007	-3.662597e+001	-1.785037e+002	-3.054042e+001	-2.474239e+001	-9.650769e+001	1.103926e+002	-3.405509e+001	1.474169e+002
1.095023e+007	-3.662323e+001	-1.784922e+002	-3.053871e+001	-2.479992e+001	-9.366123e+001	1.194529e+002	-3.405841e+001	1.473848e+002
1.095024e+007	-3.662449e+001	-1.785507e+002	-3.053615e+001	-2.480698e+001	-9.666228e+001	1.081935e+002	-3.405476e+001	1.472849e+002
1.095025e+007	-3.661434e+001	-1.785498e+002	-3.053443e+001	-2.468238e+001	-9.700508e+001	1.036568e+002	-3.405141e+001	1.473746e+002
1.095026e+007	-3.662468e+001	-1.785627e+002	-3.053565e+001	-2.465707e+001	-9.831055e+001	7.907098e+001	-3.406179e+001	1.473611e+002
1.095027e+007	-3.662675e+001	-1.785485e+002	-3.053920e+001	-2.470741e+001	-9.634697e+001	1.100172e+002	-3.405405e+001	1.473500e+002
1.095027e+007	-3.662849e+001	-1.786210e+002	-3.055397e+001	-2.483482e+001	-9.444008e+001	9.702132e+001	-3.405723e+001	1.473727e+002
1.095028e+007	-3.660636e+001	-1.785595e+002	-3.053348e+001	-2.482032e+001	-9.877935e+001	8.503045e+001	-3.405404e+001	1.472618e+002
1.095029e+007	-3.662859e+001	-1.784917e+002	-3.053901e+001	-2.478856e+001	-9.456127e+001	1.039401e+002	-3.406031e+001	1.473213e+002
1.095030e+007	-3.662157e+001	-1.785233e+002	-3.053197e+001	-2.480748e+001	-9.468946e+001	9.404505e+001	-3.405936e+001	1.473301e+002
1.095030e+007	-3.662197e+001	-1.784528e+002	-3.053106e+001	-2.470670e+001	-9.542081e+001	9.960156e+001	-3.405788e+001	1.473984e+002
1.095031e+007	-3.661371e+001	-1.784702e+002	-3.052403e+001	-2.471825e+001	-9.548921e+001	9.123078e+001	-3.405523e+001	1.473597e+002
1.095032e+007	-3.661588e+001	-1.784405e+002	-3.053649e+001	-2.471879e+001	-9.655674e+001	9.269482e+001	-3.404546e+001	1.473431e+002
1.095033e+007	-3.662131e+001	-1.785620e+002	-3.053871e+001	-2.464946e+001	-9.784314e+001	9.672672e+001	-3.406886e+001	1.473751e+002
1.095034e+007	-3.661536e+001	-1.785274e+002	-3.054543e+001	-2.475266e+001	-9.736860e+001	1.158554e+002	-3.406386e+001	1.472465e+002
1.095034e+007	-3.661076e+001	-1.786052e+002	-3.053941e+001	-2.471177e+001	-9.921470e+001	7.080324e+001	-3.406074e+001	1.473615e+002
1.095035e+007	-3.660884e+001	-1.784773e+002	-3.054237e+001	-2.474586e+001	-9.801597e+001	1.046976e+002	-3.404958e+001	1.472492e+002
1.095036e+007	-3.660673e+001	-1.785904e+002	-3.053298e+001	-2.475603e+001	-9.611379e+001	8.634366e+001	-3.405854e+001	1.473284e+002
1.095037e+007	-3.662193e+001	-1.784781e+002	-3.053277e+001	-2.474206e+001	-9.807174e+001	1.014106e+002	-3.406311e+001	1.472873e+002
1.095038e+007	-3.661321e+001	-1.785502e+002	-3.052524e+001	-2.479508e+001	-1.009697e+002	1.083870e+002	-3.404600e+001	1.472882e+002
1.095038e+007	-3.662088e+001	-1.784304e+002	-3.052361e+001	-2.489419e+001	-9.853518e+001	1.148155e+002	-3.405012e+001	1.472945e+002
1.095039e+007	-3.661426e+001	-1.785876e+002	-3.051834e+001	-2.483513e+001	-9.494962e+001	9.756383e+001	-3.405062e+001	1.473178e+002
1.095040e+007	-3.662825e+001	-1.784743e+002	-3.050572e+001	-2.477863e+001	-9.785245e+001	8.324998e+001	-3.405047e+001	1.474063e+002
1.095041e+007	-3.662451e+001	-1.785380e+002	-3.050530e+001	-2.486933e+001	-9.830934e+001	1.086025e+002	-3.404308e+001	1.473915e+002
1.095041e+007	-3.659817e+001	-1.785625e+002	-3.051629e+001	-2.483284e+001	-1.028549e+002	7.987003e+001	-3.406453e+001	1.473732e+002
1.095042e+007	-3.661894e+001	-1.785576e+002	-3.050660e+001	-2.488527e+001	-9.358561e+001	8.353319e+001	-3.405178e+001	1.473247e+002
1.095043e+007	-3.662362e+001	-1.785756e+002	-3.049945e+001	-2.496779e+001	-9.614661e+001	1.068707e+002	-3.405344e+001	1.474220e+002
1.095044e+007	-3.662323e+001	-1.784881e+002	-3.049857e+001	-2.500120e+001	-9.521328e+001	1.106820e+002	-3.404792e+001	1.474015e+002
1.095045e+007	-3.661636e+001	-1.785126e+002	-3.050403e+001	-2.503656e+001	-9.742822e+001	9.861493e+001	-3.404846e+001	1.473849e+002
1.095045e+007	-3.660775e+001	-1.785155e+002	-3.049816e+001	-2.507757e+001	-9.596722e+001	9.353968e+001	-3.404367e+001	1.473129e+002
1.095046e+007	-3.661746e+001	-1.784395e+002	-3.050585e+001	-2.518116e+001	-9.766591e+001	1.012980e+002	-3.406036e+001	1.473333e+002
1.095047e+007	-3.662232e+001	-1.785622e+002	-3.052441e+001	-2.520190e+001	-1.002982e+002	7.578649e+001	-3.406361e+001	1.473629e+002
1.095048e+007	-3.661335e+001	-1.785752e+002	-3.053430e+001	-2.528278e+001	-9.527175e+001	9.634939e+001	-3.405576e+001	1.474222e+002
1.095048e+007	-3.661444e+001	-1.784603e+002	-3.055434e+001	-2.528111e+001	-9.873485e+001	8.675302e+001	-3.405243e+001	1.472501e+002
1.095049e+007	-3.662074e+001	-1.785375e+002	-3.058328e+001	-2.518624e+001	-9.539102e+001	9.230841e+001	-3.404635e+001	1.472477e+002
1.095050e+007	-3.662856e+001	-1.785468e+002	-3.060947e+001	-2.509310e+001	-9.517803e+001	9.105805e+001	-3.405772e+001	1.473867e+002
1.095051e+007	-3.662274e+001	-1.785688e+002	-3.061299e+001	-2.495900e+001	-9.787606e+001	9.261852e+001	-3.403811e+001	1.473245e+002
1.095052e+007	-3.660006e+001	-1.785274e+002	-3.061183e+001	-2.468552e+001	-9.643877e+001	9.900431e+001	-3.405865e+001	1.472475e+002
1.095052e+007	-3.662632e+001	-1.785548e+002	-3.059934e+001	-2.448981e+001	-9.666652e+001	8.576093e+001	-3.405613e+001	1.473542e+002
1.095053e+007	-3.662205e+001	-1.785146e+002	-3.055818e+001	-2.426540e+001	-9.562330e+001	1.049305e+002	-3.406735e+001	1.473837e+002
1.095054e+007	-3.661417e+001	-1.785777e+002	-3.051245e+001	-2.435965e+001	-9.590836e+001	1.025181e+002	-3.404969e+001	1.473612e+002
1.095055e+007	-3.660357e+001	-1.786447e+002	-3.047346e+001	-2.448921e+001	-9.757608e+001	8.290021e+001	-3.405397e+001	1.473814e+002
1.095055e+007	-3.660878e+001	-1.786088e+002	-3.047535e+001	-2.489458e+001	-9.778340e+001	9.784910e+001	-3.406019e+001	1.473956e+002
1.095056e+007	-3.661337e+001	-1.784891e+002	-3.051238e+001	-2.514310e+001	-9.495296e+001	7.582556e+001	-3.405333e+001	1.473704e+002
1.095057e+007	-3.662289e+001	-1.786333e+002	-3.053953e+001	-2.525828e+001	-9.510590e+001	1.060635e+002	-3.406439e+001	1.473462e+002
1.095058e+007	-3.662937e+001	-1.785330e+002	-3.060635e+001	-2.494956e+001	-9.450911e+001	1.025915e+002	-3.406346e+001	1.473388e+002
1.095059e+007	-3.662566e+001	-1.785395e+002	-3.059640e+001	-2.460642e+001	-1.001972e+002	1.016942e+002	-3.405353e+001	1.472724e+002
1.095059e+007	-3.658906e+001	-1.786140e+002	-3.054425e+001	-2.430122e+001	-9.397532e+001	8.189652e+001	-3.405744e+001	1.473415e+002
1.095060e+007	-3.663000e+001	-1.784786e+002	-3.047984e+001	-2.448244e+001	-9.446132e+001	7.749259e+001	-3.405283e+001	1.473667e+002
1.095061e+007	-3.661337e+001	-1.786125e+002	-3.046642e+001	-2.486463e+001	-9.893105e+001	1.146312e+002	-3.405318e+001	1.472820e+002
1.095062e+007	-3.663970e+001	-1.784695e+002	-3.050975e+001	-2.515700e+001	-9.912603e+001	8.532963e+001	-3.404712e+001	1.473005e+002
1.095063e+007	-3.661897e+001	-1.786243e+002	-3.058453e+001	-2.502907e+001	-9.712838e+001	1.003138e+002	-3.403921e+001	1.473874e+002
1.095063e+007	-3.661211e+001	-1.786749e+002	-3.056791e+001	-2.453970e+001	-9.791602e+001	1.021783e+002	-3.405765e+001	1.472633e+002
1.095064e+007	-3.660602e+001	-1.785353e+002	-3.051392e+001	-2.437433e+001	-9.829684e+001	9.127167e+001	-3.407180e+001	1.472688e+002
1.095065e+007	-3.662183e+001	-1.785855e+002	-3.046989e+001	-2.481109e+001	-9.742608e+001	9.767196e+001	-3.405766e+001	1.473189e+002
1.095066e+007	-3.660791e+001	-1.785622e+002	-3.050241e+001	-2.505570e+001	-9.816480e+001	9.410761e+001	-3.405730e+001	1.473255e+002
1.095066e+007	-3.661263e+001	-1.785643e+002	-3.057833e+001	-2.500254e+001	-1.052510e+002	1.188807e+002	-3.405445e+001	1.473209e+002
1.095067e+007	-3.661549e+001	-1.784520e+002	-3.055327e+001	-2.444148e+001	-9.870474e+001	7.553210e+001	-3.405703e+001	1.473249e+002
1.095068e+007	-3.661428e+001	-1.785840e+002	-3.048912e+001	-2.457349e+001	-9.804289e+001	1.127911e+002	-3.405457e+001	1.474253e+002
1.095069e+007	-3.664994e+001	-1.785242e+002	-3.050195e+001	-2.498434e+001	-9.841592e+001	8.818485e+001	-3.404770e+001	1.473513e+002
1.095070e+007	-3.661610e+001	-1.785279e+002	-3.055848e+001	-2.489810e+001	-9.809439e+001	8.725655e+001	-3.404696e+001	1.473362e+002
1.095070e+007	-3.662244e+001	-1.785678e+002	-3.055688e+001	-2.449920e+001	-9.539397e+001	7.638013e+001	-3.406184e+001	1.473239e+002
1.095071e+007	-3.660819e+001	-1.785768e+002	-3.048208e+001	-2.460559e+001	-1.004225e+002	8.747551e+001	-3.406756e+001	1.473938e+002
1.095072e+007	-3.660939e+001	-1.785044e+002	-3.051234e+001	-2.501691e+001	-9.678442e+001	8.272781e+001	-3.404964e+001	1.473044e+002
1.095073e+007	-3.660539e+001	-1.784620e+002	-3.057092e+001	-2.483451e+001	-9.578753e+001	9.760059e+001	-3.406063e+001	1.473556e+002
1.095073e+007	-3.660014e+001	-1.785465e+002	-3.052686e+001	-2.444902e+001	-9.639568e+001	8.972929e+001	-3.405943e+001	1.473350e+002
1.095074e+007	-3.662345e+001	-1.784906e+002	-3.047311e+001	-2.484664e+001	-9.763066e+001	1.210487e+002	-3.406432e+001	1.473712e+002
1.095075e+007	-3.660544e+001	-1.785526e+002	-3.054793e+001	-2.495105e+001	-9.905978e+001	9.145216e+001	-3.405071e+001	1.474182e+002
1.095076e+007	-3.660991e+001	-1.784550e+002	-3.055566e+001	-2.448129e+001	-9.604762e+001	8.906760e+001	-3.404896e+001	1.473912e+002
1.095077e+007	-3.662976e+001	-1.785326e+002	-3.048262e+001	-2.470504e+001	-9.476679e+001	7.447464e+001	-3.404268e+001	1.473431e+002
1.095077e+007	-3.662944e+001	-1.785365e+002	-3.052994e+001	-2.500414e+001	-9.605663e+001	1.117461e+002	-3.403931e+001	1.473161e+002
1.095078e+007	-3.661631e+001	-1.785892e+002	-3.056213e+001	-2.462621e+001	-1.018966e+002	9.959256e+001	-3.404609e+001	1.472481e+002
1.095079e+007	-3.662719e+001	-1.784791e+002	-3.048673e+001	-2.460779e+001	-9.509671e+001	8.665761e+001	-3.403992e+001	1.473766e+002
1.095080e+007	-3.660308e+001	-1.784619e+002	-3.052561e+001	-2.498213e+001	-9.725940e+001	8.824441e+001	-3.405370e+001	1.473778e+002
1.095080e+007	-3.663221e+001	-1.784176e+002	-3.054440e+001	-2.456455e+001	-9.853792e+001	1.043501e+002	-3.405382e+001	1.473070e+002
1.095081e+007	-3.663929e+001	-1.784912e+002	-3.048071e+001	-2.477964e+001	-9.463299e+001	9.411071e+001	-3.404550e+001	1.473575e+002
1.095082e+007	-3.660002e+001	-1.785699e+002	-3.053873e+001	-2.494512e+001	-9.568741e+001	8.213150e+001	-3.405642e+001	1.472771e+002
1.095083e+007	-3.661133e+001	-1.784514e+002	-3.053142e+001	-2.461292e+001	-1.000772e+002	9.449343e+001	-3.404267e+001	1.473238e+002
1.095084e+007	-3.660566e+001	-1.786162e+002	-3.049718e+001	-2.487676e+001	-9.647702e+001	9.915259e+001	-3.403767e+001	1.473566e+002
1.095084e+007	-3.662410e+001	-1.784765e+002	-3.054546e+001	-2.481855e+001	-9.349693e+001	1.016378e+002	-3.405380e+001	1.473404e+002
1.095085e+007	-3.660915e+001	-1.785382e+002	-3.050101e+001	-2.462700e+001	-1.004393e+002	1.010761e+002	-3.405293e+001	1.473453e+002
1.095086e+007	-3.661900e+001	-1.784337e+002	-3.052502e+001	-2.490129e+001	-9.977037e+001	9.918286e+001	-3.406443e+001	1.473763e+002
1.095087e+007	-3.661111e+001	-1.785703e+002	-3.051863e+001	-2.458715e+001	-9.402955e+001	8.983803e+001	-3.406134e+001	1.473277e+002
1.095088e+007	-3.662203e+001	-1.784579e+002	-3.049551e+001	-2.483135e+001	-9.679352e+001	9.295854e+001	-3.405698e+001	1.474131e+002
1.095088e+007	-3.662334e+001	-1.785724e+002	-3.053980e+001	-2.470274e+001	-9.486769e+001	1.009029e+002	-3.405270e+001	1.473786e+002
1.095089e+007	-3.661491e+001	-1.785019e+002	-3.048902e+001	-2.479624e+001	-9.585364e+001	8.196232e+001	-3.405095e+001	1.473593e+002
1.095090e+007	-3.662131e+001	-1.786694e+002	-3.052935e+001	-2.492451e+001	-1.003621e+002	9.766268e+001	-3.404573e+001	1.473275e+002
1.095091e+007	-3.661507e+001	-1.785544e+002	-3.050441e+001	-2.458057e+001	-9.713696e+001	7.970236e+001	-3.405785e+001	1.472815e+002
1.095091e+007	-3.661610e+001	-1.785467e+002	-3.051850e+001	-2.487153e+001	-9.577803e+001	9.076623e+001	-3.404681e+001	1.472874e+002
1.095092e+007	-3.662572e+001	-1.786474e+002	-3.052155e+001	-2.459836e+001	-9.496895e+001	1.069507e+002	-3.405588e+001	1.473558e+002
1.095093e+007	-3.660794e+001	-1.786394e+002	-3.051481e+001	-2.491294e+001	-9.533274e+001	8.468909e+001	-3.405558e+001	1.473611e+002
1.095094e+007	-3.660105e+001	-1.785456e+002	-3.051907e+001	-2.470589e+001	-9.757120e+001	8.347272e+001	-3.405748e+001	1.473065e+002
1.095095e+007	-3.661066e+001	-1.784537e+002	-3.051008e+001	-2.478307e+001	-9.707120e+001	1.065599e+002	-3.404646e+001	1.473330e+002
1.095095e+007	-3.661454e+001	-1.786124e+002	-3.052486e+001	-2.468216e+001	-9.606272e+001	9.191389e+001	-3.404408e+001	1.472987e+002
1.095096e+007	-3.663646e+001	-1.785737e+002	-3.050994e+001	-2.487134e+001	-9.690503e+001	9.902618e+001	-3.405682e+001	1.473298e+002
1.095097e+007	-3.661363e+001	-1.784980e+002	-3.051436e+001	-2.467411e+001	-9.476878e+001	8.335640e+001	-3.405962e+001	1.473288e+002
1.095098e+007	-3.661735e+001	-1.785611e+002	-3.051503e+001	-2.483651e+001	-9.585837e+001	1.150416e+002	-3.404243e+001	1.473297e+002
1.095098e+007	-3.661451e+001	-1.785679e+002	-3.051593e+001	-2.470838e+001	-9.984186e+001	9.349198e+001	-3.406307e+001	1.472926e+002
1.095099e+007	-3.660365e+001	-1.784613e+002	-3.051324e+001	-2.481644e+001	-9.541913e+001	1.126600e+002	-3.404253e+001	1.473657e+002
1.095100e+007	-3.661292e+001	-1.785660e+002	-3.050293e+001	-2.469677e+001	-1.015232e+002	1.175997e+002	-3.404894e+001	1.473708e+002
1.095101e+007	-3.662349e+001	-1.785361e+002	-3.052126e+001	-2.482674e+001	-9.439655e+001	9.349334e+001	-3.405334e+001	1.473262e+002
1.095102e+007	-3.662498e+001	-1.784994e+002	-3.049890e+001	-2.468144e+001	-9.600737e+001	8.712282e+001	-3.404871e+001	1.473148e+002
1.095102e+007	-3.661631e+001	-1.785266e+002	-3.050775e+001	-2.480085e+001	-9.273355e+001	9.174641e+001	-3.405526e+001	1.473437e+002
1.095103e+007	-3.662707e+001	-1.785344e+002	-3.050054e+001	-2.468052e+001	-9.715143e+001	1.107941e+002	-3.405814e+001	1.473971e+002
1.095104e+007	-3.661538e+001	-1.786680e+002	-3.051141e+001	-2.470847e+001	-9.495121e+001	8.878166e+001	-3.405329e+001	1.473492e+002
1.095105e+007	-3.661363e+001	-1.785181e+002	-3.049480e+001	-2.478429e+001	-9.931979e+001	9.460019e+001	-3.404516e+001	1.473062e+002
1.095105e+007	-3.662912e+001	-1.786374e+002	-3.051301e+001	-2.470243e+001	-9.515661e+001	1.162223e+002	-3.403772e+001	1.472658e+002
1.095106e+007	-3.663460e+001	-1.785064e+002	-3.050457e+001	-2.479171e+001	-9.548557e+001	1.152144e+002	-3.405750e+001	1.474259e+002
1.095107e+007	-3.661040e+001	-1.786096e+002	-3.049766e+001	-2.478372e+001	-9.708810e+001	9.375788e+001	-3.404998e+001	1.474071e+002
1.095108e+007	-3.662126e+001	-1.784984e+002	-3.049939e+001	-2.477326e+001	-1.043178e+002	1.021889e+002	-3.405083e+001	1.473875e+002
1.095109e+007	-3.662042e+001	-1.785041e+002	-3.049927e+001	-2.479937e+001	-9.668849e+001	9.130131e+001	-3.404218e+001	1.473843e+002
1.095109e+007	-3.662083e+001	-1.785614e+002	-3.050438e+001	-2.475396e+001	-9.452304e+001	1.055765e+002	-3.405257e+001	1.473820e+002
1.095110e+007	-3.661484e+001	-1.785588e+002	-3.050058e+001	-2.477873e+001	-9.690054e+001	1.002603e+002	-3.405415e+001	1.473682e+002
1.095111e+007	-3.661659e+001	-1.784582e+002	-3.049426e+001	-2.475794e+001	-9.681240e+001	9.701487e+001	-3.405301e+001	1.473349e+002
1.095112e+007	-3.662273e+001	-1.785649e+002	-3.050696e+001	-2.483262e+001	-9.608813e+001	1.128755e+002	-3.404990e+001	1.472649e+002
1.095113e+007	-3.661787e+001	-1.785369e+002	-3.050078e+001	-2.477437e+001	-9.892643e+001	9.418500e+001	-3.404971e+001	1.473951e+002
1.095113e+007	-3.662694e+001	-1.785218e+002	-3.050435e+001	-2.476231e+001	-9.967466e+001	1.198044e+002	-3.406055e+001	1.473790e+002
1.095114e+007	-3.661095e+001	-1.786029e+002	-3.049947e+001	-2.475244e+001	-9.716033e+001	1.094400e+002	-3.404897e+001	1.473460e+002
1.095115e+007	-3.661520e+001	-1.785712e+002	-3.050681e+001	-2.470756e+001	-1.013680e+002	9.267857e+001	-3.404594e+001	1.473252e+002
1.095116e+007	-3.659741e+001	-1.786189e+002	-3.051003e+001	-2.478327e+001	-9.554050e+001	1.073213e+002	-3.404648e+001	1.473907e+002
