!CETC41,AV3656A,ZGL00048,1.3.2
!Calibration ON (Full Solt 2-Port(Omit Isolation))
!Measurements: S11 S21 S12 S22
!2025-04-18 03:03
# Hz  S  dB  R 50.000
1.095000e+007	-3.647597e+001	-1.796609e+002	-3.068123e+001	-2.351523e+001	-9.412491e+001	8.094009e+001	-3.432322e+001	1.471675e+002
1.095001e+007	-3.646974e+001	-1.796634e+002	-3.067066e+001	-2.369893e+001	-9.836479e+001	1.027102e+002	-3.431897e+001	1.471514e+002
1.095002e+007	-3.649256e+001	-1.796466e+002	-3.066791e+001	-2.362141e+001	-9.891429e+001	1.034670e+002	-3.432741e+001	1.470664e+002
1.095002e+007	-3.646813e+001	-1.795952e+002	-3.068311e+001	-2.371571e+001	-9.368915e+001	1.093865e+002	-3.432750e+001	1.471406e+002
1.095003e+007	-3.647529e+001	-1.796871e+002	-3.065826e+001	-2.359117e+001	-9.602627e+001	1.333967e+002	-3.431841e+001	1.471494e+002
1.095004e+007	-3.647261e+001	-1.797258e+002	-3.068507e+001	-2.359069e+001	-9.600722e+001	8.818345e+001	-3.433467e+001	1.472381e+002
1.095005e+007	-3.645928e+001	-1.796745e+002	-3.066051e+001	-2.366264e+001	-9.768423e+001	8.281083e+001	-3.433245e+001	1.471469e+002
1.095005e+007	-3.648103e+001	-1.797161e+002	-3.067400e+001	-2.355685e+001	-9.533941e+001	9.229336e+001	-3.432261e+001	1.471390e+002
1.095006e+007	-3.646798e+001	-1.797378e+002	-3.068129e+001	-2.372256e+001	-9.407855e+001	9.587489e+001	-3.432749e+001	1.472104e+002
1.095007e+007	-3.647873e+001	-1.796410e+002	-3.066597e+001	-2.356864e+001	-9.551633e+001	9.999724e+001	-3.433227e+001	1.471693e+002
1.095008e+007	-3.645962e+001	-1.796681e+002	-3.067469e+001	-2.357857e+001	-9.612827e+001	1.121522e+002	-3.431529e+001	1.471593e+002
1.095009e+007	-3.648397e+001	-1.797675e+002	-3.067120e+001	-2.374571e+001	-9.675872e+001	9.996484e+001	-3.431809e+001	1.471162e+002
1.095009e+007	-3.647585e+001	-1.797235e+002	-3.067017e+001	-2.357788e+001	-9.386135e+001	1.060966e+002	-3.433564e+001	1.471725e+002
1.095010e+007	-3.647202e+001	-1.797385e+002	-3.068269e+001	-2.371779e+001	-9.345690e+001	9.422431e+001	-3.433962e+001	1.470761e+002
1.095011e+007	-3.647480e+001	-1.797193e+002	-3.066146e+001	-2.366866e+001	-9.753881e+001	9.163884e+001	-3.433650e+001	1.471152e+002
1.095012e+007	-3.647816e+001	-1.797282e+002	-3.067368e+001	-2.361533e+001	-9.638629e+001	1.191250e+002	-3.432879e+001	1.471250e+002
1.095013e+007	-3.648062e+001	-1.796992e+002	-3.067660e+001	-2.369235e+001	-9.622169e+001	1.105515e+002	-3.432362e+001	1.472329e+002
1.095013e+007	-3.646658e+001	-1.797786e+002	-3.066407e+001	-2.371698e+001	-9.721485e+001	1.084427e+002	-3.433615e+001	1.470833e+002
1.095014e+007	-3.648165e+001	-1.798160e+002	-3.067845e+001	-2.355324e+001	-1.013679e+002	8.034876e+001	-3.433759e+001	1.470823e+002
1.095015e+007	-3.647244e+001	-1.797319e+002	-3.069432e+001	-2.359897e+001	-9.966229e+001	9.704046e+001	-3.432721e+001	1.470577e+002
1.095016e+007	-3.646088e+001	-1.797348e+002	-3.067374e+001	-2.365660e+001	-9.665446e+001	1.091683e+002	-3.432420e+001	1.471780e+002
1.095016e+007	-3.646411e+001	-1.797278e+002	-3.066655e+001	-2.355314e+001	-9.549140e+001	1.002292e+002	-3.432821e+001	1.471081e+002
1.095017e+007	-3.647460e+001	-1.797693e+002	-3.068221e+001	-2.359837e+001	-9.439061e+001	9.137292e+001	-3.432338e+001	1.471334e+002
1.095018e+007	-3.648191e+001	-1.798368e+002	-3.067381e+001	-2.370439e+001	-9.723232e+001	1.020250e+002	-3.432587e+001	1.470601e+002
1.095019e+007	-3.647887e+001	-1.797278e+002	-3.065971e+001	-2.359993e+001	-1.004058e+002	1.330558e+002	-3.433467e+001	1.471083e+002
1.095020e+007	-3.647366e+001	-1.796495e+002	-3.067940e+001	-2.357159e+001	-9.620921e+001	8.893035e+001	-3.432523e+001	1.470770e+002
1.095020e+007	-3.647058e+001	-1.796939e+002	-3.068734e+001	-2.361602e+001	-9.559432e+001	9.321147e+001	-3.432681e+001	1.471177e+002
1.095021e+007	-3.646950e+001	-1.797259e+002	-3.067028e+001	-2.371001e+001	-9.531617e+001	9.073223e+001	-3.434110e+001	1.470839e+002
1.095022e+007	-3.645125e+001	-1.796700e+002	-3.065602e+001	-2.362939e+001	-9.724058e+001	1.109562e+002	-3.432707e+001	1.471387e+002
1.095023e+007	-3.646683e+001	-1.797533e+002	-3.066682e+001	-2.358150e+001	-9.652272e+001	9.227532e+001	-3.431527e+001	1.470953e+002
1.095023e+007	-3.648410e+001	-1.797639e+002	-3.068417e+001	-2.361661e+001	-9.690801e+001	1.112686e+002	-3.432651e+001	1.470804e+002
1.095024e+007	-3.646788e+001	-1.798087e+002	-3.066967e+001	-2.374721e+001	-9.569007e+001	1.048272e+002	-3.432849e+001	1.471081e+002
1.095025e+007	-3.647367e+001	-1.797407e+002	-3.065809e+001	-2.364344e+001	-9.562569e+001	7.988439e+001	-3.433010e+001	1.471508e+002
1.095026e+007	-3.648523e+001	-1.797051e+002	-3.066301e+001	-2.357832e+001	-9.447298e+001	1.007049e+002	-3.432843e+001	1.471392e+002
1.095027e+007	-3.648486e+001	-1.797405e+002	-3.068025e+001	-2.359537e+001	-9.548121e+001	1.077880e+002	-3.432226e+001	1.471748e+002
1.095027e+007	-3.648092e+001	-1.796332e+002	-3.067475e+001	-2.371057e+001	-9.776241e+001	1.075452e+002	-3.433141e+001	1.472125e+002
1.095028e+007	-3.647540e+001	-1.796751e+002	-3.066410e+001	-2.371518e+001	-9.367007e+001	8.771606e+001	-3.433194e+001	1.470918e+002
1.095029e+007	-3.648052e+001	-1.798036e+002	-3.065576e+001	-2.371422e+001	-9.595652e+001	9.357817e+001	-3.433000e+001	1.470568e+002
1.095030e+007	-3.646642e+001	-1.798117e+002	-3.066248e+001	-2.353418e+001	-9.752371e+001	1.033533e+002	-3.433046e+001	1.471710e+002
1.095030e+007	-3.647039e+001	-1.797419e+002	-3.068188e+001	-2.354963e+001	-9.702642e+001	1.054344e+002	-3.433025e+001	1.471919e+002
1.095031e+007	-3.649657e+001	-1.796062e+002	-3.068007e+001	-2.367703e+001	-9.541479e+001	8.703292e+001	-3.432538e+001	1.471773e+002
1.095032e+007	-3.648443e+001	-1.796834e+002	-3.067895e+001	-2.371114e+001	-1.038474e+002	1.242628e+002	-3.432666e+001	1.471097e+002
1.095033e+007	-3.645777e+001	-1.797330e+002	-3.066371e+001	-2.372941e+001	-9.847806e+001	1.073004e+002	-3.432815e+001	1.471369e+002
1.095034e+007	-3.649230e+001	-1.796341e+002	-3.065804e+001	-2.364229e+001	-1.011430e+002	9.753144e+001	-3.432792e+001	1.471778e+002
1.095034e+007	-3.647755e+001	-1.797310e+002	-3.065497e+001	-2.361786e+001	-9.586894e+001	1.043571e+002	-3.432798e+001	1.471644e+002
1.095035e+007	-3.648134e+001	-1.797376e+002	-3.065124e+001	-2.358485e+001	-9.582493e+001	9.271976e+001	-3.431753e+001	1.471485e+002
1.095036e+007	-3.646662e+001	-1.796664e+002	-3.066821e+001	-2.356318e+001	-9.869564e+001	7.841784e+001	-3.432290e+001	1.472303e+002
1.095037e+007	-3.648009e+001	-1.796535e+002	-3.067337e+001	-2.357449e+001	-9.747019e+001	9.227956e+001	-3.432893e+001	1.471269e+002
1.095038e+007	-3.647087e+001	-1.797172e+002	-3.067815e+001	-2.362957e+001	-9.602338e+001	1.047210e+002	-3.432176e+001	1.471040e+002
1.095038e+007	-3.648651e+001	-1.797280e+002	-3.068235e+001	-2.365944e+001	-9.619294e+001	1.193878e+002	-3.432612e+001	1.471737e+002
1.095039e+007	-3.647611e+001	-1.796435e+002	-3.067873e+001	-2.370566e+001	-9.756517e+001	1.199040e+002	-3.432675e+001	1.471762e+002
1.095040e+007	-3.648098e+001	-1.796355e+002	-3.066786e+001	-2.372709e+001	-1.011503e+002	1.165383e+002	-3.431951e+001	1.471467e+002
1.095041e+007	-3.648646e+001	-1.796261e+002	-3.066159e+001	-2.372575e+001	-9.750389e+001	8.663947e+001	-3.433248e+001	1.471833e+002
1.095041e+007	-3.647726e+001	-1.797280e+002	-3.065578e+001	-2.371120e+001	-9.511026e+001	1.043173e+002	-3.431756e+001	1.471470e+002
1.095042e+007	-3.648056e+001	-1.796734e+002	-3.066123e+001	-2.365857e+001	-1.002425e+002	1.013077e+002	-3.432256e+001	1.471401e+002
1.095043e+007	-3.648175e+001	-1.797062e+002	-3.065625e+001	-2.364036e+001	-9.882461e+001	1.159959e+002	-3.431403e+001	1.471217e+002
1.095044e+007	-3.648156e+001	-1.796895e+002	-3.066257e+001	-2.363323e+001	-9.771338e+001	8.631705e+001	-3.434840e+001	1.470806e+002
1.095045e+007	-3.646529e+001	-1.797178e+002	-3.065515e+001	-2.367959e+001	-9.892871e+001	1.104314e+002	-3.432605e+001	1.470966e+002
1.095045e+007	-3.648066e+001	-1.797556e+002	-3.065413e+001	-2.362454e+001	-9.461664e+001	1.080395e+002	-3.432683e+001	1.471946e+002
1.095046e+007	-3.647427e+001	-1.797876e+002	-3.064488e+001	-2.363718e+001	-9.493534e+001	1.280093e+002	-3.433689e+001	1.470986e+002
1.095047e+007	-3.647656e+001	-1.796727e+002	-3.065060e+001	-2.362727e+001	-9.586790e+001	8.595877e+001	-3.432906e+001	1.470949e+002
1.095048e+007	-3.648177e+001	-1.797309e+002	-3.065360e+001	-2.365632e+001	-9.561009e+001	8.853321e+001	-3.432347e+001	1.471147e+002
1.095048e+007	-3.645481e+001	-1.797440e+002	-3.065175e+001	-2.367355e+001	-9.399333e+001	1.047403e+002	-3.433200e+001	1.471716e+002
1.095049e+007	-3.648518e+001	-1.796283e+002	-3.065188e+001	-2.367617e+001	-9.863370e+001	7.806461e+001	-3.432124e+001	1.471956e+002
1.095050e+007	-3.648573e+001	-1.796786e+002	-3.064489e+001	-2.369046e+001	-9.868151e+001	1.318194e+002	-3.432208e+001	1.472028e+002
1.095051e+007	-3.647097e+001	-1.797747e+002	-3.064810e+001	-2.370657e+001	-9.802321e+001	8.297917e+001	-3.433109e+001	1.471910e+002
1.095052e+007	-3.646405e+001	-1.797726e+002	-3.065107e+001	-2.372094e+001	-9.703830e+001	1.023034e+002	-3.432218e+001	1.470926e+002
1.095052e+007	-3.646510e+001	-1.797669e+002	-3.066736e+001	-2.385332e+001	-9.667028e+001	1.038114e+002	-3.433919e+001	1.471560e+002
1.095053e+007	-3.647778e+001	-1.796838e+002	-3.067139e+001	-2.384094e+001	-9.988066e+001	9.648312e+001	-3.433141e+001	1.470517e+002
1.095054e+007	-3.646143e+001	-1.797494e+002	-3.067901e+001	-2.376213e+001	-9.834549e+001	7.703240e+001	-3.432287e+001	1.470955e+002
1.095055e+007	-3.648197e+001	-1.797434e+002	-3.068029e+001	-2.380556e+001	-9.481218e+001	1.107998e+002	-3.434003e+001	1.471281e+002
1.095055e+007	-3.646669e+001	-1.796047e+002	-3.069224e+001	-2.371113e+001	-9.679240e+001	1.069823e+002	-3.432251e+001	1.471644e+002
1.095056e+007	-3.646732e+001	-1.797003e+002	-3.069789e+001	-2.364501e+001	-9.425763e+001	8.905561e+001	-3.433054e+001	1.470794e+002
1.095057e+007	-3.648654e+001	-1.797962e+002	-3.068727e+001	-2.359260e+001	-9.544493e+001	8.463082e+001	-3.433024e+001	1.471715e+002
1.095058e+007	-3.647311e+001	-1.797833e+002	-3.068552e+001	-2.354462e+001	-9.812739e+001	8.501922e+001	-3.433880e+001	1.471814e+002
1.095059e+007	-3.645784e+001	-1.796531e+002	-3.067039e+001	-2.351075e+001	-9.651552e+001	8.576214e+001	-3.432940e+001	1.471056e+002
1.095059e+007	-3.646215e+001	-1.796398e+002	-3.065835e+001	-2.359009e+001	-9.781372e+001	1.155535e+002	-3.433182e+001	1.471573e+002
1.095060e+007	-3.646936e+001	-1.797655e+002	-3.065620e+001	-2.368901e+001	-9.753135e+001	8.894161e+001	-3.431558e+001	1.471421e+002
1.095061e+007	-3.647012e+001	-1.796708e+002	-3.066699e+001	-2.371021e+001	-9.472419e+001	8.912461e+001	-3.431821e+001	1.471737e+002
1.095062e+007	-3.647344e+001	-1.797181e+002	-3.066691e+001	-2.373250e+001	-1.040220e+002	9.995410e+001	-3.432401e+001	1.471360e+002
1.095063e+007	-3.647956e+001	-1.796364e+002	-3.068486e+001	-2.372205e+001	-9.421353e+001	1.017803e+002	-3.432554e+001	1.471530e+002
1.095063e+007	-3.649785e+001	-1.797335e+002	-3.068205e+001	-2.364338e+001	-9.466856e+001	1.050645e+002	-3.432588e+001	1.471672e+002
1.095064e+007	-3.647286e+001	-1.798267e+002	-3.066703e+001	-2.356689e+001	-9.722800e+001	1.072618e+002	-3.432754e+001	1.471532e+002
1.095065e+007	-3.647362e+001	-1.797550e+002	-3.066366e+001	-2.350765e+001	-1.060133e+002	1.317105e+002	-3.432462e+001	1.472068e+002
1.095066e+007	-3.646555e+001	-1.796720e+002	-3.065884e+001	-2.368537e+001	-9.928944e+001	1.024535e+002	-3.431985e+001	1.470997e+002
1.095066e+007	-3.647673e+001	-1.796901e+002	-3.066747e+001	-2.364400e+001	-9.515653e+001	1.017940e+002	-3.431786e+001	1.472187e+002
1.095067e+007	-3.649240e+001	-1.797754e+002	-3.067937e+001	-2.368256e+001	-9.586248e+001	1.019051e+002	-3.432104e+001	1.471489e+002
1.095068e+007	-3.647041e+001	-1.796972e+002	-3.067585e+001	-2.363055e+001	-9.684404e+001	9.725640e+001	-3.431264e+001	1.471817e+002
1.095069e+007	-3.647201e+001	-1.797640e+002	-3.066361e+001	-2.363029e+001	-9.907518e+001	1.083352e+002	-3.432626e+001	1.471143e+002
1.095070e+007	-3.649678e+001	-1.796738e+002	-3.067089e+001	-2.365036e+001	-9.840223e+001	1.015613e+002	-3.432264e+001	1.471274e+002
1.095070e+007	-3.648773e+001	-1.796097e+002	-3.066746e+001	-2.367926e+001	-9.696390e+001	1.034635e+002	-3.433117e+001	1.471377e+002
1.095071e+007	-3.647630e+001	-1.796907e+002	-3.067850e+001	-2.361238e+001	-9.383755e+001	9.509754e+001	-3.432192e+001	1.471240e+002
1.095072e+007	-3.646022e+001	-1.797458e+002	-3.067698e+001	-2.364026e+001	-9.671761e+001	8.632360e+001	-3.432290e+001	1.471132e+002
1.095073e+007	-3.647672e+001	-1.797506e+002	-3.066857e+001	-2.359662e+001	-1.000115e+002	8.166864e+001	-3.432128e+001	1.470924e+002
1.095073e+007	-3.644883e+001	-1.797398e+002	-3.066331e+001	-2.359310e+001	-9.710673e+001	8.593638e+001	-3.434112e+001	1.471788e+002
1.095074e+007	-3.647518e+001	-1.796471e+002	-3.067323e+001	-2.364674e+001	-9.645327e+001	1.105960e+002	-3.433258e+001	1.471385e+002
1.095075e+007	-3.647981e+001	-1.797264e+002	-3.068064e+001	-2.361606e+001	-9.566812e+001	8.707756e+001	-3.433580e+001	1.470871e+002
1.095076e+007	-3.646106e+001	-1.796654e+002	-3.066381e+001	-2.360270e+001	-9.989217e+001	1.009968e+002	-3.432106e+001	1.471516e+002
1.095077e+007	-3.647398e+001	-1.797274e+002	-3.067080e+001	-2.364481e+001	-9.520664e+001	8.205822e+001	-3.432677e+001	1.470821e+002
1.095077e+007	-3.646937e+001	-1.796607e+002	-3.066597e+001	-2.364823e+001	-9.459621e+001	1.049432e+002	-3.432307e+001	1.472045e+002
1.095078e+007	-3.646160e+001	-1.798401e+002	-3.065982e+001	-2.365927e+001	-9.477398e+001	9.210348e+001	-3.432742e+001	1.470493e+002
1.095079e+007	-3.646745e+001	-1.797206e+002	-3.065620e+001	-2.363625e+001	-9.798263e+001	9.095076e+001	-3.433648e+001	1.471186e+002
1.095080e+007	-3.647214e+001	-1.797705e+002	-3.066282e+001	-2.363066e+001	-9.561652e+001	9.542738e+001	-3.432744e+001	1.471914e+002
1.095080e+007	-3.647802e+001	-1.796577e+002	-3.066556e+001	-2.362290e+001	-9.565505e+001	8.010201e+001	-3.433463e+001	1.471202e+002
1.095081e+007	-3.646245e+001	-1.796755e+002	-3.066615e+001	-2.362989e+001	-9.669299e+001	9.819105e+001	-3.432554e+001	1.471392e+002
1.095082e+007	-3.648559e+001	-1.797170e+002	-3.066885e+001	-2.360524e+001	-9.665864e+001	8.322808e+001	-3.432563e+001	1.471430e+002
1.095083e+007	-3.646770e+001	-1.796642e+002	-3.065874e+001	-2.366318e+001	-9.655246e+001	8.743643e+001	-3.433750e+001	1.471647e+002
1.095084e+007	-3.647811e+001	-1.796952e+002	-3.066375e+001	-2.367642e+001	-9.686302e+001	9.732464e+001	-3.433265e+001	1.470733e+002
1.095084e+007	-3.646939e+001	-1.796734e+002	-3.067442e+001	-2.360923e+001	-9.661096e+001	1.041581e+002	-3.432161e+001	1.471426e+002
1.095085e+007	-3.646494e+001	-1.797966e+002	-3.065539e+001	-2.365501e+001	-9.373328e+001	9.045104e+001	-3.431837e+001	1.471909e+002
1.095086e+007	-3.647403e+001	-1.796609e+002	-3.067347e+001	-2.362752e+001	-9.396759e+001	1.055788e+002	-3.432598e+001	1.470990e+002
1.095087e+007	-3.649458e+001	-1.797037e+002	-3.067044e+001	-2.364077e+001	-9.392885e+001	8.905876e+001	-3.433986e+001	1.471651e+002
1.095088e+007	-3.646147e+001	-1.796462e+002	-3.066390e+001	-2.365968e+001	-9.464091e+001	1.012734e+002	-3.433315e+001	1.470960e+002
1.095088e+007	-3.649262e+001	-1.795712e+002	-3.067678e+001	-2.363172e+001	-1.001253e+002	1.052181e+002	-3.433082e+001	1.471645e+002
1.095089e+007	-3.646813e+001	-1.797646e+002	-3.066104e+001	-2.359683e+001	-9.293702e+001	1.072419e+002	-3.432531e+001	1.471455e+002
1.095090e+007	-3.646765e+001	-1.796690e+002	-3.065448e+001	-2.372984e+001	-9.890667e+001	6.072877e+001	-3.432465e+001	1.471497e+002
1.095091e+007	-3.647292e+001	-1.797390e+002	-3.067305e+001	-2.360296e+001	-9.439390e+001	9.066220e+001	-3.433270e+001	1.471102e+002
1.095091e+007	-3.647943e+001	-1.797719e+002	-3.066268e+001	-2.366790e+001	-9.409269e+001	9.464419e+001	-3.432637e+001	1.471318e+002
1.095092e+007	-3.647433e+001	-1.797060e+002	-3.066939e+001	-2.368124e+001	-1.007124e+002	1.360116e+002	-3.432760e+001	1.471393e+002
1.095093e+007	-3.645901e+001	-1.796182e+002	-3.064753e+001	-2.355269e+001	-9.933084e+001	9.226384e+001	-3.432335e+001	1.471032e+002
1.095094e+007	-3.646613e+001	-1.795672e+002	-3.066477e+001	-2.367357e+001	-9.341081e+001	1.030686e+002	-3.432371e+001	1.470695e+002
1.095095e+007	-3.645927e+001	-1.797124e+002	-3.065933e+001	-2.359344e+001	-9.981500e+001	1.108611e+002	-3.433250e+001	1.472029e+002
1.095095e+007	-3.647425e+001	-1.797881e+002	-3.065636e+001	-2.368444e+001	-9.553119e+001	9.063025e+001	-3.432964e+001	1.471403e+002
1.095096e+007	-3.647821e+001	-1.797032e+002	-3.066534e+001	-2.353622e+001	-9.678794e+001	9.547421e+001	-3.434332e+001	1.471504e+002
1.095097e+007	-3.648474e+001	-1.796776e+002	-3.064782e+001	-2.367961e+001	-9.455198e+001	1.025520e+002	-3.432234e+001	1.471688e+002
1.095098e+007	-3.647579e+001	-1.796583e+002	-3.068335e+001	-2.365986e+001	-9.586030e+001	1.243645e+002	-3.433778e+001	1.471478e+002
1.095098e+007	-3.648172e+001	-1.797122e+002	-3.065419e+001	-2.361487e+001	-9.445676e+001	9.030237e+001	-3.433362e+001	1.471367e+002
1.095099e+007	-3.649506e+001	-1.797437e+002	-3.067678e+001	-2.368886e+001	-9.664406e+001	8.822941e+001	-3.432488e+001	1.471418e+002
1.095100e+007	-3.646621e+001	-1.796916e+002	-3.065396e+001	-2.362154e+001	-9.557888e+001	9.491107e+001	-3.432377e+001	1.472107e+002
1.095101e+007	-3.646629e+001	-1.797106e+002	-3.068224e+001	-2.363774e+001	-9.688158e+001	9.239194e+001	-3.433269e+001	1.471281e+002
1.095102e+007	-3.647080e+001	-1.797090e+002	-3.065021e+001	-2.367536e+001	-9.814797e+001	1.159855e+002	-3.432494e+001	1.471638e+002
1.095102e+007	-3.647755e+001	-1.797249e+002	-3.067480e+001	-2.359975e+001	-9.301273e+001	1.070088e+002	-3.433295e+001	1.470424e+002
1.095103e+007	-3.648083e+001	-1.796407e+002	-3.065362e+001	-2.369323e+001	-1.000741e+002	1.069054e+002	-3.432613e+001	1.470794e+002
1.095104e+007	-3.648198e+001	-1.796498e+002	-3.066717e+001	-2.367779e+001	-9.434354e+001	1.045493e+002	-3.432841e+001	1.471092e+002
1.095105e+007	-3.646925e+001	-1.796282e+002	-3.064811e+001	-2.369290e+001	-9.645399e+001	7.971976e+001	-3.431947e+001	1.471545e+002
1.095105e+007	-3.647586e+001	-1.796437e+002	-3.066492e+001	-2.362538e+001	-9.635918e+001	1.098280e+002	-3.431386e+001	1.471130e+002
1.095106e+007	-3.646873e+001	-1.796410e+002	-3.065694e+001	-2.375164e+001	-1.001984e+002	1.032525e+002	-3.433493e+001	1.471649e+002
1.095107e+007	-3.649357e+001	-1.796577e+002	-3.067000e+001	-2.359511e+001	-9.831290e+001	1.245127e+002	-3.432114e+001	1.470795e+002
1.095108e+007	-3.647754e+001	-1.797051e+002	-3.066215e+001	-2.371677e+001	-1.053701e+002	1.020929e+002	-3.432162e+001	1.470720e+002
1.095109e+007	-3.647090e+001	-1.796742e+002	-3.064853e+001	-2.361903e+001	-9.457165e+001	8.509214e+001	-3.433933e+001	1.472031e+002
1.095109e+007	-3.647836e+001	-1.796911e+002	-3.066741e+001	-2.365848e+001	-9.688431e+001	1.083447e+002	-3.433040e+001	1.471996e+002
1.095110e+007	-3.647216e+001	-1.796815e+002	-3.064039e+001	-2.359548e+001	-1.006322e+002	1.048809e+002	-3.433230e+001	1.470662e+002
1.095111e+007	-3.646590e+001	-1.797916e+002	-3.067871e+001	-2.359486e+001	-9.630991e+001	8.826582e+001	-3.433024e+001	1.471537e+002
1.095112e+007	-3.647635e+001	-1.798549e+002	-3.065130e+001	-2.363110e+001	-9.669001e+001	1.011516e+002	-3.432457e+001	1.471307e+002
1.095113e+007	-3.647914e+001	-1.797446e+002	-3.065764e+001	-2.362514e+001	-9.723392e+001	1.027161e+002	-3.432653e+001	1.471275e+002
1.095113e+007	-3.646517e+001	-1.797254e+002	-3.066904e+001	-2.369573e+001	-9.971139e+001	9.466276e+001	-3.432714e+001	1.471644e+002
1.095114e+007	-3.647894e+001	-1.796772e+002	-3.064206e+001	-2.369191e+001	-9.509933e+001	1.089672e+002	-3.432077e+001	1.470717e+002
1.095115e+007	-3.645511e+001	-1.796791e+002	-3.067495e+001	-2.352707e+001	-9.787919e+001	9.699877e+001	-3.433051e+001	1.471090e+002
1.095116e+007	-3.646621e+001	-1.797330e+002	-3.066291e+001	-2.370304e+001	-9.530069e+001	9.894094e+001	-3.432328e+001	1.471683e+002
