!CETC41,AV3656A,ZGL00048,1.3.2
!Calibration ON (Full Solt 2-Port(Omit Isolation))
!Measurements: S11 S21 S12 S22
!2025-04-18 02:48
# Hz  S  dB  R 50.000
1.095000e+007	-3.646071e+001	-1.795506e+002	-3.063428e+001	-2.400570e+001	-9.465063e+001	1.124753e+002	-3.431354e+001	1.476924e+002
1.095001e+007	-3.647678e+001	-1.794959e+002	-3.063891e+001	-2.396358e+001	-9.576705e+001	9.865803e+001	-3.431638e+001	1.476134e+002
1.095002e+007	-3.646273e+001	-1.795523e+002	-3.063513e+001	-2.393808e+001	-9.542156e+001	9.089022e+001	-3.430028e+001	1.475748e+002
1.095002e+007	-3.647966e+001	-1.794930e+002	-3.064344e+001	-2.385110e+001	-9.356555e+001	7.979591e+001	-3.428134e+001	1.475627e+002
1.095003e+007	-3.645940e+001	-1.795821e+002	-3.064670e+001	-2.382376e+001	-9.971113e+001	9.850744e+001	-3.427965e+001	1.475666e+002
1.095004e+007	-3.646696e+001	-1.795959e+002	-3.066339e+001	-2.384541e+001	-9.470961e+001	9.589636e+001	-3.427385e+001	1.476123e+002
1.095005e+007	-3.646947e+001	-1.794514e+002	-3.066260e+001	-2.394162e+001	-9.545445e+001	9.782460e+001	-3.428588e+001	1.477346e+002
1.095005e+007	-3.646621e+001	-1.795308e+002	-3.066261e+001	-2.392507e+001	-9.603579e+001	9.654926e+001	-3.428059e+001	1.477485e+002
1.095006e+007	-3.646830e+001	-1.794106e+002	-3.065703e+001	-2.397427e+001	-9.508031e+001	8.898861e+001	-3.429404e+001	1.477237e+002
1.095007e+007	-3.646747e+001	-1.794386e+002	-3.064654e+001	-2.400517e+001	-9.570048e+001	1.026704e+002	-3.430079e+001	1.477283e+002
1.095008e+007	-3.647286e+001	-1.794355e+002	-3.064005e+001	-2.394120e+001	-9.562317e+001	1.099352e+002	-3.430284e+001	1.476918e+002
1.095009e+007	-3.648654e+001	-1.795235e+002	-3.063704e+001	-2.397797e+001	-9.646029e+001	1.147342e+002	-3.430409e+001	1.476903e+002
1.095009e+007	-3.646880e+001	-1.795529e+002	-3.063034e+001	-2.395197e+001	-9.686328e+001	1.031257e+002	-3.429467e+001	1.475878e+002
1.095010e+007	-3.647458e+001	-1.793624e+002	-3.062289e+001	-2.392036e+001	-9.959483e+001	8.305200e+001	-3.430631e+001	1.476065e+002
1.095011e+007	-3.647801e+001	-1.795065e+002	-3.064204e+001	-2.390980e+001	-9.438782e+001	1.022048e+002	-3.431298e+001	1.476287e+002
1.095012e+007	-3.645074e+001	-1.794223e+002	-3.062346e+001	-2.393585e+001	-9.512726e+001	1.136486e+002	-3.430219e+001	1.476693e+002
1.095013e+007	-3.645736e+001	-1.794427e+002	-3.063171e+001	-2.387817e+001	-9.424149e+001	1.151594e+002	-3.429702e+001	1.476349e+002
1.095013e+007	-3.646468e+001	-1.794359e+002	-3.063528e+001	-2.390178e+001	-9.619529e+001	9.632462e+001	-3.429529e+001	1.475900e+002
1.095014e+007	-3.646265e+001	-1.794456e+002	-3.063326e+001	-2.394610e+001	-9.404761e+001	8.643319e+001	-3.429202e+001	1.475896e+002
1.095015e+007	-3.646848e+001	-1.795373e+002	-3.062789e+001	-2.396511e+001	-1.016879e+002	1.059536e+002	-3.429567e+001	1.476614e+002
1.095016e+007	-3.646959e+001	-1.794956e+002	-3.062799e+001	-2.398280e+001	-1.004583e+002	1.100797e+002	-3.429463e+001	1.475642e+002
1.095016e+007	-3.648030e+001	-1.794195e+002	-3.062967e+001	-2.402177e+001	-9.440067e+001	9.596155e+001	-3.429755e+001	1.475757e+002
1.095017e+007	-3.647224e+001	-1.794319e+002	-3.063276e+001	-2.401086e+001	-9.587845e+001	1.014582e+002	-3.429570e+001	1.475897e+002
1.095018e+007	-3.648112e+001	-1.795563e+002	-3.063214e+001	-2.406203e+001	-9.468348e+001	9.317122e+001	-3.429089e+001	1.476548e+002
1.095019e+007	-3.645566e+001	-1.795217e+002	-3.064028e+001	-2.414076e+001	-9.827219e+001	1.232711e+002	-3.429502e+001	1.476903e+002
1.095020e+007	-3.648461e+001	-1.794719e+002	-3.064830e+001	-2.409043e+001	-9.729389e+001	9.647472e+001	-3.430225e+001	1.476014e+002
1.095020e+007	-3.648400e+001	-1.794905e+002	-3.066834e+001	-2.421773e+001	-9.410314e+001	8.855670e+001	-3.430342e+001	1.477041e+002
1.095021e+007	-3.648023e+001	-1.794837e+002	-3.067555e+001	-2.414530e+001	-9.821790e+001	1.135453e+002	-3.430507e+001	1.477044e+002
1.095022e+007	-3.647930e+001	-1.795481e+002	-3.068416e+001	-2.412518e+001	-9.531553e+001	1.269595e+002	-3.428839e+001	1.477055e+002
1.095023e+007	-3.646375e+001	-1.794120e+002	-3.069460e+001	-2.404189e+001	-9.936803e+001	9.869493e+001	-3.430785e+001	1.477727e+002
1.095023e+007	-3.646668e+001	-1.793982e+002	-3.067823e+001	-2.391703e+001	-9.695296e+001	9.523344e+001	-3.428206e+001	1.477171e+002
1.095024e+007	-3.646649e+001	-1.795874e+002	-3.066862e+001	-2.380079e+001	-9.629066e+001	1.047876e+002	-3.429167e+001	1.476715e+002
1.095025e+007	-3.646725e+001	-1.794578e+002	-3.065982e+001	-2.379247e+001	-9.586926e+001	1.056707e+002	-3.428590e+001	1.476643e+002
1.095026e+007	-3.646125e+001	-1.794932e+002	-3.064907e+001	-2.379066e+001	-9.674843e+001	1.035151e+002	-3.428133e+001	1.476302e+002
1.095027e+007	-3.644827e+001	-1.794708e+002	-3.062866e+001	-2.385137e+001	-9.577477e+001	9.361540e+001	-3.428818e+001	1.476351e+002
1.095027e+007	-3.646200e+001	-1.796004e+002	-3.062426e+001	-2.400624e+001	-1.007307e+002	9.652330e+001	-3.430882e+001	1.476689e+002
1.095028e+007	-3.646673e+001	-1.795141e+002	-3.063693e+001	-2.412853e+001	-9.476521e+001	7.302678e+001	-3.429641e+001	1.476024e+002
1.095029e+007	-3.647939e+001	-1.794343e+002	-3.065804e+001	-2.408465e+001	-9.560978e+001	1.011232e+002	-3.428704e+001	1.476912e+002
1.095030e+007	-3.644604e+001	-1.794716e+002	-3.067078e+001	-2.400539e+001	-9.704193e+001	1.078373e+002	-3.428951e+001	1.477307e+002
1.095030e+007	-3.648080e+001	-1.795686e+002	-3.067744e+001	-2.384462e+001	-9.728951e+001	1.055624e+002	-3.429369e+001	1.476785e+002
1.095031e+007	-3.645714e+001	-1.795868e+002	-3.065160e+001	-2.378989e+001	-9.939132e+001	1.090035e+002	-3.428270e+001	1.476050e+002
1.095032e+007	-3.647933e+001	-1.795332e+002	-3.063520e+001	-2.391210e+001	-9.515228e+001	1.001379e+002	-3.427582e+001	1.475531e+002
1.095033e+007	-3.644682e+001	-1.795586e+002	-3.062810e+001	-2.402126e+001	-9.560586e+001	1.045783e+002	-3.428182e+001	1.476021e+002
1.095034e+007	-3.645394e+001	-1.795087e+002	-3.064632e+001	-2.403943e+001	-9.273973e+001	9.398785e+001	-3.429215e+001	1.476676e+002
1.095034e+007	-3.646796e+001	-1.794789e+002	-3.066312e+001	-2.391431e+001	-1.036532e+002	9.420541e+001	-3.427695e+001	1.476787e+002
1.095035e+007	-3.647952e+001	-1.795332e+002	-3.066031e+001	-2.382630e+001	-9.595222e+001	1.101202e+002	-3.428289e+001	1.477240e+002
1.095036e+007	-3.645667e+001	-1.795296e+002	-3.064062e+001	-2.384524e+001	-9.709413e+001	9.282332e+001	-3.428217e+001	1.475661e+002
1.095037e+007	-3.645674e+001	-1.794335e+002	-3.063797e+001	-2.394351e+001	-9.598133e+001	9.164976e+001	-3.429126e+001	1.475833e+002
1.095038e+007	-3.645400e+001	-1.795123e+002	-3.065146e+001	-2.402840e+001	-9.863597e+001	1.151506e+002	-3.428381e+001	1.476310e+002
1.095038e+007	-3.644811e+001	-1.795507e+002	-3.066266e+001	-2.388484e+001	-9.733285e+001	1.000187e+002	-3.427582e+001	1.476919e+002
1.095039e+007	-3.646458e+001	-1.795637e+002	-3.065925e+001	-2.380663e+001	-9.437767e+001	1.048408e+002	-3.428192e+001	1.476066e+002
1.095040e+007	-3.647435e+001	-1.794266e+002	-3.064075e+001	-2.384354e+001	-9.884241e+001	1.120225e+002	-3.428690e+001	1.476194e+002
1.095041e+007	-3.646410e+001	-1.795423e+002	-3.064329e+001	-2.401241e+001	-9.552346e+001	1.000143e+002	-3.428431e+001	1.476328e+002
1.095041e+007	-3.646907e+001	-1.795765e+002	-3.064909e+001	-2.390108e+001	-9.625485e+001	1.225571e+002	-3.429072e+001	1.476766e+002
1.095042e+007	-3.646967e+001	-1.794380e+002	-3.065587e+001	-2.390770e+001	-9.634773e+001	1.025073e+002	-3.428728e+001	1.476770e+002
1.095043e+007	-3.647872e+001	-1.794154e+002	-3.064649e+001	-2.391525e+001	-9.518241e+001	9.978756e+001	-3.428139e+001	1.476565e+002
1.095044e+007	-3.646524e+001	-1.794737e+002	-3.064574e+001	-2.393953e+001	-9.876263e+001	9.232625e+001	-3.427503e+001	1.476470e+002
1.095045e+007	-3.647513e+001	-1.794899e+002	-3.065330e+001	-2.394477e+001	-9.585375e+001	1.038598e+002	-3.429444e+001	1.477166e+002
1.095045e+007	-3.645719e+001	-1.794590e+002	-3.065757e+001	-2.392915e+001	-9.370026e+001	9.780421e+001	-3.428849e+001	1.476677e+002
1.095046e+007	-3.645304e+001	-1.795264e+002	-3.063158e+001	-2.389301e+001	-9.543180e+001	9.003189e+001	-3.428468e+001	1.477225e+002
1.095047e+007	-3.646743e+001	-1.794133e+002	-3.064877e+001	-2.395709e+001	-9.856923e+001	9.281434e+001	-3.430211e+001	1.476362e+002
1.095048e+007	-3.647378e+001	-1.794652e+002	-3.064546e+001	-2.384447e+001	-9.971369e+001	9.824127e+001	-3.429827e+001	1.477068e+002
1.095048e+007	-3.646288e+001	-1.794868e+002	-3.064388e+001	-2.388354e+001	-9.537866e+001	8.550991e+001	-3.427737e+001	1.477346e+002
1.095049e+007	-3.646522e+001	-1.795347e+002	-3.064216e+001	-2.394729e+001	-9.341661e+001	9.995274e+001	-3.429280e+001	1.476243e+002
1.095050e+007	-3.647424e+001	-1.795186e+002	-3.064889e+001	-2.393874e+001	-9.505238e+001	1.072521e+002	-3.429606e+001	1.476577e+002
1.095051e+007	-3.646129e+001	-1.794893e+002	-3.064723e+001	-2.391861e+001	-9.688108e+001	1.168904e+002	-3.428320e+001	1.476588e+002
1.095052e+007	-3.645789e+001	-1.794569e+002	-3.064684e+001	-2.393206e+001	-9.677553e+001	1.077776e+002	-3.428515e+001	1.476858e+002
1.095052e+007	-3.646319e+001	-1.795702e+002	-3.064424e+001	-2.392744e+001	-9.487983e+001	8.174707e+001	-3.428848e+001	1.475678e+002
1.095053e+007	-3.646828e+001	-1.795036e+002	-3.064387e+001	-2.391398e+001	-9.705725e+001	1.214069e+002	-3.429426e+001	1.476519e+002
1.095054e+007	-3.645259e+001	-1.795118e+002	-3.064316e+001	-2.395482e+001	-9.859190e+001	5.844797e+001	-3.428260e+001	1.476901e+002
1.095055e+007	-3.647593e+001	-1.795297e+002	-3.065593e+001	-2.394733e+001	-9.760625e+001	1.047892e+002	-3.429553e+001	1.476577e+002
1.095055e+007	-3.647978e+001	-1.795191e+002	-3.064306e+001	-2.392455e+001	-1.041452e+002	9.577512e+001	-3.428457e+001	1.477779e+002
1.095056e+007	-3.647165e+001	-1.794562e+002	-3.063654e+001	-2.392400e+001	-9.687981e+001	9.013476e+001	-3.428467e+001	1.476354e+002
1.095057e+007	-3.646666e+001	-1.795197e+002	-3.065580e+001	-2.393640e+001	-9.765261e+001	8.387702e+001	-3.428899e+001	1.477694e+002
1.095058e+007	-3.645375e+001	-1.794937e+002	-3.063412e+001	-2.386003e+001	-9.699293e+001	9.586146e+001	-3.428877e+001	1.475855e+002
1.095059e+007	-3.647890e+001	-1.794076e+002	-3.064957e+001	-2.394543e+001	-9.517152e+001	1.034732e+002	-3.428646e+001	1.476191e+002
1.095059e+007	-3.646780e+001	-1.793490e+002	-3.064213e+001	-2.389457e+001	-9.934290e+001	1.050828e+002	-3.429037e+001	1.476123e+002
1.095060e+007	-3.645852e+001	-1.794874e+002	-3.064408e+001	-2.392292e+001	-9.668064e+001	1.111454e+002	-3.428975e+001	1.475537e+002
1.095061e+007	-3.646211e+001	-1.794826e+002	-3.064362e+001	-2.394652e+001	-9.570655e+001	7.039501e+001	-3.428642e+001	1.475691e+002
1.095062e+007	-3.647694e+001	-1.794603e+002	-3.062974e+001	-2.399127e+001	-9.821968e+001	1.058219e+002	-3.427753e+001	1.476823e+002
1.095063e+007	-3.646338e+001	-1.794760e+002	-3.064501e+001	-2.391591e+001	-9.513012e+001	9.274484e+001	-3.428286e+001	1.475982e+002
1.095063e+007	-3.647844e+001	-1.796159e+002	-3.062982e+001	-2.393029e+001	-9.668284e+001	1.111711e+002	-3.428677e+001	1.477132e+002
1.095064e+007	-3.646339e+001	-1.795319e+002	-3.064529e+001	-2.394594e+001	-9.647157e+001	7.006716e+001	-3.428472e+001	1.476180e+002
1.095065e+007	-3.646337e+001	-1.794406e+002	-3.064948e+001	-2.391541e+001	-9.560850e+001	7.696954e+001	-3.429542e+001	1.476444e+002
1.095066e+007	-3.646700e+001	-1.794544e+002	-3.064569e+001	-2.400850e+001	-9.532869e+001	7.386137e+001	-3.429160e+001	1.476157e+002
1.095066e+007	-3.647920e+001	-1.794575e+002	-3.063841e+001	-2.386960e+001	-9.780800e+001	7.841272e+001	-3.428781e+001	1.476702e+002
1.095067e+007	-3.645019e+001	-1.794819e+002	-3.064941e+001	-2.399220e+001	-9.738315e+001	9.006908e+001	-3.430107e+001	1.476452e+002
1.095068e+007	-3.647304e+001	-1.793733e+002	-3.062970e+001	-2.385529e+001	-9.780118e+001	9.962110e+001	-3.428897e+001	1.476423e+002
1.095069e+007	-3.647806e+001	-1.795158e+002	-3.064694e+001	-2.395122e+001	-9.710753e+001	9.483717e+001	-3.430223e+001	1.476876e+002
1.095070e+007	-3.646683e+001	-1.795233e+002	-3.062636e+001	-2.389456e+001	-9.700831e+001	9.941352e+001	-3.429327e+001	1.476886e+002
1.095070e+007	-3.647201e+001	-1.795426e+002	-3.065452e+001	-2.393892e+001	-9.870175e+001	1.122016e+002	-3.429347e+001	1.476902e+002
1.095071e+007	-3.647531e+001	-1.795568e+002	-3.063911e+001	-2.388261e+001	-9.823102e+001	1.116419e+002	-3.428951e+001	1.476138e+002
1.095072e+007	-3.647938e+001	-1.794757e+002	-3.065679e+001	-2.383472e+001	-9.670467e+001	1.005014e+002	-3.429875e+001	1.476619e+002
1.095073e+007	-3.646139e+001	-1.795301e+002	-3.062483e+001	-2.395175e+001	-9.924648e+001	1.015595e+002	-3.429240e+001	1.476614e+002
1.095073e+007	-3.648339e+001	-1.794771e+002	-3.065408e+001	-2.384336e+001	-9.609540e+001	8.921384e+001	-3.427825e+001	1.476942e+002
1.095074e+007	-3.647125e+001	-1.795150e+002	-3.064214e+001	-2.400847e+001	-9.462403e+001	8.726731e+001	-3.429139e+001	1.476054e+002
1.095075e+007	-3.646634e+001	-1.796245e+002	-3.064067e+001	-2.388679e+001	-9.534332e+001	1.011511e+002	-3.429058e+001	1.476831e+002
1.095076e+007	-3.647887e+001	-1.795480e+002	-3.065382e+001	-2.394059e+001	-9.311955e+001	9.788835e+001	-3.427138e+001	1.476053e+002
1.095077e+007	-3.647118e+001	-1.794651e+002	-3.063375e+001	-2.385644e+001	-9.853700e+001	6.303054e+001	-3.427823e+001	1.477513e+002
1.095077e+007	-3.646124e+001	-1.794585e+002	-3.065405e+001	-2.394409e+001	-9.385247e+001	1.124303e+002	-3.427962e+001	1.477074e+002
1.095078e+007	-3.646474e+001	-1.794939e+002	-3.062519e+001	-2.399084e+001	-1.028656e+002	8.218433e+001	-3.428904e+001	1.476453e+002
1.095079e+007	-3.647690e+001	-1.793460e+002	-3.064623e+001	-2.383035e+001	-9.638086e+001	1.052496e+002	-3.428163e+001	1.476764e+002
1.095080e+007	-3.646704e+001	-1.794839e+002	-3.064134e+001	-2.404351e+001	-9.596603e+001	9.576223e+001	-3.428006e+001	1.476790e+002
1.095080e+007	-3.646454e+001	-1.795490e+002	-3.061955e+001	-2.386255e+001	-9.483314e+001	1.010724e+002	-3.427902e+001	1.476285e+002
1.095081e+007	-3.648151e+001	-1.794927e+002	-3.065155e+001	-2.389453e+001	-9.474719e+001	9.731181e+001	-3.429920e+001	1.476998e+002
1.095082e+007	-3.646213e+001	-1.795480e+002	-3.062913e+001	-2.402927e+001	-9.761349e+001	8.878512e+001	-3.429781e+001	1.475579e+002
1.095083e+007	-3.648021e+001	-1.795744e+002	-3.062774e+001	-2.386603e+001	-9.614707e+001	1.147085e+002	-3.428673e+001	1.477353e+002
1.095084e+007	-3.646772e+001	-1.794832e+002	-3.065657e+001	-2.394219e+001	-9.790320e+001	9.271419e+001	-3.429220e+001	1.477250e+002
1.095084e+007	-3.646934e+001	-1.794730e+002	-3.062996e+001	-2.400123e+001	-9.558556e+001	9.907727e+001	-3.427930e+001	1.476666e+002
1.095085e+007	-3.646027e+001	-1.795191e+002	-3.062588e+001	-2.383691e+001	-9.359511e+001	9.561762e+001	-3.427836e+001	1.476444e+002
1.095086e+007	-3.645633e+001	-1.794107e+002	-3.064743e+001	-2.399238e+001	-9.645391e+001	9.086055e+001	-3.428865e+001	1.476821e+002
1.095087e+007	-3.645337e+001	-1.795541e+002	-3.062234e+001	-2.399816e+001	-9.991441e+001	9.263752e+001	-3.429535e+001	1.475962e+002
1.095088e+007	-3.647573e+001	-1.794669e+002	-3.063076e+001	-2.387631e+001	-9.952702e+001	8.860444e+001	-3.428678e+001	1.477162e+002
1.095088e+007	-3.645107e+001	-1.795377e+002	-3.066022e+001	-2.387402e+001	-1.000583e+002	1.197758e+002	-3.428080e+001	1.476212e+002
1.095089e+007	-3.647139e+001	-1.795230e+002	-3.063439e+001	-2.400286e+001	-9.637535e+001	1.020495e+002	-3.428909e+001	1.476442e+002
1.095090e+007	-3.645535e+001	-1.795579e+002	-3.062878e+001	-2.389732e+001	-9.838831e+001	1.237179e+002	-3.427782e+001	1.476788e+002
1.095091e+007	-3.647143e+001	-1.796562e+002	-3.065305e+001	-2.389552e+001	-9.379375e+001	1.038996e+002	-3.429224e+001	1.477163e+002
1.095091e+007	-3.646527e+001	-1.795420e+002	-3.065717e+001	-2.393191e+001	-9.710055e+001	8.634060e+001	-3.429238e+001	1.476722e+002
1.095092e+007	-3.646395e+001	-1.794844e+002	-3.062612e+001	-2.400338e+001	-9.575838e+001	7.503525e+001	-3.429391e+001	1.476479e+002
1.095093e+007	-3.645134e+001	-1.796039e+002	-3.062165e+001	-2.390617e+001	-9.730289e+001	1.042683e+002	-3.427667e+001	1.476542e+002
1.095094e+007	-3.645419e+001	-1.794805e+002	-3.065249e+001	-2.389759e+001	-9.376867e+001	9.385894e+001	-3.429070e+001	1.477134e+002
1.095095e+007	-3.645907e+001	-1.794530e+002	-3.064389e+001	-2.395295e+001	-1.029212e+002	1.039296e+002	-3.429037e+001	1.476823e+002
1.095095e+007	-3.647577e+001	-1.794821e+002	-3.063873e+001	-2.399396e+001	-9.681095e+001	8.126763e+001	-3.428864e+001	1.476580e+002
1.095096e+007	-3.645150e+001	-1.793617e+002	-3.063143e+001	-2.384471e+001	-9.724982e+001	9.879533e+001	-3.427857e+001	1.476466e+002
1.095097e+007	-3.646150e+001	-1.794637e+002	-3.063607e+001	-2.383863e+001	-9.737676e+001	1.071995e+002	-3.428801e+001	1.476915e+002
1.095098e+007	-3.647204e+001	-1.795130e+002	-3.064101e+001	-2.388956e+001	-9.968313e+001	8.190565e+001	-3.429473e+001	1.476574e+002
1.095098e+007	-3.647377e+001	-1.795643e+002	-3.063757e+001	-2.404449e+001	-9.884811e+001	9.871370e+001	-3.428953e+001	1.476196e+002
1.095099e+007	-3.646906e+001	-1.796812e+002	-3.062166e+001	-2.397467e+001	-9.552192e+001	9.936888e+001	-3.427945e+001	1.475920e+002
1.095100e+007	-3.646346e+001	-1.795875e+002	-3.063175e+001	-2.385365e+001	-9.867763e+001	8.381098e+001	-3.427530e+001	1.476797e+002
1.095101e+007	-3.645947e+001	-1.794084e+002	-3.064491e+001	-2.383276e+001	-9.692249e+001	8.318649e+001	-3.428351e+001	1.475634e+002
1.095102e+007	-3.647074e+001	-1.795337e+002	-3.065946e+001	-2.392886e+001	-9.824545e+001	8.480143e+001	-3.429592e+001	1.476853e+002
1.095102e+007	-3.646513e+001	-1.794844e+002	-3.063525e+001	-2.397678e+001	-9.629152e+001	1.241323e+002	-3.429133e+001	1.476109e+002
1.095103e+007	-3.647074e+001	-1.794111e+002	-3.062235e+001	-2.398266e+001	-9.903663e+001	9.162093e+001	-3.428655e+001	1.476176e+002
1.095104e+007	-3.645830e+001	-1.795510e+002	-3.062195e+001	-2.386212e+001	-9.714203e+001	8.981942e+001	-3.428903e+001	1.476368e+002
1.095105e+007	-3.647130e+001	-1.795408e+002	-3.062465e+001	-2.392650e+001	-9.462726e+001	9.947797e+001	-3.427872e+001	1.476462e+002
1.095105e+007	-3.646304e+001	-1.794629e+002	-3.064329e+001	-2.382972e+001	-9.499092e+001	1.123094e+002	-3.427362e+001	1.477666e+002
1.095106e+007	-3.647949e+001	-1.794262e+002	-3.064789e+001	-2.383185e+001	-9.664646e+001	1.049182e+002	-3.428749e+001	1.476513e+002
1.095107e+007	-3.648112e+001	-1.795963e+002	-3.064549e+001	-2.389862e+001	-9.637860e+001	9.107906e+001	-3.429713e+001	1.476102e+002
1.095108e+007	-3.647532e+001	-1.794665e+002	-3.064665e+001	-2.399988e+001	-9.476329e+001	9.811615e+001	-3.429411e+001	1.476757e+002
1.095109e+007	-3.646549e+001	-1.795270e+002	-3.062433e+001	-2.404959e+001	-9.696318e+001	1.195710e+002	-3.428325e+001	1.476633e+002
1.095109e+007	-3.648356e+001	-1.794253e+002	-3.061418e+001	-2.389193e+001	-9.708466e+001	8.909229e+001	-3.427492e+001	1.476938e+002
1.095110e+007	-3.646548e+001	-1.794828e+002	-3.062645e+001	-2.392609e+001	-9.462572e+001	9.514231e+001	-3.429520e+001	1.477107e+002
1.095111e+007	-3.647482e+001	-1.794680e+002	-3.062245e+001	-2.399427e+001	-9.639046e+001	9.138582e+001	-3.429060e+001	1.476534e+002
1.095112e+007	-3.647859e+001	-1.794504e+002	-3.062184e+001	-2.385074e+001	-9.687856e+001	1.124118e+002	-3.429244e+001	1.477296e+002
1.095113e+007	-3.648462e+001	-1.794700e+002	-3.063136e+001	-2.384429e+001	-9.687911e+001	1.038195e+002	-3.429371e+001	1.476989e+002
1.095113e+007	-3.646667e+001	-1.794128e+002	-3.063154e+001	-2.389306e+001	-9.580488e+001	9.763662e+001	-3.428572e+001	1.476847e+002
1.095114e+007	-3.645920e+001	-1.794305e+002	-3.062619e+001	-2.391821e+001	-9.755552e+001	8.259830e+001	-3.429464e+001	1.476844e+002
1.095115e+007	-3.646990e+001	-1.794604e+002	-3.063367e+001	-2.395473e+001	-9.725865e+001	1.095849e+002	-3.428012e+001	1.476618e+002
1.095116e+007	-3.646820e+001	-1.795860e+002	-3.063533e+001	-2.391563e+001	-9.784954e+001	1.210642e+002	-3.428915e+001	1.476722e+002
