# Hz S dB R 50.000
3.288594e+06	-2.644639e+01	1.725939e+02	-3.113691e+01	-3.626024e+00	-8.876608e+01	1.058467e+00	-2.648137e+01	1.668566e+02
3.288625e+06	-2.644483e+01	1.725921e+02	-3.113812e+01	-3.638890e+00	-8.844589e+01	-1.189793e+01	-2.648226e+01	1.668556e+02
3.288656e+06	-2.644328e+01	1.725904e+02	-3.113933e+01	-3.651760e+00	-8.775718e+01	-2.341281e+01	-2.648314e+01	1.668546e+02
3.288688e+06	-2.644172e+01	1.725886e+02	-3.114054e+01	-3.664634e+00	-8.684883e+01	-3.297366e+01	-2.648403e+01	1.668537e+02
3.288719e+06	-2.644016e+01	1.725868e+02	-3.114175e+01	-3.677511e+00	-8.585032e+01	-4.063724e+01	-2.648492e+01	1.668527e+02
3.288750e+06	-2.643864e+01	1.725851e+02	-3.114295e+01	-3.690207e+00	-8.486896e+01	-4.661771e+01	-2.648580e+01	1.668516e+02
3.288782e+06	-2.644061e+01	1.725906e+02	-3.114280e+01	-3.680013e+00	-8.724926e+01	-3.779237e+01	-2.648592e+01	1.668443e+02
3.288813e+06	-2.644259e+01	1.725960e+02	-3.114266e+01	-3.669818e+00	-8.999716e+01	-2.171795e+01	-2.648603e+01	1.668370e+02
3.288844e+06	-2.644457e+01	1.726015e+02	-3.114251e+01	-3.659624e+00	-9.215236e+01	7.420217e+00	-2.648615e+01	1.668297e+02
3.288875e+06	-2.644654e+01	1.726069e+02	-3.114236e+01	-3.649430e+00	-9.148972e+01	4.274475e+01	-2.648627e+01	1.668224e+02
3.288906e+06	-2.644847e+01	1.726124e+02	-3.114225e+01	-3.639472e+00	-8.892069e+01	6.573427e+01	-2.648638e+01	1.668153e+02
3.288938e+06	-2.644732e+01	1.726175e+02	-3.114405e+01	-3.643963e+00	-9.038730e+01	6.275100e+01	-2.648636e+01	1.668198e+02
3.288969e+06	-2.644616e+01	1.726226e+02	-3.114585e+01	-3.648456e+00	-9.211123e+01	5.844144e+01	-2.648634e+01	1.668243e+02
3.289000e+06	-2.644501e+01	1.726277e+02	-3.114765e+01	-3.652951e+00	-9.416699e+01	5.177354e+01	-2.648632e+01	1.668288e+02
3.289032e+06	-2.644385e+01	1.726328e+02	-3.114945e+01	-3.657447e+00	-9.659666e+01	4.055182e+01	-2.648630e+01	1.668333e+02
3.289063e+06	-2.644270e+01	1.726379e+02	-3.115126e+01	-3.661946e+00	-9.911632e+01	2.042791e+01	-2.648628e+01	1.668379e+02
3.289094e+06	-2.644273e+01	1.726360e+02	-3.114806e+01	-3.671350e+00	-9.861617e+01	1.835348e+01	-2.648768e+01	1.668472e+02
3.289125e+06	-2.644278e+01	1.726340e+02	-3.114482e+01	-3.680786e+00	-9.811585e+01	1.668304e+01	-2.648909e+01	1.668566e+02
3.289156e+06	-2.644282e+01	1.726320e+02	-3.114159e+01	-3.690215e+00	-9.763654e+01	1.519080e+01	-2.649050e+01	1.668659e+02
3.289188e+06	-2.644287e+01	1.726301e+02	-3.113835e+01	-3.699637e+00	-9.717729e+01	1.385143e+01	-2.649191e+01	1.668753e+02
3.289219e+06	-2.644291e+01	1.726281e+02	-3.113512e+01	-3.709052e+00	-9.673703e+01	1.264385e+01	-2.649332e+01	1.668847e+02
3.289250e+06	-2.644213e+01	1.726315e+02	-3.113519e+01	-3.708494e+00	-9.683567e+01	3.617190e+01	-2.649163e+01	1.668766e+02
3.289282e+06	-2.644136e+01	1.726348e+02	-3.113526e+01	-3.707936e+00	-9.565094e+01	5.679854e+01	-2.648994e+01	1.668684e+02
3.289313e+06	-2.644058e+01	1.726382e+02	-3.113534e+01	-3.707378e+00	-9.390457e+01	7.135767e+01	-2.648825e+01	1.668603e+02
3.289344e+06	-2.643981e+01	1.726416e+02	-3.113541e+01	-3.706820e+00	-9.213644e+01	8.101338e+01	-2.648656e+01	1.668522e+02
3.289375e+06	-2.643905e+01	1.726448e+02	-3.113549e+01	-3.706136e+00	-9.056126e+01	8.741574e+01	-2.648489e+01	1.668441e+02
3.289406e+06	-2.644057e+01	1.726360e+02	-3.113651e+01	-3.689937e+00	-9.356426e+01	7.263383e+01	-2.648537e+01	1.668412e+02
3.289438e+06	-2.644208e+01	1.726273e+02	-3.113754e+01	-3.673734e+00	-9.630841e+01	4.299924e+01	-2.648585e+01	1.668383e+02
3.289469e+06	-2.644360e+01	1.726185e+02	-3.113857e+01	-3.657527e+00	-9.584513e+01	2.986760e+00	-2.648632e+01	1.668355e+02
3.289500e+06	-2.644512e+01	1.726097e+02	-3.113959e+01	-3.641316e+00	-9.284717e+01	-2.258469e+01	-2.648680e+01	1.668326e+02
3.289532e+06	-2.644658e+01	1.726011e+02	-3.114059e+01	-3.625366e+00	-9.002553e+01	-3.512281e+01	-2.648726e+01	1.668298e+02
3.289563e+06	-2.644498e+01	1.726050e+02	-3.114012e+01	-3.625654e+00	-9.204522e+01	-3.732200e+01	-2.648635e+01	1.668281e+02
3.289594e+06	-2.644337e+01	1.726090e+02	-3.113964e+01	-3.625943e+00	-9.465200e+01	-4.106992e+01	-2.648545e+01	1.668264e+02
3.289625e+06	-2.644177e+01	1.726130e+02	-3.113917e+01	-3.626232e+00	-9.827684e+01	-4.876776e+01	-2.648454e+01	1.668248e+02
3.289656e+06	-2.644017e+01	1.726169e+02	-3.113869e+01	-3.626520e+00	-1.036959e+02	-7.106624e+01	-2.648364e+01	1.668231e+02
3.289688e+06	-2.643856e+01	1.726209e+02	-3.113821e+01	-3.626809e+00	-1.060908e+02	-1.399557e+02	-2.648274e+01	1.668214e+02
3.289719e+06	-2.643954e+01	1.726210e+02	-3.113783e+01	-3.640527e+00	-1.026910e+02	7.753079e+01	-2.648336e+01	1.668239e+02
3.289750e+06	-2.644054e+01	1.726212e+02	-3.113744e+01	-3.654352e+00	-9.445269e+01	6.812696e+01	-2.648399e+01	1.668264e+02
3.289782e+06	-2.644155e+01	1.726213e+02	-3.113705e+01	-3.668176e+00	-9.026716e+01	6.588685e+01	-2.648462e+01	1.668289e+02
3.289813e+06	-2.644255e+01	1.726215e+02	-3.113666e+01	-3.681999e+00	-8.745034e+01	6.488671e+01	-2.648526e+01	1.668314e+02
3.289844e+06	-2.644355e+01	1.726216e+02	-3.113627e+01	-3.695821e+00	-8.532558e+01	6.432051e+01	-2.648589e+01	1.668339e+02
3.289875e+06	-2.644261e+01	1.726241e+02	-3.113863e+01	-3.682418e+00	-8.719408e+01	6.678637e+01	-2.648611e+01	1.668322e+02
3.289906e+06	-2.644166e+01	1.726267e+02	-3.114099e+01	-3.669008e+00	-8.954352e+01	7.079582e+01	-2.648634e+01	1.668305e+02
3.289938e+06	-2.644072e+01	1.726292e+02	-3.114334e+01	-3.655590e+00	-9.265848e+01	7.833292e+01	-2.648656e+01	1.668289e+02
3.289969e+06	-2.643978e+01	1.726318e+02	-3.114570e+01	-3.642166e+00	-9.694347e+01	9.624072e+01	-2.648679e+01	1.668272e+02
3.290000e+06	-2.643884e+01	1.726342e+02	-3.114803e+01	-3.628891e+00	-1.004648e+02	1.443787e+02	-2.648701e+01	1.668255e+02
3.290032e+06	-2.643938e+01	1.726262e+02	-3.114722e+01	-3.635123e+00	-1.067016e+02	1.175809e+02	-2.648660e+01	1.668286e+02
3.290063e+06	-2.643992e+01	1.726183e+02	-3.114640e+01	-3.641354e+00	-1.072402e+02	3.798826e+01	-2.648620e+01	1.668317e+02
3.290094e+06	-2.644046e+01	1.726103e+02	-3.114559e+01	-3.647584e+00	-1.008421e+02	7.923494e+00	-2.648580e+01	1.668348e+02
3.290125e+06	-2.644100e+01	1.726023e+02	-3.114477e+01	-3.653812e+00	-9.673960e+01	-6.774351e-01	-2.648540e+01	1.668379e+02
3.290156e+06	-2.644152e+01	1.725945e+02	-3.114394e+01	-3.660089e+00	-9.395304e+01	-4.300547e+00	-2.648502e+01	1.668410e+02
3.290188e+06	-2.644097e+01	1.726025e+02	-3.114209e+01	-3.669395e+00	-9.461091e+01	8.532621e+00	-2.648599e+01	1.668418e+02
3.290219e+06	-2.644042e+01	1.726105e+02	-3.114024e+01	-3.678698e+00	-9.480359e+01	2.271229e+01	-2.648697e+01	1.668426e+02
3.290250e+06	-2.643987e+01	1.726185e+02	-3.113839e+01	-3.687996e+00	-9.446836e+01	3.665642e+01	-2.648794e+01	1.668435e+02
3.290282e+06	-2.643932e+01	1.726265e+02	-3.113654e+01	-3.697290e+00	-9.371083e+01	4.892465e+01	-2.648892e+01	1.668443e+02
3.290313e+06	-2.643877e+01	1.726344e+02	-3.113469e+01	-3.706581e+00	-9.271495e+01	5.892453e+01	-2.648989e+01	1.668451e+02
3.290344e+06	-2.643959e+01	1.726350e+02	-3.113516e+01	-3.707823e+00	-9.281120e+01	5.678057e+01	-2.648896e+01	1.668529e+02
3.290375e+06	-2.644042e+01	1.726356e+02	-3.113565e+01	-3.709000e+00	-9.290446e+01	5.449634e+01	-2.648802e+01	1.668608e+02
3.290406e+06	-2.644125e+01	1.726361e+02	-3.113614e+01	-3.710177e+00	-9.298449e+01	5.216606e+01	-2.648707e+01	1.668687e+02
3.290438e+06	-2.644207e+01	1.726367e+02	-3.113663e+01	-3.711354e+00	-9.305052e+01	4.979624e+01	-2.648613e+01	1.668766e+02
3.290469e+06	-2.644290e+01	1.726372e+02	-3.113712e+01	-3.712532e+00	-9.310188e+01	4.739415e+01	-2.648518e+01	1.668845e+02
3.290500e+06	-2.644251e+01	1.726364e+02	-3.113648e+01	-3.698633e+00	-9.379278e+01	5.282501e+01	-2.648630e+01	1.668728e+02
3.290532e+06	-2.644211e+01	1.726355e+02	-3.113584e+01	-3.684736e+00	-9.444420e+01	5.916694e+01	-2.648742e+01	1.668612e+02
3.290563e+06	-2.644172e+01	1.726347e+02	-3.113519e+01	-3.670841e+00	-9.501574e+01	6.647260e+01	-2.648855e+01	1.668495e+02
3.290594e+06	-2.644132e+01	1.726338e+02	-3.113455e+01	-3.656949e+00	-9.545753e+01	7.468819e+01	-2.648967e+01	1.668379e+02
3.290625e+06	-2.644093e+01	1.726330e+02	-3.113390e+01	-3.643212e+00	-9.574747e+01	8.337209e+01	-2.649078e+01	1.668264e+02
3.290656e+06	-2.644077e+01	1.726363e+02	-3.113263e+01	-3.648569e+00	-9.925481e+01	5.243380e+01	-2.649069e+01	1.668404e+02
3.290688e+06	-2.644060e+01	1.726395e+02	-3.113136e+01	-3.653925e+00	-9.882216e+01	5.339295e+00	-2.649060e+01	1.668544e+02
3.290719e+06	-2.644044e+01	1.726427e+02	-3.113009e+01	-3.659280e+00	-9.517789e+01	-2.192446e+01	-2.649050e+01	1.668684e+02
3.290750e+06	-2.644028e+01	1.726459e+02	-3.112882e+01	-3.664632e+00	-9.196636e+01	-3.393231e+01	-2.649041e+01	1.668823e+02
3.290782e+06	-2.644012e+01	1.726492e+02	-3.112759e+01	-3.670070e+00	-8.953639e+01	-3.991594e+01	-2.649030e+01	1.668960e+02
3.290813e+06	-2.644013e+01	1.726531e+02	-3.112916e+01	-3.680804e+00	-9.109438e+01	-2.958890e+01	-2.648919e+01	1.668905e+02
3.290844e+06	-2.644014e+01	1.726571e+02	-3.113072e+01	-3.691543e+00	-9.250181e+01	-1.498031e+01	-2.648807e+01	1.668850e+02
3.290875e+06	-2.644015e+01	1.726611e+02	-3.113228e+01	-3.702285e+00	-9.330476e+01	4.003670e+00	-2.648695e+01	1.668795e+02
3.290906e+06	-2.644016e+01	1.726651e+02	-3.113384e+01	-3.713031e+00	-9.307508e+01	2.433804e+01	-2.648584e+01	1.668740e+02
3.290938e+06	-2.644017e+01	1.726691e+02	-3.113540e+01	-3.723781e+00	-9.195021e+01	4.163478e+01	-2.648472e+01	1.668685e+02
3.290969e+06	-2.643936e+01	1.726590e+02	-3.113689e+01	-3.715544e+00	-9.383254e+01	2.991038e+01	-2.648477e+01	1.668690e+02
3.291000e+06	-2.643853e+01	1.726489e+02	-3.113839e+01	-3.707152e+00	-9.553066e+01	1.167878e+01	-2.648482e+01	1.668695e+02
3.291032e+06	-2.643771e+01	1.726387e+02	-3.113989e+01	-3.698756e+00	-9.619105e+01	-1.255511e+01	-2.648488e+01	1.668699e+02
3.291063e+06	-2.643689e+01	1.726286e+02	-3.114138e+01	-3.690357e+00	-9.529699e+01	-3.610626e+01	-2.648493e+01	1.668704e+02
3.291094e+06	-2.643607e+01	1.726184e+02	-3.114288e+01	-3.681956e+00	-9.351936e+01	-5.318999e+01	-2.648499e+01	1.668709e+02
3.291125e+06	-2.643765e+01	1.726195e+02	-3.114112e+01	-3.681387e+00	-9.618014e+01	-4.810041e+01	-2.648606e+01	1.668673e+02
3.291156e+06	-2.643922e+01	1.726206e+02	-3.113936e+01	-3.680819e+00	-9.981495e+01	-3.754808e+01	-2.648714e+01	1.668638e+02
3.291188e+06	-2.644080e+01	1.726216e+02	-3.113760e+01	-3.680250e+00	-1.045834e+02	-8.740376e+00	-2.648821e+01	1.668602e+02
3.291219e+06	-2.644238e+01	1.726227e+02	-3.113584e+01	-3.679682e+00	-1.049021e+02	5.120464e+01	-2.648928e+01	1.668566e+02
3.291250e+06	-2.644393e+01	1.726238e+02	-3.113408e+01	-3.679188e+00	-1.001663e+02	8.225400e+01	-2.649033e+01	1.668531e+02
3.291282e+06	-2.644315e+01	1.726282e+02	-3.113210e+01	-3.687867e+00	-9.977429e+01	7.631172e+01	-2.648844e+01	1.668567e+02
3.291313e+06	-2.644237e+01	1.726326e+02	-3.113012e+01	-3.696542e+00	-9.931814e+01	7.092397e+01	-2.648655e+01	1.668603e+02
3.291344e+06	-2.644159e+01	1.726369e+02	-3.112814e+01	-3.705212e+00	-9.881935e+01	6.609857e+01	-2.648466e+01	1.668639e+02
3.291375e+06	-2.644081e+01	1.726413e+02	-3.112616e+01	-3.713879e+00	-9.829581e+01	6.181004e+01	-2.648277e+01	1.668675e+02
3.291406e+06	-2.644003e+01	1.726456e+02	-3.112422e+01	-3.722472e+00	-9.782710e+01	5.781696e+01	-2.648095e+01	1.668710e+02
3.291438e+06	-2.643967e+01	1.726477e+02	-3.112489e+01	-3.726780e+00	-1.015572e+02	3.241813e+01	-2.648346e+01	1.668741e+02
3.291469e+06	-2.643930e+01	1.726498e+02	-3.112556e+01	-3.731088e+00	-1.024781e+02	-1.469494e+01	-2.648597e+01	1.668771e+02
3.291500e+06	-2.643893e+01	1.726518e+02	-3.112623e+01	-3.735397e+00	-9.903517e+01	-4.792838e+01	-2.648848e+01	1.668802e+02
3.291532e+06	-2.643856e+01	1.726539e+02	-3.112690e+01	-3.739706e+00	-9.560753e+01	-6.231595e+01	-2.649099e+01	1.668832e+02
3.291563e+06	-2.643819e+01	1.726560e+02	-3.112756e+01	-3.744017e+00	-9.295230e+01	-6.940156e+01	-2.649350e+01	1.668863e+02
3.291594e+06	-2.643873e+01	1.726558e+02	-3.112797e+01	-3.737442e+00	-9.483409e+01	-6.609799e+01	-2.649273e+01	1.668875e+02
3.291625e+06	-2.643927e+01	1.726557e+02	-3.112838e+01	-3.730780e+00	-9.722788e+01	-6.056394e+01	-2.649194e+01	1.668886e+02
3.291656e+06	-2.643981e+01	1.726555e+02	-3.112878e+01	-3.724116e+00	-1.003204e+02	-5.011448e+01	-2.649115e+01	1.668898e+02
3.291688e+06	-2.644035e+01	1.726554e+02	-3.112919e+01	-3.717453e+00	-1.040645e+02	-2.663219e+01	-2.649036e+01	1.668909e+02
3.291719e+06	-2.644089e+01	1.726552e+02	-3.112959e+01	-3.710788e+00	-1.054766e+02	1.954125e+01	-2.648957e+01	1.668921e+02
3.291750e+06	-2.644053e+01	1.726488e+02	-3.112905e+01	-3.702769e+00	-1.017933e+02	-2.516864e+00	-2.648844e+01	1.668876e+02
3.291782e+06	-2.644016e+01	1.726425e+02	-3.112852e+01	-3.694750e+00	-9.877805e+01	-1.251841e+01	-2.648731e+01	1.668832e+02
3.291813e+06	-2.643980e+01	1.726361e+02	-3.112798e+01	-3.686733e+00	-9.643397e+01	-1.789530e+01	-2.648618e+01	1.668787e+02
3.291844e+06	-2.643943e+01	1.726297e+02	-3.112744e+01	-3.678716e+00	-9.455192e+01	-2.119768e+01	-2.648505e+01	1.668742e+02
3.291875e+06	-2.643907e+01	1.726235e+02	-3.112693e+01	-3.670902e+00	-9.302771e+01	-2.330693e+01	-2.648393e+01	1.668698e+02
3.291906e+06	-2.643863e+01	1.726310e+02	-3.112981e+01	-3.688037e+00	-9.673083e+01	-4.426253e+00	-2.648393e+01	1.668663e+02
3.291938e+06	-2.643820e+01	1.726385e+02	-3.113268e+01	-3.705184e+00	-9.933506e+01	3.755745e+01	-2.648393e+01	1.668629e+02
3.291969e+06	-2.643777e+01	1.726461e+02	-3.113555e+01	-3.722342e+00	-9.676165e+01	7.972469e+01	-2.648394e+01	1.668594e+02
3.292000e+06	-2.643734e+01	1.726536e+02	-3.113842e+01	-3.739511e+00	-9.305397e+01	9.873461e+01	-2.648394e+01	1.668560e+02
3.292032e+06	-2.643693e+01	1.726609e+02	-3.114120e+01	-3.756263e+00	-9.021377e+01	1.073024e+02	-2.648393e+01	1.668525e+02
3.292063e+06	-2.643836e+01	1.726559e+02	-3.113798e+01	-3.746641e+00	-9.285850e+01	1.013647e+02	-2.648355e+01	1.668470e+02
3.292094e+06	-2.643979e+01	1.726510e+02	-3.113475e+01	-3.737026e+00	-9.638538e+01	8.921167e+01	-2.648317e+01	1.668414e+02
3.292125e+06	-2.644122e+01	1.726460e+02	-3.113153e+01	-3.727418e+00	-1.005458e+02	5.854057e+01	-2.648279e+01	1.668358e+02
3.292156e+06	-2.644265e+01	1.726410e+02	-3.112831e+01	-3.717817e+00	-1.003255e+02	5.131464e+00	-2.648241e+01	1.668303e+02
3.292188e+06	-2.644408e+01	1.726360e+02	-3.112510e+01	-3.708224e+00	-9.613276e+01	-2.375511e+01	-2.648203e+01	1.668247e+02
3.292219e+06	-2.644362e+01	1.726387e+02	-3.112599e+01	-3.698892e+00	-9.986120e+01	1.681825e+01	-2.648345e+01	1.668355e+02
3.292250e+06	-2.644314e+01	1.726413e+02	-3.112693e+01	-3.689560e+00	-9.751511e+01	6.750970e+01	-2.648489e+01	1.668463e+02
3.292282e+06	-2.644266e+01	1.726440e+02	-3.112786e+01	-3.680226e+00	-9.328522e+01	8.878873e+01	-2.648633e+01	1.668572e+02
3.292313e+06	-2.644218e+01	1.726467e+02	-3.112879e+01	-3.670891e+00	-9.008948e+01	9.766806e+01	-2.648776e+01	1.668680e+02
3.292344e+06	-2.644170e+01	1.726494e+02	-3.112972e+01	-3.661553e+00	-8.767502e+01	1.023090e+02	-2.648920e+01	1.668789e+02
3.292375e+06	-2.644117e+01	1.726501e+02	-3.112889e+01	-3.670951e+00	-9.005375e+01	1.001652e+02	-2.648888e+01	1.668762e+02
3.292406e+06	-2.644065e+01	1.726508e+02	-3.112807e+01	-3.680347e+00	-9.330641e+01	9.606307e+01	-2.648855e+01	1.668735e+02
3.292438e+06	-2.644012e+01	1.726514e+02	-3.112724e+01	-3.689742e+00	-9.835418e+01	8.534291e+01	-2.648823e+01	1.668708e+02
3.292469e+06	-2.643959e+01	1.726521e+02	-3.112642e+01	-3.699134e+00	-1.060565e+02	3.150791e+01	-2.648790e+01	1.668682e+02
3.292500e+06	-2.643908e+01	1.726529e+02	-3.112562e+01	-3.708459e+00	-9.992271e+01	-4.183444e+01	-2.648757e+01	1.668656e+02
3.292532e+06	-2.643997e+01	1.726592e+02	-3.112794e+01	-3.709622e+00	-9.842402e+01	-1.026390e+01	-2.648664e+01	1.668724e+02
3.292563e+06	-2.644087e+01	1.726656e+02	-3.113026e+01	-3.710785e+00	-9.577522e+01	8.688009e+00	-2.648571e+01	1.668793e+02
3.292594e+06	-2.644177e+01	1.726720e+02	-3.113258e+01	-3.711949e+00	-9.333340e+01	1.910079e+01	-2.648478e+01	1.668862e+02
3.292625e+06	-2.644267e+01	1.726783e+02	-3.113490e+01	-3.713114e+00	-9.129242e+01	2.529348e+01	-2.648385e+01	1.668930e+02
3.292656e+06	-2.644354e+01	1.726846e+02	-3.113715e+01	-3.714132e+00	-8.964063e+01	2.941742e+01	-2.648294e+01	1.668997e+02
3.292688e+06	-2.644269e+01	1.726819e+02	-3.113468e+01	-3.706150e+00	-9.147342e+01	4.179276e+01	-2.648347e+01	1.668925e+02
3.292719e+06	-2.644184e+01	1.726793e+02	-3.113220e+01	-3.698172e+00	-9.302170e+01	6.023237e+01	-2.648401e+01	1.668853e+02
3.292750e+06	-2.644099e+01	1.726766e+02	-3.112973e+01	-3.690198e+00	-9.351190e+01	8.380883e+01	-2.648454e+01	1.668781e+02
3.292782e+06	-2.644014e+01	1.726740e+02	-3.112726e+01	-3.682229e+00	-9.257583e+01	1.061400e+02	-2.648507e+01	1.668709e+02
3.292813e+06	-2.643930e+01	1.726713e+02	-3.112479e+01	-3.674265e+00	-9.086118e+01	1.224018e+02	-2.648561e+01	1.668637e+02
3.292844e+06	-2.644017e+01	1.726663e+02	-3.112369e+01	-3.692992e+00	-9.323510e+01	1.097635e+02	-2.648569e+01	1.668689e+02
3.292875e+06	-2.644105e+01	1.726613e+02	-3.112259e+01	-3.711930e+00	-9.549042e+01	8.745785e+01	-2.648578e+01	1.668743e+02
3.292906e+06	-2.644194e+01	1.726563e+02	-3.112150e+01	-3.730862e+00	-9.603085e+01	5.587943e+01	-2.648586e+01	1.668796e+02
3.292938e+06	-2.644282e+01	1.726512e+02	-3.112041e+01	-3.749791e+00	-9.425244e+01	2.887214e+01	-2.648595e+01	1.668850e+02
3.292969e+06	-2.644371e+01	1.726462e+02	-3.111931e+01	-3.768714e+00	-9.179728e+01	1.267651e+01	-2.648603e+01	1.668903e+02
3.293000e+06	-2.644286e+01	1.726423e+02	-3.111865e+01	-3.769365e+00	-9.112908e+01	5.694218e+00	-2.648583e+01	1.668869e+02
3.293032e+06	-2.644201e+01	1.726383e+02	-3.111799e+01	-3.770015e+00	-9.040643e+01	-2.508902e-01	-2.648563e+01	1.668834e+02
3.293063e+06	-2.644116e+01	1.726344e+02	-3.111733e+01	-3.770666e+00	-8.966621e+01	-5.271916e+00	-2.648543e+01	1.668800e+02
3.293094e+06	-2.644031e+01	1.726305e+02	-3.111667e+01	-3.771316e+00	-8.893213e+01	-9.507536e+00	-2.648523e+01	1.668765e+02
3.293125e+06	-2.643947e+01	1.726267e+02	-3.111603e+01	-3.771865e+00	-8.823771e+01	-1.307671e+01	-2.648503e+01	1.668731e+02
3.293156e+06	-2.643946e+01	1.726355e+02	-3.111814e+01	-3.759911e+00	-9.018403e+01	-1.484907e+01	-2.648548e+01	1.668718e+02
3.293188e+06	-2.643945e+01	1.726443e+02	-3.112026e+01	-3.747950e+00	-9.267784e+01	-1.780491e+01	-2.648593e+01	1.668706e+02
3.293219e+06	-2.643944e+01	1.726532e+02	-3.112237e+01	-3.735984e+00	-9.612115e+01	-2.366767e+01	-2.648637e+01	1.668694e+02
3.293250e+06	-2.643943e+01	1.726620e+02	-3.112449e+01	-3.724012e+00	-1.014262e+02	-3.990785e+01	-2.648682e+01	1.668681e+02
3.293282e+06	-2.643942e+01	1.726708e+02	-3.112658e+01	-3.712326e+00	-1.064460e+02	-1.050806e+02	-2.648726e+01	1.668668e+02
3.293313e+06	-2.643950e+01	1.726760e+02	-3.112718e+01	-3.718573e+00	-1.043212e+02	-1.535844e+02	-2.648743e+01	1.668586e+02
3.293344e+06	-2.643957e+01	1.726813e+02	-3.112777e+01	-3.724821e+00	-1.002765e+02	-1.751851e+02	-2.648759e+01	1.668505e+02
3.293375e+06	-2.643965e+01	1.726865e+02	-3.112837e+01	-3.731070e+00	-9.713885e+01	1.755487e+02	-2.648775e+01	1.668423e+02
3.293406e+06	-2.643972e+01	1.726918e+02	-3.112897e+01	-3.737320e+00	-9.474672e+01	1.706616e+02	-2.648792e+01	1.668342e+02
3.293438e+06	-2.643980e+01	1.726971e+02	-3.112957e+01	-3.743571e+00	-9.284210e+01	1.676839e+02	-2.648808e+01	1.668261e+02
3.293469e+06	-2.644017e+01	1.726877e+02	-3.112895e+01	-3.736387e+00	-9.490994e+01	1.654590e+02	-2.648899e+01	1.668409e+02
3.293500e+06	-2.644054e+01	1.726782e+02	-3.112833e+01	-3.729096e+00	-9.764794e+01	1.615842e+02	-2.648990e+01	1.668560e+02
3.293532e+06	-2.644092e+01	1.726688e+02	-3.112771e+01	-3.721806e+00	-1.015337e+02	1.532543e+02	-2.649081e+01	1.668710e+02
3.293563e+06	-2.644129e+01	1.726593e+02	-3.112709e+01	-3.714517e+00	-1.074522e+02	1.266440e+02	-2.649172e+01	1.668860e+02
3.293594e+06	-2.644166e+01	1.726498e+02	-3.112647e+01	-3.707229e+00	-1.082195e+02	5.137216e+01	-2.649263e+01	1.669011e+02
3.293625e+06	-2.644090e+01	1.726493e+02	-3.112483e+01	-3.725273e+00	-1.063709e+02	3.426814e+01	-2.649033e+01	1.668942e+02
3.293656e+06	-2.644014e+01	1.726488e+02	-3.112319e+01	-3.743310e+00	-1.044310e+02	2.330706e+01	-2.648803e+01	1.668873e+02
