# Hz S dB R 50.000
3.288594e+06	-2.644037e+01	1.725609e+02	-3.113397e+01	-3.751091e+00	-8.500766e+01	-4.585644e+00	-2.645028e+01	1.668373e+02
3.288625e+06	-2.643930e+01	1.725574e+02	-3.113842e+01	-3.755941e+00	-8.709890e+01	-1.298593e+00	-2.645040e+01	1.668264e+02
3.288656e+06	-2.643823e+01	1.725538e+02	-3.114287e+01	-3.760796e+00	-8.979077e+01	4.408856e+00	-2.645052e+01	1.668154e+02
3.288688e+06	-2.643715e+01	1.725503e+02	-3.114732e+01	-3.765657e+00	-9.343179e+01	1.630742e+01	-2.645064e+01	1.668045e+02
3.288719e+06	-2.643608e+01	1.725468e+02	-3.115177e+01	-3.770522e+00	-9.786396e+01	4.779289e+01	-2.645076e+01	1.667936e+02
3.288750e+06	-2.643502e+01	1.725433e+02	-3.115616e+01	-3.775154e+00	-9.756711e+01	1.038837e+02	-2.645087e+01	1.667828e+02
3.288782e+06	-2.643500e+01	1.725415e+02	-3.115254e+01	-3.750334e+00	-1.070074e+02	1.581550e+02	-2.644945e+01	1.667895e+02
3.288813e+06	-2.643497e+01	1.725396e+02	-3.114891e+01	-3.725535e+00	-9.932446e+01	-1.182136e+02	-2.644804e+01	1.667963e+02
3.288844e+06	-2.643495e+01	1.725378e+02	-3.114528e+01	-3.700757e+00	-9.331769e+01	-1.063544e+02	-2.644662e+01	1.668031e+02
3.288875e+06	-2.643492e+01	1.725360e+02	-3.114166e+01	-3.675999e+00	-8.971863e+01	-1.024550e+02	-2.644520e+01	1.668098e+02
3.288906e+06	-2.643490e+01	1.725342e+02	-3.113810e+01	-3.652039e+00	-8.724165e+01	-1.005528e+02	-2.644382e+01	1.668165e+02
3.288938e+06	-2.643510e+01	1.725371e+02	-3.113845e+01	-3.675939e+00	-9.014727e+01	-1.000538e+02	-2.644446e+01	1.668139e+02
3.288969e+06	-2.643529e+01	1.725399e+02	-3.113880e+01	-3.699841e+00	-9.454233e+01	-9.889729e+01	-2.644510e+01	1.668112e+02
3.289000e+06	-2.643549e+01	1.725428e+02	-3.113916e+01	-3.723745e+00	-1.038281e+02	-9.330157e+01	-2.644574e+01	1.668086e+02
3.289032e+06	-2.643568e+01	1.725456e+02	-3.113951e+01	-3.747650e+00	-1.043418e+02	6.916196e+01	-2.644638e+01	1.668060e+02
3.289063e+06	-2.643588e+01	1.725485e+02	-3.113986e+01	-3.771558e+00	-9.471715e+01	7.522100e+01	-2.644702e+01	1.668034e+02
3.289094e+06	-2.643681e+01	1.725468e+02	-3.113738e+01	-3.752390e+00	-9.620352e+01	6.727358e+01	-2.644661e+01	1.668110e+02
3.289125e+06	-2.643775e+01	1.725451e+02	-3.113487e+01	-3.732887e+00	-9.778186e+01	5.574757e+01	-2.644618e+01	1.668186e+02
3.289156e+06	-2.643868e+01	1.725434e+02	-3.113237e+01	-3.713395e+00	-9.910186e+01	3.954950e+01	-2.644575e+01	1.668262e+02
3.289188e+06	-2.643962e+01	1.725417e+02	-3.112986e+01	-3.693914e+00	-9.963962e+01	1.933815e+01	-2.644533e+01	1.668338e+02
3.289219e+06	-2.644056e+01	1.725400e+02	-3.112736e+01	-3.674444e+00	-9.907677e+01	-8.123607e-01	-2.644490e+01	1.668414e+02
3.289250e+06	-2.643920e+01	1.725470e+02	-3.112928e+01	-3.694499e+00	-1.028274e+02	2.155171e+01	-2.644506e+01	1.668432e+02
3.289282e+06	-2.643784e+01	1.725539e+02	-3.113120e+01	-3.714563e+00	-1.045349e+02	6.705313e+01	-2.644523e+01	1.668451e+02
3.289313e+06	-2.643647e+01	1.725609e+02	-3.113313e+01	-3.734636e+00	-1.013772e+02	1.041809e+02	-2.644539e+01	1.668469e+02
3.289344e+06	-2.643511e+01	1.725678e+02	-3.113505e+01	-3.754718e+00	-9.782427e+01	1.203664e+02	-2.644556e+01	1.668488e+02
3.289375e+06	-2.643376e+01	1.725747e+02	-3.113694e+01	-3.774594e+00	-9.509925e+01	1.281837e+02	-2.644573e+01	1.668506e+02
3.289406e+06	-2.643431e+01	1.725716e+02	-3.113584e+01	-3.767826e+00	-9.732710e+01	1.481032e+02	-2.644637e+01	1.668490e+02
3.289438e+06	-2.643486e+01	1.725685e+02	-3.113474e+01	-3.761059e+00	-9.824226e+01	1.773940e+02	-2.644702e+01	1.668473e+02
3.289469e+06	-2.643541e+01	1.725655e+02	-3.113364e+01	-3.754295e+00	-9.691213e+01	-1.548040e+02	-2.644766e+01	1.668457e+02
3.289500e+06	-2.643596e+01	1.725624e+02	-3.113253e+01	-3.747532e+00	-9.460684e+01	-1.369312e+02	-2.644831e+01	1.668441e+02
3.289532e+06	-2.643649e+01	1.725594e+02	-3.113150e+01	-3.740953e+00	-9.247614e+01	-1.265302e+02	-2.644893e+01	1.668424e+02
3.289563e+06	-2.643556e+01	1.725578e+02	-3.113452e+01	-3.745571e+00	-9.734297e+01	-1.229411e+02	-2.644809e+01	1.668388e+02
3.289594e+06	-2.643463e+01	1.725563e+02	-3.113754e+01	-3.750193e+00	-1.085562e+02	-9.944859e+01	-2.644725e+01	1.668351e+02
3.289625e+06	-2.643371e+01	1.725548e+02	-3.114057e+01	-3.754818e+00	-1.026644e+02	3.319371e+01	-2.644641e+01	1.668315e+02
3.289656e+06	-2.643278e+01	1.725532e+02	-3.114359e+01	-3.759446e+00	-9.515729e+01	4.224323e+01	-2.644557e+01	1.668278e+02
3.289688e+06	-2.643186e+01	1.725517e+02	-3.114662e+01	-3.764078e+00	-9.115517e+01	4.463922e+01	-2.644474e+01	1.668241e+02
3.289719e+06	-2.643323e+01	1.725522e+02	-3.114568e+01	-3.754564e+00	-9.234170e+01	4.051264e+01	-2.644541e+01	1.668216e+02
3.289750e+06	-2.643462e+01	1.725527e+02	-3.114472e+01	-3.744938e+00	-9.369074e+01	3.490575e+01	-2.644609e+01	1.668191e+02
3.289782e+06	-2.643601e+01	1.725531e+02	-3.114375e+01	-3.735314e+00	-9.515050e+01	2.714692e+01	-2.644678e+01	1.668166e+02
3.289813e+06	-2.643740e+01	1.725536e+02	-3.114279e+01	-3.725693e+00	-9.663305e+01	1.622707e+01	-2.644746e+01	1.668141e+02
3.289844e+06	-2.643879e+01	1.725541e+02	-3.114182e+01	-3.716073e+00	-9.789222e+01	1.172132e+00	-2.644815e+01	1.668116e+02
3.289875e+06	-2.643816e+01	1.725576e+02	-3.114117e+01	-3.720969e+00	-9.620911e+01	3.178842e+01	-2.644887e+01	1.668134e+02
3.289906e+06	-2.643753e+01	1.725612e+02	-3.114052e+01	-3.725864e+00	-9.355450e+01	4.979242e+01	-2.644960e+01	1.668152e+02
3.289938e+06	-2.643690e+01	1.725647e+02	-3.113987e+01	-3.730758e+00	-9.114825e+01	5.973126e+01	-2.645032e+01	1.668171e+02
3.289969e+06	-2.643627e+01	1.725682e+02	-3.113922e+01	-3.735652e+00	-8.913978e+01	6.569066e+01	-2.645104e+01	1.668189e+02
3.290000e+06	-2.643565e+01	1.725717e+02	-3.113856e+01	-3.740422e+00	-8.748299e+01	6.959569e+01	-2.645176e+01	1.668207e+02
3.290032e+06	-2.643616e+01	1.725702e+02	-3.113741e+01	-3.729874e+00	-8.907183e+01	7.528223e+01	-2.645153e+01	1.668236e+02
3.290063e+06	-2.643667e+01	1.725687e+02	-3.113627e+01	-3.719328e+00	-9.086007e+01	8.368742e+01	-2.645130e+01	1.668266e+02
3.290094e+06	-2.643718e+01	1.725672e+02	-3.113512e+01	-3.708786e+00	-9.274542e+01	9.657999e+01	-2.645107e+01	1.668295e+02
3.290125e+06	-2.643769e+01	1.725658e+02	-3.113397e+01	-3.698246e+00	-9.429931e+01	1.159409e+02	-2.645084e+01	1.668324e+02
3.290156e+06	-2.643819e+01	1.725643e+02	-3.113287e+01	-3.688146e+00	-9.471093e+01	1.396717e+02	-2.645061e+01	1.668353e+02
3.290188e+06	-2.643850e+01	1.725638e+02	-3.113497e+01	-3.704888e+00	-9.592915e+01	1.152268e+02	-2.645043e+01	1.668351e+02
3.290219e+06	-2.643880e+01	1.725633e+02	-3.113707e+01	-3.721638e+00	-9.538269e+01	8.866950e+01	-2.645026e+01	1.668348e+02
3.290250e+06	-2.643910e+01	1.725628e+02	-3.113917e+01	-3.738395e+00	-9.355859e+01	6.877401e+01	-2.645009e+01	1.668346e+02
3.290282e+06	-2.643940e+01	1.725623e+02	-3.114127e+01	-3.755162e+00	-9.149508e+01	5.621092e+01	-2.644991e+01	1.668343e+02
3.290313e+06	-2.643970e+01	1.725618e+02	-3.114336e+01	-3.771936e+00	-8.961099e+01	4.827457e+01	-2.644974e+01	1.668341e+02
3.290344e+06	-2.643942e+01	1.725624e+02	-3.114103e+01	-3.775874e+00	-9.158695e+01	5.253346e+01	-2.645031e+01	1.668331e+02
3.290375e+06	-2.643913e+01	1.725630e+02	-3.113867e+01	-3.779706e+00	-9.408459e+01	5.982954e+01	-2.645089e+01	1.668320e+02
3.290406e+06	-2.643885e+01	1.725636e+02	-3.113630e+01	-3.783537e+00	-9.720167e+01	7.385763e+01	-2.645147e+01	1.668310e+02
3.290438e+06	-2.643856e+01	1.725642e+02	-3.113393e+01	-3.787365e+00	-1.002666e+02	1.034542e+02	-2.645204e+01	1.668299e+02
3.290469e+06	-2.643828e+01	1.725648e+02	-3.113157e+01	-3.791191e+00	-9.995049e+01	1.461225e+02	-2.645262e+01	1.668289e+02
3.290500e+06	-2.643746e+01	1.725492e+02	-3.113059e+01	-3.785125e+00	-1.013218e+02	1.197409e+02	-2.645245e+01	1.668388e+02
3.290532e+06	-2.643665e+01	1.725337e+02	-3.112960e+01	-3.779061e+00	-1.006213e+02	9.105391e+01	-2.645229e+01	1.668486e+02
3.290563e+06	-2.643583e+01	1.725182e+02	-3.112862e+01	-3.772998e+00	-9.854252e+01	7.065356e+01	-2.645212e+01	1.668585e+02
3.290594e+06	-2.643501e+01	1.725026e+02	-3.112764e+01	-3.766937e+00	-9.631934e+01	5.838917e+01	-2.645196e+01	1.668683e+02
3.290625e+06	-2.643420e+01	1.724873e+02	-3.112667e+01	-3.760899e+00	-9.435602e+01	5.087115e+01	-2.645179e+01	1.668780e+02
3.290656e+06	-2.643447e+01	1.724978e+02	-3.112806e+01	-3.757654e+00	-9.320046e+01	4.733961e+01	-2.645197e+01	1.668644e+02
3.290688e+06	-2.643474e+01	1.725084e+02	-3.112945e+01	-3.754407e+00	-9.215797e+01	4.459833e+01	-2.645215e+01	1.668508e+02
3.290719e+06	-2.643501e+01	1.725189e+02	-3.113084e+01	-3.751160e+00	-9.121309e+01	4.241799e+01	-2.645232e+01	1.668372e+02
3.290750e+06	-2.643528e+01	1.725294e+02	-3.113223e+01	-3.747911e+00	-9.035173e+01	4.064717e+01	-2.645250e+01	1.668237e+02
3.290782e+06	-2.643555e+01	1.725400e+02	-3.113358e+01	-3.744762e+00	-8.959323e+01	3.920682e+01	-2.645264e+01	1.668105e+02
3.290813e+06	-2.643631e+01	1.725498e+02	-3.113260e+01	-3.747788e+00	-9.088874e+01	3.938220e+01	-2.645095e+01	1.668203e+02
3.290844e+06	-2.643707e+01	1.725596e+02	-3.113163e+01	-3.750813e+00	-9.241180e+01	3.962481e+01	-2.644927e+01	1.668302e+02
3.290875e+06	-2.643783e+01	1.725694e+02	-3.113065e+01	-3.753837e+00	-9.425966e+01	3.998247e+01	-2.644758e+01	1.668400e+02
3.290906e+06	-2.643859e+01	1.725792e+02	-3.112967e+01	-3.756860e+00	-9.660919e+01	4.056234e+01	-2.644589e+01	1.668499e+02
3.290938e+06	-2.643934e+01	1.725890e+02	-3.112869e+01	-3.759883e+00	-9.983757e+01	4.166451e+01	-2.644420e+01	1.668597e+02
3.290969e+06	-2.643868e+01	1.725840e+02	-3.113092e+01	-3.764922e+00	-9.621364e+01	3.888115e+01	-2.644462e+01	1.668563e+02
3.291000e+06	-2.643801e+01	1.725788e+02	-3.113317e+01	-3.769981e+00	-9.362344e+01	3.750820e+01	-2.644505e+01	1.668528e+02
3.291032e+06	-2.643734e+01	1.725736e+02	-3.113543e+01	-3.775042e+00	-9.162851e+01	3.669842e+01	-2.644548e+01	1.668493e+02
3.291063e+06	-2.643666e+01	1.725685e+02	-3.113768e+01	-3.780106e+00	-9.000632e+01	3.616447e+01	-2.644592e+01	1.668458e+02
3.291094e+06	-2.643599e+01	1.725633e+02	-3.113994e+01	-3.785172e+00	-8.863948e+01	3.578598e+01	-2.644635e+01	1.668423e+02
3.291125e+06	-2.643601e+01	1.725647e+02	-3.113811e+01	-3.788315e+00	-9.210416e+01	3.056122e+01	-2.644651e+01	1.668461e+02
3.291156e+06	-2.643603e+01	1.725661e+02	-3.113629e+01	-3.791457e+00	-9.756031e+01	1.582784e+01	-2.644668e+01	1.668498e+02
3.291188e+06	-2.643604e+01	1.725674e+02	-3.113446e+01	-3.794598e+00	-1.033719e+02	-5.270274e+01	-2.644684e+01	1.668536e+02
3.291219e+06	-2.643606e+01	1.725688e+02	-3.113263e+01	-3.797737e+00	-9.642265e+01	-1.074256e+02	-2.644701e+01	1.668574e+02
3.291250e+06	-2.643608e+01	1.725702e+02	-3.113082e+01	-3.800773e+00	-9.146798e+01	-1.192638e+02	-2.644718e+01	1.668611e+02
3.291282e+06	-2.643550e+01	1.725752e+02	-3.113020e+01	-3.791120e+00	-9.378710e+01	-1.178056e+02	-2.644789e+01	1.668568e+02
3.291313e+06	-2.643492e+01	1.725803e+02	-3.112959e+01	-3.781469e+00	-9.694517e+01	-1.150654e+02	-2.644861e+01	1.668526e+02
3.291344e+06	-2.643434e+01	1.725853e+02	-3.112897e+01	-3.771820e+00	-1.018681e+02	-1.081033e+02	-2.644932e+01	1.668484e+02
3.291375e+06	-2.643376e+01	1.725903e+02	-3.112836e+01	-3.762172e+00	-1.115197e+02	-6.763365e+01	-2.645004e+01	1.668442e+02
3.291406e+06	-2.643319e+01	1.725951e+02	-3.112775e+01	-3.752672e+00	-1.057888e+02	3.153319e+01	-2.645073e+01	1.668400e+02
3.291438e+06	-2.643315e+01	1.725877e+02	-3.112799e+01	-3.752220e+00	-1.083778e+02	1.122742e+02	-2.645009e+01	1.668411e+02
3.291469e+06	-2.643311e+01	1.725804e+02	-3.112823e+01	-3.751769e+00	-1.014335e+02	1.489849e+02	-2.644944e+01	1.668422e+02
3.291500e+06	-2.643308e+01	1.725730e+02	-3.112846e+01	-3.751317e+00	-9.702355e+01	1.582930e+02	-2.644880e+01	1.668432e+02
3.291532e+06	-2.643304e+01	1.725657e+02	-3.112870e+01	-3.750865e+00	-9.404274e+01	1.622536e+02	-2.644816e+01	1.668443e+02
3.291563e+06	-2.643300e+01	1.725584e+02	-3.112894e+01	-3.750414e+00	-9.181003e+01	1.644255e+02	-2.644752e+01	1.668454e+02
3.291594e+06	-2.643340e+01	1.725589e+02	-3.112984e+01	-3.757069e+00	-9.392985e+01	1.615273e+02	-2.644808e+01	1.668430e+02
3.291625e+06	-2.643381e+01	1.725595e+02	-3.113075e+01	-3.763784e+00	-9.673928e+01	1.563360e+02	-2.644865e+01	1.668405e+02
3.291656e+06	-2.643421e+01	1.725600e+02	-3.113166e+01	-3.770499e+00	-1.006675e+02	1.450015e+02	-2.644922e+01	1.668381e+02
3.291688e+06	-2.643462e+01	1.725606e+02	-3.113256e+01	-3.777216e+00	-1.058111e+02	1.110484e+02	-2.644979e+01	1.668356e+02
3.291719e+06	-2.643502e+01	1.725612e+02	-3.113347e+01	-3.783935e+00	-1.047733e+02	4.740652e+01	-2.645036e+01	1.668332e+02
3.291750e+06	-2.643565e+01	1.725662e+02	-3.113377e+01	-3.775158e+00	-1.077414e+02	4.487694e+01	-2.645044e+01	1.668404e+02
3.291782e+06	-2.643629e+01	1.725711e+02	-3.113407e+01	-3.766381e+00	-1.122183e+02	3.890735e+01	-2.645052e+01	1.668475e+02
3.291813e+06	-2.643692e+01	1.725761e+02	-3.113437e+01	-3.757603e+00	-1.206841e+02	1.142346e+01	-2.645061e+01	1.668547e+02
3.291844e+06	-2.643755e+01	1.725811e+02	-3.113467e+01	-3.748825e+00	-1.185909e+02	-9.459588e+01	-2.645069e+01	1.668619e+02
3.291875e+06	-2.643817e+01	1.725860e+02	-3.113496e+01	-3.740166e+00	-1.112557e+02	-1.129098e+02	-2.645076e+01	1.668689e+02
3.291906e+06	-2.643684e+01	1.725871e+02	-3.113396e+01	-3.746378e+00	-1.093971e+02	-6.235028e+01	-2.644941e+01	1.668586e+02
3.291938e+06	-2.643552e+01	1.725881e+02	-3.113295e+01	-3.752589e+00	-1.052470e+02	-3.960249e+01	-2.644807e+01	1.668483e+02
3.291969e+06	-2.643420e+01	1.725892e+02	-3.113195e+01	-3.758799e+00	-1.020312e+02	-3.007071e+01	-2.644672e+01	1.668380e+02
3.292000e+06	-2.643287e+01	1.725903e+02	-3.113094e+01	-3.765007e+00	-9.959396e+01	-2.511555e+01	-2.644537e+01	1.668277e+02
3.292032e+06	-2.643157e+01	1.725913e+02	-3.112993e+01	-3.770798e+00	-9.772470e+01	-2.177743e+01	-2.644405e+01	1.668177e+02
3.292063e+06	-2.643177e+01	1.725897e+02	-3.112895e+01	-3.751065e+00	-9.907747e+01	7.554872e+00	-2.644413e+01	1.668248e+02
3.292094e+06	-2.643197e+01	1.725880e+02	-3.112797e+01	-3.731335e+00	-9.796955e+01	3.781187e+01	-2.644421e+01	1.668318e+02
3.292125e+06	-2.643217e+01	1.725864e+02	-3.112698e+01	-3.711611e+00	-9.558031e+01	5.749847e+01	-2.644428e+01	1.668389e+02
3.292156e+06	-2.643237e+01	1.725848e+02	-3.112600e+01	-3.691890e+00	-9.323420e+01	6.876069e+01	-2.644436e+01	1.668459e+02
3.292188e+06	-2.643257e+01	1.725832e+02	-3.112501e+01	-3.672175e+00	-9.122508e+01	7.555398e+01	-2.644444e+01	1.668529e+02
3.292219e+06	-2.643298e+01	1.725880e+02	-3.112679e+01	-3.678921e+00	-9.155109e+01	6.821872e+01	-2.644631e+01	1.668551e+02
3.292250e+06	-2.643338e+01	1.725929e+02	-3.112859e+01	-3.685884e+00	-9.174730e+01	6.030340e+01	-2.644820e+01	1.668573e+02
3.292282e+06	-2.643379e+01	1.725977e+02	-3.113039e+01	-3.692849e+00	-9.177428e+01	5.218068e+01	-2.645009e+01	1.668594e+02
3.292313e+06	-2.643420e+01	1.726026e+02	-3.113220e+01	-3.699818e+00	-9.162889e+01	4.416868e+01	-2.645198e+01	1.668616e+02
3.292344e+06	-2.643461e+01	1.726074e+02	-3.113400e+01	-3.706789e+00	-9.132747e+01	3.656084e+01	-2.645387e+01	1.668637e+02
3.292375e+06	-2.643561e+01	1.726016e+02	-3.113218e+01	-3.730940e+00	-9.212715e+01	3.080038e+01	-2.645273e+01	1.668631e+02
3.292406e+06	-2.643660e+01	1.725959e+02	-3.113037e+01	-3.755082e+00	-9.289174e+01	2.389813e+01	-2.645160e+01	1.668625e+02
3.292438e+06	-2.643760e+01	1.725901e+02	-3.112855e+01	-3.779213e+00	-9.356656e+01	1.574401e+01	-2.645046e+01	1.668620e+02
3.292469e+06	-2.643859e+01	1.725843e+02	-3.112673e+01	-3.803334e+00	-9.407922e+01	6.385290e+00	-2.644933e+01	1.668614e+02
3.292500e+06	-2.643957e+01	1.725786e+02	-3.112491e+01	-3.827139e+00	-9.436853e+01	-3.837580e+00	-2.644820e+01	1.668607e+02
3.292532e+06	-2.643869e+01	1.725761e+02	-3.112421e+01	-3.813039e+00	-9.641494e+01	-1.186635e+01	-2.644799e+01	1.668532e+02
3.292563e+06	-2.643781e+01	1.725735e+02	-3.112350e+01	-3.798941e+00	-9.871477e+01	-2.518491e+01	-2.644779e+01	1.668458e+02
3.292594e+06	-2.643693e+01	1.725710e+02	-3.112279e+01	-3.784846e+00	-1.007504e+02	-4.748634e+01	-2.644759e+01	1.668383e+02
3.292625e+06	-2.643605e+01	1.725685e+02	-3.112208e+01	-3.770752e+00	-1.011136e+02	-7.749838e+01	-2.644738e+01	1.668308e+02
3.292656e+06	-2.643520e+01	1.725660e+02	-3.112140e+01	-3.756842e+00	-9.955635e+01	-1.033851e+02	-2.644719e+01	1.668236e+02
3.292688e+06	-2.643673e+01	1.725692e+02	-3.112247e+01	-3.754021e+00	-1.002862e+02	-1.740729e+02	-2.644785e+01	1.668334e+02
3.292719e+06	-2.643827e+01	1.725723e+02	-3.112354e+01	-3.751200e+00	-9.455262e+01	1.538898e+02	-2.644851e+01	1.668433e+02
3.292750e+06	-2.643980e+01	1.725754e+02	-3.112462e+01	-3.748378e+00	-9.054774e+01	1.439346e+02	-2.644917e+01	1.668531e+02
3.292782e+06	-2.644133e+01	1.725785e+02	-3.112569e+01	-3.745556e+00	-8.773007e+01	1.394141e+02	-2.644983e+01	1.668630e+02
3.292813e+06	-2.644286e+01	1.725816e+02	-3.112676e+01	-3.742733e+00	-8.558211e+01	1.368638e+02	-2.645049e+01	1.668728e+02
3.292844e+06	-2.644142e+01	1.725840e+02	-3.112812e+01	-3.739065e+00	-8.817408e+01	1.306349e+02	-2.645044e+01	1.668773e+02
3.292875e+06	-2.643996e+01	1.725865e+02	-3.112949e+01	-3.735390e+00	-9.163396e+01	1.179632e+02	-2.645037e+01	1.668818e+02
3.292906e+06	-2.643851e+01	1.725889e+02	-3.113086e+01	-3.731713e+00	-9.555000e+01	8.711137e+01	-2.645031e+01	1.668863e+02
3.292938e+06	-2.643705e+01	1.725914e+02	-3.113222e+01	-3.728035e+00	-9.524140e+01	3.613848e+01	-2.645024e+01	1.668907e+02
3.292969e+06	-2.643559e+01	1.725938e+02	-3.113359e+01	-3.724356e+00	-9.126100e+01	7.836585e+00	-2.645018e+01	1.668952e+02
3.293000e+06	-2.643544e+01	1.725913e+02	-3.113134e+01	-3.729577e+00	-9.315748e+01	1.216663e+01	-2.644990e+01	1.668928e+02
3.293032e+06	-2.643529e+01	1.725887e+02	-3.112908e+01	-3.734795e+00	-9.548054e+01	1.921604e+01	-2.644962e+01	1.668904e+02
3.293063e+06	-2.643515e+01	1.725862e+02	-3.112683e+01	-3.740011e+00	-9.831828e+01	3.206122e+01	-2.644934e+01	1.668879e+02
3.293094e+06	-2.643500e+01	1.725836e+02	-3.112457e+01	-3.745224e+00	-1.011977e+02	5.748886e+01	-2.644907e+01	1.668855e+02
3.293125e+06	-2.643486e+01	1.725811e+02	-3.112235e+01	-3.750394e+00	-1.016599e+02	9.583141e+01	-2.644879e+01	1.668830e+02
3.293156e+06	-2.643553e+01	1.725772e+02	-3.112390e+01	-3.750691e+00	-1.041510e+02	5.309708e+01	-2.644818e+01	1.668755e+02
3.293188e+06	-2.643621e+01	1.725734e+02	-3.112544e+01	-3.750989e+00	-1.014542e+02	1.158969e+01	-2.644758e+01	1.668680e+02
3.293219e+06	-2.643689e+01	1.725695e+02	-3.112699e+01	-3.751286e+00	-9.775930e+01	-6.922118e+00	-2.644698e+01	1.668604e+02
3.293250e+06	-2.643757e+01	1.725657e+02	-3.112854e+01	-3.751583e+00	-9.486281e+01	-1.547103e+01	-2.644637e+01	1.668529e+02
3.293282e+06	-2.643823e+01	1.725619e+02	-3.113003e+01	-3.751914e+00	-9.268958e+01	-2.019981e+01	-2.644581e+01	1.668455e+02
3.293313e+06	-2.643749e+01	1.725613e+02	-3.112810e+01	-3.754318e+00	-9.614133e+01	-2.705470e+01	-2.644738e+01	1.668444e+02
3.293344e+06	-2.643675e+01	1.725608e+02	-3.112617e+01	-3.756720e+00	-1.013020e+02	-4.582095e+01	-2.644895e+01	1.668434e+02
3.293375e+06	-2.643601e+01	1.725602e+02	-3.112425e+01	-3.759121e+00	-1.050618e+02	-1.097742e+02	-2.645053e+01	1.668424e+02
3.293406e+06	-2.643527e+01	1.725597e+02	-3.112232e+01	-3.761521e+00	-9.941643e+01	-1.560867e+02	-2.645210e+01	1.668413e+02
3.293438e+06	-2.643454e+01	1.725591e+02	-3.112040e+01	-3.763920e+00	-9.489837e+01	-1.690548e+02	-2.645368e+01	1.668403e+02
3.293469e+06	-2.643508e+01	1.725622e+02	-3.112277e+01	-3.777554e+00	-9.979269e+01	-1.492393e+02	-2.645357e+01	1.668447e+02
3.293500e+06	-2.643563e+01	1.725652e+02	-3.112518e+01	-3.791285e+00	-1.029934e+02	-8.839410e+01	-2.645344e+01	1.668492e+02
3.293532e+06	-2.643618e+01	1.725683e+02	-3.112759e+01	-3.805025e+00	-9.784430e+01	-4.414125e+01	-2.645332e+01	1.668537e+02
3.293563e+06	-2.643673e+01	1.725714e+02	-3.113000e+01	-3.818772e+00	-9.349570e+01	-3.061972e+01	-2.645319e+01	1.668581e+02
3.293594e+06	-2.643728e+01	1.725745e+02	-3.113241e+01	-3.832527e+00	-9.046361e+01	-2.488280e+01	-2.645307e+01	1.668626e+02
3.293625e+06	-2.643691e+01	1.725767e+02	-3.113039e+01	-3.809411e+00	-9.090181e+01	-1.628260e+01	-2.645288e+01	1.668674e+02
3.293656e+06	-2.643654e+01	1.725789e+02	-3.112837e+01	-3.786306e+00	-9.114064e+01	-6.979291e+00	-2.645269e+01	1.668721e+02
