# Hz S dB R 50.000
3.288438e+06	-2.646077e+01	1.722761e+02	-3.117037e+01	-4.295794e+00	-9.609990e+01	7.665808e+01	-2.636848e+01	1.668441e+02
3.288469e+06	-2.646040e+01	1.722769e+02	-3.116624e+01	-4.309007e+00	-1.001797e+02	1.107478e+02	-2.636895e+01	1.668425e+02
3.288500e+06	-2.646002e+01	1.722777e+02	-3.116212e+01	-4.322208e+00	-9.917658e+01	1.637572e+02	-2.636943e+01	1.668408e+02
3.288532e+06	-2.645965e+01	1.722786e+02	-3.115799e+01	-4.335396e+00	-9.494491e+01	-1.703185e+02	-2.636990e+01	1.668392e+02
3.288563e+06	-2.645927e+01	1.722794e+02	-3.115387e+01	-4.348571e+00	-9.158570e+01	-1.598066e+02	-2.637038e+01	1.668375e+02
3.288594e+06	-2.645890e+01	1.722802e+02	-3.114981e+01	-4.361551e+00	-8.910107e+01	-1.544981e+02	-2.637084e+01	1.668360e+02
3.288626e+06	-2.645949e+01	1.722816e+02	-3.115361e+01	-4.351799e+00	-9.313702e+01	-1.494053e+02	-2.636965e+01	1.668438e+02
3.288657e+06	-2.646007e+01	1.722829e+02	-3.115740e+01	-4.342038e+00	-1.003033e+02	-1.305980e+02	-2.636846e+01	1.668517e+02
3.288688e+06	-2.646065e+01	1.722842e+02	-3.116120e+01	-4.332269e+00	-1.027684e+02	-2.831642e+01	-2.636727e+01	1.668596e+02
3.288719e+06	-2.646124e+01	1.722856e+02	-3.116500e+01	-4.322492e+00	-9.438360e+01	1.304821e+00	-2.636608e+01	1.668675e+02
3.288750e+06	-2.646179e+01	1.722868e+02	-3.116867e+01	-4.312683e+00	-8.995669e+01	7.692233e+00	-2.636493e+01	1.668752e+02
3.288782e+06	-2.646072e+01	1.722820e+02	-3.116415e+01	-4.301496e+00	-9.128924e+01	8.684911e+00	-2.636628e+01	1.668723e+02
3.288813e+06	-2.645965e+01	1.722772e+02	-3.115964e+01	-4.290321e+00	-9.285957e+01	1.007158e+01	-2.636763e+01	1.668695e+02
3.288844e+06	-2.645858e+01	1.722724e+02	-3.115512e+01	-4.279158e+00	-9.476840e+01	1.214164e+01	-2.636898e+01	1.668667e+02
3.288876e+06	-2.645751e+01	1.722676e+02	-3.115061e+01	-4.268006e+00	-9.719368e+01	1.555239e+01	-2.637033e+01	1.668639e+02
3.288907e+06	-2.645646e+01	1.722630e+02	-3.114622e+01	-4.257529e+00	-1.002887e+02	2.299607e+01	-2.637162e+01	1.668610e+02
3.288938e+06	-2.645616e+01	1.722686e+02	-3.114679e+01	-4.274024e+00	-9.580345e+01	5.048107e+01	-2.637034e+01	1.668581e+02
3.288969e+06	-2.645587e+01	1.722742e+02	-3.114736e+01	-4.290521e+00	-9.230350e+01	6.108665e+01	-2.636907e+01	1.668551e+02
3.289000e+06	-2.645557e+01	1.722798e+02	-3.114792e+01	-4.307021e+00	-8.970525e+01	6.631959e+01	-2.636779e+01	1.668522e+02
3.289032e+06	-2.645527e+01	1.722854e+02	-3.114849e+01	-4.323522e+00	-8.767415e+01	6.938777e+01	-2.636652e+01	1.668492e+02
3.289063e+06	-2.645497e+01	1.722910e+02	-3.114905e+01	-4.340026e+00	-8.601566e+01	7.139355e+01	-2.636524e+01	1.668463e+02
3.289094e+06	-2.645631e+01	1.722949e+02	-3.114844e+01	-4.325958e+00	-8.715461e+01	6.751816e+01	-2.636478e+01	1.668399e+02
3.289126e+06	-2.645765e+01	1.722988e+02	-3.114782e+01	-4.311891e+00	-8.840495e+01	6.241284e+01	-2.636432e+01	1.668335e+02
3.289157e+06	-2.645899e+01	1.723028e+02	-3.114721e+01	-4.297827e+00	-8.975603e+01	5.551730e+01	-2.636386e+01	1.668271e+02
3.289188e+06	-2.646033e+01	1.723067e+02	-3.114659e+01	-4.283764e+00	-9.114948e+01	4.603905e+01	-2.636340e+01	1.668207e+02
3.289219e+06	-2.646166e+01	1.723106e+02	-3.114598e+01	-4.269887e+00	-9.243032e+01	3.326649e+01	-2.636295e+01	1.668145e+02
3.289250e+06	-2.646120e+01	1.723088e+02	-3.114597e+01	-4.278763e+00	-9.519309e+01	4.015827e+01	-2.636432e+01	1.668235e+02
3.289282e+06	-2.646074e+01	1.723070e+02	-3.114596e+01	-4.287638e+00	-9.884834e+01	5.470827e+01	-2.636569e+01	1.668325e+02
3.289313e+06	-2.646028e+01	1.723052e+02	-3.114594e+01	-4.296514e+00	-1.025877e+02	9.076352e+01	-2.636706e+01	1.668414e+02
3.289344e+06	-2.645982e+01	1.723034e+02	-3.114593e+01	-4.305389e+00	-1.011518e+02	1.408760e+02	-2.636843e+01	1.668504e+02
3.289376e+06	-2.645937e+01	1.723016e+02	-3.114595e+01	-4.313946e+00	-9.723122e+01	1.645312e+02	-2.636978e+01	1.668593e+02
3.289407e+06	-2.645942e+01	1.723014e+02	-3.114787e+01	-4.302850e+00	-1.033649e+02	1.419062e+02	-2.636997e+01	1.668600e+02
3.289438e+06	-2.645947e+01	1.723011e+02	-3.114978e+01	-4.291749e+00	-1.054102e+02	6.135526e+01	-2.637016e+01	1.668607e+02
3.289469e+06	-2.645953e+01	1.723009e+02	-3.115170e+01	-4.280643e+00	-9.862455e+01	2.649719e+01	-2.637035e+01	1.668614e+02
3.289500e+06	-2.645958e+01	1.723006e+02	-3.115362e+01	-4.269533e+00	-9.429992e+01	1.734532e+01	-2.637054e+01	1.668620e+02
3.289532e+06	-2.645960e+01	1.723003e+02	-3.115546e+01	-4.258407e+00	-9.139967e+01	1.368260e+01	-2.637071e+01	1.668627e+02
3.289563e+06	-2.645844e+01	1.722944e+02	-3.115426e+01	-4.246887e+00	-9.058815e+01	2.203065e+01	-2.636981e+01	1.668642e+02
3.289594e+06	-2.645727e+01	1.722886e+02	-3.115307e+01	-4.235370e+00	-8.970695e+01	2.889265e+01	-2.636890e+01	1.668656e+02
3.289626e+06	-2.645611e+01	1.722827e+02	-3.115187e+01	-4.223856e+00	-8.881445e+01	3.448269e+01	-2.636800e+01	1.668671e+02
3.289657e+06	-2.645494e+01	1.722768e+02	-3.115067e+01	-4.212346e+00	-8.794373e+01	3.904331e+01	-2.636710e+01	1.668685e+02
3.289688e+06	-2.645378e+01	1.722710e+02	-3.114947e+01	-4.200838e+00	-8.711113e+01	4.279053e+01	-2.636620e+01	1.668700e+02
3.289719e+06	-2.645544e+01	1.722740e+02	-3.114844e+01	-4.209887e+00	-8.881190e+01	4.387781e+01	-2.636519e+01	1.668577e+02
3.289750e+06	-2.645710e+01	1.722770e+02	-3.114741e+01	-4.218935e+00	-9.092265e+01	4.556418e+01	-2.636418e+01	1.668454e+02
3.289782e+06	-2.645876e+01	1.722801e+02	-3.114638e+01	-4.227980e+00	-9.369863e+01	4.852506e+01	-2.636317e+01	1.668330e+02
3.289813e+06	-2.646042e+01	1.722831e+02	-3.114535e+01	-4.237023e+00	-9.772153e+01	5.501289e+01	-2.636216e+01	1.668207e+02
3.289844e+06	-2.646207e+01	1.722861e+02	-3.114432e+01	-4.246038e+00	-1.043802e+02	7.735381e+01	-2.636116e+01	1.668086e+02
3.289876e+06	-2.646182e+01	1.722863e+02	-3.114327e+01	-4.251971e+00	-9.837060e+01	5.419440e+01	-2.636165e+01	1.668228e+02
3.289907e+06	-2.646158e+01	1.722864e+02	-3.114222e+01	-4.257903e+00	-9.455138e+01	4.690706e+01	-2.636213e+01	1.668369e+02
3.289938e+06	-2.646133e+01	1.722866e+02	-3.114117e+01	-4.263832e+00	-9.185874e+01	4.347096e+01	-2.636262e+01	1.668510e+02
3.289969e+06	-2.646109e+01	1.722867e+02	-3.114011e+01	-4.269761e+00	-8.979201e+01	4.148522e+01	-2.636310e+01	1.668652e+02
3.290000e+06	-2.646082e+01	1.722870e+02	-3.113910e+01	-4.275771e+00	-8.814987e+01	4.015273e+01	-2.636358e+01	1.668789e+02
3.290032e+06	-2.645921e+01	1.722912e+02	-3.114060e+01	-4.286909e+00	-8.859881e+01	3.627567e+01	-2.636361e+01	1.668656e+02
3.290063e+06	-2.645760e+01	1.722955e+02	-3.114210e+01	-4.298050e+00	-8.902579e+01	3.198652e+01	-2.636364e+01	1.668523e+02
3.290094e+06	-2.645599e+01	1.722998e+02	-3.114359e+01	-4.309195e+00	-8.941854e+01	2.727195e+01	-2.636367e+01	1.668390e+02
3.290126e+06	-2.645437e+01	1.723040e+02	-3.114509e+01	-4.320344e+00	-8.976281e+01	2.213880e+01	-2.636370e+01	1.668257e+02
3.290157e+06	-2.645283e+01	1.723082e+02	-3.114652e+01	-4.331141e+00	-9.007544e+01	1.682303e+01	-2.636376e+01	1.668128e+02
3.290188e+06	-2.645391e+01	1.723082e+02	-3.114534e+01	-4.327467e+00	-9.181468e+01	2.014218e+01	-2.636496e+01	1.668167e+02
3.290219e+06	-2.645500e+01	1.723083e+02	-3.114416e+01	-4.323794e+00	-9.393328e+01	2.532145e+01	-2.636617e+01	1.668205e+02
3.290250e+06	-2.645608e+01	1.723083e+02	-3.114297e+01	-4.320123e+00	-9.657186e+01	3.430224e+01	-2.636737e+01	1.668244e+02
3.290282e+06	-2.645716e+01	1.723084e+02	-3.114179e+01	-4.316452e+00	-9.973679e+01	5.203036e+01	-2.636858e+01	1.668282e+02
3.290313e+06	-2.645825e+01	1.723084e+02	-3.114061e+01	-4.312782e+00	-1.020468e+02	8.691457e+01	-2.636978e+01	1.668321e+02
3.290344e+06	-2.645873e+01	1.723086e+02	-3.114184e+01	-4.295355e+00	-1.039960e+02	6.709594e+01	-2.636931e+01	1.668408e+02
3.290376e+06	-2.645921e+01	1.723089e+02	-3.114308e+01	-4.277924e+00	-1.046680e+02	3.980707e+01	-2.636884e+01	1.668494e+02
3.290407e+06	-2.645969e+01	1.723091e+02	-3.114431e+01	-4.260487e+00	-1.034407e+02	1.433432e+01	-2.636837e+01	1.668581e+02
3.290438e+06	-2.646017e+01	1.723094e+02	-3.114554e+01	-4.243046e+00	-1.013495e+02	-2.734063e+00	-2.636791e+01	1.668667e+02
3.290469e+06	-2.646064e+01	1.723095e+02	-3.114675e+01	-4.225837e+00	-9.928959e+01	-1.287732e+01	-2.636743e+01	1.668753e+02
3.290500e+06	-2.645987e+01	1.722974e+02	-3.114562e+01	-4.238138e+00	-9.793174e+01	1.613530e+01	-2.636635e+01	1.668692e+02
3.290532e+06	-2.645910e+01	1.722853e+02	-3.114449e+01	-4.250435e+00	-9.552702e+01	3.446570e+01	-2.636528e+01	1.668631e+02
3.290563e+06	-2.645833e+01	1.722732e+02	-3.114336e+01	-4.262730e+00	-9.323267e+01	4.501543e+01	-2.636420e+01	1.668570e+02
3.290594e+06	-2.645756e+01	1.722611e+02	-3.114223e+01	-4.275021e+00	-9.127344e+01	5.145743e+01	-2.636312e+01	1.668509e+02
3.290626e+06	-2.645682e+01	1.722494e+02	-3.114117e+01	-4.286871e+00	-8.966099e+01	5.550310e+01	-2.636207e+01	1.668450e+02
3.290657e+06	-2.645780e+01	1.722597e+02	-3.114405e+01	-4.271774e+00	-9.093270e+01	4.522734e+01	-2.636273e+01	1.668516e+02
3.290688e+06	-2.645878e+01	1.722700e+02	-3.114693e+01	-4.256668e+00	-9.199070e+01	3.173809e+01	-2.636340e+01	1.668582e+02
3.290719e+06	-2.645976e+01	1.722802e+02	-3.114981e+01	-4.241551e+00	-9.253431e+01	1.544829e+01	-2.636406e+01	1.668648e+02
3.290750e+06	-2.646074e+01	1.722905e+02	-3.115269e+01	-4.226425e+00	-9.233920e+01	-1.528161e+00	-2.636472e+01	1.668714e+02
3.290782e+06	-2.646169e+01	1.723006e+02	-3.115547e+01	-4.211907e+00	-9.153223e+01	-1.607750e+01	-2.636538e+01	1.668775e+02
3.290813e+06	-2.646137e+01	1.723027e+02	-3.115401e+01	-4.222519e+00	-9.210146e+01	-1.002887e+01	-2.636599e+01	1.668602e+02
3.290844e+06	-2.646105e+01	1.723047e+02	-3.115255e+01	-4.233127e+00	-9.259341e+01	-3.190695e+00	-2.636660e+01	1.668429e+02
3.290876e+06	-2.646073e+01	1.723068e+02	-3.115109e+01	-4.243732e+00	-9.296989e+01	4.370516e+00	-2.636721e+01	1.668255e+02
3.290907e+06	-2.646041e+01	1.723089e+02	-3.114964e+01	-4.254333e+00	-9.319407e+01	1.247663e+01	-2.636781e+01	1.668082e+02
3.290938e+06	-2.646009e+01	1.723109e+02	-3.114818e+01	-4.264931e+00	-9.324034e+01	2.084093e+01	-2.636842e+01	1.667909e+02
3.290969e+06	-2.645916e+01	1.723126e+02	-3.114781e+01	-4.268481e+00	-9.691711e+01	2.052694e+01	-2.636831e+01	1.667998e+02
3.291000e+06	-2.645824e+01	1.723142e+02	-3.114743e+01	-4.272031e+00	-1.034181e+02	1.951345e+01	-2.636820e+01	1.668086e+02
3.291032e+06	-2.645731e+01	1.723159e+02	-3.114706e+01	-4.275580e+00	-1.218782e+02	-1.422384e+02	-2.636810e+01	1.668175e+02
3.291063e+06	-2.645639e+01	1.723176e+02	-3.114668e+01	-4.279130e+00	-1.016266e+02	-1.569986e+02	-2.636799e+01	1.668264e+02
3.291094e+06	-2.645548e+01	1.723191e+02	-3.114630e+01	-4.282563e+00	-9.606522e+01	-1.578007e+02	-2.636787e+01	1.668353e+02
3.291126e+06	-2.645620e+01	1.723110e+02	-3.114513e+01	-4.271651e+00	-9.716752e+01	-1.665387e+02	-2.636698e+01	1.668464e+02
3.291157e+06	-2.645693e+01	1.723028e+02	-3.114395e+01	-4.260743e+00	-9.813446e+01	-1.776540e+02	-2.636609e+01	1.668574e+02
3.291188e+06	-2.645766e+01	1.722947e+02	-3.114277e+01	-4.249837e+00	-9.877826e+01	1.689274e+02	-2.636520e+01	1.668685e+02
3.291219e+06	-2.645838e+01	1.722865e+02	-3.114160e+01	-4.238934e+00	-9.891213e+01	1.542249e+02	-2.636431e+01	1.668795e+02
3.291250e+06	-2.645910e+01	1.722785e+02	-3.114047e+01	-4.228219e+00	-9.859430e+01	1.398934e+02	-2.636344e+01	1.668903e+02
3.291282e+06	-2.645922e+01	1.722774e+02	-3.114256e+01	-4.228860e+00	-1.048175e+02	9.084566e+01	-2.636433e+01	1.668847e+02
3.291313e+06	-2.645935e+01	1.722763e+02	-3.114464e+01	-4.229501e+00	-1.003091e+02	2.390535e+01	-2.636521e+01	1.668791e+02
3.291344e+06	-2.645947e+01	1.722752e+02	-3.114672e+01	-4.230142e+00	-9.496658e+01	6.687982e+00	-2.636609e+01	1.668734e+02
3.291376e+06	-2.645959e+01	1.722742e+02	-3.114881e+01	-4.230784e+00	-9.148986e+01	5.321745e-01	-2.636698e+01	1.668678e+02
3.291407e+06	-2.645970e+01	1.722735e+02	-3.115083e+01	-4.231260e+00	-8.909149e+01	-2.339247e+00	-2.636782e+01	1.668623e+02
3.291438e+06	-2.645921e+01	1.722882e+02	-3.115041e+01	-4.225026e+00	-9.209968e+01	7.014702e+00	-2.636715e+01	1.668639e+02
3.291469e+06	-2.645872e+01	1.723030e+02	-3.114999e+01	-4.218792e+00	-9.588015e+01	2.781546e+01	-2.636648e+01	1.668654e+02
3.291500e+06	-2.645823e+01	1.723178e+02	-3.114958e+01	-4.212558e+00	-9.802961e+01	7.247266e+01	-2.636581e+01	1.668670e+02
3.291532e+06	-2.645774e+01	1.723326e+02	-3.114916e+01	-4.206325e+00	-9.502758e+01	1.120524e+02	-2.636513e+01	1.668685e+02
3.291563e+06	-2.645725e+01	1.723474e+02	-3.114874e+01	-4.200093e+00	-9.137476e+01	1.292784e+02	-2.636446e+01	1.668701e+02
3.291594e+06	-2.645684e+01	1.723349e+02	-3.115005e+01	-4.214213e+00	-9.392956e+01	1.287686e+02	-2.636430e+01	1.668606e+02
3.291626e+06	-2.645643e+01	1.723224e+02	-3.115136e+01	-4.228337e+00	-9.756239e+01	1.277290e+02	-2.636413e+01	1.668512e+02
3.291657e+06	-2.645601e+01	1.723100e+02	-3.115267e+01	-4.242465e+00	-1.039060e+02	1.244490e+02	-2.636397e+01	1.668417e+02
3.291688e+06	-2.645560e+01	1.722975e+02	-3.115398e+01	-4.256598e+00	-1.210403e+02	3.088809e+00	-2.636380e+01	1.668323e+02
3.291719e+06	-2.645520e+01	1.722851e+02	-3.115526e+01	-4.270638e+00	-1.026286e+02	-4.363083e+01	-2.636365e+01	1.668229e+02
3.291750e+06	-2.645607e+01	1.722818e+02	-3.115245e+01	-4.272693e+00	-1.040953e+02	-1.954656e+01	-2.636515e+01	1.668224e+02
3.291782e+06	-2.645695e+01	1.722785e+02	-3.114965e+01	-4.274746e+00	-1.037683e+02	8.182913e+00	-2.636665e+01	1.668219e+02
3.291813e+06	-2.645782e+01	1.722753e+02	-3.114684e+01	-4.276798e+00	-1.019566e+02	2.951305e+01	-2.636815e+01	1.668215e+02
3.291844e+06	-2.645870e+01	1.722720e+02	-3.114404e+01	-4.278849e+00	-9.982298e+01	4.286628e+01	-2.636965e+01	1.668210e+02
3.291876e+06	-2.645955e+01	1.722689e+02	-3.114130e+01	-4.280756e+00	-9.791896e+01	5.107200e+01	-2.637111e+01	1.668207e+02
3.291907e+06	-2.645866e+01	1.722763e+02	-3.114275e+01	-4.273924e+00	-9.920956e+01	5.221622e+01	-2.636968e+01	1.668328e+02
3.291938e+06	-2.645777e+01	1.722837e+02	-3.114420e+01	-4.267091e+00	-1.007203e+02	5.379601e+01	-2.636825e+01	1.668448e+02
3.291969e+06	-2.645688e+01	1.722910e+02	-3.114564e+01	-4.260255e+00	-1.025383e+02	5.611393e+01	-2.636682e+01	1.668569e+02
3.292000e+06	-2.645599e+01	1.722984e+02	-3.114709e+01	-4.253416e+00	-1.048106e+02	5.982759e+01	-2.636539e+01	1.668689e+02
3.292032e+06	-2.645514e+01	1.723056e+02	-3.114843e+01	-4.246762e+00	-1.072189e+02	6.648554e+01	-2.636403e+01	1.668807e+02
3.292063e+06	-2.645603e+01	1.723049e+02	-3.114563e+01	-4.247678e+00	-9.677720e+01	6.728757e+01	-2.636508e+01	1.668797e+02
3.292094e+06	-2.645691e+01	1.723043e+02	-3.114283e+01	-4.248594e+00	-9.217085e+01	6.742941e+01	-2.636614e+01	1.668787e+02
3.292126e+06	-2.645780e+01	1.723037e+02	-3.114003e+01	-4.249509e+00	-8.917669e+01	6.748853e+01	-2.636720e+01	1.668778e+02
3.292157e+06	-2.645868e+01	1.723030e+02	-3.113723e+01	-4.250424e+00	-8.695427e+01	6.752096e+01	-2.636826e+01	1.668768e+02
3.292188e+06	-2.645957e+01	1.723024e+02	-3.113443e+01	-4.251338e+00	-8.518620e+01	6.754144e+01	-2.636932e+01	1.668758e+02
3.292219e+06	-2.646046e+01	1.722992e+02	-3.113747e+01	-4.251256e+00	-8.816738e+01	6.202877e+01	-2.636925e+01	1.668691e+02
3.292250e+06	-2.646134e+01	1.722961e+02	-3.114052e+01	-4.251174e+00	-9.242952e+01	4.925074e+01	-2.636918e+01	1.668624e+02
3.292282e+06	-2.646223e+01	1.722929e+02	-3.114357e+01	-4.251092e+00	-9.771409e+01	7.656525e+00	-2.636912e+01	1.668557e+02
3.292313e+06	-2.646312e+01	1.722897e+02	-3.114662e+01	-4.251010e+00	-9.497343e+01	-5.518486e+01	-2.636905e+01	1.668490e+02
3.292344e+06	-2.646399e+01	1.722866e+02	-3.114962e+01	-4.251012e+00	-8.996581e+01	-7.628074e+01	-2.636897e+01	1.668425e+02
3.292376e+06	-2.646290e+01	1.722922e+02	-3.114673e+01	-4.261553e+00	-9.125804e+01	-6.433438e+01	-2.636815e+01	1.668565e+02
3.292407e+06	-2.646180e+01	1.722977e+02	-3.114385e+01	-4.272086e+00	-9.219770e+01	-4.881031e+01	-2.636732e+01	1.668704e+02
3.292438e+06	-2.646071e+01	1.723032e+02	-3.114096e+01	-4.282613e+00	-9.243351e+01	-3.096616e+01	-2.636649e+01	1.668844e+02
3.292469e+06	-2.645962e+01	1.723087e+02	-3.113808e+01	-4.293133e+00	-9.185138e+01	-1.384152e+01	-2.636566e+01	1.668984e+02
3.292500e+06	-2.645854e+01	1.723139e+02	-3.113525e+01	-4.303289e+00	-9.073181e+01	-2.186551e-01	-2.636486e+01	1.669119e+02
3.292532e+06	-2.645847e+01	1.723045e+02	-3.113603e+01	-4.291545e+00	-9.048864e+01	-9.979101e+00	-2.636572e+01	1.668989e+02
3.292563e+06	-2.645840e+01	1.722950e+02	-3.113681e+01	-4.279799e+00	-9.002650e+01	-1.897173e+01	-2.636658e+01	1.668859e+02
3.292594e+06	-2.645833e+01	1.722855e+02	-3.113759e+01	-4.268050e+00	-8.940847e+01	-2.690554e+01	-2.636744e+01	1.668729e+02
3.292626e+06	-2.645826e+01	1.722760e+02	-3.113836e+01	-4.256300e+00	-8.869798e+01	-3.370834e+01	-2.636829e+01	1.668599e+02
3.292657e+06	-2.645820e+01	1.722671e+02	-3.113912e+01	-4.244973e+00	-8.804877e+01	-3.954407e+01	-2.636911e+01	1.668472e+02
3.292688e+06	-2.645877e+01	1.722814e+02	-3.113896e+01	-4.250952e+00	-9.232191e+01	-5.471089e+01	-2.636810e+01	1.668461e+02
3.292719e+06	-2.645933e+01	1.722957e+02	-3.113881e+01	-4.256931e+00	-9.675026e+01	-1.001466e+02	-2.636710e+01	1.668451e+02
3.292750e+06	-2.645989e+01	1.723100e+02	-3.113865e+01	-4.262910e+00	-9.353044e+01	-1.551137e+02	-2.636610e+01	1.668441e+02
3.292782e+06	-2.646045e+01	1.723243e+02	-3.113850e+01	-4.268889e+00	-8.891922e+01	-1.745271e+02	-2.636509e+01	1.668430e+02
3.292813e+06	-2.646101e+01	1.723386e+02	-3.113834e+01	-4.274868e+00	-8.564103e+01	1.777710e+02	-2.636409e+01	1.668420e+02
3.292844e+06	-2.645947e+01	1.723305e+02	-3.114193e+01	-4.291546e+00	-8.698503e+01	1.760044e+02	-2.636532e+01	1.668505e+02
3.292876e+06	-2.645792e+01	1.723225e+02	-3.114552e+01	-4.308239e+00	-8.856187e+01	1.735312e+02	-2.636656e+01	1.668590e+02
3.292907e+06	-2.645638e+01	1.723144e+02	-3.114911e+01	-4.324945e+00	-9.045976e+01	1.698401e+02	-2.636779e+01	1.668675e+02
3.292938e+06	-2.645484e+01	1.723064e+02	-3.115270e+01	-4.341664e+00	-9.281397e+01	1.638108e+02	-2.636903e+01	1.668760e+02
3.292969e+06	-2.645332e+01	1.722984e+02	-3.115623e+01	-4.358097e+00	-9.577966e+01	1.526905e+02	-2.637025e+01	1.668845e+02
3.293000e+06	-2.645434e+01	1.723029e+02	-3.115251e+01	-4.337287e+00	-9.711897e+01	1.453418e+02	-2.636993e+01	1.668870e+02
3.293032e+06	-2.645535e+01	1.723074e+02	-3.114879e+01	-4.316495e+00	-9.846974e+01	1.353014e+02	-2.636961e+01	1.668895e+02
3.293063e+06	-2.645637e+01	1.723120e+02	-3.114508e+01	-4.295720e+00	-9.964244e+01	1.218207e+02	-2.636929e+01	1.668920e+02
3.293094e+06	-2.645739e+01	1.723165e+02	-3.114136e+01	-4.274963e+00	-1.003079e+02	1.050788e+02	-2.636897e+01	1.668945e+02
3.293126e+06	-2.645838e+01	1.723209e+02	-3.113767e+01	-4.254707e+00	-1.001528e+02	8.723389e+01	-2.636863e+01	1.668968e+02
3.293157e+06	-2.645780e+01	1.723184e+02	-3.113601e+01	-4.264127e+00	-9.796910e+01	7.361721e+01	-2.636654e+01	1.668873e+02
3.293188e+06	-2.645723e+01	1.723160e+02	-3.113434e+01	-4.273543e+00	-9.597855e+01	6.524564e+01	-2.636446e+01	1.668777e+02
3.293219e+06	-2.645665e+01	1.723135e+02	-3.113267e+01	-4.282956e+00	-9.425996e+01	5.979485e+01	-2.636237e+01	1.668682e+02
3.293250e+06	-2.645607e+01	1.723111e+02	-3.113101e+01	-4.292365e+00	-9.277981e+01	5.602625e+01	-2.636028e+01	1.668586e+02
3.293282e+06	-2.645552e+01	1.723088e+02	-3.112941e+01	-4.301595e+00	-9.158920e+01	5.345073e+01	-2.635830e+01	1.668494e+02
3.293313e+06	-2.645614e+01	1.723143e+02	-3.113068e+01	-4.303698e+00	-9.499376e+01	6.010820e+01	-2.636023e+01	1.668516e+02
3.293344e+06	-2.645676e+01	1.723198e+02	-3.113196e+01	-4.305800e+00	-1.000740e+02	7.804269e+01	-2.636216e+01	1.668538e+02
3.293376e+06	-2.645738e+01	1.723253e+02	-3.113323e+01	-4.307904e+00	-1.041528e+02	1.401593e+02	-2.636409e+01	1.668561e+02
3.293407e+06	-2.645799e+01	1.723308e+02	-3.113451e+01	-4.310007e+00	-9.863100e+01	-1.713712e+02	-2.636603e+01	1.668583e+02
3.293438e+06	-2.645861e+01	1.723363e+02	-3.113578e+01	-4.312112e+00	-9.404309e+01	-1.578528e+02	-2.636796e+01	1.668606e+02
3.293469e+06	-2.645900e+01	1.723258e+02	-3.113542e+01	-4.308635e+00	-9.687362e+01	-1.707676e+02	-2.636848e+01	1.668637e+02
3.293500e+06	-2.645938e+01	1.723153e+02	-3.113505e+01	-4.305159e+00	-9.972954e+01	1.637562e+02	-2.636901e+01	1.668668e+02
