# Hz S dB R 50.000
3.288594e+06	-2.645769e+01	1.723708e+02	-3.114825e+01	-4.209225e+00	-8.916150e+01	1.526411e+01	-2.639515e+01	1.668991e+02
3.288625e+06	-2.645734e+01	1.723618e+02	-3.115010e+01	-4.211534e+00	-9.151267e+01	1.514724e+01	-2.639409e+01	1.669009e+02
3.288656e+06	-2.645699e+01	1.723528e+02	-3.115196e+01	-4.213843e+00	-9.474651e+01	1.492493e+01	-2.639303e+01	1.669028e+02
3.288688e+06	-2.645663e+01	1.723438e+02	-3.115381e+01	-4.216154e+00	-9.995573e+01	1.433728e+01	-2.639198e+01	1.669046e+02
3.288719e+06	-2.645628e+01	1.723348e+02	-3.115567e+01	-4.218466e+00	-1.148775e+02	8.360769e+00	-2.639092e+01	1.669065e+02
3.288750e+06	-2.645593e+01	1.723259e+02	-3.115749e+01	-4.220560e+00	-1.038646e+02	-1.627891e+02	-2.638988e+01	1.669083e+02
3.288782e+06	-2.645606e+01	1.723300e+02	-3.115548e+01	-4.195521e+00	-1.006828e+02	1.515743e+02	-2.639090e+01	1.669090e+02
3.288813e+06	-2.645619e+01	1.723341e+02	-3.115347e+01	-4.170493e+00	-9.663159e+01	1.334614e+02	-2.639193e+01	1.669097e+02
3.288844e+06	-2.645632e+01	1.723383e+02	-3.115145e+01	-4.145477e+00	-9.360229e+01	1.255530e+02	-2.639295e+01	1.669103e+02
3.288875e+06	-2.645645e+01	1.723424e+02	-3.114944e+01	-4.120473e+00	-9.129164e+01	1.212862e+02	-2.639398e+01	1.669110e+02
3.288906e+06	-2.645660e+01	1.723464e+02	-3.114744e+01	-4.096151e+00	-8.950691e+01	1.186387e+02	-2.639498e+01	1.669117e+02
3.288938e+06	-2.645759e+01	1.723436e+02	-3.114701e+01	-4.113096e+00	-9.210242e+01	1.152869e+02	-2.639425e+01	1.669135e+02
3.288969e+06	-2.645858e+01	1.723408e+02	-3.114658e+01	-4.130038e+00	-9.572769e+01	1.084143e+02	-2.639352e+01	1.669152e+02
3.289000e+06	-2.645958e+01	1.723381e+02	-3.114614e+01	-4.146979e+00	-1.013189e+02	8.818606e+01	-2.639279e+01	1.669169e+02
3.289032e+06	-2.646057e+01	1.723353e+02	-3.114571e+01	-4.163919e+00	-1.045162e+02	1.618735e+01	-2.639206e+01	1.669187e+02
3.289063e+06	-2.646156e+01	1.723325e+02	-3.114527e+01	-4.180857e+00	-9.817975e+01	-2.531036e+01	-2.639133e+01	1.669204e+02
3.289094e+06	-2.645977e+01	1.723412e+02	-3.114568e+01	-4.188049e+00	-9.695887e+01	-1.739364e+01	-2.639172e+01	1.669195e+02
3.289125e+06	-2.645796e+01	1.723499e+02	-3.114608e+01	-4.195163e+00	-9.579722e+01	-1.119272e+01	-2.639212e+01	1.669186e+02
3.289156e+06	-2.645615e+01	1.723586e+02	-3.114649e+01	-4.202278e+00	-9.470309e+01	-6.413871e+00	-2.639252e+01	1.669176e+02
3.289188e+06	-2.645433e+01	1.723673e+02	-3.114690e+01	-4.209394e+00	-9.368913e+01	-2.666518e+00	-2.639293e+01	1.669167e+02
3.289219e+06	-2.645252e+01	1.723760e+02	-3.114731e+01	-4.216510e+00	-9.275453e+01	3.270183e-01	-2.639333e+01	1.669158e+02
3.289250e+06	-2.645357e+01	1.723744e+02	-3.114674e+01	-4.208209e+00	-9.471029e+01	5.715619e+00	-2.639349e+01	1.669153e+02
3.289282e+06	-2.645461e+01	1.723728e+02	-3.114617e+01	-4.199908e+00	-9.706961e+01	1.459390e+01	-2.639366e+01	1.669147e+02
3.289313e+06	-2.645566e+01	1.723711e+02	-3.114560e+01	-4.191609e+00	-9.977721e+01	3.064982e+01	-2.639382e+01	1.669142e+02
3.289344e+06	-2.645671e+01	1.723695e+02	-3.114503e+01	-4.183311e+00	-1.018860e+02	5.943607e+01	-2.639399e+01	1.669136e+02
3.289375e+06	-2.645774e+01	1.723679e+02	-3.114447e+01	-4.175100e+00	-1.012820e+02	9.390148e+01	-2.639416e+01	1.669131e+02
3.289406e+06	-2.645636e+01	1.723650e+02	-3.114468e+01	-4.177612e+00	-1.022426e+02	7.889217e+01	-2.639500e+01	1.669143e+02
3.289438e+06	-2.645498e+01	1.723621e+02	-3.114489e+01	-4.180125e+00	-1.025475e+02	6.145890e+01	-2.639584e+01	1.669154e+02
3.289469e+06	-2.645360e+01	1.723592e+02	-3.114510e+01	-4.182637e+00	-1.020548e+02	4.441011e+01	-2.639668e+01	1.669165e+02
3.289500e+06	-2.645223e+01	1.723563e+02	-3.114531e+01	-4.185150e+00	-1.009847e+02	3.023369e+01	-2.639752e+01	1.669177e+02
3.289532e+06	-2.645089e+01	1.723535e+02	-3.114552e+01	-4.187444e+00	-9.967853e+01	1.979895e+01	-2.639835e+01	1.669188e+02
3.289563e+06	-2.645240e+01	1.723589e+02	-3.114538e+01	-4.176311e+00	-9.870300e+01	2.797959e+01	-2.639847e+01	1.669172e+02
3.289594e+06	-2.645390e+01	1.723643e+02	-3.114524e+01	-4.165179e+00	-9.769884e+01	3.448477e+01	-2.639859e+01	1.669155e+02
3.289625e+06	-2.645541e+01	1.723698e+02	-3.114509e+01	-4.154047e+00	-9.671859e+01	3.965722e+01	-2.639870e+01	1.669139e+02
3.289656e+06	-2.645691e+01	1.723752e+02	-3.114495e+01	-4.142916e+00	-9.578655e+01	4.380552e+01	-2.639882e+01	1.669123e+02
3.289688e+06	-2.645842e+01	1.723807e+02	-3.114481e+01	-4.131785e+00	-9.491135e+01	4.717357e+01	-2.639894e+01	1.669107e+02
3.289719e+06	-2.645829e+01	1.723795e+02	-3.114649e+01	-4.135350e+00	-9.681269e+01	4.320032e+01	-2.639744e+01	1.669109e+02
3.289750e+06	-2.645815e+01	1.723783e+02	-3.114818e+01	-4.139036e+00	-9.919126e+01	3.658987e+01	-2.639592e+01	1.669111e+02
3.289782e+06	-2.645800e+01	1.723772e+02	-3.114988e+01	-4.142722e+00	-1.021654e+02	2.428021e+01	-2.639441e+01	1.669114e+02
3.289813e+06	-2.645786e+01	1.723760e+02	-3.115157e+01	-4.146410e+00	-1.053567e+02	-1.413581e+00	-2.639289e+01	1.669116e+02
3.289844e+06	-2.645772e+01	1.723748e+02	-3.115327e+01	-4.150100e+00	-1.059107e+02	-4.327220e+01	-2.639138e+01	1.669118e+02
3.289875e+06	-2.645796e+01	1.723764e+02	-3.115226e+01	-4.147681e+00	-1.043918e+02	-2.924580e+01	-2.639245e+01	1.669128e+02
3.289906e+06	-2.645820e+01	1.723780e+02	-3.115125e+01	-4.145263e+00	-1.027880e+02	-1.950584e+01	-2.639351e+01	1.669138e+02
3.289938e+06	-2.645844e+01	1.723795e+02	-3.115025e+01	-4.142846e+00	-1.012848e+02	-1.271179e+01	-2.639458e+01	1.669149e+02
3.289969e+06	-2.645868e+01	1.723811e+02	-3.114924e+01	-4.140429e+00	-9.992803e+01	-7.829330e+00	-2.639564e+01	1.669159e+02
3.290000e+06	-2.645892e+01	1.723827e+02	-3.114825e+01	-4.138071e+00	-9.868710e+01	-4.202916e+00	-2.639671e+01	1.669169e+02
3.290032e+06	-2.645843e+01	1.723807e+02	-3.114917e+01	-4.142961e+00	-9.506495e+01	-2.392028e+00	-2.639806e+01	1.669205e+02
3.290063e+06	-2.645795e+01	1.723788e+02	-3.115009e+01	-4.147852e+00	-9.251327e+01	-1.502530e+00	-2.639942e+01	1.669241e+02
3.290094e+06	-2.645746e+01	1.723768e+02	-3.115101e+01	-4.152744e+00	-9.054249e+01	-9.740718e-01	-2.640077e+01	1.669277e+02
3.290125e+06	-2.645698e+01	1.723748e+02	-3.115193e+01	-4.157637e+00	-8.893680e+01	-6.239787e-01	-2.640213e+01	1.669313e+02
3.290156e+06	-2.645649e+01	1.723728e+02	-3.115284e+01	-4.162473e+00	-8.766227e+01	-4.528389e-01	-2.640344e+01	1.669348e+02
3.290188e+06	-2.645617e+01	1.723692e+02	-3.115291e+01	-4.163709e+00	-9.252926e+01	-8.683160e+00	-2.640199e+01	1.669365e+02
3.290219e+06	-2.645585e+01	1.723656e+02	-3.115298e+01	-4.164945e+00	-1.012575e+02	-5.190267e+01	-2.640054e+01	1.669381e+02
3.290250e+06	-2.645552e+01	1.723620e+02	-3.115306e+01	-4.166181e+00	-9.581793e+01	-1.416145e+02	-2.639909e+01	1.669397e+02
3.290282e+06	-2.645520e+01	1.723584e+02	-3.115313e+01	-4.167417e+00	-8.950854e+01	-1.565986e+02	-2.639765e+01	1.669414e+02
3.290313e+06	-2.645487e+01	1.723547e+02	-3.115320e+01	-4.168653e+00	-8.577004e+01	-1.612625e+02	-2.639620e+01	1.669430e+02
3.290344e+06	-2.645567e+01	1.723605e+02	-3.115045e+01	-4.171856e+00	-8.832594e+01	-1.610512e+02	-2.639474e+01	1.669281e+02
3.290375e+06	-2.645647e+01	1.723663e+02	-3.114769e+01	-4.175073e+00	-9.204983e+01	-1.605606e+02	-2.639327e+01	1.669132e+02
3.290406e+06	-2.645728e+01	1.723721e+02	-3.114492e+01	-4.178288e+00	-9.870196e+01	-1.589404e+02	-2.639180e+01	1.668982e+02
3.290438e+06	-2.645808e+01	1.723779e+02	-3.114215e+01	-4.181500e+00	-1.145207e+02	-1.012619e+00	-2.639034e+01	1.668833e+02
3.290469e+06	-2.645889e+01	1.723837e+02	-3.113939e+01	-4.184711e+00	-9.638563e+01	1.571447e+01	-2.638887e+01	1.668683e+02
3.290500e+06	-2.645890e+01	1.723819e+02	-3.114007e+01	-4.173613e+00	-9.647361e+01	2.300313e+01	-2.638982e+01	1.668711e+02
3.290532e+06	-2.645891e+01	1.723802e+02	-3.114074e+01	-4.162513e+00	-9.642013e+01	3.032096e+01	-2.639078e+01	1.668739e+02
3.290563e+06	-2.645893e+01	1.723784e+02	-3.114142e+01	-4.151412e+00	-9.623022e+01	3.743552e+01	-2.639173e+01	1.668768e+02
3.290594e+06	-2.645894e+01	1.723766e+02	-3.114210e+01	-4.140309e+00	-9.592078e+01	4.415071e+01	-2.639268e+01	1.668796e+02
3.290625e+06	-2.645894e+01	1.723748e+02	-3.114277e+01	-4.129211e+00	-9.553573e+01	5.021812e+01	-2.639363e+01	1.668824e+02
3.290656e+06	-2.645813e+01	1.723673e+02	-3.114334e+01	-4.118982e+00	-9.768932e+01	3.918012e+01	-2.639400e+01	1.668854e+02
3.290688e+06	-2.645732e+01	1.723599e+02	-3.114390e+01	-4.108751e+00	-9.982727e+01	2.089164e+01	-2.639437e+01	1.668884e+02
3.290719e+06	-2.645650e+01	1.723524e+02	-3.114446e+01	-4.098519e+00	-1.009166e+02	-6.173795e+00	-2.639473e+01	1.668914e+02
3.290750e+06	-2.645569e+01	1.723449e+02	-3.114503e+01	-4.088285e+00	-9.995723e+01	-3.368142e+01	-2.639510e+01	1.668944e+02
3.290782e+06	-2.645490e+01	1.723375e+02	-3.114560e+01	-4.078365e+00	-9.795065e+01	-5.250924e+01	-2.639548e+01	1.668975e+02
3.290813e+06	-2.645530e+01	1.723402e+02	-3.114682e+01	-4.087785e+00	-1.032658e+02	-6.790323e+01	-2.639666e+01	1.669064e+02
3.290844e+06	-2.645570e+01	1.723429e+02	-3.114804e+01	-4.097209e+00	-1.086573e+02	-1.334911e+02	-2.639784e+01	1.669152e+02
3.290875e+06	-2.645610e+01	1.723456e+02	-3.114927e+01	-4.106635e+00	-1.022374e+02	1.725182e+02	-2.639903e+01	1.669240e+02
3.290906e+06	-2.645650e+01	1.723483e+02	-3.115049e+01	-4.116063e+00	-9.731675e+01	1.598551e+02	-2.640021e+01	1.669329e+02
3.290938e+06	-2.645691e+01	1.723510e+02	-3.115171e+01	-4.125495e+00	-9.407955e+01	1.549388e+02	-2.640139e+01	1.669417e+02
3.290969e+06	-2.645763e+01	1.723520e+02	-3.114984e+01	-4.139519e+00	-9.732785e+01	1.398914e+02	-2.640036e+01	1.669380e+02
3.291000e+06	-2.645836e+01	1.723530e+02	-3.114794e+01	-4.153575e+00	-1.004059e+02	1.070316e+02	-2.639932e+01	1.669343e+02
3.291032e+06	-2.645909e+01	1.723539e+02	-3.114604e+01	-4.167624e+00	-9.946307e+01	6.310050e+01	-2.639827e+01	1.669305e+02
3.291063e+06	-2.645981e+01	1.723549e+02	-3.114415e+01	-4.181668e+00	-9.599860e+01	3.841115e+01	-2.639723e+01	1.669267e+02
3.291094e+06	-2.646054e+01	1.723559e+02	-3.114225e+01	-4.195705e+00	-9.296361e+01	2.701177e+01	-2.639618e+01	1.669229e+02
3.291125e+06	-2.646059e+01	1.723600e+02	-3.114552e+01	-4.171572e+00	-9.241977e+01	2.873217e+01	-2.639622e+01	1.669246e+02
3.291156e+06	-2.646063e+01	1.723642e+02	-3.114879e+01	-4.147421e+00	-9.190144e+01	3.025449e+01	-2.639626e+01	1.669263e+02
3.291188e+06	-2.646068e+01	1.723683e+02	-3.115206e+01	-4.123252e+00	-9.140716e+01	3.160926e+01	-2.639631e+01	1.669280e+02
3.291219e+06	-2.646072e+01	1.723724e+02	-3.115533e+01	-4.099064e+00	-9.093537e+01	3.282141e+01	-2.639635e+01	1.669297e+02
3.291250e+06	-2.646076e+01	1.723765e+02	-3.115855e+01	-4.075271e+00	-9.050698e+01	3.380593e+01	-2.639639e+01	1.669314e+02
3.291282e+06	-2.646014e+01	1.723715e+02	-3.115607e+01	-4.102677e+00	-9.290507e+01	1.754318e+01	-2.639678e+01	1.669252e+02
3.291313e+06	-2.645951e+01	1.723666e+02	-3.115358e+01	-4.130066e+00	-9.460491e+01	-9.128030e+00	-2.639717e+01	1.669190e+02
3.291344e+06	-2.645888e+01	1.723617e+02	-3.115110e+01	-4.157440e+00	-9.406639e+01	-3.999737e+01	-2.639757e+01	1.669128e+02
3.291375e+06	-2.645825e+01	1.723567e+02	-3.114861e+01	-4.184799e+00	-9.187468e+01	-6.200269e+01	-2.639796e+01	1.669067e+02
3.291406e+06	-2.645765e+01	1.723520e+02	-3.114617e+01	-4.211365e+00	-8.956420e+01	-7.480471e+01	-2.639831e+01	1.669006e+02
3.291438e+06	-2.645906e+01	1.723574e+02	-3.114700e+01	-4.190181e+00	-9.039756e+01	-8.451000e+01	-2.639647e+01	1.669024e+02
3.291469e+06	-2.646046e+01	1.723628e+02	-3.114782e+01	-4.168992e+00	-9.099360e+01	-9.597306e+01	-2.639462e+01	1.669042e+02
3.291500e+06	-2.646187e+01	1.723682e+02	-3.114864e+01	-4.147800e+00	-9.122350e+01	-1.085976e+02	-2.639278e+01	1.669060e+02
3.291532e+06	-2.646327e+01	1.723736e+02	-3.114946e+01	-4.126603e+00	-9.102663e+01	-1.212711e+02	-2.639094e+01	1.669078e+02
3.291563e+06	-2.646468e+01	1.723790e+02	-3.115027e+01	-4.105403e+00	-9.045531e+01	-1.328563e+02	-2.638909e+01	1.669096e+02
3.291594e+06	-2.646151e+01	1.723812e+02	-3.114814e+01	-4.122104e+00	-9.166331e+01	-1.304811e+02	-2.639032e+01	1.669162e+02
3.291625e+06	-2.645831e+01	1.723834e+02	-3.114598e+01	-4.139103e+00	-9.306122e+01	-1.271287e+02	-2.639157e+01	1.669228e+02
3.291656e+06	-2.645510e+01	1.723856e+02	-3.114381e+01	-4.156094e+00	-9.467714e+01	-1.223830e+02	-2.639282e+01	1.669294e+02
3.291688e+06	-2.645190e+01	1.723878e+02	-3.114165e+01	-4.173075e+00	-9.655211e+01	-1.152797e+02	-2.639407e+01	1.669361e+02
3.291719e+06	-2.644870e+01	1.723900e+02	-3.113949e+01	-4.190049e+00	-9.866845e+01	-1.039889e+02	-2.639532e+01	1.669427e+02
3.291750e+06	-2.645053e+01	1.723917e+02	-3.113848e+01	-4.182165e+00	-9.968166e+01	-1.146076e+02	-2.639598e+01	1.669410e+02
3.291782e+06	-2.645236e+01	1.723933e+02	-3.113747e+01	-4.174283e+00	-1.004140e+02	-1.276273e+02	-2.639665e+01	1.669393e+02
3.291813e+06	-2.645419e+01	1.723950e+02	-3.113646e+01	-4.166403e+00	-1.006657e+02	-1.422417e+02	-2.639732e+01	1.669376e+02
3.291844e+06	-2.645601e+01	1.723966e+02	-3.113545e+01	-4.158525e+00	-1.003505e+02	-1.567474e+02	-2.639798e+01	1.669359e+02
3.291875e+06	-2.645782e+01	1.723982e+02	-3.113445e+01	-4.150721e+00	-9.963835e+01	-1.693266e+02	-2.639864e+01	1.669342e+02
3.291906e+06	-2.645613e+01	1.723871e+02	-3.113396e+01	-4.151978e+00	-1.107322e+02	-1.234680e+02	-2.639814e+01	1.669342e+02
3.291938e+06	-2.645444e+01	1.723760e+02	-3.113347e+01	-4.153236e+00	-1.023609e+02	-2.252007e+01	-2.639765e+01	1.669342e+02
3.291969e+06	-2.645275e+01	1.723650e+02	-3.113298e+01	-4.154493e+00	-9.589168e+01	-1.227691e+01	-2.639715e+01	1.669341e+02
3.292000e+06	-2.645106e+01	1.723539e+02	-3.113249e+01	-4.155749e+00	-9.216917e+01	-9.123703e+00	-2.639666e+01	1.669341e+02
3.292032e+06	-2.644942e+01	1.723432e+02	-3.113203e+01	-4.156751e+00	-8.960079e+01	-7.385943e+00	-2.639618e+01	1.669340e+02
3.292063e+06	-2.645074e+01	1.723532e+02	-3.113350e+01	-4.142092e+00	-8.945526e+01	7.212612e+00	-2.639683e+01	1.669299e+02
3.292094e+06	-2.645207e+01	1.723632e+02	-3.113497e+01	-4.127428e+00	-8.880881e+01	2.051441e+01	-2.639747e+01	1.669258e+02
3.292125e+06	-2.645339e+01	1.723732e+02	-3.113644e+01	-4.112759e+00	-8.784595e+01	3.153533e+01	-2.639812e+01	1.669216e+02
3.292156e+06	-2.645472e+01	1.723832e+02	-3.113790e+01	-4.098085e+00	-8.675050e+01	4.021057e+01	-2.639877e+01	1.669175e+02
3.292188e+06	-2.645604e+01	1.723932e+02	-3.113937e+01	-4.083406e+00	-8.564003e+01	4.692981e+01	-2.639941e+01	1.669133e+02
3.292219e+06	-2.645647e+01	1.723873e+02	-3.113866e+01	-4.099880e+00	-8.746737e+01	5.357887e+01	-2.639818e+01	1.669125e+02
3.292250e+06	-2.645690e+01	1.723813e+02	-3.113793e+01	-4.116602e+00	-8.957939e+01	6.409961e+01	-2.639692e+01	1.669117e+02
3.292282e+06	-2.645732e+01	1.723753e+02	-3.113719e+01	-4.133322e+00	-9.171903e+01	8.143083e+01	-2.639567e+01	1.669109e+02
3.292313e+06	-2.645775e+01	1.723692e+02	-3.113646e+01	-4.150038e+00	-9.295858e+01	1.075069e+02	-2.639441e+01	1.669101e+02
3.292344e+06	-2.645817e+01	1.723632e+02	-3.113573e+01	-4.166752e+00	-9.221644e+01	1.352477e+02	-2.639316e+01	1.669093e+02
3.292375e+06	-2.645799e+01	1.723667e+02	-3.114035e+01	-4.158398e+00	-9.521819e+01	1.252312e+02	-2.639343e+01	1.669150e+02
3.292406e+06	-2.645781e+01	1.723702e+02	-3.114497e+01	-4.150035e+00	-9.887426e+01	1.032473e+02	-2.639370e+01	1.669207e+02
3.292438e+06	-2.645762e+01	1.723737e+02	-3.114959e+01	-4.141663e+00	-1.006119e+02	5.909554e+01	-2.639397e+01	1.669264e+02
3.292469e+06	-2.645744e+01	1.723771e+02	-3.115422e+01	-4.133283e+00	-9.763132e+01	2.196103e+01	-2.639423e+01	1.669321e+02
3.292500e+06	-2.645727e+01	1.723806e+02	-3.115878e+01	-4.125000e+00	-9.417622e+01	5.391624e+00	-2.639450e+01	1.669378e+02
3.292532e+06	-2.645797e+01	1.723807e+02	-3.115539e+01	-4.129993e+00	-9.781037e+01	-3.994415e-01	-2.639436e+01	1.669440e+02
3.292563e+06	-2.645867e+01	1.723809e+02	-3.115200e+01	-4.134983e+00	-1.036294e+02	-1.783355e+01	-2.639422e+01	1.669502e+02
3.292594e+06	-2.645937e+01	1.723810e+02	-3.114862e+01	-4.139969e+00	-1.080522e+02	-9.478871e+01	-2.639408e+01	1.669564e+02
3.292625e+06	-2.646007e+01	1.723812e+02	-3.114523e+01	-4.144951e+00	-1.008370e+02	-1.397284e+02	-2.639394e+01	1.669625e+02
3.292656e+06	-2.646075e+01	1.723812e+02	-3.114191e+01	-4.149833e+00	-9.628437e+01	-1.497938e+02	-2.639383e+01	1.669685e+02
3.292688e+06	-2.646000e+01	1.723771e+02	-3.114255e+01	-4.148854e+00	-1.052669e+02	-1.217789e+02	-2.639549e+01	1.669650e+02
3.292719e+06	-2.645926e+01	1.723730e+02	-3.114320e+01	-4.147875e+00	-1.023028e+02	-1.169164e+01	-2.639715e+01	1.669615e+02
3.292750e+06	-2.645851e+01	1.723688e+02	-3.114384e+01	-4.146895e+00	-9.491346e+01	4.876209e+00	-2.639881e+01	1.669580e+02
3.292782e+06	-2.645776e+01	1.723647e+02	-3.114448e+01	-4.145916e+00	-9.085669e+01	9.254585e+00	-2.640047e+01	1.669545e+02
3.292813e+06	-2.645702e+01	1.723605e+02	-3.114512e+01	-4.144936e+00	-8.808549e+01	1.124792e+01	-2.640213e+01	1.669509e+02
3.292844e+06	-2.645745e+01	1.723645e+02	-3.114470e+01	-4.140873e+00	-8.934009e+01	1.581215e+01	-2.640045e+01	1.669507e+02
3.292875e+06	-2.645789e+01	1.723686e+02	-3.114426e+01	-4.136786e+00	-9.075626e+01	2.207325e+01	-2.639875e+01	1.669506e+02
3.292906e+06	-2.645833e+01	1.723727e+02	-3.114383e+01	-4.132700e+00	-9.227271e+01	3.086596e+01	-2.639705e+01	1.669504e+02
3.292938e+06	-2.645877e+01	1.723767e+02	-3.114339e+01	-4.128614e+00	-9.375491e+01	4.333353e+01	-2.639535e+01	1.669503e+02
3.292969e+06	-2.645921e+01	1.723808e+02	-3.114296e+01	-4.124528e+00	-9.486547e+01	6.025022e+01	-2.639365e+01	1.669501e+02
3.293000e+06	-2.645894e+01	1.723880e+02	-3.114501e+01	-4.130204e+00	-9.383734e+01	4.923848e+01	-2.639385e+01	1.669485e+02
3.293032e+06	-2.645867e+01	1.723953e+02	-3.114706e+01	-4.135883e+00	-9.269406e+01	4.068341e+01	-2.639404e+01	1.669469e+02
3.293063e+06	-2.645840e+01	1.724025e+02	-3.114911e+01	-4.141564e+00	-9.155166e+01	3.411779e+01	-2.639424e+01	1.669453e+02
3.293094e+06	-2.645813e+01	1.724097e+02	-3.115116e+01	-4.147249e+00	-9.046374e+01	2.904348e+01	-2.639444e+01	1.669437e+02
3.293125e+06	-2.645786e+01	1.724168e+02	-3.115317e+01	-4.152880e+00	-8.946327e+01	2.510067e+01	-2.639464e+01	1.669421e+02
3.293156e+06	-2.645755e+01	1.724096e+02	-3.115000e+01	-4.151626e+00	-9.027727e+01	2.651004e+01	-2.639555e+01	1.669384e+02
3.293188e+06	-2.645724e+01	1.724025e+02	-3.114682e+01	-4.150373e+00	-9.116843e+01	2.822519e+01	-2.639646e+01	1.669348e+02
3.293219e+06	-2.645694e+01	1.723953e+02	-3.114364e+01	-4.149121e+00	-9.215075e+01	3.035338e+01	-2.639737e+01	1.669311e+02
3.293250e+06	-2.645663e+01	1.723881e+02	-3.114046e+01	-4.147870e+00	-9.324122e+01	3.305555e+01	-2.639828e+01	1.669275e+02
3.293282e+06	-2.645632e+01	1.723810e+02	-3.113732e+01	-4.146919e+00	-9.446198e+01	3.627558e+01	-2.639916e+01	1.669240e+02
3.293313e+06	-2.645557e+01	1.723836e+02	-3.113625e+01	-4.164355e+00	-9.562711e+01	1.872633e+01	-2.639801e+01	1.669281e+02
3.293344e+06	-2.645482e+01	1.723861e+02	-3.113518e+01	-4.181787e+00	-9.586641e+01	-2.032925e+00	-2.639687e+01	1.669322e+02
3.293375e+06	-2.645407e+01	1.723886e+02	-3.113411e+01	-4.199214e+00	-9.503189e+01	-2.136038e+01	-2.639572e+01	1.669364e+02
3.293406e+06	-2.645332e+01	1.723912e+02	-3.113304e+01	-4.216637e+00	-9.358184e+01	-3.609977e+01	-2.639458e+01	1.669405e+02
3.293438e+06	-2.645258e+01	1.723937e+02	-3.113197e+01	-4.234056e+00	-9.199059e+01	-4.642661e+01	-2.639343e+01	1.669447e+02
3.293469e+06	-2.645425e+01	1.723876e+02	-3.113228e+01	-4.206882e+00	-9.352477e+01	-3.614945e+01	-2.639487e+01	1.669371e+02
3.293500e+06	-2.645595e+01	1.723814e+02	-3.113260e+01	-4.179347e+00	-9.492573e+01	-2.142454e+01	-2.639634e+01	1.669294e+02
3.293532e+06	-2.645764e+01	1.723752e+02	-3.113291e+01	-4.151810e+00	-9.570915e+01	-2.346422e+00	-2.639780e+01	1.669217e+02
3.293563e+06	-2.645933e+01	1.723691e+02	-3.113323e+01	-4.124270e+00	-9.545373e+01	1.797843e+01	-2.639927e+01	1.669140e+02
3.293594e+06	-2.646103e+01	1.723629e+02	-3.113354e+01	-4.096729e+00	-9.431221e+01	3.518038e+01	-2.640073e+01	1.669063e+02
3.293625e+06	-2.645943e+01	1.723711e+02	-3.113562e+01	-4.104641e+00	-9.745680e+01	5.192368e+01	-2.640017e+01	1.669185e+02
3.293656e+06	-2.645783e+01	1.723794e+02	-3.113771e+01	-4.112557e+00	-9.996427e+01	8.544403e+01	-2.639961e+01	1.669307e+02
