# Hz S dB R 50.000
3.288594e+06	-4.298847e+01	-9.876968e+01	-3.062160e+01	-6.224290e+00	-8.766285e+01	9.627602e+01	-5.742173e+01	9.516065e+01
3.288625e+06	-4.298638e+01	-9.872138e+01	-3.062326e+01	-6.221354e+00	-8.797329e+01	9.930372e+01	-5.744430e+01	9.469740e+01
3.288656e+06	-4.298429e+01	-9.867310e+01	-3.062491e+01	-6.218416e+00	-8.826825e+01	1.025502e+02	-5.746636e+01	9.423177e+01
3.288688e+06	-4.298219e+01	-9.862484e+01	-3.062657e+01	-6.215478e+00	-8.854275e+01	1.060169e+02	-5.748789e+01	9.376380e+01
3.288719e+06	-4.298009e+01	-9.857660e+01	-3.062823e+01	-6.212538e+00	-8.879133e+01	1.096991e+02	-5.750890e+01	9.329352e+01
3.288750e+06	-4.297809e+01	-9.852879e+01	-3.062986e+01	-6.209652e+00	-8.902782e+01	1.134823e+02	-5.752933e+01	9.282585e+01
3.288782e+06	-4.298927e+01	-9.852986e+01	-3.062860e+01	-6.213527e+00	-9.197615e+01	1.010251e+02	-5.754521e+01	9.295808e+01
3.288813e+06	-4.300046e+01	-9.853093e+01	-3.062735e+01	-6.217401e+00	-9.509858e+01	7.530858e+01	-5.756107e+01	9.309081e+01
3.288844e+06	-4.301166e+01	-9.853200e+01	-3.062609e+01	-6.221274e+00	-9.560695e+01	3.407767e+01	-5.757691e+01	9.322401e+01
3.288875e+06	-4.302288e+01	-9.853308e+01	-3.062484e+01	-6.225146e+00	-9.274098e+01	3.917318e+00	-5.759274e+01	9.335771e+01
3.288906e+06	-4.303385e+01	-9.853418e+01	-3.062357e+01	-6.228603e+00	-8.974214e+01	-1.069844e+01	-5.760720e+01	9.349012e+01
3.288938e+06	-4.302828e+01	-9.853689e+01	-3.062166e+01	-6.206600e+00	-9.196134e+01	-1.840842e+01	-5.753938e+01	9.351373e+01
3.288969e+06	-4.302271e+01	-9.853960e+01	-3.061974e+01	-6.184607e+00	-9.456384e+01	-3.192488e+01	-5.747208e+01	9.353697e+01
3.289000e+06	-4.301715e+01	-9.854230e+01	-3.061783e+01	-6.162623e+00	-9.698352e+01	-5.655069e+01	-5.740529e+01	9.355986e+01
3.289032e+06	-4.301159e+01	-9.854500e+01	-3.061591e+01	-6.140649e+00	-9.724586e+01	-9.112211e+01	-5.733902e+01	9.358240e+01
3.289063e+06	-4.300603e+01	-9.854770e+01	-3.061400e+01	-6.118685e+00	-9.502496e+01	-1.180509e+02	-5.727324e+01	9.360460e+01
3.289094e+06	-4.300489e+01	-9.855074e+01	-3.061353e+01	-6.148171e+00	-9.909879e+01	-9.516220e+01	-5.735872e+01	9.364013e+01
3.289125e+06	-4.300378e+01	-9.855379e+01	-3.061307e+01	-6.178069e+00	-1.008242e+02	-4.468238e+01	-5.744629e+01	9.367647e+01
3.289156e+06	-4.300267e+01	-9.855683e+01	-3.061261e+01	-6.207963e+00	-9.705288e+01	-7.127908e+00	-5.753474e+01	9.371357e+01
3.289188e+06	-4.300156e+01	-9.855988e+01	-3.061215e+01	-6.237855e+00	-9.331379e+01	7.747786e+00	-5.762410e+01	9.375143e+01
3.289219e+06	-4.300045e+01	-9.856292e+01	-3.061169e+01	-6.267743e+00	-9.050543e+01	1.468646e+01	-5.771438e+01	9.379008e+01
3.289250e+06	-4.299994e+01	-9.862952e+01	-3.061331e+01	-6.260737e+00	-9.380778e+01	3.458059e+01	-5.768255e+01	9.366631e+01
3.289282e+06	-4.299942e+01	-9.869611e+01	-3.061493e+01	-6.253729e+00	-9.575987e+01	7.312394e+01	-5.765080e+01	9.354344e+01
3.289313e+06	-4.299889e+01	-9.876269e+01	-3.061656e+01	-6.246718e+00	-9.358355e+01	1.105132e+02	-5.761913e+01	9.342146e+01
3.289344e+06	-4.299835e+01	-9.882926e+01	-3.061818e+01	-6.239704e+00	-9.029544e+01	1.293994e+02	-5.758753e+01	9.330037e+01
3.289375e+06	-4.299778e+01	-9.889478e+01	-3.061979e+01	-6.232750e+00	-8.760193e+01	1.386466e+02	-5.755570e+01	9.318221e+01
3.289406e+06	-4.299486e+01	-9.883096e+01	-3.061980e+01	-6.233478e+00	-9.089404e+01	1.368155e+02	-5.748566e+01	9.331701e+01
3.289438e+06	-4.299194e+01	-9.876718e+01	-3.061982e+01	-6.234205e+00	-9.621549e+01	1.318739e+02	-5.741613e+01	9.344967e+01
3.289469e+06	-4.298901e+01	-9.870345e+01	-3.061983e+01	-6.234933e+00	-1.091092e+02	8.733521e+01	-5.734711e+01	9.358023e+01
3.289500e+06	-4.298606e+01	-9.863976e+01	-3.061985e+01	-6.235661e+00	-9.873904e+01	-2.296968e+01	-5.727858e+01	9.370874e+01
3.289532e+06	-4.298321e+01	-9.857756e+01	-3.061987e+01	-6.236471e+00	-9.224214e+01	-3.048880e+01	-5.721215e+01	9.383236e+01
3.289563e+06	-4.298663e+01	-9.860417e+01	-3.062076e+01	-6.242348e+00	-9.064579e+01	-2.470958e+01	-5.724392e+01	9.377793e+01
3.289594e+06	-4.299005e+01	-9.863080e+01	-3.062164e+01	-6.248227e+00	-8.924423e+01	-2.062069e+01	-5.727579e+01	9.372309e+01
3.289625e+06	-4.299346e+01	-9.865745e+01	-3.062253e+01	-6.254107e+00	-8.800932e+01	-1.760342e+01	-5.730778e+01	9.366785e+01
3.289656e+06	-4.299688e+01	-9.868412e+01	-3.062341e+01	-6.259988e+00	-8.691206e+01	-1.529709e+01	-5.733987e+01	9.361220e+01
3.289688e+06	-4.300029e+01	-9.871082e+01	-3.062429e+01	-6.265870e+00	-8.592810e+01	-1.348234e+01	-5.737208e+01	9.355614e+01
3.289719e+06	-4.300030e+01	-9.867947e+01	-3.062339e+01	-6.260114e+00	-8.790930e+01	-6.511352e+00	-5.739679e+01	9.347681e+01
3.289750e+06	-4.300028e+01	-9.864766e+01	-3.062247e+01	-6.254265e+00	-9.023004e+01	5.058651e+00	-5.742149e+01	9.339684e+01
3.289782e+06	-4.300026e+01	-9.861585e+01	-3.062155e+01	-6.248417e+00	-9.254059e+01	2.504752e+01	-5.744624e+01	9.331641e+01
3.289813e+06	-4.300023e+01	-9.858404e+01	-3.062063e+01	-6.242571e+00	-9.352181e+01	5.500476e+01	-5.747104e+01	9.323553e+01
3.289844e+06	-4.300020e+01	-9.855223e+01	-3.061971e+01	-6.236726e+00	-9.214374e+01	8.349779e+01	-5.749590e+01	9.315418e+01
3.289875e+06	-4.300236e+01	-9.857485e+01	-3.061587e+01	-6.236464e+00	-9.393848e+01	8.073759e+01	-5.747857e+01	9.304266e+01
3.289906e+06	-4.300453e+01	-9.859747e+01	-3.061202e+01	-6.236202e+00	-9.616174e+01	7.635131e+01	-5.746125e+01	9.293159e+01
3.289938e+06	-4.300669e+01	-9.862011e+01	-3.060818e+01	-6.235940e+00	-9.902840e+01	6.845281e+01	-5.744392e+01	9.282096e+01
3.289969e+06	-4.300885e+01	-9.864276e+01	-3.060435e+01	-6.235679e+00	-1.027584e+02	5.137431e+01	-5.742660e+01	9.271077e+01
3.290000e+06	-4.301101e+01	-9.866514e+01	-3.060057e+01	-6.235375e+00	-1.058293e+02	1.109194e+01	-5.740971e+01	9.260525e+01
3.290032e+06	-4.301408e+01	-9.865305e+01	-3.060435e+01	-6.229689e+00	-9.987751e+01	-1.286891e+01	-5.744624e+01	9.302649e+01
3.290063e+06	-4.301715e+01	-9.864095e+01	-3.060813e+01	-6.223999e+00	-9.605408e+01	-2.044202e+01	-5.748245e+01	9.345128e+01
3.290094e+06	-4.302023e+01	-9.862885e+01	-3.061191e+01	-6.218303e+00	-9.335561e+01	-2.400812e+01	-5.751833e+01	9.387961e+01
3.290125e+06	-4.302330e+01	-9.861673e+01	-3.061569e+01	-6.212603e+00	-9.128443e+01	-2.606649e+01	-5.755387e+01	9.431148e+01
3.290156e+06	-4.302631e+01	-9.860454e+01	-3.061935e+01	-6.206943e+00	-8.962586e+01	-2.750007e+01	-5.758822e+01	9.473845e+01
3.290188e+06	-4.302545e+01	-9.858826e+01	-3.061574e+01	-6.204096e+00	-8.920404e+01	-3.432871e+01	-5.757112e+01	9.464955e+01
3.290219e+06	-4.302460e+01	-9.857198e+01	-3.061214e+01	-6.201251e+00	-8.869606e+01	-4.046132e+01	-5.755403e+01	9.456100e+01
3.290250e+06	-4.302375e+01	-9.855571e+01	-3.060853e+01	-6.198408e+00	-8.813299e+01	-4.588020e+01	-5.753696e+01	9.447280e+01
3.290282e+06	-4.302289e+01	-9.853944e+01	-3.060493e+01	-6.195568e+00	-8.754026e+01	-5.062228e+01	-5.751989e+01	9.438494e+01
3.290313e+06	-4.302204e+01	-9.852317e+01	-3.060133e+01	-6.192730e+00	-8.693680e+01	-5.475314e+01	-5.750285e+01	9.429743e+01
3.290344e+06	-4.301775e+01	-9.855704e+01	-3.060286e+01	-6.198425e+00	-8.899532e+01	-5.711003e+01	-5.744144e+01	9.396556e+01
3.290375e+06	-4.301343e+01	-9.859129e+01	-3.060443e+01	-6.204192e+00	-9.169809e+01	-6.117136e+01	-5.737981e+01	9.363641e+01
3.290406e+06	-4.300911e+01	-9.862550e+01	-3.060600e+01	-6.209960e+00	-9.549765e+01	-6.978244e+01	-5.731834e+01	9.331190e+01
3.290438e+06	-4.300479e+01	-9.865968e+01	-3.060757e+01	-6.215731e+00	-1.011286e+02	-9.610518e+01	-5.725703e+01	9.299193e+01
3.290469e+06	-4.300047e+01	-9.869382e+01	-3.060914e+01	-6.221504e+00	-1.020932e+02	-1.674649e+02	-5.719589e+01	9.267645e+01
3.290500e+06	-4.299930e+01	-9.867384e+01	-3.060892e+01	-6.221506e+00	-1.022797e+02	1.405894e+02	-5.723811e+01	9.293909e+01
3.290532e+06	-4.299813e+01	-9.865386e+01	-3.060871e+01	-6.221508e+00	-9.825755e+01	1.101702e+02	-5.728036e+01	9.320429e+01
3.290563e+06	-4.299696e+01	-9.863389e+01	-3.060849e+01	-6.221511e+00	-9.478383e+01	9.783582e+01	-5.732262e+01	9.347209e+01
3.290594e+06	-4.299579e+01	-9.861393e+01	-3.060827e+01	-6.221513e+00	-9.215976e+01	9.175893e+01	-5.736489e+01	9.374250e+01
3.290625e+06	-4.299464e+01	-9.859423e+01	-3.060806e+01	-6.221549e+00	-9.013228e+01	8.820613e+01	-5.740704e+01	9.401292e+01
3.290656e+06	-4.299611e+01	-9.860703e+01	-3.060773e+01	-6.225779e+00	-9.227454e+01	8.262953e+01	-5.743268e+01	9.395665e+01
3.290688e+06	-4.299759e+01	-9.861984e+01	-3.060741e+01	-6.230009e+00	-9.492622e+01	7.291407e+01	-5.745838e+01	9.390004e+01
3.290719e+06	-4.299906e+01	-9.863264e+01	-3.060708e+01	-6.234238e+00	-9.801292e+01	5.384421e+01	-5.748415e+01	9.384310e+01
3.290750e+06	-4.300053e+01	-9.864546e+01	-3.060676e+01	-6.238467e+00	-9.993859e+01	1.826494e+01	-5.750998e+01	9.378582e+01
3.290782e+06	-4.300201e+01	-9.865778e+01	-3.060645e+01	-6.242635e+00	-9.832743e+01	-1.766446e+01	-5.753552e+01	9.373398e+01
3.290813e+06	-4.300402e+01	-9.863974e+01	-3.060718e+01	-6.243069e+00	-1.082803e+02	-1.177946e+01	-5.753828e+01	9.403755e+01
3.290844e+06	-4.300602e+01	-9.862168e+01	-3.060791e+01	-6.243503e+00	-1.068887e+02	1.522740e+02	-5.754080e+01	9.434131e+01
3.290875e+06	-4.300802e+01	-9.860362e+01	-3.060864e+01	-6.243937e+00	-9.785640e+01	1.570202e+02	-5.754308e+01	9.464524e+01
3.290906e+06	-4.301002e+01	-9.858555e+01	-3.060937e+01	-6.244371e+00	-9.351739e+01	1.580372e+02	-5.754511e+01	9.494932e+01
3.290938e+06	-4.301202e+01	-9.856747e+01	-3.061009e+01	-6.244806e+00	-9.063631e+01	1.584801e+02	-5.754690e+01	9.525354e+01
3.290969e+06	-4.300513e+01	-9.854859e+01	-3.061085e+01	-6.251195e+00	-9.303728e+01	1.622558e+02	-5.751278e+01	9.514401e+01
3.291000e+06	-4.299816e+01	-9.852973e+01	-3.061160e+01	-6.257634e+00	-9.632918e+01	1.696129e+02	-5.747849e+01	9.503203e+01
3.291032e+06	-4.299120e+01	-9.851090e+01	-3.061236e+01	-6.264074e+00	-1.010294e+02	-1.716416e+02	-5.744429e+01	9.492093e+01
3.291063e+06	-4.298425e+01	-9.849210e+01	-3.061311e+01	-6.270516e+00	-1.045550e+02	-1.156976e+02	-5.741019e+01	9.481071e+01
3.291094e+06	-4.297730e+01	-9.847333e+01	-3.061387e+01	-6.276958e+00	-9.994530e+01	-6.870398e+01	-5.737620e+01	9.470134e+01
3.291125e+06	-4.298493e+01	-9.853591e+01	-3.061438e+01	-6.269591e+00	-1.018943e+02	-8.171469e+01	-5.743621e+01	9.451153e+01
3.291156e+06	-4.299256e+01	-9.859860e+01	-3.061489e+01	-6.262224e+00	-1.035141e+02	-1.015630e+02	-5.749655e+01	9.431906e+01
3.291188e+06	-4.300018e+01	-9.866140e+01	-3.061540e+01	-6.254855e+00	-1.038840e+02	-1.268363e+02	-5.755720e+01	9.412390e+01
3.291219e+06	-4.300780e+01	-9.872431e+01	-3.061591e+01	-6.247486e+00	-1.026967e+02	-1.497033e+02	-5.761818e+01	9.392598e+01
3.291250e+06	-4.301534e+01	-9.878673e+01	-3.061641e+01	-6.240136e+00	-1.008321e+02	-1.653374e+02	-5.767874e+01	9.372816e+01
3.291282e+06	-4.301447e+01	-9.877449e+01	-3.061499e+01	-6.235210e+00	-1.022544e+02	-1.528502e+02	-5.764714e+01	9.388819e+01
3.291313e+06	-4.301359e+01	-9.876224e+01	-3.061357e+01	-6.230285e+00	-1.032931e+02	-1.361691e+02	-5.761558e+01	9.404706e+01
3.291344e+06	-4.301271e+01	-9.875000e+01	-3.061215e+01	-6.225363e+00	-1.035077e+02	-1.168032e+02	-5.758408e+01	9.420478e+01
3.291375e+06	-4.301183e+01	-9.873776e+01	-3.061073e+01	-6.220442e+00	-1.027794e+02	-9.858979e+01	-5.755262e+01	9.436136e+01
3.291406e+06	-4.301092e+01	-9.872553e+01	-3.060934e+01	-6.215540e+00	-1.014617e+02	-8.399888e+01	-5.752144e+01	9.451098e+01
3.291438e+06	-4.300799e+01	-9.871375e+01	-3.061022e+01	-6.211759e+00	-9.893915e+01	-6.137956e+01	-5.750383e+01	9.430227e+01
3.291469e+06	-4.300506e+01	-9.870197e+01	-3.061109e+01	-6.207976e+00	-9.639184e+01	-4.899057e+01	-5.748614e+01	9.409440e+01
3.291500e+06	-4.300213e+01	-9.869021e+01	-3.061196e+01	-6.204193e+00	-9.423695e+01	-4.181805e+01	-5.746837e+01	9.388738e+01
3.291532e+06	-4.299920e+01	-9.867845e+01	-3.061283e+01	-6.200409e+00	-9.244110e+01	-3.727388e+01	-5.745052e+01	9.368121e+01
3.291563e+06	-4.299627e+01	-9.866669e+01	-3.061370e+01	-6.196624e+00	-9.092227e+01	-3.417305e+01	-5.743260e+01	9.347588e+01
3.291594e+06	-4.300023e+01	-9.871352e+01	-3.061321e+01	-6.205070e+00	-9.469018e+01	-3.008555e+01	-5.747819e+01	9.379967e+01
3.291625e+06	-4.300424e+01	-9.876085e+01	-3.061271e+01	-6.213613e+00	-1.012916e+02	-1.642337e+01	-5.752426e+01	9.413120e+01
3.291656e+06	-4.300825e+01	-9.880824e+01	-3.061221e+01	-6.222155e+00	-1.071228e+02	8.233543e+01	-5.757027e+01	9.446627e+01
3.291688e+06	-4.301225e+01	-9.885566e+01	-3.061170e+01	-6.230697e+00	-9.757016e+01	1.224202e+02	-5.761622e+01	9.480491e+01
3.291719e+06	-4.301625e+01	-9.890313e+01	-3.061120e+01	-6.239237e+00	-9.266787e+01	1.294233e+02	-5.766211e+01	9.514714e+01
3.291750e+06	-4.300797e+01	-9.881909e+01	-3.060861e+01	-6.252752e+00	-9.623767e+01	1.469241e+02	-5.762202e+01	9.498962e+01
3.291782e+06	-4.299968e+01	-9.873521e+01	-3.060602e+01	-6.266259e+00	-9.906910e+01	-1.741450e+02	-5.758205e+01	9.483354e+01
3.291813e+06	-4.299137e+01	-9.865149e+01	-3.060343e+01	-6.279758e+00	-9.700490e+01	-1.307983e+02	-5.754220e+01	9.467889e+01
3.291844e+06	-4.298306e+01	-9.856792e+01	-3.060084e+01	-6.293249e+00	-9.333483e+01	-1.100228e+02	-5.750247e+01	9.452566e+01
3.291875e+06	-4.297487e+01	-9.848536e+01	-3.059829e+01	-6.306534e+00	-9.041401e+01	-1.006386e+02	-5.746315e+01	9.437584e+01
3.291906e+06	-4.298358e+01	-9.850619e+01	-3.060094e+01	-6.295295e+00	-9.342090e+01	-1.140556e+02	-5.745987e+01	9.447836e+01
3.291938e+06	-4.299230e+01	-9.852707e+01	-3.060359e+01	-6.284049e+00	-9.644748e+01	-1.417502e+02	-5.745656e+01	9.458081e+01
3.291969e+06	-4.300102e+01	-9.854800e+01	-3.060623e+01	-6.272796e+00	-9.649409e+01	1.767937e+02	-5.745322e+01	9.468317e+01
3.292000e+06	-4.300976e+01	-9.856896e+01	-3.060888e+01	-6.261536e+00	-9.349074e+01	1.486924e+02	-5.744986e+01	9.478546e+01
3.292032e+06	-4.301842e+01	-9.858930e+01	-3.061147e+01	-6.250230e+00	-9.053482e+01	1.351828e+02	-5.744647e+01	9.488539e+01
3.292063e+06	-4.302204e+01	-9.856897e+01	-3.061012e+01	-6.236452e+00	-9.180061e+01	1.320758e+02	-5.744312e+01	9.484556e+01
3.292094e+06	-4.302567e+01	-9.854862e+01	-3.060876e+01	-6.222679e+00	-9.324148e+01	1.278308e+02	-5.743978e+01	9.480576e+01
3.292125e+06	-4.302929e+01	-9.852825e+01	-3.060741e+01	-6.208911e+00	-9.488690e+01	1.217691e+02	-5.743643e+01	9.476599e+01
3.292156e+06	-4.303292e+01	-9.850787e+01	-3.060605e+01	-6.195146e+00	-9.673514e+01	1.126848e+02	-5.743307e+01	9.472626e+01
3.292188e+06	-4.303654e+01	-9.848746e+01	-3.060470e+01	-6.181386e+00	-9.864593e+01	9.859822e+01	-5.742972e+01	9.468655e+01
3.292219e+06	-4.303070e+01	-9.853477e+01	-3.060734e+01	-6.191314e+00	-9.997295e+01	3.299985e+01	-5.743482e+01	9.446573e+01
3.292250e+06	-4.302477e+01	-9.858255e+01	-3.061001e+01	-6.201438e+00	-9.459316e+01	-2.038603e+00	-5.743986e+01	9.424320e+01
3.292282e+06	-4.301885e+01	-9.863027e+01	-3.061268e+01	-6.211569e+00	-9.056739e+01	-1.324913e+01	-5.744478e+01	9.402040e+01
3.292313e+06	-4.301292e+01	-9.867793e+01	-3.061535e+01	-6.221707e+00	-8.771764e+01	-1.830318e+01	-5.744956e+01	9.379736e+01
3.292344e+06	-4.300699e+01	-9.872552e+01	-3.061802e+01	-6.231850e+00	-8.554586e+01	-2.113572e+01	-5.745422e+01	9.357408e+01
3.292375e+06	-4.300648e+01	-9.871883e+01	-3.061562e+01	-6.226667e+00	-8.609118e+01	-1.511972e+01	-5.745312e+01	9.393773e+01
3.292406e+06	-4.300597e+01	-9.871215e+01	-3.061322e+01	-6.221486e+00	-8.655810e+01	-8.356862e+00	-5.745167e+01	9.430127e+01
3.292438e+06	-4.300546e+01	-9.870546e+01	-3.061082e+01	-6.216308e+00	-8.691096e+01	-9.210134e-01	-5.744987e+01	9.466468e+01
3.292469e+06	-4.300495e+01	-9.869878e+01	-3.060842e+01	-6.211134e+00	-8.711626e+01	7.011423e+00	-5.744772e+01	9.502793e+01
3.292500e+06	-4.300450e+01	-9.869216e+01	-3.060604e+01	-6.206066e+00	-8.715862e+01	1.504922e+01	-5.744531e+01	9.538561e+01
3.292532e+06	-4.301140e+01	-9.869375e+01	-3.060595e+01	-6.213991e+00	-8.797335e+01	7.673704e+00	-5.745444e+01	9.507766e+01
3.292563e+06	-4.301830e+01	-9.869535e+01	-3.060586e+01	-6.221915e+00	-8.868254e+01	-1.126589e+00	-5.746333e+01	9.476906e+01
3.292594e+06	-4.302521e+01	-9.869694e+01	-3.060578e+01	-6.229839e+00	-8.919749e+01	-1.127194e+01	-5.747197e+01	9.445985e+01
3.292625e+06	-4.303213e+01	-9.869854e+01	-3.060569e+01	-6.237762e+00	-8.942971e+01	-2.233965e+01	-5.748037e+01	9.415002e+01
3.292656e+06	-4.303879e+01	-9.869999e+01	-3.060559e+01	-6.245453e+00	-8.935414e+01	-3.329168e+01	-5.748833e+01	9.384564e+01
3.292688e+06	-4.302948e+01	-9.869186e+01	-3.060473e+01	-6.238843e+00	-9.053248e+01	-2.517764e+01	-5.748429e+01	9.391208e+01
3.292719e+06	-4.302018e+01	-9.868374e+01	-3.060387e+01	-6.232234e+00	-9.163172e+01	-1.460629e+01	-5.748025e+01	9.397846e+01
3.292750e+06	-4.301089e+01	-9.867564e+01	-3.060302e+01	-6.225627e+00	-9.246492e+01	-1.357921e+00	-5.747619e+01	9.404478e+01
3.292782e+06	-4.300161e+01	-9.866756e+01	-3.060216e+01	-6.219021e+00	-9.279902e+01	1.383896e+01	-5.747213e+01	9.411104e+01
3.292813e+06	-4.299234e+01	-9.865949e+01	-3.060131e+01	-6.212416e+00	-9.251139e+01	2.911934e+01	-5.746805e+01	9.417723e+01
3.292844e+06	-4.299932e+01	-9.863910e+01	-3.060243e+01	-6.212814e+00	-9.339922e+01	4.246125e+01	-5.750529e+01	9.397801e+01
3.292875e+06	-4.300642e+01	-9.861857e+01	-3.060357e+01	-6.213269e+00	-9.379588e+01	5.797809e+01	-5.754291e+01	9.377491e+01
3.292906e+06	-4.301353e+01	-9.859801e+01	-3.060472e+01	-6.213724e+00	-9.353734e+01	7.375007e+01	-5.758059e+01	9.357004e+01
3.292938e+06	-4.302065e+01	-9.857741e+01	-3.060586e+01	-6.214179e+00	-9.272498e+01	8.765322e+01	-5.761831e+01	9.336339e+01
3.292969e+06	-4.302777e+01	-9.855678e+01	-3.060700e+01	-6.214634e+00	-9.160809e+01	9.874745e+01	-5.765609e+01	9.315493e+01
3.293000e+06	-4.302366e+01	-9.855847e+01	-3.060728e+01	-6.203733e+00	-9.145220e+01	1.032817e+02	-5.763011e+01	9.361238e+01
3.293032e+06	-4.301956e+01	-9.856016e+01	-3.060755e+01	-6.192830e+00	-9.124781e+01	1.076313e+02	-5.760367e+01	9.406707e+01
3.293063e+06	-4.301546e+01	-9.856184e+01	-3.060783e+01	-6.181928e+00	-9.100169e+01	1.117607e+02	-5.757676e+01	9.451898e+01
3.293094e+06	-4.301136e+01	-9.856353e+01	-3.060811e+01	-6.171024e+00	-9.072107e+01	1.156468e+02	-5.754940e+01	9.496808e+01
3.293125e+06	-4.300730e+01	-9.856523e+01	-3.060838e+01	-6.160237e+00	-9.043254e+01	1.192211e+02	-5.752166e+01	9.540911e+01
3.293156e+06	-4.300803e+01	-9.856885e+01	-3.060809e+01	-6.164016e+00	-9.283003e+01	1.144810e+02	-5.750140e+01	9.520229e+01
3.293188e+06	-4.300877e+01	-9.857247e+01	-3.060779e+01	-6.167794e+00	-9.598767e+01	1.054685e+02	-5.748108e+01	9.499644e+01
3.293219e+06	-4.300951e+01	-9.857610e+01	-3.060750e+01	-6.171572e+00	-1.001171e+02	8.421597e+01	-5.746070e+01	9.479155e+01
3.293250e+06	-4.301024e+01	-9.857972e+01	-3.060721e+01	-6.175349e+00	-1.024031e+02	3.486869e+01	-5.744025e+01	9.458762e+01
3.293282e+06	-4.301101e+01	-9.858360e+01	-3.060693e+01	-6.179233e+00	-9.885864e+01	-5.857846e+00	-5.742009e+01	9.438545e+01
3.293313e+06	-4.301368e+01	-9.860326e+01	-3.060770e+01	-6.189661e+00	-9.790534e+01	-3.779752e+01	-5.742157e+01	9.423277e+01
3.293344e+06	-4.301634e+01	-9.862293e+01	-3.060847e+01	-6.200092e+00	-9.544695e+01	-5.872490e+01	-5.742298e+01	9.408004e+01
3.293375e+06	-4.301900e+01	-9.864261e+01	-3.060924e+01	-6.210524e+00	-9.301014e+01	-7.045475e+01	-5.742433e+01	9.392726e+01
3.293406e+06	-4.302167e+01	-9.866230e+01	-3.061001e+01	-6.220958e+00	-9.093594e+01	-7.740129e+01	-5.742561e+01	9.377443e+01
3.293438e+06	-4.302433e+01	-9.868200e+01	-3.061078e+01	-6.231395e+00	-8.919503e+01	-8.187213e+01	-5.742684e+01	9.362156e+01
3.293469e+06	-4.302310e+01	-9.863820e+01	-3.060759e+01	-6.233106e+00	-9.131013e+01	-6.521972e+01	-5.745161e+01	9.365289e+01
3.293500e+06	-4.302184e+01	-9.859390e+01	-3.060437e+01	-6.234747e+00	-9.263950e+01	-3.969902e+01	-5.747665e+01	9.368590e+01
3.293532e+06	-4.302058e+01	-9.854962e+01	-3.060114e+01	-6.236386e+00	-9.202718e+01	-1.180007e+01	-5.750175e+01	9.371909e+01
3.293563e+06	-4.301931e+01	-9.850534e+01	-3.059792e+01	-6.238023e+00	-9.005706e+01	8.538757e+00	-5.752692e+01	9.375248e+01
3.293594e+06	-4.301803e+01	-9.846108e+01	-3.059470e+01	-6.239660e+00	-8.789321e+01	2.100979e+01	-5.755216e+01	9.378606e+01
