# Hz S dB R 50.000
3.288594e+06	-2.644424e+01	1.722200e+02	-3.114736e+01	-4.061054e+00	-8.689687e+01	5.670484e+01	-2.641667e+01	1.666436e+02
3.288625e+06	-2.644471e+01	1.722222e+02	-3.114839e+01	-4.060033e+00	-8.918372e+01	5.675784e+01	-2.641698e+01	1.666468e+02
3.288656e+06	-2.644519e+01	1.722244e+02	-3.114943e+01	-4.059011e+00	-9.229659e+01	5.685653e+01	-2.641729e+01	1.666501e+02
3.288688e+06	-2.644566e+01	1.722266e+02	-3.115046e+01	-4.057990e+00	-9.719443e+01	5.710473e+01	-2.641760e+01	1.666533e+02
3.288719e+06	-2.644614e+01	1.722288e+02	-3.115149e+01	-4.056968e+00	-1.094948e+02	5.890271e+01	-2.641790e+01	1.666566e+02
3.288750e+06	-2.644660e+01	1.722311e+02	-3.115251e+01	-4.056044e+00	-1.030959e+02	-1.243604e+02	-2.641821e+01	1.666598e+02
3.288782e+06	-2.644597e+01	1.722416e+02	-3.115159e+01	-4.067266e+00	-1.061746e+02	-7.528227e+01	-2.641785e+01	1.666581e+02
3.288813e+06	-2.644533e+01	1.722522e+02	-3.115067e+01	-4.078486e+00	-1.025629e+02	-2.999544e+01	-2.641749e+01	1.666565e+02
3.288844e+06	-2.644469e+01	1.722627e+02	-3.114975e+01	-4.089703e+00	-9.844927e+01	-1.301785e+01	-2.641713e+01	1.666549e+02
3.288875e+06	-2.644406e+01	1.722732e+02	-3.114884e+01	-4.100918e+00	-9.542733e+01	-5.640130e+00	-2.641676e+01	1.666532e+02
3.288906e+06	-2.644343e+01	1.722834e+02	-3.114791e+01	-4.111656e+00	-9.318118e+01	-1.557470e+00	-2.641642e+01	1.666516e+02
3.288938e+06	-2.644337e+01	1.722726e+02	-3.114677e+01	-4.093237e+00	-9.432812e+01	8.559983e+00	-2.641678e+01	1.666516e+02
3.288969e+06	-2.644332e+01	1.722618e+02	-3.114563e+01	-4.074823e+00	-9.525086e+01	2.144132e+01	-2.641715e+01	1.666515e+02
3.289000e+06	-2.644326e+01	1.722510e+02	-3.114449e+01	-4.056414e+00	-9.570678e+01	3.658735e+01	-2.641752e+01	1.666515e+02
3.289032e+06	-2.644321e+01	1.722402e+02	-3.114335e+01	-4.038010e+00	-9.552994e+01	5.224039e+01	-2.641789e+01	1.666514e+02
3.289063e+06	-2.644315e+01	1.722294e+02	-3.114221e+01	-4.019610e+00	-9.478884e+01	6.628943e+01	-2.641826e+01	1.666514e+02
3.289094e+06	-2.644365e+01	1.722280e+02	-3.114185e+01	-4.027176e+00	-9.523410e+01	5.046586e+01	-2.641812e+01	1.666532e+02
3.289125e+06	-2.644416e+01	1.722267e+02	-3.114150e+01	-4.034950e+00	-9.498633e+01	3.401389e+01	-2.641798e+01	1.666551e+02
3.289156e+06	-2.644467e+01	1.722253e+02	-3.114115e+01	-4.042724e+00	-9.413628e+01	1.956090e+01	-2.641785e+01	1.666570e+02
3.289188e+06	-2.644518e+01	1.722240e+02	-3.114080e+01	-4.050497e+00	-9.296377e+01	8.156148e+00	-2.641771e+01	1.666588e+02
3.289219e+06	-2.644569e+01	1.722227e+02	-3.114045e+01	-4.058270e+00	-9.170082e+01	-4.353718e-01	-2.641757e+01	1.666607e+02
3.289250e+06	-2.644589e+01	1.722261e+02	-3.114254e+01	-4.061023e+00	-9.217433e+01	9.144725e-01	-2.641777e+01	1.666593e+02
3.289282e+06	-2.644609e+01	1.722295e+02	-3.114463e+01	-4.063776e+00	-9.266944e+01	2.423596e+00	-2.641797e+01	1.666579e+02
3.289313e+06	-2.644629e+01	1.722329e+02	-3.114672e+01	-4.066532e+00	-9.318729e+01	4.119440e+00	-2.641817e+01	1.666564e+02
3.289344e+06	-2.644648e+01	1.722363e+02	-3.114881e+01	-4.069288e+00	-9.372883e+01	6.035342e+00	-2.641837e+01	1.666550e+02
3.289375e+06	-2.644668e+01	1.722397e+02	-3.115090e+01	-4.071942e+00	-9.430127e+01	8.220851e+00	-2.641857e+01	1.666537e+02
3.289406e+06	-2.644634e+01	1.722403e+02	-3.115164e+01	-4.061637e+00	-9.581965e+01	1.233299e+01	-2.641840e+01	1.666617e+02
3.289438e+06	-2.644601e+01	1.722409e+02	-3.115237e+01	-4.051330e+00	-9.758027e+01	1.833699e+01	-2.641824e+01	1.666697e+02
3.289469e+06	-2.644567e+01	1.722414e+02	-3.115311e+01	-4.041021e+00	-9.960097e+01	2.763994e+01	-2.641808e+01	1.666778e+02
3.289500e+06	-2.644534e+01	1.722420e+02	-3.115385e+01	-4.030711e+00	-1.017396e+02	4.276623e+01	-2.641791e+01	1.666858e+02
3.289532e+06	-2.644500e+01	1.722426e+02	-3.115457e+01	-4.020541e+00	-1.032963e+02	6.576417e+01	-2.641775e+01	1.666937e+02
3.289563e+06	-2.644447e+01	1.722442e+02	-3.115376e+01	-4.019086e+00	-1.033357e+02	5.737899e+01	-2.641767e+01	1.666956e+02
3.289594e+06	-2.644394e+01	1.722457e+02	-3.115295e+01	-4.017632e+00	-1.031910e+02	4.909554e+01	-2.641759e+01	1.666974e+02
3.289625e+06	-2.644341e+01	1.722472e+02	-3.115214e+01	-4.016178e+00	-1.028796e+02	4.123867e+01	-2.641752e+01	1.666993e+02
3.289656e+06	-2.644288e+01	1.722488e+02	-3.115133e+01	-4.014725e+00	-1.024345e+02	3.404082e+01	-2.641744e+01	1.667011e+02
3.289688e+06	-2.644234e+01	1.722503e+02	-3.115053e+01	-4.013272e+00	-1.018947e+02	2.761798e+01	-2.641736e+01	1.667030e+02
3.289719e+06	-2.644278e+01	1.722550e+02	-3.115118e+01	-4.016677e+00	-1.069395e+02	4.769377e+01	-2.641731e+01	1.666928e+02
3.289750e+06	-2.644321e+01	1.722598e+02	-3.115184e+01	-4.020121e+00	-1.100898e+02	1.107497e+02	-2.641726e+01	1.666824e+02
3.289782e+06	-2.644365e+01	1.722646e+02	-3.115250e+01	-4.023567e+00	-1.046982e+02	1.542773e+02	-2.641721e+01	1.666721e+02
3.289813e+06	-2.644409e+01	1.722693e+02	-3.115317e+01	-4.027013e+00	-1.003367e+02	1.672253e+02	-2.641715e+01	1.666618e+02
3.289844e+06	-2.644453e+01	1.722741e+02	-3.115383e+01	-4.030459e+00	-9.731132e+01	1.727184e+02	-2.641710e+01	1.666515e+02
3.289875e+06	-2.644422e+01	1.722754e+02	-3.115198e+01	-4.038245e+00	-9.784059e+01	-1.689790e+02	-2.641756e+01	1.666495e+02
3.289906e+06	-2.644392e+01	1.722766e+02	-3.115013e+01	-4.046028e+00	-9.745296e+01	-1.503645e+02	-2.641803e+01	1.666474e+02
3.289938e+06	-2.644361e+01	1.722779e+02	-3.114828e+01	-4.053808e+00	-9.634938e+01	-1.347690e+02	-2.641849e+01	1.666454e+02
3.289969e+06	-2.644330e+01	1.722791e+02	-3.114643e+01	-4.061584e+00	-9.494254e+01	-1.231524e+02	-2.641895e+01	1.666433e+02
3.290000e+06	-2.644301e+01	1.722804e+02	-3.114461e+01	-4.069207e+00	-9.355148e+01	-1.147355e+02	-2.641941e+01	1.666413e+02
3.290032e+06	-2.644463e+01	1.722764e+02	-3.114571e+01	-4.058229e+00	-9.780660e+01	-8.827346e+01	-2.641889e+01	1.666463e+02
3.290063e+06	-2.644625e+01	1.722725e+02	-3.114680e+01	-4.047248e+00	-9.867206e+01	-3.480905e+01	-2.641837e+01	1.666514e+02
3.290094e+06	-2.644787e+01	1.722686e+02	-3.114790e+01	-4.036265e+00	-9.453949e+01	-1.332248e+00	-2.641785e+01	1.666564e+02
3.290125e+06	-2.644949e+01	1.722647e+02	-3.114900e+01	-4.025278e+00	-9.089797e+01	1.169310e+01	-2.641733e+01	1.666614e+02
3.290156e+06	-2.645106e+01	1.722607e+02	-3.115007e+01	-4.014730e+00	-8.824169e+01	1.794675e+01	-2.641683e+01	1.666664e+02
3.290188e+06	-2.644977e+01	1.722546e+02	-3.114965e+01	-4.031317e+00	-8.979214e+01	2.582573e+01	-2.641715e+01	1.666704e+02
3.290219e+06	-2.644848e+01	1.722485e+02	-3.114922e+01	-4.047901e+00	-9.138806e+01	3.718282e+01	-2.641747e+01	1.666744e+02
3.290250e+06	-2.644719e+01	1.722424e+02	-3.114879e+01	-4.064484e+00	-9.274648e+01	5.324635e+01	-2.641779e+01	1.666784e+02
3.290282e+06	-2.644590e+01	1.722363e+02	-3.114836e+01	-4.081066e+00	-9.333782e+01	7.350993e+01	-2.641811e+01	1.666824e+02
3.290313e+06	-2.644461e+01	1.722301e+02	-3.114793e+01	-4.097645e+00	-9.281064e+01	9.393042e+01	-2.641843e+01	1.666864e+02
3.290344e+06	-2.644484e+01	1.722394e+02	-3.114665e+01	-4.090269e+00	-9.553512e+01	9.098808e+01	-2.641925e+01	1.666853e+02
3.290375e+06	-2.644508e+01	1.722488e+02	-3.114537e+01	-4.082702e+00	-9.949757e+01	8.423688e+01	-2.642008e+01	1.666843e+02
3.290406e+06	-2.644531e+01	1.722581e+02	-3.114408e+01	-4.075138e+00	-1.060379e+02	6.103931e+01	-2.642091e+01	1.666832e+02
3.290438e+06	-2.644555e+01	1.722675e+02	-3.114280e+01	-4.067575e+00	-1.075753e+02	-2.565197e+01	-2.642174e+01	1.666822e+02
3.290469e+06	-2.644579e+01	1.722769e+02	-3.114151e+01	-4.060015e+00	-1.004579e+02	-5.732986e+01	-2.642257e+01	1.666811e+02
3.290500e+06	-2.644498e+01	1.722791e+02	-3.114177e+01	-4.051587e+00	-1.081483e+02	1.624033e+01	-2.642250e+01	1.666911e+02
3.290532e+06	-2.644417e+01	1.722814e+02	-3.114203e+01	-4.043158e+00	-9.961553e+01	7.675879e+01	-2.642243e+01	1.667011e+02
3.290563e+06	-2.644336e+01	1.722836e+02	-3.114229e+01	-4.034728e+00	-9.429677e+01	8.693547e+01	-2.642235e+01	1.667111e+02
3.290594e+06	-2.644255e+01	1.722859e+02	-3.114254e+01	-4.026298e+00	-9.095293e+01	9.067225e+01	-2.642228e+01	1.667212e+02
3.290625e+06	-2.644175e+01	1.722880e+02	-3.114281e+01	-4.018028e+00	-8.855768e+01	9.255151e+01	-2.642220e+01	1.667310e+02
3.290656e+06	-2.644225e+01	1.722813e+02	-3.114355e+01	-4.029699e+00	-8.996507e+01	8.784968e+01	-2.642153e+01	1.667162e+02
3.290688e+06	-2.644274e+01	1.722745e+02	-3.114430e+01	-4.041371e+00	-9.154539e+01	8.121014e+01	-2.642086e+01	1.667014e+02
3.290719e+06	-2.644323e+01	1.722678e+02	-3.114505e+01	-4.053045e+00	-9.326582e+01	7.147610e+01	-2.642019e+01	1.666866e+02
3.290750e+06	-2.644373e+01	1.722610e+02	-3.114580e+01	-4.064722e+00	-9.494018e+01	5.700270e+01	-2.641952e+01	1.666718e+02
3.290782e+06	-2.644421e+01	1.722543e+02	-3.114650e+01	-4.076086e+00	-9.605597e+01	3.694806e+01	-2.641885e+01	1.666575e+02
3.290813e+06	-2.644437e+01	1.722507e+02	-3.114463e+01	-4.068135e+00	-9.644727e+01	1.952110e+01	-2.641832e+01	1.666713e+02
3.290844e+06	-2.644454e+01	1.722471e+02	-3.114277e+01	-4.060187e+00	-9.602536e+01	2.157402e+00	-2.641779e+01	1.666850e+02
3.290875e+06	-2.644470e+01	1.722435e+02	-3.114090e+01	-4.052243e+00	-9.498488e+01	-1.244987e+01	-2.641726e+01	1.666988e+02
3.290906e+06	-2.644486e+01	1.722399e+02	-3.113903e+01	-4.044303e+00	-9.367117e+01	-2.353802e+01	-2.641673e+01	1.667125e+02
3.290938e+06	-2.644502e+01	1.722363e+02	-3.113716e+01	-4.036365e+00	-9.232106e+01	-3.167409e+01	-2.641619e+01	1.667263e+02
3.290969e+06	-2.644742e+01	1.722425e+02	-3.113814e+01	-4.036621e+00	-9.597512e+01	-2.211091e+01	-2.641648e+01	1.667220e+02
3.291000e+06	-2.644983e+01	1.722487e+02	-3.113914e+01	-4.036942e+00	-1.010821e+02	5.431306e+00	-2.641678e+01	1.667175e+02
3.291032e+06	-2.645225e+01	1.722550e+02	-3.114013e+01	-4.037264e+00	-1.017574e+02	6.956006e+01	-2.641707e+01	1.667131e+02
3.291063e+06	-2.645467e+01	1.722612e+02	-3.114113e+01	-4.037585e+00	-9.659640e+01	1.020292e+02	-2.641737e+01	1.667086e+02
3.291094e+06	-2.645709e+01	1.722675e+02	-3.114213e+01	-4.037907e+00	-9.271925e+01	1.129613e+02	-2.641766e+01	1.667042e+02
3.291125e+06	-2.645552e+01	1.722689e+02	-3.114075e+01	-4.042734e+00	-9.425377e+01	9.704482e+01	-2.641808e+01	1.666998e+02
3.291156e+06	-2.645395e+01	1.722703e+02	-3.113937e+01	-4.047559e+00	-9.504288e+01	7.604601e+01	-2.641851e+01	1.666953e+02
3.291188e+06	-2.645238e+01	1.722716e+02	-3.113799e+01	-4.052383e+00	-9.459064e+01	5.417493e+01	-2.641893e+01	1.666909e+02
3.291219e+06	-2.645081e+01	1.722730e+02	-3.113661e+01	-4.057206e+00	-9.320023e+01	3.663851e+01	-2.641936e+01	1.666864e+02
3.291250e+06	-2.644925e+01	1.722744e+02	-3.113526e+01	-4.061926e+00	-9.152873e+01	2.448685e+01	-2.641978e+01	1.666820e+02
3.291282e+06	-2.644943e+01	1.722801e+02	-3.113718e+01	-4.054201e+00	-9.230634e+01	2.010893e+01	-2.641922e+01	1.666865e+02
3.291313e+06	-2.644960e+01	1.722857e+02	-3.113910e+01	-4.046472e+00	-9.309352e+01	1.486458e+01	-2.641866e+01	1.666910e+02
3.291344e+06	-2.644977e+01	1.722914e+02	-3.114103e+01	-4.038740e+00	-9.386310e+01	8.587006e+00	-2.641810e+01	1.666954e+02
3.291375e+06	-2.644995e+01	1.722970e+02	-3.114296e+01	-4.031004e+00	-9.457147e+01	1.138930e+00	-2.641755e+01	1.666999e+02
3.291406e+06	-2.645011e+01	1.723024e+02	-3.114484e+01	-4.023699e+00	-9.517698e+01	-7.377135e+00	-2.641702e+01	1.667043e+02
3.291438e+06	-2.644920e+01	1.722923e+02	-3.114408e+01	-4.043060e+00	-9.714332e+01	-8.208253e+00	-2.641812e+01	1.667019e+02
3.291469e+06	-2.644829e+01	1.722821e+02	-3.114333e+01	-4.062418e+00	-9.968507e+01	-9.604926e+00	-2.641921e+01	1.666995e+02
3.291500e+06	-2.644738e+01	1.722719e+02	-3.114257e+01	-4.081772e+00	-1.032777e+02	-1.243596e+01	-2.642031e+01	1.666971e+02
3.291532e+06	-2.644647e+01	1.722617e+02	-3.114181e+01	-4.101123e+00	-1.093813e+02	-2.111041e+01	-2.642141e+01	1.666947e+02
3.291563e+06	-2.644556e+01	1.722516e+02	-3.114106e+01	-4.120471e+00	-1.197078e+02	-1.103807e+02	-2.642251e+01	1.666923e+02
3.291594e+06	-2.644526e+01	1.722630e+02	-3.114074e+01	-4.103667e+00	-1.124674e+02	-6.557715e+01	-2.642258e+01	1.666925e+02
3.291625e+06	-2.644498e+01	1.722747e+02	-3.114043e+01	-4.086573e+00	-1.076931e+02	-5.496209e+01	-2.642264e+01	1.666927e+02
3.291656e+06	-2.644469e+01	1.722863e+02	-3.114012e+01	-4.069480e+00	-1.045459e+02	-5.071825e+01	-2.642269e+01	1.666930e+02
3.291688e+06	-2.644440e+01	1.722980e+02	-3.113981e+01	-4.052389e+00	-1.022213e+02	-4.845941e+01	-2.642275e+01	1.666932e+02
3.291719e+06	-2.644411e+01	1.723096e+02	-3.113950e+01	-4.035298e+00	-1.003825e+02	-4.706098e+01	-2.642281e+01	1.666934e+02
3.291750e+06	-2.644459e+01	1.723032e+02	-3.114085e+01	-4.032103e+00	-9.877700e+01	-4.980334e+01	-2.642167e+01	1.666972e+02
3.291782e+06	-2.644508e+01	1.722968e+02	-3.114219e+01	-4.028908e+00	-9.741038e+01	-5.175066e+01	-2.642054e+01	1.667009e+02
3.291813e+06	-2.644556e+01	1.722904e+02	-3.114354e+01	-4.025711e+00	-9.622331e+01	-5.320182e+01	-2.641940e+01	1.667047e+02
3.291844e+06	-2.644605e+01	1.722840e+02	-3.114488e+01	-4.022514e+00	-9.517532e+01	-5.432369e+01	-2.641827e+01	1.667085e+02
3.291875e+06	-2.644653e+01	1.722776e+02	-3.114621e+01	-4.019356e+00	-9.424518e+01	-5.514341e+01	-2.641713e+01	1.667122e+02
3.291906e+06	-2.644659e+01	1.722741e+02	-3.114491e+01	-4.021253e+00	-9.417449e+01	-4.687191e+01	-2.641589e+01	1.667118e+02
3.291938e+06	-2.644664e+01	1.722707e+02	-3.114361e+01	-4.023150e+00	-9.393148e+01	-3.889575e+01	-2.641465e+01	1.667114e+02
3.291969e+06	-2.644670e+01	1.722673e+02	-3.114231e+01	-4.025045e+00	-9.354302e+01	-3.148216e+01	-2.641340e+01	1.667111e+02
3.292000e+06	-2.644675e+01	1.722639e+02	-3.114101e+01	-4.026941e+00	-9.304555e+01	-2.479090e+01	-2.641216e+01	1.667107e+02
3.292032e+06	-2.644682e+01	1.722606e+02	-3.113970e+01	-4.028786e+00	-9.248413e+01	-1.898811e+01	-2.641097e+01	1.667103e+02
3.292063e+06	-2.644727e+01	1.722679e+02	-3.113776e+01	-4.027620e+00	-9.240104e+01	-2.043619e+01	-2.641281e+01	1.667105e+02
3.292094e+06	-2.644773e+01	1.722752e+02	-3.113582e+01	-4.026455e+00	-9.231334e+01	-2.185607e+01	-2.641465e+01	1.667108e+02
3.292125e+06	-2.644818e+01	1.722825e+02	-3.113388e+01	-4.025290e+00	-9.222135e+01	-2.324686e+01	-2.641650e+01	1.667110e+02
3.292156e+06	-2.644863e+01	1.722898e+02	-3.113194e+01	-4.024126e+00	-9.212537e+01	-2.460788e+01	-2.641834e+01	1.667113e+02
3.292188e+06	-2.644909e+01	1.722971e+02	-3.113000e+01	-4.022962e+00	-9.202569e+01	-2.593858e+01	-2.642019e+01	1.667115e+02
3.292219e+06	-2.644801e+01	1.722918e+02	-3.113131e+01	-4.040739e+00	-9.326380e+01	-4.345733e+01	-2.642137e+01	1.667158e+02
3.292250e+06	-2.644692e+01	1.722863e+02	-3.113264e+01	-4.058675e+00	-9.357383e+01	-6.470949e+01	-2.642255e+01	1.667201e+02
3.292282e+06	-2.644583e+01	1.722808e+02	-3.113398e+01	-4.076616e+00	-9.274401e+01	-8.467278e+01	-2.642373e+01	1.667244e+02
3.292313e+06	-2.644474e+01	1.722753e+02	-3.113532e+01	-4.094562e+00	-9.125494e+01	-9.982721e+01	-2.642491e+01	1.667287e+02
3.292344e+06	-2.644365e+01	1.722698e+02	-3.113665e+01	-4.112514e+00	-8.962005e+01	-1.103397e+02	-2.642609e+01	1.667330e+02
3.292375e+06	-2.644538e+01	1.722658e+02	-3.113679e+01	-4.096960e+00	-9.263395e+01	-9.836792e+01	-2.642344e+01	1.667287e+02
3.292406e+06	-2.644711e+01	1.722617e+02	-3.113693e+01	-4.081405e+00	-9.595432e+01	-7.289307e+01	-2.642080e+01	1.667245e+02
3.292438e+06	-2.644885e+01	1.722577e+02	-3.113707e+01	-4.065850e+00	-9.663184e+01	-2.993046e+01	-2.641815e+01	1.667203e+02
3.292469e+06	-2.645058e+01	1.722536e+02	-3.113721e+01	-4.050295e+00	-9.361250e+01	1.432745e+00	-2.641550e+01	1.667160e+02
3.292500e+06	-2.645229e+01	1.722496e+02	-3.113737e+01	-4.034957e+00	-9.044684e+01	1.608916e+01	-2.641289e+01	1.667118e+02
3.292532e+06	-2.645113e+01	1.722554e+02	-3.113924e+01	-4.046742e+00	-9.111502e+01	1.500078e+01	-2.641404e+01	1.667082e+02
3.292563e+06	-2.644997e+01	1.722612e+02	-3.114112e+01	-4.058531e+00	-9.183493e+01	1.372377e+01	-2.641519e+01	1.667046e+02
3.292594e+06	-2.644882e+01	1.722670e+02	-3.114300e+01	-4.070326e+00	-9.261433e+01	1.220611e+01	-2.641634e+01	1.667011e+02
3.292625e+06	-2.644766e+01	1.722727e+02	-3.114487e+01	-4.082126e+00	-9.346251e+01	1.037558e+01	-2.641750e+01	1.666975e+02
3.292656e+06	-2.644651e+01	1.722784e+02	-3.114669e+01	-4.093686e+00	-9.445349e+01	8.364672e+00	-2.641863e+01	1.666940e+02
3.292688e+06	-2.644572e+01	1.722810e+02	-3.114463e+01	-4.090164e+00	-1.007771e+02	3.479303e+01	-2.641861e+01	1.666930e+02
3.292719e+06	-2.644494e+01	1.722836e+02	-3.114258e+01	-4.086645e+00	-1.013780e+02	1.158273e+02	-2.641858e+01	1.666920e+02
3.292750e+06	-2.644415e+01	1.722861e+02	-3.114052e+01	-4.083127e+00	-9.486485e+01	1.458332e+02	-2.641856e+01	1.666911e+02
3.292782e+06	-2.644337e+01	1.722887e+02	-3.113847e+01	-4.079611e+00	-9.073735e+01	1.542804e+02	-2.641853e+01	1.666901e+02
3.292813e+06	-2.644259e+01	1.722913e+02	-3.113642e+01	-4.076096e+00	-8.788962e+01	1.580534e+02	-2.641851e+01	1.666891e+02
3.292844e+06	-2.644259e+01	1.722930e+02	-3.113621e+01	-4.073881e+00	-9.071297e+01	1.477843e+02	-2.641936e+01	1.666934e+02
3.292875e+06	-2.644260e+01	1.722947e+02	-3.113601e+01	-4.071675e+00	-9.406623e+01	1.262215e+02	-2.642023e+01	1.666978e+02
3.292906e+06	-2.644262e+01	1.722965e+02	-3.113582e+01	-4.069471e+00	-9.566832e+01	8.566458e+01	-2.642109e+01	1.667022e+02
3.292938e+06	-2.644263e+01	1.722982e+02	-3.113562e+01	-4.067266e+00	-9.313608e+01	4.991993e+01	-2.642195e+01	1.667065e+02
3.292969e+06	-2.644264e+01	1.722999e+02	-3.113543e+01	-4.065061e+00	-8.984687e+01	3.253070e+01	-2.642281e+01	1.667109e+02
3.293000e+06	-2.644328e+01	1.722988e+02	-3.113661e+01	-4.063790e+00	-9.002644e+01	4.142009e+01	-2.642154e+01	1.667094e+02
3.293032e+06	-2.644392e+01	1.722977e+02	-3.113780e+01	-4.062519e+00	-8.999310e+01	5.046165e+01	-2.642027e+01	1.667079e+02
3.293063e+06	-2.644456e+01	1.722965e+02	-3.113898e+01	-4.061248e+00	-8.975157e+01	5.921931e+01	-2.641899e+01	1.667064e+02
3.293094e+06	-2.644520e+01	1.722954e+02	-3.114017e+01	-4.059976e+00	-8.933387e+01	6.733241e+01	-2.641772e+01	1.667049e+02
3.293125e+06	-2.644583e+01	1.722943e+02	-3.114133e+01	-4.058689e+00	-8.880084e+01	7.460577e+01	-2.641647e+01	1.667034e+02
3.293156e+06	-2.644479e+01	1.722966e+02	-3.114007e+01	-4.055579e+00	-8.991134e+01	8.496607e+01	-2.641782e+01	1.667068e+02
3.293188e+06	-2.644376e+01	1.722988e+02	-3.113880e+01	-4.052469e+00	-9.077351e+01	9.800959e+01	-2.641918e+01	1.667102e+02
3.293219e+06	-2.644272e+01	1.723011e+02	-3.113754e+01	-4.049361e+00	-9.115382e+01	1.131033e+02	-2.642053e+01	1.667135e+02
3.293250e+06	-2.644168e+01	1.723033e+02	-3.113627e+01	-4.046253e+00	-9.091447e+01	1.284500e+02	-2.642189e+01	1.667169e+02
3.293282e+06	-2.644067e+01	1.723054e+02	-3.113501e+01	-4.043149e+00	-9.017565e+01	1.418437e+02	-2.642321e+01	1.667201e+02
3.293313e+06	-2.644119e+01	1.723012e+02	-3.113350e+01	-4.040184e+00	-9.118470e+01	1.392125e+02	-2.642236e+01	1.667164e+02
3.293344e+06	-2.644172e+01	1.722970e+02	-3.113200e+01	-4.037220e+00	-9.229990e+01	1.358515e+02	-2.642151e+01	1.667126e+02
3.293375e+06	-2.644224e+01	1.722928e+02	-3.113049e+01	-4.034257e+00	-9.353429e+01	1.314447e+02	-2.642067e+01	1.667089e+02
3.293406e+06	-2.644277e+01	1.722886e+02	-3.112899e+01	-4.031295e+00	-9.489194e+01	1.255008e+02	-2.641982e+01	1.667051e+02
3.293438e+06	-2.644330e+01	1.722844e+02	-3.112748e+01	-4.028334e+00	-9.634645e+01	1.172708e+02	-2.641898e+01	1.667013e+02
3.293469e+06	-2.644308e+01	1.722874e+02	-3.112791e+01	-4.026221e+00	-9.912405e+01	1.209164e+02	-2.641955e+01	1.667109e+02
3.293500e+06	-2.644285e+01	1.722903e+02	-3.112834e+01	-4.024116e+00	-1.031181e+02	1.291121e+02	-2.642014e+01	1.667206e+02
3.293532e+06	-2.644262e+01	1.722933e+02	-3.112878e+01	-4.022010e+00	-1.093537e+02	1.566847e+02	-2.642073e+01	1.667304e+02
3.293563e+06	-2.644240e+01	1.722963e+02	-3.112922e+01	-4.019903e+00	-1.096507e+02	-1.242141e+02	-2.642132e+01	1.667401e+02
3.293594e+06	-2.644217e+01	1.722993e+02	-3.112966e+01	-4.017797e+00	-1.033280e+02	-9.482779e+01	-2.642191e+01	1.667498e+02
3.293625e+06	-2.644320e+01	1.723023e+02	-3.113118e+01	-4.031925e+00	-1.039933e+02	-1.126415e+02	-2.642120e+01	1.667372e+02
3.293656e+06	-2.644422e+01	1.723053e+02	-3.113271e+01	-4.046059e+00	-1.037641e+02	-1.314059e+02	-2.642049e+01	1.667246e+02
