# Hz S dB R 50.000
3.288438e+06	-2.645738e+01	1.722903e+02	-3.115345e+01	-4.435913e+00	-8.756175e+01	1.742622e+01	-2.635193e+01	1.668615e+02
3.288469e+06	-2.645750e+01	1.722983e+02	-3.115468e+01	-4.418240e+00	-8.868311e+01	1.085580e+01	-2.635343e+01	1.668488e+02
3.288500e+06	-2.645762e+01	1.723064e+02	-3.115591e+01	-4.400563e+00	-8.979980e+01	2.341629e+00	-2.635493e+01	1.668362e+02
3.288532e+06	-2.645775e+01	1.723144e+02	-3.115714e+01	-4.382880e+00	-9.079849e+01	-8.545881e+00	-2.635643e+01	1.668235e+02
3.288563e+06	-2.645787e+01	1.723224e+02	-3.115836e+01	-4.365192e+00	-9.149450e+01	-2.181792e+01	-2.635793e+01	1.668109e+02
3.288594e+06	-2.645799e+01	1.723304e+02	-3.115958e+01	-4.347654e+00	-9.169869e+01	-3.650317e+01	-2.635941e+01	1.667983e+02
3.288626e+06	-2.645778e+01	1.723268e+02	-3.115913e+01	-4.349267e+00	-9.255995e+01	-4.567220e+01	-2.635846e+01	1.668025e+02
3.288657e+06	-2.645758e+01	1.723233e+02	-3.115867e+01	-4.350879e+00	-9.322091e+01	-5.661741e+01	-2.635751e+01	1.668066e+02
3.288688e+06	-2.645738e+01	1.723198e+02	-3.115822e+01	-4.352492e+00	-9.355182e+01	-6.890616e+01	-2.635656e+01	1.668108e+02
3.288719e+06	-2.645717e+01	1.723163e+02	-3.115777e+01	-4.354104e+00	-9.346985e+01	-8.155803e+01	-2.635561e+01	1.668149e+02
3.288750e+06	-2.645697e+01	1.723128e+02	-3.115729e+01	-4.355875e+00	-9.299405e+01	-9.317377e+01	-2.635468e+01	1.668190e+02
3.288782e+06	-2.645703e+01	1.723110e+02	-3.115511e+01	-4.367404e+00	-9.220861e+01	-8.960323e+01	-2.635508e+01	1.668177e+02
3.288813e+06	-2.645709e+01	1.723092e+02	-3.115292e+01	-4.378929e+00	-9.146232e+01	-8.661052e+01	-2.635548e+01	1.668164e+02
3.288844e+06	-2.645715e+01	1.723074e+02	-3.115073e+01	-4.390447e+00	-9.075659e+01	-8.407885e+01	-2.635588e+01	1.668151e+02
3.288876e+06	-2.645721e+01	1.723056e+02	-3.114854e+01	-4.401959e+00	-9.009048e+01	-8.191724e+01	-2.635628e+01	1.668139e+02
3.288907e+06	-2.645726e+01	1.723038e+02	-3.114638e+01	-4.412819e+00	-8.952568e+01	-8.025289e+01	-2.635669e+01	1.668127e+02
3.288938e+06	-2.645670e+01	1.723012e+02	-3.114555e+01	-4.397372e+00	-9.176762e+01	-8.875572e+01	-2.635744e+01	1.668158e+02
3.288969e+06	-2.645615e+01	1.722985e+02	-3.114472e+01	-4.381929e+00	-9.432731e+01	-1.036476e+02	-2.635818e+01	1.668190e+02
3.289000e+06	-2.645560e+01	1.722958e+02	-3.114389e+01	-4.366488e+00	-9.645685e+01	-1.298121e+02	-2.635893e+01	1.668222e+02
3.289032e+06	-2.645504e+01	1.722932e+02	-3.114305e+01	-4.351050e+00	-9.626459e+01	-1.632566e+02	-2.635968e+01	1.668253e+02
3.289063e+06	-2.645449e+01	1.722905e+02	-3.114222e+01	-4.335615e+00	-9.398037e+01	1.722613e+02	-2.636043e+01	1.668285e+02
3.289094e+06	-2.645442e+01	1.722908e+02	-3.114270e+01	-4.322917e+00	-9.489548e+01	1.608382e+02	-2.635921e+01	1.668314e+02
3.289126e+06	-2.645434e+01	1.722912e+02	-3.114318e+01	-4.310219e+00	-9.545968e+01	1.472567e+02	-2.635799e+01	1.668343e+02
3.289157e+06	-2.645427e+01	1.722915e+02	-3.114366e+01	-4.297518e+00	-9.550493e+01	1.326670e+02	-2.635676e+01	1.668372e+02
3.289188e+06	-2.645419e+01	1.722919e+02	-3.114414e+01	-4.284816e+00	-9.501570e+01	1.188193e+02	-2.635554e+01	1.668401e+02
3.289219e+06	-2.645413e+01	1.722922e+02	-3.114463e+01	-4.272332e+00	-9.415878e+01	1.070209e+02	-2.635433e+01	1.668430e+02
3.289250e+06	-2.645482e+01	1.722967e+02	-3.114728e+01	-4.286922e+00	-9.498089e+01	9.650736e+01	-2.635461e+01	1.668473e+02
3.289282e+06	-2.645552e+01	1.723011e+02	-3.114992e+01	-4.301521e+00	-9.551082e+01	8.419740e+01	-2.635489e+01	1.668515e+02
3.289313e+06	-2.645622e+01	1.723056e+02	-3.115257e+01	-4.316129e+00	-9.561681e+01	7.093594e+01	-2.635516e+01	1.668558e+02
3.289344e+06	-2.645692e+01	1.723100e+02	-3.115522e+01	-4.330746e+00	-9.526824e+01	5.804611e+01	-2.635544e+01	1.668600e+02
3.289376e+06	-2.645760e+01	1.723145e+02	-3.115780e+01	-4.345211e+00	-9.460168e+01	4.669575e+01	-2.635570e+01	1.668642e+02
3.289407e+06	-2.645685e+01	1.723225e+02	-3.115685e+01	-4.349777e+00	-9.643321e+01	3.696549e+01	-2.635481e+01	1.668643e+02
3.289438e+06	-2.645610e+01	1.723304e+02	-3.115590e+01	-4.354341e+00	-9.825974e+01	2.204236e+01	-2.635393e+01	1.668644e+02
3.289469e+06	-2.645535e+01	1.723384e+02	-3.115494e+01	-4.358905e+00	-9.949070e+01	5.623592e-01	-2.635305e+01	1.668645e+02
3.289500e+06	-2.645460e+01	1.723463e+02	-3.115399e+01	-4.363467e+00	-9.932541e+01	-2.389239e+01	-2.635217e+01	1.668646e+02
3.289532e+06	-2.645385e+01	1.723540e+02	-3.115300e+01	-4.368015e+00	-9.801293e+01	-4.318141e+01	-2.635131e+01	1.668645e+02
3.289563e+06	-2.645298e+01	1.723485e+02	-3.115039e+01	-4.371999e+00	-1.008696e+02	-1.534745e+01	-2.635141e+01	1.668573e+02
3.289594e+06	-2.645212e+01	1.723430e+02	-3.114779e+01	-4.375982e+00	-1.008015e+02	2.471825e+01	-2.635150e+01	1.668500e+02
3.289626e+06	-2.645125e+01	1.723375e+02	-3.114518e+01	-4.379961e+00	-9.790752e+01	5.195544e+01	-2.635159e+01	1.668428e+02
3.289657e+06	-2.645039e+01	1.723321e+02	-3.114258e+01	-4.383939e+00	-9.497423e+01	6.548748e+01	-2.635169e+01	1.668355e+02
3.289688e+06	-2.644952e+01	1.723266e+02	-3.113998e+01	-4.387914e+00	-9.258236e+01	7.276913e+01	-2.635178e+01	1.668283e+02
3.289719e+06	-2.645068e+01	1.723151e+02	-3.114353e+01	-4.378827e+00	-9.412001e+01	7.132560e+01	-2.635178e+01	1.668282e+02
3.289750e+06	-2.645184e+01	1.723036e+02	-3.114707e+01	-4.369734e+00	-9.597960e+01	6.919087e+01	-2.635178e+01	1.668281e+02
3.289782e+06	-2.645299e+01	1.722921e+02	-3.115062e+01	-4.360632e+00	-9.832321e+01	6.572617e+01	-2.635177e+01	1.668281e+02
3.289813e+06	-2.645415e+01	1.722805e+02	-3.115417e+01	-4.351523e+00	-1.014564e+02	5.920721e+01	-2.635177e+01	1.668280e+02
3.289844e+06	-2.645530e+01	1.722692e+02	-3.115767e+01	-4.342640e+00	-1.059416e+02	4.339405e+01	-2.635178e+01	1.668279e+02
3.289876e+06	-2.645498e+01	1.722802e+02	-3.115544e+01	-4.362672e+00	-1.119824e+02	-2.182607e+01	-2.635287e+01	1.668323e+02
3.289907e+06	-2.645465e+01	1.722913e+02	-3.115321e+01	-4.382694e+00	-1.053006e+02	-7.932001e+01	-2.635396e+01	1.668367e+02
3.289938e+06	-2.645433e+01	1.723024e+02	-3.115097e+01	-4.402705e+00	-1.002238e+02	-9.190026e+01	-2.635505e+01	1.668411e+02
3.289969e+06	-2.645401e+01	1.723134e+02	-3.114874e+01	-4.422706e+00	-9.693059e+01	-9.666668e+01	-2.635614e+01	1.668455e+02
3.290000e+06	-2.645370e+01	1.723243e+02	-3.114650e+01	-4.442296e+00	-9.459125e+01	-9.954910e+01	-2.635722e+01	1.668498e+02
3.290032e+06	-2.645403e+01	1.723216e+02	-3.114414e+01	-4.437245e+00	-9.545357e+01	-1.318181e+02	-2.635768e+01	1.668521e+02
3.290063e+06	-2.645436e+01	1.723190e+02	-3.114178e+01	-4.432196e+00	-9.373798e+01	-1.607613e+02	-2.635814e+01	1.668544e+02
3.290094e+06	-2.645470e+01	1.723164e+02	-3.113942e+01	-4.427150e+00	-9.118371e+01	-1.779791e+02	-2.635861e+01	1.668567e+02
3.290126e+06	-2.645503e+01	1.723138e+02	-3.113705e+01	-4.422107e+00	-8.885870e+01	1.723036e+02	-2.635907e+01	1.668591e+02
3.290157e+06	-2.645536e+01	1.723113e+02	-3.113481e+01	-4.416858e+00	-8.702789e+01	1.666317e+02	-2.635948e+01	1.668612e+02
3.290188e+06	-2.645553e+01	1.723145e+02	-3.113751e+01	-4.403125e+00	-9.126485e+01	1.757604e+02	-2.635796e+01	1.668560e+02
3.290219e+06	-2.645570e+01	1.723177e+02	-3.114020e+01	-4.389383e+00	-9.783355e+01	-1.508407e+02	-2.635643e+01	1.668509e+02
3.290250e+06	-2.645587e+01	1.723210e+02	-3.114290e+01	-4.375633e+00	-9.629797e+01	-7.153845e+01	-2.635491e+01	1.668458e+02
3.290282e+06	-2.645603e+01	1.723242e+02	-3.114559e+01	-4.361875e+00	-9.019139e+01	-4.748173e+01	-2.635338e+01	1.668406e+02
3.290313e+06	-2.645620e+01	1.723274e+02	-3.114829e+01	-4.348108e+00	-8.632319e+01	-4.005362e+01	-2.635186e+01	1.668355e+02
3.290344e+06	-2.645583e+01	1.723269e+02	-3.114849e+01	-4.361359e+00	-8.838366e+01	-3.317071e+01	-2.635236e+01	1.668346e+02
3.290376e+06	-2.645545e+01	1.723265e+02	-3.114869e+01	-4.374610e+00	-9.080380e+01	-2.159046e+01	-2.635286e+01	1.668336e+02
3.290407e+06	-2.645508e+01	1.723260e+02	-3.114889e+01	-4.387862e+00	-9.325882e+01	-9.882244e-01	-2.635336e+01	1.668327e+02
3.290438e+06	-2.645470e+01	1.723256e+02	-3.114909e+01	-4.401115e+00	-9.426720e+01	3.063148e+01	-2.635386e+01	1.668317e+02
3.290469e+06	-2.645433e+01	1.723251e+02	-3.114930e+01	-4.414117e+00	-9.271209e+01	5.994628e+01	-2.635434e+01	1.668308e+02
3.290500e+06	-2.645462e+01	1.723236e+02	-3.114998e+01	-4.396033e+00	-9.225661e+01	6.843386e+01	-2.635324e+01	1.668260e+02
3.290532e+06	-2.645490e+01	1.723221e+02	-3.115067e+01	-4.377947e+00	-9.166342e+01	7.595022e+01	-2.635213e+01	1.668212e+02
3.290563e+06	-2.645519e+01	1.723206e+02	-3.115135e+01	-4.359857e+00	-9.098719e+01	8.243984e+01	-2.635102e+01	1.668165e+02
3.290594e+06	-2.645547e+01	1.723191e+02	-3.115204e+01	-4.341765e+00	-9.027159e+01	8.796534e+01	-2.634992e+01	1.668117e+02
3.290626e+06	-2.645575e+01	1.723178e+02	-3.115267e+01	-4.324233e+00	-8.960687e+01	9.264298e+01	-2.634886e+01	1.668072e+02
3.290657e+06	-2.645587e+01	1.723314e+02	-3.115048e+01	-4.341325e+00	-9.326304e+01	9.909590e+01	-2.635068e+01	1.668202e+02
3.290688e+06	-2.645599e+01	1.723449e+02	-3.114829e+01	-4.358408e+00	-9.901797e+01	1.184923e+02	-2.635250e+01	1.668331e+02
3.290719e+06	-2.645611e+01	1.723585e+02	-3.114610e+01	-4.375483e+00	-1.025441e+02	-1.663190e+02	-2.635432e+01	1.668461e+02
3.290750e+06	-2.645623e+01	1.723721e+02	-3.114391e+01	-4.392550e+00	-9.580686e+01	-1.244071e+02	-2.635613e+01	1.668590e+02
3.290782e+06	-2.645632e+01	1.723852e+02	-3.114180e+01	-4.409087e+00	-9.138589e+01	-1.143637e+02	-2.635789e+01	1.668716e+02
3.290813e+06	-2.645559e+01	1.723831e+02	-3.114324e+01	-4.404469e+00	-9.229822e+01	-1.293195e+02	-2.635715e+01	1.668694e+02
3.290844e+06	-2.645485e+01	1.723810e+02	-3.114468e+01	-4.399849e+00	-9.256106e+01	-1.465049e+02	-2.635642e+01	1.668672e+02
3.290876e+06	-2.645411e+01	1.723789e+02	-3.114612e+01	-4.395228e+00	-9.205507e+01	-1.632017e+02	-2.635568e+01	1.668650e+02
3.290907e+06	-2.645338e+01	1.723767e+02	-3.114755e+01	-4.390605e+00	-9.099832e+01	-1.770882e+02	-2.635494e+01	1.668628e+02
3.290938e+06	-2.645264e+01	1.723746e+02	-3.114899e+01	-4.385981e+00	-8.970869e+01	1.723565e+02	-2.635420e+01	1.668606e+02
3.290969e+06	-2.645316e+01	1.723667e+02	-3.114752e+01	-4.387446e+00	-9.317672e+01	1.697434e+02	-2.635423e+01	1.668507e+02
3.291000e+06	-2.645368e+01	1.723588e+02	-3.114604e+01	-4.388911e+00	-9.893529e+01	1.621644e+02	-2.635426e+01	1.668408e+02
3.291032e+06	-2.645420e+01	1.723509e+02	-3.114457e+01	-4.390376e+00	-1.104017e+02	8.878209e+01	-2.635429e+01	1.668309e+02
3.291063e+06	-2.645472e+01	1.723430e+02	-3.114310e+01	-4.391839e+00	-9.902380e+01	1.330468e+01	-2.635432e+01	1.668209e+02
3.291094e+06	-2.645524e+01	1.723352e+02	-3.114165e+01	-4.393063e+00	-9.326604e+01	5.689981e+00	-2.635435e+01	1.668111e+02
3.291126e+06	-2.645468e+01	1.723446e+02	-3.114253e+01	-4.364575e+00	-9.429845e+01	1.308742e+01	-2.635473e+01	1.668135e+02
3.291157e+06	-2.645413e+01	1.723540e+02	-3.114342e+01	-4.336080e+00	-9.526214e+01	2.241132e+01	-2.635511e+01	1.668159e+02
3.291188e+06	-2.645358e+01	1.723634e+02	-3.114430e+01	-4.307580e+00	-9.602897e+01	3.381583e+01	-2.635549e+01	1.668183e+02
3.291219e+06	-2.645302e+01	1.723728e+02	-3.114518e+01	-4.279074e+00	-9.643766e+01	4.690050e+01	-2.635588e+01	1.668207e+02
3.291250e+06	-2.645251e+01	1.723819e+02	-3.114605e+01	-4.251516e+00	-9.638370e+01	6.059585e+01	-2.635624e+01	1.668233e+02
3.291282e+06	-2.645419e+01	1.723724e+02	-3.114662e+01	-4.282559e+00	-9.627079e+01	7.849982e+01	-2.635558e+01	1.668330e+02
3.291313e+06	-2.645588e+01	1.723629e+02	-3.114718e+01	-4.313606e+00	-9.541716e+01	9.446470e+01	-2.635492e+01	1.668428e+02
3.291344e+06	-2.645756e+01	1.723534e+02	-3.114775e+01	-4.344657e+00	-9.415973e+01	1.069215e+02	-2.635426e+01	1.668525e+02
3.291376e+06	-2.645925e+01	1.723438e+02	-3.114831e+01	-4.375712e+00	-9.279509e+01	1.160992e+02	-2.635360e+01	1.668623e+02
3.291407e+06	-2.646088e+01	1.723346e+02	-3.114884e+01	-4.405628e+00	-9.156066e+01	1.227122e+02	-2.635299e+01	1.668718e+02
3.291438e+06	-2.646054e+01	1.723397e+02	-3.114854e+01	-4.389044e+00	-9.431057e+01	1.243706e+02	-2.635446e+01	1.668736e+02
3.291469e+06	-2.646019e+01	1.723449e+02	-3.114824e+01	-4.372461e+00	-9.833227e+01	1.279889e+02	-2.635593e+01	1.668754e+02
3.291500e+06	-2.645984e+01	1.723500e+02	-3.114794e+01	-4.355879e+00	-1.057386e+02	1.415940e+02	-2.635740e+01	1.668772e+02
3.291532e+06	-2.645950e+01	1.723551e+02	-3.114763e+01	-4.339298e+00	-1.099069e+02	-1.014942e+02	-2.635887e+01	1.668789e+02
3.291563e+06	-2.645915e+01	1.723602e+02	-3.114733e+01	-4.322718e+00	-1.001129e+02	-7.368086e+01	-2.636034e+01	1.668807e+02
3.291594e+06	-2.645759e+01	1.723584e+02	-3.114547e+01	-4.335777e+00	-1.024073e+02	-3.232875e+01	-2.635957e+01	1.668716e+02
3.291626e+06	-2.645604e+01	1.723565e+02	-3.114361e+01	-4.348830e+00	-9.988938e+01	7.754510e+00	-2.635879e+01	1.668625e+02
3.291657e+06	-2.645449e+01	1.723547e+02	-3.114175e+01	-4.361878e+00	-9.632961e+01	2.640787e+01	-2.635801e+01	1.668534e+02
3.291688e+06	-2.645293e+01	1.723528e+02	-3.113989e+01	-4.374921e+00	-9.348530e+01	3.520950e+01	-2.635724e+01	1.668442e+02
3.291719e+06	-2.645140e+01	1.723509e+02	-3.113804e+01	-4.387769e+00	-9.129853e+01	4.009516e+01	-2.635646e+01	1.668353e+02
3.291750e+06	-2.645244e+01	1.723443e+02	-3.113789e+01	-4.377225e+00	-9.527313e+01	4.425646e+01	-2.635572e+01	1.668430e+02
3.291782e+06	-2.645349e+01	1.723377e+02	-3.113773e+01	-4.366682e+00	-1.024211e+02	5.939348e+01	-2.635497e+01	1.668508e+02
3.291813e+06	-2.645453e+01	1.723311e+02	-3.113758e+01	-4.356140e+00	-1.064786e+02	1.678258e+02	-2.635423e+01	1.668585e+02
3.291844e+06	-2.645557e+01	1.723244e+02	-3.113742e+01	-4.345597e+00	-9.715228e+01	-1.610274e+02	-2.635348e+01	1.668663e+02
3.291876e+06	-2.645659e+01	1.723179e+02	-3.113731e+01	-4.335385e+00	-9.256971e+01	-1.550877e+02	-2.635277e+01	1.668737e+02
3.291907e+06	-2.645578e+01	1.723150e+02	-3.113951e+01	-4.345425e+00	-9.660340e+01	-1.465370e+02	-2.635403e+01	1.668626e+02
3.291938e+06	-2.645497e+01	1.723121e+02	-3.114171e+01	-4.355470e+00	-1.028380e+02	-1.175288e+02	-2.635529e+01	1.668515e+02
3.291969e+06	-2.645417e+01	1.723093e+02	-3.114391e+01	-4.365520e+00	-1.027049e+02	-3.930655e+01	-2.635655e+01	1.668404e+02
3.292000e+06	-2.645336e+01	1.723064e+02	-3.114612e+01	-4.375575e+00	-9.650796e+01	-1.112013e+01	-2.635781e+01	1.668293e+02
3.292032e+06	-2.645259e+01	1.723037e+02	-3.114821e+01	-4.385592e+00	-9.262992e+01	-2.988112e+00	-2.635904e+01	1.668189e+02
3.292063e+06	-2.645332e+01	1.723086e+02	-3.114566e+01	-4.393832e+00	-9.465718e+01	-1.015598e+01	-2.635910e+01	1.668337e+02
3.292094e+06	-2.645404e+01	1.723134e+02	-3.114310e+01	-4.402067e+00	-9.700184e+01	-2.206799e+01	-2.635917e+01	1.668485e+02
3.292126e+06	-2.645477e+01	1.723182e+02	-3.114055e+01	-4.410298e+00	-9.930001e+01	-4.269398e+01	-2.635923e+01	1.668633e+02
3.292157e+06	-2.645550e+01	1.723231e+02	-3.113800e+01	-4.418523e+00	-1.001618e+02	-7.314731e+01	-2.635929e+01	1.668782e+02
3.292188e+06	-2.645623e+01	1.723279e+02	-3.113545e+01	-4.426744e+00	-9.866446e+01	-1.012514e+02	-2.635935e+01	1.668930e+02
3.292219e+06	-2.645626e+01	1.723302e+02	-3.113684e+01	-4.405092e+00	-9.737802e+01	-8.863640e+01	-2.635866e+01	1.668843e+02
3.292250e+06	-2.645629e+01	1.723324e+02	-3.113823e+01	-4.383433e+00	-9.598697e+01	-7.940263e+01	-2.635796e+01	1.668757e+02
3.292282e+06	-2.645632e+01	1.723347e+02	-3.113961e+01	-4.361768e+00	-9.464510e+01	-7.267518e+01	-2.635727e+01	1.668670e+02
3.292313e+06	-2.645635e+01	1.723370e+02	-3.114100e+01	-4.340095e+00	-9.340533e+01	-6.768266e+01	-2.635657e+01	1.668584e+02
3.292344e+06	-2.645638e+01	1.723392e+02	-3.114237e+01	-4.318648e+00	-9.229697e+01	-6.390291e+01	-2.635589e+01	1.668499e+02
3.292376e+06	-2.645615e+01	1.723375e+02	-3.114297e+01	-4.326061e+00	-9.394771e+01	-6.275143e+01	-2.635753e+01	1.668575e+02
3.292407e+06	-2.645592e+01	1.723359e+02	-3.114357e+01	-4.333475e+00	-9.598079e+01	-6.099152e+01	-2.635916e+01	1.668652e+02
3.292438e+06	-2.645569e+01	1.723343e+02	-3.114417e+01	-4.340890e+00	-9.862097e+01	-5.797654e+01	-2.636080e+01	1.668729e+02
3.292469e+06	-2.645546e+01	1.723326e+02	-3.114476e+01	-4.348306e+00	-1.023550e+02	-5.168627e+01	-2.636243e+01	1.668806e+02
3.292500e+06	-2.645524e+01	1.723311e+02	-3.114537e+01	-4.355590e+00	-1.084704e+02	-3.286883e+01	-2.636401e+01	1.668882e+02
3.292532e+06	-2.645605e+01	1.723347e+02	-3.114663e+01	-4.354695e+00	-1.106517e+02	1.645524e+02	-2.636184e+01	1.668893e+02
3.292563e+06	-2.645687e+01	1.723384e+02	-3.114789e+01	-4.353799e+00	-1.004157e+02	1.577501e+02	-2.635967e+01	1.668903e+02
3.292594e+06	-2.645768e+01	1.723421e+02	-3.114916e+01	-4.352904e+00	-9.583326e+01	1.565178e+02	-2.635751e+01	1.668913e+02
3.292626e+06	-2.645849e+01	1.723458e+02	-3.115042e+01	-4.352008e+00	-9.284792e+01	1.560021e+02	-2.635534e+01	1.668924e+02
3.292657e+06	-2.645927e+01	1.723495e+02	-3.115161e+01	-4.350961e+00	-9.072696e+01	1.557729e+02	-2.635326e+01	1.668933e+02
3.292688e+06	-2.645866e+01	1.723554e+02	-3.115005e+01	-4.343808e+00	-9.309674e+01	1.584566e+02	-2.635438e+01	1.668885e+02
3.292719e+06	-2.645806e+01	1.723612e+02	-3.114849e+01	-4.336657e+00	-9.631336e+01	1.635671e+02	-2.635550e+01	1.668838e+02
3.292750e+06	-2.645745e+01	1.723670e+02	-3.114692e+01	-4.329508e+00	-1.011612e+02	1.765947e+02	-2.635662e+01	1.668790e+02
3.292782e+06	-2.645685e+01	1.723728e+02	-3.114536e+01	-4.322362e+00	-1.072926e+02	-1.304746e+02	-2.635775e+01	1.668743e+02
3.292813e+06	-2.645624e+01	1.723786e+02	-3.114380e+01	-4.315219e+00	-1.022151e+02	-6.620628e+01	-2.635887e+01	1.668695e+02
3.292844e+06	-2.645622e+01	1.723667e+02	-3.114386e+01	-4.319542e+00	-1.060377e+02	-4.020634e+01	-2.635764e+01	1.668646e+02
3.292876e+06	-2.645620e+01	1.723547e+02	-3.114392e+01	-4.323865e+00	-1.068545e+02	8.197366e+00	-2.635641e+01	1.668598e+02
3.292907e+06	-2.645618e+01	1.723428e+02	-3.114399e+01	-4.328188e+00	-1.032569e+02	4.108272e+01	-2.635519e+01	1.668550e+02
3.292938e+06	-2.645616e+01	1.723308e+02	-3.114405e+01	-4.332511e+00	-9.979955e+01	5.502845e+01	-2.635396e+01	1.668501e+02
3.292969e+06	-2.645615e+01	1.723191e+02	-3.114411e+01	-4.336845e+00	-9.720249e+01	6.187004e+01	-2.635274e+01	1.668454e+02
3.293000e+06	-2.645729e+01	1.723275e+02	-3.114372e+01	-4.342512e+00	-1.048952e+02	7.276161e+01	-2.635313e+01	1.668519e+02
3.293032e+06	-2.645843e+01	1.723359e+02	-3.114333e+01	-4.348179e+00	-1.093934e+02	-1.574973e+02	-2.635351e+01	1.668584e+02
3.293063e+06	-2.645957e+01	1.723443e+02	-3.114294e+01	-4.353845e+00	-9.893644e+01	-1.347158e+02	-2.635389e+01	1.668649e+02
3.293094e+06	-2.646072e+01	1.723527e+02	-3.114254e+01	-4.359511e+00	-9.418911e+01	-1.308593e+02	-2.635427e+01	1.668715e+02
3.293126e+06	-2.646182e+01	1.723609e+02	-3.114215e+01	-4.365238e+00	-9.121547e+01	-1.292953e+02	-2.635466e+01	1.668780e+02
3.293157e+06	-2.646059e+01	1.723563e+02	-3.114123e+01	-4.374827e+00	-9.494783e+01	-1.279833e+02	-2.635518e+01	1.668841e+02
3.293188e+06	-2.645937e+01	1.723516e+02	-3.114031e+01	-4.384413e+00	-1.016000e+02	-1.236426e+02	-2.635570e+01	1.668902e+02
3.293219e+06	-2.645814e+01	1.723470e+02	-3.113939e+01	-4.393997e+00	-1.148395e+02	7.985204e+00	-2.635621e+01	1.668963e+02
3.293250e+06	-2.645692e+01	1.723423e+02	-3.113847e+01	-4.403579e+00	-9.912418e+01	4.218567e+01	-2.635673e+01	1.669024e+02
3.293282e+06	-2.645574e+01	1.723380e+02	-3.113752e+01	-4.412721e+00	-9.383256e+01	4.488372e+01	-2.635723e+01	1.669081e+02
3.293313e+06	-2.645669e+01	1.723450e+02	-3.113546e+01	-4.404054e+00	-9.530242e+01	4.033955e+01	-2.635677e+01	1.668966e+02
3.293344e+06	-2.645764e+01	1.723520e+02	-3.113340e+01	-4.395391e+00	-9.697656e+01	3.380612e+01	-2.635631e+01	1.668850e+02
3.293376e+06	-2.645859e+01	1.723590e+02	-3.113134e+01	-4.386733e+00	-9.883713e+01	2.396434e+01	-2.635585e+01	1.668734e+02
3.293407e+06	-2.645954e+01	1.723660e+02	-3.112928e+01	-4.378078e+00	-1.006931e+02	8.763461e+00	-2.635539e+01	1.668619e+02
3.293438e+06	-2.646049e+01	1.723730e+02	-3.112722e+01	-4.369428e+00	-1.019217e+02	-1.319886e+01	-2.635493e+01	1.668503e+02
3.293469e+06	-2.646095e+01	1.723733e+02	-3.112985e+01	-4.370095e+00	-1.074020e+02	3.203953e+00	-2.635451e+01	1.668496e+02
3.293500e+06	-2.646141e+01	1.723735e+02	-3.113248e+01	-4.370762e+00	-1.123436e+02	7.282870e+01	-2.635409e+01	1.668490e+02
