# Hz S dB R 50.000
3.288594e+06	-2.643790e+01	1.719862e+02	-3.113323e+01	-4.098053e+00	-8.855988e+01	9.599031e+00	-2.640197e+01	1.667929e+02
3.288625e+06	-2.643748e+01	1.719858e+02	-3.113389e+01	-4.094657e+00	-8.918130e+01	9.943339e+00	-2.640162e+01	1.667970e+02
3.288656e+06	-2.643707e+01	1.719855e+02	-3.113454e+01	-4.091261e+00	-8.985024e+01	1.034279e+01	-2.640127e+01	1.668011e+02
3.288688e+06	-2.643665e+01	1.719851e+02	-3.113520e+01	-4.087865e+00	-9.057449e+01	1.081174e+01	-2.640092e+01	1.668052e+02
3.288719e+06	-2.643623e+01	1.719848e+02	-3.113586e+01	-4.084467e+00	-9.136392e+01	1.136997e+01	-2.640057e+01	1.668093e+02
3.288750e+06	-2.643582e+01	1.719845e+02	-3.113652e+01	-4.081100e+00	-9.223213e+01	1.221969e+01	-2.640021e+01	1.668134e+02
3.288782e+06	-2.643585e+01	1.719931e+02	-3.113736e+01	-4.081467e+00	-9.253086e+01	3.624438e+01	-2.639944e+01	1.668088e+02
3.288813e+06	-2.643589e+01	1.720018e+02	-3.113820e+01	-4.081834e+00	-9.142533e+01	5.802272e+01	-2.639866e+01	1.668042e+02
3.288844e+06	-2.643592e+01	1.720104e+02	-3.113905e+01	-4.082201e+00	-8.965089e+01	7.346781e+01	-2.639789e+01	1.667996e+02
3.288875e+06	-2.643596e+01	1.720191e+02	-3.113989e+01	-4.082568e+00	-8.782830e+01	8.360539e+01	-2.639711e+01	1.667950e+02
3.288906e+06	-2.643600e+01	1.720276e+02	-3.114070e+01	-4.083148e+00	-8.620987e+01	9.030854e+01	-2.639636e+01	1.667906e+02
3.288938e+06	-2.643670e+01	1.720258e+02	-3.113959e+01	-4.096853e+00	-8.720019e+01	9.185960e+01	-2.639705e+01	1.667985e+02
3.288969e+06	-2.643740e+01	1.720241e+02	-3.113847e+01	-4.110553e+00	-8.830890e+01	9.383480e+01	-2.639773e+01	1.668063e+02
3.289000e+06	-2.643810e+01	1.720224e+02	-3.113735e+01	-4.124251e+00	-8.956445e+01	9.642831e+01	-2.639842e+01	1.668142e+02
3.289032e+06	-2.643880e+01	1.720206e+02	-3.113624e+01	-4.137944e+00	-9.100393e+01	9.996639e+01	-2.639911e+01	1.668221e+02
3.289063e+06	-2.643949e+01	1.720189e+02	-3.113512e+01	-4.151634e+00	-9.267252e+01	1.050300e+02	-2.639979e+01	1.668299e+02
3.289094e+06	-2.644021e+01	1.720189e+02	-3.113519e+01	-4.156511e+00	-9.554561e+01	1.135416e+02	-2.639909e+01	1.668278e+02
3.289125e+06	-2.644092e+01	1.720188e+02	-3.113528e+01	-4.161317e+00	-9.921248e+01	1.318697e+02	-2.639838e+01	1.668255e+02
3.289156e+06	-2.644164e+01	1.720188e+02	-3.113536e+01	-4.166124e+00	-1.019299e+02	1.728511e+02	-2.639766e+01	1.668232e+02
3.289188e+06	-2.644235e+01	1.720187e+02	-3.113545e+01	-4.170930e+00	-9.952277e+01	-1.443315e+02	-2.639695e+01	1.668210e+02
3.289219e+06	-2.644307e+01	1.720187e+02	-3.113553e+01	-4.175736e+00	-9.581100e+01	-1.246978e+02	-2.639623e+01	1.668187e+02
3.289250e+06	-2.644193e+01	1.720162e+02	-3.113529e+01	-4.170236e+00	-9.853623e+01	-1.369252e+02	-2.639683e+01	1.668175e+02
3.289282e+06	-2.644080e+01	1.720137e+02	-3.113505e+01	-4.164735e+00	-1.013520e+02	-1.605552e+02	-2.639743e+01	1.668163e+02
3.289313e+06	-2.643966e+01	1.720112e+02	-3.113480e+01	-4.159236e+00	-1.020853e+02	1.623504e+02	-2.639803e+01	1.668151e+02
3.289344e+06	-2.643853e+01	1.720087e+02	-3.113456e+01	-4.153736e+00	-9.974947e+01	1.322499e+02	-2.639863e+01	1.668139e+02
3.289375e+06	-2.643739e+01	1.720062e+02	-3.113430e+01	-4.148093e+00	-9.691136e+01	1.163033e+02	-2.639923e+01	1.668127e+02
3.289406e+06	-2.643644e+01	1.720074e+02	-3.113172e+01	-4.124614e+00	-9.921790e+01	1.059584e+02	-2.640044e+01	1.668168e+02
3.289438e+06	-2.643550e+01	1.720086e+02	-3.112914e+01	-4.101150e+00	-1.016667e+02	8.787120e+01	-2.640166e+01	1.668208e+02
3.289469e+06	-2.643455e+01	1.720098e+02	-3.112656e+01	-4.077699e+00	-1.031131e+02	5.878320e+01	-2.640287e+01	1.668249e+02
3.289500e+06	-2.643360e+01	1.720110e+02	-3.112398e+01	-4.054262e+00	-1.020876e+02	2.810021e+01	-2.640409e+01	1.668289e+02
3.289532e+06	-2.643269e+01	1.720122e+02	-3.112148e+01	-4.031605e+00	-9.979891e+01	8.052595e+00	-2.640527e+01	1.668328e+02
3.289563e+06	-2.643403e+01	1.720091e+02	-3.112427e+01	-4.056057e+00	-1.043096e+02	-6.751645e+00	-2.640475e+01	1.668258e+02
3.289594e+06	-2.643538e+01	1.720060e+02	-3.112705e+01	-4.080525e+00	-1.091904e+02	-5.563267e+01	-2.640422e+01	1.668188e+02
3.289625e+06	-2.643672e+01	1.720030e+02	-3.112983e+01	-4.105009e+00	-1.052764e+02	-1.129885e+02	-2.640370e+01	1.668118e+02
3.289656e+06	-2.643807e+01	1.719999e+02	-3.113261e+01	-4.129508e+00	-1.004603e+02	-1.309391e+02	-2.640318e+01	1.668048e+02
3.289688e+06	-2.643941e+01	1.719968e+02	-3.113539e+01	-4.154023e+00	-9.714761e+01	-1.378826e+02	-2.640265e+01	1.667979e+02
3.289719e+06	-2.643909e+01	1.720037e+02	-3.113525e+01	-4.155318e+00	-9.841458e+01	-1.353473e+02	-2.640182e+01	1.667994e+02
3.289750e+06	-2.643877e+01	1.720106e+02	-3.113509e+01	-4.156426e+00	-9.991343e+01	-1.317707e+02	-2.640098e+01	1.668011e+02
3.289782e+06	-2.643844e+01	1.720175e+02	-3.113494e+01	-4.157534e+00	-1.016654e+02	-1.265667e+02	-2.640014e+01	1.668027e+02
3.289813e+06	-2.643811e+01	1.720244e+02	-3.113478e+01	-4.158641e+00	-1.037195e+02	-1.184855e+02	-2.639930e+01	1.668044e+02
3.289844e+06	-2.643778e+01	1.720313e+02	-3.113462e+01	-4.159749e+00	-1.060263e+02	-1.050559e+02	-2.639846e+01	1.668060e+02
3.289875e+06	-2.643749e+01	1.720275e+02	-3.113655e+01	-4.162331e+00	-1.127334e+02	-5.936557e+00	-2.639833e+01	1.668067e+02
3.289906e+06	-2.643720e+01	1.720237e+02	-3.113848e+01	-4.164915e+00	-1.027086e+02	3.643190e+01	-2.639821e+01	1.668074e+02
3.289938e+06	-2.643690e+01	1.720199e+02	-3.114041e+01	-4.167499e+00	-9.770141e+01	4.328917e+01	-2.639808e+01	1.668082e+02
3.289969e+06	-2.643661e+01	1.720161e+02	-3.114234e+01	-4.170085e+00	-9.451184e+01	4.595253e+01	-2.639796e+01	1.668089e+02
3.290000e+06	-2.643633e+01	1.720123e+02	-3.114424e+01	-4.172743e+00	-9.218888e+01	4.737297e+01	-2.639784e+01	1.668096e+02
3.290032e+06	-2.643700e+01	1.720172e+02	-3.114312e+01	-4.184285e+00	-9.169387e+01	4.968074e+01	-2.639902e+01	1.668120e+02
3.290063e+06	-2.643768e+01	1.720220e+02	-3.114200e+01	-4.195823e+00	-9.121362e+01	5.174329e+01	-2.640021e+01	1.668144e+02
3.290094e+06	-2.643836e+01	1.720268e+02	-3.114088e+01	-4.207358e+00	-9.074896e+01	5.359316e+01	-2.640139e+01	1.668168e+02
3.290125e+06	-2.643904e+01	1.720316e+02	-3.113975e+01	-4.218890e+00	-9.030015e+01	5.525831e+01	-2.640257e+01	1.668192e+02
3.290156e+06	-2.643970e+01	1.720364e+02	-3.113863e+01	-4.229836e+00	-8.992599e+01	5.686838e+01	-2.640375e+01	1.668215e+02
3.290188e+06	-2.643934e+01	1.720346e+02	-3.113752e+01	-4.204907e+00	-9.380235e+01	6.961066e+01	-2.640418e+01	1.668188e+02
3.290219e+06	-2.643898e+01	1.720329e+02	-3.113641e+01	-4.179984e+00	-9.841994e+01	1.055167e+02	-2.640461e+01	1.668161e+02
3.290250e+06	-2.643861e+01	1.720311e+02	-3.113529e+01	-4.155068e+00	-9.701358e+01	1.635964e+02	-2.640504e+01	1.668135e+02
3.290282e+06	-2.643825e+01	1.720294e+02	-3.113418e+01	-4.130158e+00	-9.235295e+01	-1.714343e+02	-2.640547e+01	1.668108e+02
3.290313e+06	-2.643788e+01	1.720276e+02	-3.113306e+01	-4.105254e+00	-8.888638e+01	-1.619016e+02	-2.640591e+01	1.668081e+02
3.290344e+06	-2.643810e+01	1.720255e+02	-3.113061e+01	-4.110189e+00	-9.134753e+01	-1.589808e+02	-2.640448e+01	1.668114e+02
3.290375e+06	-2.643832e+01	1.720233e+02	-3.112815e+01	-4.115362e+00	-9.481024e+01	-1.532360e+02	-2.640303e+01	1.668147e+02
3.290406e+06	-2.643855e+01	1.720212e+02	-3.112569e+01	-4.120532e+00	-1.001831e+02	-1.371651e+02	-2.640159e+01	1.668180e+02
3.290438e+06	-2.643877e+01	1.720190e+02	-3.112324e+01	-4.125699e+00	-1.052579e+02	-6.998851e+01	-2.640014e+01	1.668213e+02
3.290469e+06	-2.643899e+01	1.720169e+02	-3.112078e+01	-4.130863e+00	-9.878975e+01	-1.825899e+01	-2.639870e+01	1.668246e+02
3.290500e+06	-2.643824e+01	1.720077e+02	-3.112375e+01	-4.121364e+00	-1.027617e+02	-8.312216e+00	-2.639926e+01	1.668182e+02
3.290532e+06	-2.643749e+01	1.719986e+02	-3.112672e+01	-4.111859e+00	-1.084230e+02	2.326495e+01	-2.639981e+01	1.668117e+02
3.290563e+06	-2.643674e+01	1.719894e+02	-3.112968e+01	-4.102348e+00	-1.078422e+02	9.329305e+01	-2.640037e+01	1.668053e+02
3.290594e+06	-2.643599e+01	1.719803e+02	-3.113265e+01	-4.092829e+00	-1.022829e+02	1.209067e+02	-2.640093e+01	1.667989e+02
3.290625e+06	-2.643524e+01	1.719713e+02	-3.113558e+01	-4.083549e+00	-9.854644e+01	1.296071e+02	-2.640148e+01	1.667926e+02
3.290656e+06	-2.643572e+01	1.719808e+02	-3.113313e+01	-4.104500e+00	-1.015359e+02	5.429257e+01	-2.640159e+01	1.667996e+02
3.290688e+06	-2.643620e+01	1.719903e+02	-3.113069e+01	-4.125440e+00	-9.494646e+01	1.456698e+01	-2.640171e+01	1.668067e+02
3.290719e+06	-2.643668e+01	1.719999e+02	-3.112824e+01	-4.146368e+00	-9.050822e+01	4.223253e+00	-2.640182e+01	1.668138e+02
3.290750e+06	-2.643716e+01	1.720094e+02	-3.112579e+01	-4.167285e+00	-8.749956e+01	-1.458379e-01	-2.640193e+01	1.668208e+02
3.290782e+06	-2.643763e+01	1.720188e+02	-3.112341e+01	-4.187729e+00	-8.529712e+01	-2.613668e+00	-2.640205e+01	1.668277e+02
3.290813e+06	-2.643734e+01	1.720170e+02	-3.112523e+01	-4.179849e+00	-8.636663e+01	-1.075794e+01	-2.640282e+01	1.668206e+02
3.290844e+06	-2.643706e+01	1.720151e+02	-3.112705e+01	-4.171966e+00	-8.733176e+01	-2.107295e+01	-2.640359e+01	1.668136e+02
3.290875e+06	-2.643678e+01	1.720133e+02	-3.112887e+01	-4.164080e+00	-8.803241e+01	-3.360079e+01	-2.640436e+01	1.668066e+02
3.290906e+06	-2.643650e+01	1.720115e+02	-3.113069e+01	-4.156190e+00	-8.829062e+01	-4.761907e+01	-2.640513e+01	1.667995e+02
3.290938e+06	-2.643622e+01	1.720097e+02	-3.113252e+01	-4.148297e+00	-8.802413e+01	-6.162371e+01	-2.640590e+01	1.667925e+02
3.290969e+06	-2.643735e+01	1.720135e+02	-3.113356e+01	-4.127411e+00	-9.047301e+01	-5.818036e+01	-2.640514e+01	1.668013e+02
3.291000e+06	-2.643849e+01	1.720173e+02	-3.113460e+01	-4.106414e+00	-9.383971e+01	-5.117206e+01	-2.640436e+01	1.668104e+02
3.291032e+06	-2.643964e+01	1.720211e+02	-3.113564e+01	-4.085413e+00	-9.877069e+01	-3.268025e+01	-2.640358e+01	1.668194e+02
3.291063e+06	-2.644078e+01	1.720249e+02	-3.113668e+01	-4.064406e+00	-1.025387e+02	2.702694e+01	-2.640281e+01	1.668284e+02
3.291094e+06	-2.644192e+01	1.720287e+02	-3.113772e+01	-4.043395e+00	-9.739629e+01	7.451119e+01	-2.640203e+01	1.668374e+02
3.291125e+06	-2.644086e+01	1.720269e+02	-3.113534e+01	-4.052518e+00	-9.982349e+01	7.249140e+01	-2.640185e+01	1.668398e+02
3.291156e+06	-2.643981e+01	1.720251e+02	-3.113296e+01	-4.061637e+00	-1.031729e+02	6.856143e+01	-2.640167e+01	1.668422e+02
3.291188e+06	-2.643875e+01	1.720233e+02	-3.113059e+01	-4.070750e+00	-1.084869e+02	5.785242e+01	-2.640150e+01	1.668447e+02
3.291219e+06	-2.643770e+01	1.720215e+02	-3.112821e+01	-4.079858e+00	-1.166438e+02	-3.343137e+00	-2.640132e+01	1.668471e+02
3.291250e+06	-2.643665e+01	1.720197e+02	-3.112587e+01	-4.088904e+00	-1.092062e+02	-7.411304e+01	-2.640114e+01	1.668494e+02
3.291282e+06	-2.643698e+01	1.720236e+02	-3.112829e+01	-4.090841e+00	-1.081287e+02	-5.864310e+01	-2.640161e+01	1.668382e+02
3.291313e+06	-2.643731e+01	1.720275e+02	-3.113070e+01	-4.092778e+00	-1.067458e+02	-4.705145e+01	-2.640207e+01	1.668269e+02
3.291344e+06	-2.643764e+01	1.720313e+02	-3.113312e+01	-4.094717e+00	-1.053294e+02	-3.868078e+01	-2.640253e+01	1.668157e+02
3.291375e+06	-2.643797e+01	1.720352e+02	-3.113554e+01	-4.096656e+00	-1.039947e+02	-3.259271e+01	-2.640300e+01	1.668045e+02
3.291406e+06	-2.643828e+01	1.720389e+02	-3.113792e+01	-4.098514e+00	-1.028418e+02	-2.824830e+01	-2.640345e+01	1.667937e+02
3.291438e+06	-2.643745e+01	1.720319e+02	-3.113793e+01	-4.095271e+00	-1.064415e+02	-4.024265e+01	-2.640346e+01	1.668137e+02
3.291469e+06	-2.643662e+01	1.720250e+02	-3.113794e+01	-4.092029e+00	-1.107731e+02	-7.143385e+01	-2.640347e+01	1.668337e+02
3.291500e+06	-2.643580e+01	1.720180e+02	-3.113794e+01	-4.088786e+00	-1.104510e+02	-1.266892e+02	-2.640348e+01	1.668537e+02
3.291532e+06	-2.643497e+01	1.720111e+02	-3.113795e+01	-4.085544e+00	-1.060864e+02	-1.553124e+02	-2.640348e+01	1.668737e+02
3.291563e+06	-2.643415e+01	1.720042e+02	-3.113796e+01	-4.082301e+00	-1.025806e+02	-1.664742e+02	-2.640349e+01	1.668937e+02
3.291594e+06	-2.643394e+01	1.720096e+02	-3.113726e+01	-4.095278e+00	-1.084736e+02	1.736191e+02	-2.640359e+01	1.668934e+02
3.291625e+06	-2.643374e+01	1.720151e+02	-3.113655e+01	-4.108383e+00	-1.117019e+02	9.484132e+01	-2.640370e+01	1.668928e+02
3.291656e+06	-2.643354e+01	1.720206e+02	-3.113585e+01	-4.121487e+00	-1.047348e+02	5.521425e+01	-2.640380e+01	1.668923e+02
3.291688e+06	-2.643334e+01	1.720261e+02	-3.113514e+01	-4.134588e+00	-1.002328e+02	4.540882e+01	-2.640391e+01	1.668917e+02
3.291719e+06	-2.643314e+01	1.720316e+02	-3.113443e+01	-4.147687e+00	-9.720663e+01	4.130388e+01	-2.640401e+01	1.668912e+02
3.291750e+06	-2.643387e+01	1.720321e+02	-3.113383e+01	-4.146764e+00	-9.879477e+01	3.188753e+01	-2.640466e+01	1.668775e+02
3.291782e+06	-2.643460e+01	1.720326e+02	-3.113322e+01	-4.145842e+00	-1.003208e+02	1.834542e+01	-2.640531e+01	1.668639e+02
3.291813e+06	-2.643533e+01	1.720330e+02	-3.113262e+01	-4.144920e+00	-1.013704e+02	-1.463937e-02	-2.640596e+01	1.668502e+02
3.291844e+06	-2.643606e+01	1.720335e+02	-3.113202e+01	-4.143998e+00	-1.014167e+02	-2.095188e+01	-2.640661e+01	1.668366e+02
3.291875e+06	-2.643679e+01	1.720340e+02	-3.113144e+01	-4.142998e+00	-1.004358e+02	-3.982673e+01	-2.640725e+01	1.668231e+02
3.291906e+06	-2.643676e+01	1.720287e+02	-3.113336e+01	-4.132348e+00	-9.838793e+01	-7.100340e+01	-2.640738e+01	1.668326e+02
3.291938e+06	-2.643673e+01	1.720234e+02	-3.113529e+01	-4.121693e+00	-9.555366e+01	-8.816619e+01	-2.640751e+01	1.668421e+02
3.291969e+06	-2.643670e+01	1.720181e+02	-3.113722e+01	-4.111033e+00	-9.309143e+01	-9.739462e+01	-2.640764e+01	1.668516e+02
3.292000e+06	-2.643667e+01	1.720128e+02	-3.113914e+01	-4.100368e+00	-9.106765e+01	-1.028851e+02	-2.640776e+01	1.668611e+02
3.292032e+06	-2.643663e+01	1.720077e+02	-3.114102e+01	-4.089852e+00	-8.945350e+01	-1.064655e+02	-2.640786e+01	1.668704e+02
3.292063e+06	-2.643592e+01	1.720128e+02	-3.113952e+01	-4.088750e+00	-9.278065e+01	-1.108661e+02	-2.640585e+01	1.668680e+02
3.292094e+06	-2.643520e+01	1.720180e+02	-3.113802e+01	-4.087648e+00	-9.798565e+01	-1.226905e+02	-2.640384e+01	1.668655e+02
3.292125e+06	-2.643449e+01	1.720231e+02	-3.113652e+01	-4.086546e+00	-1.052748e+02	1.775945e+02	-2.640183e+01	1.668631e+02
3.292156e+06	-2.643378e+01	1.720282e+02	-3.113502e+01	-4.085445e+00	-9.856483e+01	1.102150e+02	-2.639982e+01	1.668607e+02
3.292188e+06	-2.643307e+01	1.720334e+02	-3.113352e+01	-4.084344e+00	-9.312075e+01	9.704806e+01	-2.639782e+01	1.668583e+02
3.292219e+06	-2.643339e+01	1.720319e+02	-3.113408e+01	-4.096035e+00	-9.800532e+01	9.947625e+01	-2.639915e+01	1.668424e+02
3.292250e+06	-2.643372e+01	1.720304e+02	-3.113465e+01	-4.107832e+00	-1.101755e+02	1.176814e+02	-2.640051e+01	1.668263e+02
3.292282e+06	-2.643405e+01	1.720289e+02	-3.113523e+01	-4.119630e+00	-1.031376e+02	-9.665821e+01	-2.640188e+01	1.668102e+02
3.292313e+06	-2.643439e+01	1.720274e+02	-3.113580e+01	-4.131429e+00	-9.560431e+01	-9.060862e+01	-2.640324e+01	1.667942e+02
3.292344e+06	-2.643472e+01	1.720259e+02	-3.113637e+01	-4.143230e+00	-9.161537e+01	-8.900588e+01	-2.640460e+01	1.667781e+02
3.292375e+06	-2.643615e+01	1.720301e+02	-3.113689e+01	-4.140138e+00	-9.197254e+01	-8.359791e+01	-2.640456e+01	1.667961e+02
3.292406e+06	-2.643757e+01	1.720343e+02	-3.113742e+01	-4.137045e+00	-9.225812e+01	-7.777319e+01	-2.640452e+01	1.668142e+02
3.292438e+06	-2.643900e+01	1.720386e+02	-3.113794e+01	-4.133952e+00	-9.245532e+01	-7.161429e+01	-2.640448e+01	1.668322e+02
3.292469e+06	-2.644042e+01	1.720428e+02	-3.113847e+01	-4.130859e+00	-9.255096e+01	-6.524336e+01	-2.640444e+01	1.668502e+02
3.292500e+06	-2.644183e+01	1.720470e+02	-3.113897e+01	-4.127803e+00	-9.254932e+01	-5.895406e+01	-2.640440e+01	1.668680e+02
3.292532e+06	-2.644044e+01	1.720430e+02	-3.113645e+01	-4.129368e+00	-9.375605e+01	-7.225231e+01	-2.640413e+01	1.668614e+02
3.292563e+06	-2.643905e+01	1.720390e+02	-3.113394e+01	-4.130933e+00	-9.447532e+01	-8.893802e+01	-2.640387e+01	1.668548e+02
3.292594e+06	-2.643766e+01	1.720351e+02	-3.113142e+01	-4.132497e+00	-9.439891e+01	-1.069477e+02	-2.640360e+01	1.668482e+02
3.292625e+06	-2.643628e+01	1.720311e+02	-3.112890e+01	-4.134060e+00	-9.356439e+01	-1.231122e+02	-2.640334e+01	1.668416e+02
3.292656e+06	-2.643493e+01	1.720272e+02	-3.112645e+01	-4.135548e+00	-9.236447e+01	-1.358502e+02	-2.640307e+01	1.668351e+02
3.292688e+06	-2.643596e+01	1.720292e+02	-3.112743e+01	-4.132513e+00	-9.418688e+01	-1.572679e+02	-2.640235e+01	1.668329e+02
3.292719e+06	-2.643698e+01	1.720313e+02	-3.112842e+01	-4.129477e+00	-9.450992e+01	1.748614e+02	-2.640163e+01	1.668308e+02
3.292750e+06	-2.643801e+01	1.720333e+02	-3.112940e+01	-4.126440e+00	-9.302632e+01	1.507188e+02	-2.640091e+01	1.668287e+02
3.292782e+06	-2.643904e+01	1.720353e+02	-3.113039e+01	-4.123403e+00	-9.089480e+01	1.350688e+02	-2.640019e+01	1.668265e+02
3.292813e+06	-2.644007e+01	1.720373e+02	-3.113137e+01	-4.120364e+00	-8.885742e+01	1.254595e+02	-2.639948e+01	1.668244e+02
3.292844e+06	-2.643997e+01	1.720342e+02	-3.113030e+01	-4.134448e+00	-9.092341e+01	1.233485e+02	-2.640018e+01	1.668311e+02
3.292875e+06	-2.643987e+01	1.720311e+02	-3.112920e+01	-4.148665e+00	-9.366507e+01	1.197450e+02	-2.640089e+01	1.668379e+02
3.292906e+06	-2.643976e+01	1.720279e+02	-3.112811e+01	-4.162879e+00	-9.757657e+01	1.119750e+02	-2.640161e+01	1.668447e+02
3.292938e+06	-2.643966e+01	1.720248e+02	-3.112701e+01	-4.177090e+00	-1.037111e+02	8.651988e+01	-2.640232e+01	1.668515e+02
3.292969e+06	-2.643955e+01	1.720217e+02	-3.112592e+01	-4.191297e+00	-1.047482e+02	7.584028e+00	-2.640304e+01	1.668583e+02
3.293000e+06	-2.643798e+01	1.720327e+02	-3.112557e+01	-4.146693e+00	-1.061634e+02	2.507992e+01	-2.640273e+01	1.668629e+02
3.293032e+06	-2.643642e+01	1.720437e+02	-3.112522e+01	-4.102093e+00	-1.066443e+02	4.704109e+01	-2.640242e+01	1.668675e+02
3.293063e+06	-2.643485e+01	1.720548e+02	-3.112487e+01	-4.057496e+00	-1.058663e+02	6.822748e+01	-2.640210e+01	1.668721e+02
3.293094e+06	-2.643328e+01	1.720658e+02	-3.112450e+01	-4.012903e+00	-1.043255e+02	8.429255e+01	-2.640179e+01	1.668767e+02
3.293125e+06	-2.643174e+01	1.720766e+02	-3.112415e+01	-3.968966e+00	-1.026655e+02	9.512630e+01	-2.640149e+01	1.668811e+02
3.293156e+06	-2.643345e+01	1.720588e+02	-3.112506e+01	-4.005797e+00	-1.086333e+02	7.806827e+01	-2.640239e+01	1.668723e+02
3.293188e+06	-2.643516e+01	1.720410e+02	-3.112597e+01	-4.042637e+00	-1.131932e+02	-2.240607e+00	-2.640330e+01	1.668634e+02
3.293219e+06	-2.643687e+01	1.720232e+02	-3.112688e+01	-4.079484e+00	-1.056198e+02	-4.640836e+01	-2.640420e+01	1.668545e+02
3.293250e+06	-2.643858e+01	1.720053e+02	-3.112778e+01	-4.116338e+00	-1.008848e+02	-5.613294e+01	-2.640511e+01	1.668456e+02
3.293282e+06	-2.644027e+01	1.719879e+02	-3.112870e+01	-4.152583e+00	-9.785956e+01	-6.031709e+01	-2.640599e+01	1.668368e+02
3.293313e+06	-2.644069e+01	1.719966e+02	-3.113062e+01	-4.150804e+00	-1.007469e+02	-8.829513e+01	-2.640560e+01	1.668313e+02
3.293344e+06	-2.644112e+01	1.720052e+02	-3.113253e+01	-4.149024e+00	-1.006666e+02	-1.286943e+02	-2.640520e+01	1.668259e+02
3.293375e+06	-2.644155e+01	1.720139e+02	-3.113445e+01	-4.147244e+00	-9.773624e+01	-1.559693e+02	-2.640481e+01	1.668204e+02
3.293406e+06	-2.644197e+01	1.720225e+02	-3.113637e+01	-4.145463e+00	-9.478697e+01	-1.694360e+02	-2.640441e+01	1.668149e+02
3.293438e+06	-2.644240e+01	1.720311e+02	-3.113828e+01	-4.143681e+00	-9.238892e+01	-1.766644e+02	-2.640401e+01	1.668094e+02
3.293469e+06	-2.644208e+01	1.720321e+02	-3.113640e+01	-4.127839e+00	-9.371126e+01	-1.710414e+02	-2.640366e+01	1.668085e+02
3.293500e+06	-2.644175e+01	1.720329e+02	-3.113449e+01	-4.111890e+00	-9.516723e+01	-1.631480e+02	-2.640332e+01	1.668076e+02
3.293532e+06	-2.644142e+01	1.720338e+02	-3.113258e+01	-4.095948e+00	-9.663553e+01	-1.520609e+02	-2.640297e+01	1.668067e+02
3.293563e+06	-2.644110e+01	1.720346e+02	-3.113067e+01	-4.080014e+00	-9.786193e+01	-1.368574e+02	-2.640262e+01	1.668058e+02
3.293594e+06	-2.644077e+01	1.720355e+02	-3.112876e+01	-4.064086e+00	-9.841252e+01	-1.180866e+02	-2.640227e+01	1.668049e+02
3.293625e+06	-2.644020e+01	1.720379e+02	-3.112974e+01	-4.082209e+00	-1.001397e+02	-7.681194e+01	-2.640246e+01	1.668192e+02
3.293656e+06	-2.643963e+01	1.720402e+02	-3.113071e+01	-4.100336e+00	-9.753711e+01	-4.019766e+01	-2.640266e+01	1.668335e+02
