# Hz S dB R 50.000
3.623906e+06	-2.649638e+01	1.752453e+02	-3.145942e+01	-4.992641e+00	-9.687965e+01	1.543284e+02	-2.649425e+01	1.699051e+02
3.623937e+06	-2.649501e+01	1.752493e+02	-3.145793e+01	-4.969739e+00	-9.966572e+01	1.600087e+02	-2.649424e+01	1.699058e+02
3.623968e+06	-2.649365e+01	1.752534e+02	-3.145644e+01	-4.946845e+00	-1.034985e+02	1.722523e+02	-2.649423e+01	1.699065e+02
3.624000e+06	-2.649228e+01	1.752574e+02	-3.145495e+01	-4.923959e+00	-1.081867e+02	-1.533026e+02	-2.649423e+01	1.699071e+02
3.624031e+06	-2.649092e+01	1.752615e+02	-3.145346e+01	-4.901080e+00	-1.071007e+02	-9.439664e+01	-2.649422e+01	1.699078e+02
3.624062e+06	-2.648955e+01	1.752655e+02	-3.145197e+01	-4.878210e+00	-1.023940e+02	-6.832164e+01	-2.649421e+01	1.699085e+02
3.624094e+06	-2.649103e+01	1.752500e+02	-3.145255e+01	-4.860008e+00	-1.014647e+02	-8.695877e+01	-2.649432e+01	1.699096e+02
3.624125e+06	-2.649257e+01	1.752340e+02	-3.145318e+01	-4.841918e+00	-1.000015e+02	-1.017897e+02	-2.649443e+01	1.699108e+02
3.624156e+06	-2.649411e+01	1.752179e+02	-3.145381e+01	-4.823825e+00	-9.839774e+01	-1.121490e+02	-2.649454e+01	1.699119e+02
3.624187e+06	-2.649565e+01	1.752019e+02	-3.145444e+01	-4.805730e+00	-9.687537e+01	-1.193567e+02	-2.649466e+01	1.699130e+02
3.624218e+06	-2.649720e+01	1.751859e+02	-3.145507e+01	-4.787632e+00	-9.549579e+01	-1.245107e+02	-2.649477e+01	1.699142e+02
3.624250e+06	-2.649706e+01	1.752029e+02	-3.144995e+01	-4.770738e+00	-9.912249e+01	-1.084526e+02	-2.649396e+01	1.699161e+02
3.624281e+06	-2.649689e+01	1.752206e+02	-3.144474e+01	-4.753884e+00	-1.024384e+02	-6.945057e+01	-2.649313e+01	1.699180e+02
3.624312e+06	-2.649673e+01	1.752382e+02	-3.143953e+01	-4.737051e+00	-1.004181e+02	-2.251478e+01	-2.649230e+01	1.699199e+02
3.624344e+06	-2.649656e+01	1.752558e+02	-3.143433e+01	-4.720237e+00	-9.650252e+01	-8.685556e-01	-2.649147e+01	1.699219e+02
3.624375e+06	-2.649639e+01	1.752735e+02	-3.142912e+01	-4.703444e+00	-9.341224e+01	8.608845e+00	-2.649065e+01	1.699238e+02
3.624406e+06	-2.649525e+01	1.752737e+02	-3.142472e+01	-4.691021e+00	-9.417509e+01	-1.103987e+01	-2.649060e+01	1.699137e+02
3.624437e+06	-2.649410e+01	1.752737e+02	-3.142034e+01	-4.678644e+00	-9.384912e+01	-3.203273e+01	-2.649056e+01	1.699036e+02
3.624468e+06	-2.649294e+01	1.752738e+02	-3.141595e+01	-4.666281e+00	-9.260818e+01	-4.943738e+01	-2.649051e+01	1.698934e+02
3.624500e+06	-2.649179e+01	1.752738e+02	-3.141156e+01	-4.653930e+00	-9.101629e+01	-6.190422e+01	-2.649047e+01	1.698833e+02
3.624531e+06	-2.649064e+01	1.752739e+02	-3.140718e+01	-4.641591e+00	-8.942820e+01	-7.051337e+01	-2.649043e+01	1.698731e+02
3.624562e+06	-2.649215e+01	1.752716e+02	-3.140318e+01	-4.640337e+00	-9.187112e+01	-6.846699e+01	-2.649194e+01	1.698801e+02
3.624594e+06	-2.649366e+01	1.752693e+02	-3.139919e+01	-4.639085e+00	-9.525023e+01	-6.446433e+01	-2.649346e+01	1.698871e+02
3.624625e+06	-2.649517e+01	1.752670e+02	-3.139520e+01	-4.637833e+00	-1.006347e+02	-5.342704e+01	-2.649497e+01	1.698941e+02
3.624656e+06	-2.649667e+01	1.752647e+02	-3.139120e+01	-4.636583e+00	-1.086625e+02	1.030473e+01	-2.649648e+01	1.699011e+02
3.624687e+06	-2.649818e+01	1.752624e+02	-3.138722e+01	-4.635334e+00	-1.009620e+02	7.892304e+01	-2.649799e+01	1.699081e+02
3.624718e+06	-2.649851e+01	1.752579e+02	-3.138261e+01	-4.648461e+00	-9.923160e+01	7.768298e+01	-2.649520e+01	1.699156e+02
3.624750e+06	-2.649880e+01	1.752534e+02	-3.137799e+01	-4.661928e+00	-9.787817e+01	7.639498e+01	-2.649230e+01	1.699231e+02
3.624781e+06	-2.649910e+01	1.752489e+02	-3.137338e+01	-4.675380e+00	-9.670461e+01	7.543214e+01	-2.648940e+01	1.699306e+02
3.624812e+06	-2.649939e+01	1.752445e+02	-3.136877e+01	-4.688818e+00	-9.566921e+01	7.468553e+01	-2.648650e+01	1.699381e+02
3.624844e+06	-2.649969e+01	1.752400e+02	-3.136415e+01	-4.702241e+00	-9.474314e+01	7.408984e+01	-2.648361e+01	1.699456e+02
3.624875e+06	-2.649985e+01	1.752385e+02	-3.136287e+01	-4.701695e+00	-9.172204e+01	7.119213e+01	-2.648699e+01	1.699364e+02
3.624906e+06	-2.650001e+01	1.752370e+02	-3.136163e+01	-4.700921e+00	-8.945116e+01	6.959349e+01	-2.649048e+01	1.699270e+02
3.624937e+06	-2.650017e+01	1.752356e+02	-3.136040e+01	-4.700148e+00	-8.764918e+01	6.859332e+01	-2.649396e+01	1.699175e+02
3.624968e+06	-2.650034e+01	1.752342e+02	-3.135916e+01	-4.699375e+00	-8.615605e+01	6.790892e+01	-2.649745e+01	1.699080e+02
3.625000e+06	-2.650050e+01	1.752327e+02	-3.135793e+01	-4.698602e+00	-8.488155e+01	6.741127e+01	-2.650094e+01	1.698986e+02
3.625031e+06	-2.649997e+01	1.752361e+02	-3.135571e+01	-4.713859e+00	-8.706803e+01	6.628359e+01	-2.649934e+01	1.699044e+02
3.625062e+06	-2.649943e+01	1.752395e+02	-3.135348e+01	-4.729237e+00	-9.003385e+01	6.423004e+01	-2.649770e+01	1.699104e+02
3.625094e+06	-2.649890e+01	1.752429e+02	-3.135125e+01	-4.744608e+00	-9.452822e+01	5.937781e+01	-2.649605e+01	1.699163e+02
3.625125e+06	-2.649836e+01	1.752463e+02	-3.134902e+01	-4.759970e+00	-1.034589e+02	3.600069e+01	-2.649441e+01	1.699223e+02
3.625156e+06	-2.649783e+01	1.752497e+02	-3.134679e+01	-4.775325e+00	-1.015510e+02	-8.104855e+01	-2.649277e+01	1.699282e+02
3.625187e+06	-2.649722e+01	1.752514e+02	-3.134550e+01	-4.796892e+00	-9.805408e+01	-5.301974e+01	-2.649353e+01	1.699217e+02
3.625218e+06	-2.649661e+01	1.752531e+02	-3.134421e+01	-4.818453e+00	-9.486022e+01	-4.045686e+01	-2.649429e+01	1.699151e+02
3.625250e+06	-2.649600e+01	1.752548e+02	-3.134292e+01	-4.840007e+00	-9.236499e+01	-3.396936e+01	-2.649505e+01	1.699086e+02
3.625281e+06	-2.649539e+01	1.752565e+02	-3.134163e+01	-4.861555e+00	-9.037580e+01	-3.010340e+01	-2.649581e+01	1.699020e+02
3.625312e+06	-2.649477e+01	1.752582e+02	-3.134034e+01	-4.883097e+00	-8.873674e+01	-2.755858e+01	-2.649657e+01	1.698955e+02
3.625344e+06	-2.649496e+01	1.752533e+02	-3.133910e+01	-4.897355e+00	-8.910083e+01	-2.734681e+01	-2.649588e+01	1.699026e+02
3.625375e+06	-2.649516e+01	1.752483e+02	-3.133786e+01	-4.911430e+00	-8.953068e+01	-2.716484e+01	-2.649515e+01	1.699100e+02
3.625406e+06	-2.649536e+01	1.752433e+02	-3.133661e+01	-4.925501e+00	-8.998282e+01	-2.696342e+01	-2.649442e+01	1.699175e+02
3.625437e+06	-2.649556e+01	1.752383e+02	-3.133537e+01	-4.939567e+00	-9.045966e+01	-2.673926e+01	-2.649369e+01	1.699249e+02
3.625468e+06	-2.649577e+01	1.752333e+02	-3.133413e+01	-4.953630e+00	-9.096405e+01	-2.648830e+01	-2.649296e+01	1.699324e+02
3.625500e+06	-2.649569e+01	1.752325e+02	-3.133642e+01	-4.965402e+00	-9.234135e+01	-2.621599e+01	-2.649293e+01	1.699346e+02
3.625531e+06	-2.649561e+01	1.752319e+02	-3.133877e+01	-4.977143e+00	-9.399602e+01	-2.583015e+01	-2.649292e+01	1.699368e+02
3.625562e+06	-2.649552e+01	1.752312e+02	-3.134111e+01	-4.988891e+00	-9.604113e+01	-2.523941e+01	-2.649290e+01	1.699390e+02
3.625594e+06	-2.649544e+01	1.752306e+02	-3.134346e+01	-5.000645e+00	-9.871889e+01	-2.422186e+01	-2.649289e+01	1.699412e+02
3.625625e+06	-2.649536e+01	1.752299e+02	-3.134581e+01	-5.012405e+00	-1.026010e+02	-2.205600e+01	-2.649287e+01	1.699434e+02
3.625656e+06	-2.649496e+01	1.752321e+02	-3.134308e+01	-5.033899e+00	-1.075888e+02	-3.429165e+01	-2.649157e+01	1.699356e+02
3.625687e+06	-2.649455e+01	1.752344e+02	-3.134031e+01	-5.055457e+00	-1.142769e+02	-8.912404e+01	-2.649026e+01	1.699277e+02
3.625718e+06	-2.649414e+01	1.752367e+02	-3.133754e+01	-5.077002e+00	-1.086081e+02	-1.559424e+02	-2.648894e+01	1.699198e+02
3.625750e+06	-2.649374e+01	1.752389e+02	-3.133477e+01	-5.098533e+00	-1.032284e+02	-1.708724e+02	-2.648763e+01	1.699119e+02
3.625781e+06	-2.649333e+01	1.752412e+02	-3.133200e+01	-5.120050e+00	-9.978581e+01	-1.762261e+02	-2.648632e+01	1.699040e+02
3.625812e+06	-2.649335e+01	1.752472e+02	-3.133463e+01	-5.114452e+00	-9.825485e+01	-1.749848e+02	-2.648661e+01	1.699116e+02
3.625844e+06	-2.649337e+01	1.752532e+02	-3.133726e+01	-5.108850e+00	-9.695120e+01	-1.740891e+02	-2.648689e+01	1.699192e+02
3.625875e+06	-2.649338e+01	1.752592e+02	-3.133989e+01	-5.103246e+00	-9.581652e+01	-1.734127e+02	-2.648718e+01	1.699268e+02
3.625906e+06	-2.649340e+01	1.752652e+02	-3.134252e+01	-5.097637e+00	-9.481223e+01	-1.728839e+02	-2.648747e+01	1.699344e+02
3.625937e+06	-2.649342e+01	1.752713e+02	-3.134516e+01	-5.092026e+00	-9.391159e+01	-1.724593e+02	-2.648775e+01	1.699420e+02
3.625968e+06	-2.649464e+01	1.752697e+02	-3.134509e+01	-5.104873e+00	-9.455278e+01	-1.784756e+02	-2.648949e+01	1.699449e+02
3.626000e+06	-2.649589e+01	1.752679e+02	-3.134495e+01	-5.118174e+00	-9.516205e+01	1.743725e+02	-2.649126e+01	1.699476e+02
3.626031e+06	-2.649714e+01	1.752662e+02	-3.134482e+01	-5.131474e+00	-9.565192e+01	1.662497e+02	-2.649303e+01	1.699504e+02
3.626062e+06	-2.649839e+01	1.752644e+02	-3.134468e+01	-5.144775e+00	-9.596808e+01	1.573310e+02	-2.649480e+01	1.699531e+02
3.626094e+06	-2.649964e+01	1.752626e+02	-3.134454e+01	-5.158074e+00	-9.606739e+01	1.479714e+02	-2.649657e+01	1.699559e+02
3.626125e+06	-2.649864e+01	1.752644e+02	-3.134240e+01	-5.168853e+00	-9.742763e+01	1.656292e+02	-2.649687e+01	1.699433e+02
3.626156e+06	-2.649760e+01	1.752662e+02	-3.134023e+01	-5.179586e+00	-9.781482e+01	-1.720317e+02	-2.649715e+01	1.699305e+02
3.626187e+06	-2.649657e+01	1.752680e+02	-3.133805e+01	-5.190314e+00	-9.693421e+01	-1.509869e+02	-2.649743e+01	1.699176e+02
3.626218e+06	-2.649553e+01	1.752699e+02	-3.133588e+01	-5.201036e+00	-9.534094e+01	-1.353169e+02	-2.649770e+01	1.699048e+02
3.626250e+06	-2.649450e+01	1.752717e+02	-3.133371e+01	-5.211752e+00	-9.361777e+01	-1.246923e+02	-2.649798e+01	1.698920e+02
3.626281e+06	-2.649414e+01	1.752651e+02	-3.133527e+01	-5.231646e+00	-9.360177e+01	-1.034223e+02	-2.649780e+01	1.698969e+02
3.626312e+06	-2.649378e+01	1.752584e+02	-3.133687e+01	-5.251622e+00	-9.254832e+01	-8.458853e+01	-2.649761e+01	1.699019e+02
3.626344e+06	-2.649342e+01	1.752517e+02	-3.133846e+01	-5.271605e+00	-9.099138e+01	-7.075948e+01	-2.649743e+01	1.699069e+02
3.626375e+06	-2.649307e+01	1.752450e+02	-3.134006e+01	-5.291595e+00	-8.937154e+01	-6.121530e+01	-2.649724e+01	1.699119e+02
3.626406e+06	-2.649271e+01	1.752383e+02	-3.134165e+01	-5.311592e+00	-8.786349e+01	-5.457317e+01	-2.649706e+01	1.699169e+02
3.626437e+06	-2.649291e+01	1.752476e+02	-3.134410e+01	-5.309466e+00	-8.860093e+01	-4.879599e+01	-2.649761e+01	1.699150e+02
3.626468e+06	-2.649312e+01	1.752569e+02	-3.134656e+01	-5.307340e+00	-8.929270e+01	-4.198100e+01	-2.649815e+01	1.699131e+02
3.626500e+06	-2.649332e+01	1.752662e+02	-3.134902e+01	-5.305212e+00	-8.988916e+01	-3.406997e+01	-2.649870e+01	1.699112e+02
3.626531e+06	-2.649352e+01	1.752756e+02	-3.135147e+01	-5.303083e+00	-9.032910e+01	-2.514867e+01	-2.649924e+01	1.699093e+02
3.626562e+06	-2.649373e+01	1.752849e+02	-3.135393e+01	-5.300952e+00	-9.055325e+01	-1.551202e+01	-2.649979e+01	1.699074e+02
3.626594e+06	-2.649437e+01	1.752752e+02	-3.135383e+01	-5.297010e+00	-9.382148e+01	-1.110363e+01	-2.649856e+01	1.699159e+02
3.626625e+06	-2.649503e+01	1.752650e+02	-3.135366e+01	-5.293024e+00	-9.905910e+01	3.406841e-01	-2.649729e+01	1.699247e+02
3.626656e+06	-2.649568e+01	1.752548e+02	-3.135350e+01	-5.289038e+00	-1.066270e+02	6.041458e+01	-2.649603e+01	1.699334e+02
3.626687e+06	-2.649633e+01	1.752446e+02	-3.135333e+01	-5.285052e+00	-9.968734e+01	1.291124e+02	-2.649476e+01	1.699421e+02
3.626718e+06	-2.649699e+01	1.752344e+02	-3.135316e+01	-5.281066e+00	-9.418665e+01	1.419658e+02	-2.649349e+01	1.699509e+02
3.626750e+06	-2.649700e+01	1.752328e+02	-3.135187e+01	-5.286252e+00	-9.425528e+01	1.241892e+02	-2.649397e+01	1.699480e+02
3.626781e+06	-2.649701e+01	1.752313e+02	-3.135057e+01	-5.291586e+00	-9.357549e+01	1.071441e+02	-2.649448e+01	1.699449e+02
3.626812e+06	-2.649701e+01	1.752298e+02	-3.134926e+01	-5.296918e+00	-9.237402e+01	9.349101e+01	-2.649498e+01	1.699419e+02
3.626844e+06	-2.649702e+01	1.752284e+02	-3.134796e+01	-5.302248e+00	-9.099578e+01	8.338965e+01	-2.649549e+01	1.699388e+02
3.626875e+06	-2.649702e+01	1.752269e+02	-3.134665e+01	-5.307577e+00	-8.963528e+01	7.603804e+01	-2.649600e+01	1.699357e+02
3.626906e+06	-2.649699e+01	1.752336e+02	-3.134650e+01	-5.295851e+00	-8.959192e+01	9.278016e+01	-2.649506e+01	1.699456e+02
3.626937e+06	-2.649696e+01	1.752403e+02	-3.134636e+01	-5.283988e+00	-8.887459e+01	1.082740e+02	-2.649411e+01	1.699556e+02
3.626968e+06	-2.649693e+01	1.752471e+02	-3.134622e+01	-5.272125e+00	-8.773964e+01	1.207384e+02	-2.649317e+01	1.699656e+02
3.627000e+06	-2.649690e+01	1.752538e+02	-3.134608e+01	-5.260263e+00	-8.645980e+01	1.301455e+02	-2.649222e+01	1.699756e+02
3.627031e+06	-2.649687e+01	1.752606e+02	-3.134594e+01	-5.248401e+00	-8.519134e+01	1.371466e+02	-2.649127e+01	1.699856e+02
3.627062e+06	-2.649699e+01	1.752539e+02	-3.134685e+01	-5.265572e+00	-8.588025e+01	1.408000e+02	-2.649257e+01	1.699743e+02
3.627094e+06	-2.649711e+01	1.752471e+02	-3.134776e+01	-5.282746e+00	-8.658337e+01	1.450896e+02	-2.649388e+01	1.699630e+02
3.627125e+06	-2.649723e+01	1.752404e+02	-3.134867e+01	-5.299923e+00	-8.728599e+01	1.501345e+02	-2.649518e+01	1.699518e+02
3.627156e+06	-2.649735e+01	1.752337e+02	-3.134957e+01	-5.317105e+00	-8.796433e+01	1.560517e+02	-2.649649e+01	1.699405e+02
3.627187e+06	-2.649747e+01	1.752270e+02	-3.135048e+01	-5.334290e+00	-8.858320e+01	1.629263e+02	-2.649779e+01	1.699292e+02
3.627218e+06	-2.649710e+01	1.752284e+02	-3.134978e+01	-5.331822e+00	-8.855662e+01	1.598960e+02	-2.649746e+01	1.699365e+02
3.627250e+06	-2.649673e+01	1.752300e+02	-3.134904e+01	-5.328872e+00	-8.848774e+01	1.566509e+02	-2.649709e+01	1.699442e+02
3.627281e+06	-2.649635e+01	1.752316e+02	-3.134829e+01	-5.325923e+00	-8.839228e+01	1.534666e+02	-2.649672e+01	1.699520e+02
3.627312e+06	-2.649597e+01	1.752332e+02	-3.134755e+01	-5.322974e+00	-8.827198e+01	1.503606e+02	-2.649635e+01	1.699597e+02
3.627344e+06	-2.649560e+01	1.752348e+02	-3.134681e+01	-5.320025e+00	-8.812890e+01	1.473474e+02	-2.649598e+01	1.699675e+02
3.627375e+06	-2.649511e+01	1.752359e+02	-3.134834e+01	-5.321515e+00	-9.080505e+01	1.490552e+02	-2.649702e+01	1.699616e+02
3.627406e+06	-2.649462e+01	1.752370e+02	-3.134990e+01	-5.323077e+00	-9.475007e+01	1.528814e+02	-2.649809e+01	1.699555e+02
3.627437e+06	-2.649413e+01	1.752381e+02	-3.135146e+01	-5.324640e+00	-1.018551e+02	1.666581e+02	-2.649916e+01	1.699494e+02
3.627468e+06	-2.649364e+01	1.752392e+02	-3.135302e+01	-5.326203e+00	-1.066504e+02	-8.293296e+01	-2.650022e+01	1.699433e+02
3.627500e+06	-2.649315e+01	1.752403e+02	-3.135459e+01	-5.327767e+00	-9.690098e+01	-5.093894e+01	-2.650129e+01	1.699371e+02
3.627531e+06	-2.649413e+01	1.752480e+02	-3.135576e+01	-5.325942e+00	-9.973309e+01	-4.452161e+01	-2.650060e+01	1.699346e+02
3.627562e+06	-2.649511e+01	1.752559e+02	-3.135694e+01	-5.324088e+00	-1.037292e+02	-3.029858e+01	-2.649989e+01	1.699322e+02
3.627594e+06	-2.649609e+01	1.752637e+02	-3.135811e+01	-5.322234e+00	-1.080807e+02	9.669885e+00	-2.649918e+01	1.699297e+02
3.627625e+06	-2.649708e+01	1.752715e+02	-3.135929e+01	-5.320380e+00	-1.058683e+02	6.492988e+01	-2.649848e+01	1.699272e+02
3.627656e+06	-2.649806e+01	1.752793e+02	-3.136046e+01	-5.318525e+00	-1.013443e+02	8.716260e+01	-2.649777e+01	1.699247e+02
3.627687e+06	-2.649787e+01	1.752799e+02	-3.135946e+01	-5.303937e+00	-9.754015e+01	1.007310e+02	-2.649693e+01	1.699332e+02
3.627718e+06	-2.649769e+01	1.752805e+02	-3.135845e+01	-5.289353e+00	-9.473634e+01	1.070252e+02	-2.649610e+01	1.699418e+02
3.627750e+06	-2.649750e+01	1.752810e+02	-3.135745e+01	-5.274772e+00	-9.257380e+01	1.105736e+02	-2.649526e+01	1.699503e+02
3.627781e+06	-2.649731e+01	1.752816e+02	-3.135645e+01	-5.260194e+00	-9.082637e+01	1.128349e+02	-2.649443e+01	1.699589e+02
3.627812e+06	-2.649712e+01	1.752822e+02	-3.135544e+01	-5.245620e+00	-8.936439e+01	1.143974e+02	-2.649359e+01	1.699674e+02
3.627844e+06	-2.649671e+01	1.752795e+02	-3.135531e+01	-5.254729e+00	-9.006642e+01	1.065906e+02	-2.649338e+01	1.699640e+02
3.627875e+06	-2.649629e+01	1.752767e+02	-3.135519e+01	-5.264420e+00	-9.067334e+01	9.720573e+01	-2.649319e+01	1.699603e+02
3.627906e+06	-2.649587e+01	1.752739e+02	-3.135507e+01	-5.274112e+00	-9.104537e+01	8.668917e+01	-2.649300e+01	1.699566e+02
3.627937e+06	-2.649545e+01	1.752710e+02	-3.135496e+01	-5.283802e+00	-9.111311e+01	7.561972e+01	-2.649281e+01	1.699529e+02
3.627968e+06	-2.649503e+01	1.752682e+02	-3.135484e+01	-5.293493e+00	-9.086249e+01	6.478372e+01	-2.649262e+01	1.699492e+02
3.628000e+06	-2.649556e+01	1.752660e+02	-3.135562e+01	-5.314088e+00	-9.197572e+01	5.852907e+01	-2.649385e+01	1.699463e+02
3.628031e+06	-2.649610e+01	1.752637e+02	-3.135642e+01	-5.334864e+00	-9.313227e+01	5.047800e+01	-2.649510e+01	1.699435e+02
3.628062e+06	-2.649665e+01	1.752614e+02	-3.135722e+01	-5.355644e+00	-9.420867e+01	4.004345e+01	-2.649636e+01	1.699407e+02
3.628094e+06	-2.649719e+01	1.752591e+02	-3.135801e+01	-5.376427e+00	-9.502616e+01	2.702656e+01	-2.649761e+01	1.699379e+02
3.628125e+06	-2.649774e+01	1.752568e+02	-3.135880e+01	-5.397215e+00	-9.536337e+01	1.211883e+01	-2.649886e+01	1.699351e+02
3.628156e+06	-2.649757e+01	1.752635e+02	-3.135802e+01	-5.379876e+00	-9.662800e+01	2.582461e+01	-2.649772e+01	1.699300e+02
3.628187e+06	-2.649739e+01	1.752702e+02	-3.135722e+01	-5.362234e+00	-9.736061e+01	4.347576e+01	-2.649656e+01	1.699250e+02
3.628218e+06	-2.649722e+01	1.752769e+02	-3.135643e+01	-5.344594e+00	-9.720437e+01	6.238222e+01	-2.649539e+01	1.699199e+02
3.628250e+06	-2.649704e+01	1.752836e+02	-3.135563e+01	-5.326958e+00	-9.624248e+01	7.893424e+01	-2.649423e+01	1.699148e+02
3.628281e+06	-2.649687e+01	1.752903e+02	-3.135483e+01	-5.309325e+00	-9.487835e+01	9.152328e+01	-2.649307e+01	1.699097e+02
3.628312e+06	-2.649620e+01	1.752911e+02	-3.135517e+01	-5.307778e+00	-9.524293e+01	9.235430e+01	-2.649328e+01	1.699177e+02
3.628344e+06	-2.649554e+01	1.752920e+02	-3.135551e+01	-5.306231e+00	-9.562140e+01	9.325955e+01	-2.649348e+01	1.699257e+02
3.628375e+06	-2.649487e+01	1.752928e+02	-3.135586e+01	-5.304684e+00	-9.601463e+01	9.424892e+01	-2.649369e+01	1.699337e+02
3.628406e+06	-2.649420e+01	1.752936e+02	-3.135620e+01	-5.303137e+00	-9.642354e+01	9.533401e+01	-2.649389e+01	1.699417e+02
3.628437e+06	-2.649354e+01	1.752945e+02	-3.135654e+01	-5.301589e+00	-9.684906e+01	9.652854e+01	-2.649410e+01	1.699497e+02
3.628468e+06	-2.649519e+01	1.752912e+02	-3.135582e+01	-5.309728e+00	-9.732737e+01	1.133663e+02	-2.649484e+01	1.699509e+02
3.628500e+06	-2.649691e+01	1.752878e+02	-3.135507e+01	-5.318103e+00	-9.700585e+01	1.309024e+02	-2.649559e+01	1.699520e+02
3.628531e+06	-2.649862e+01	1.752844e+02	-3.135432e+01	-5.326477e+00	-9.602588e+01	1.459355e+02	-2.649635e+01	1.699531e+02
3.628562e+06	-2.650034e+01	1.752810e+02	-3.135357e+01	-5.334850e+00	-9.473201e+01	1.574512e+02	-2.649710e+01	1.699541e+02
3.628594e+06	-2.650205e+01	1.752777e+02	-3.135282e+01	-5.343221e+00	-9.337965e+01	1.659163e+02	-2.649786e+01	1.699552e+02
3.628625e+06	-2.650070e+01	1.752856e+02	-3.135347e+01	-5.335309e+00	-9.584133e+01	1.532963e+02	-2.649674e+01	1.699530e+02
3.628656e+06	-2.649929e+01	1.752937e+02	-3.135415e+01	-5.327132e+00	-9.824705e+01	1.301353e+02	-2.649560e+01	1.699508e+02
3.628687e+06	-2.649789e+01	1.753018e+02	-3.135482e+01	-5.318953e+00	-9.875872e+01	9.674666e+01	-2.649446e+01	1.699486e+02
3.628718e+06	-2.649649e+01	1.753098e+02	-3.135550e+01	-5.310773e+00	-9.676513e+01	6.910130e+01	-2.649331e+01	1.699464e+02
3.628750e+06	-2.649508e+01	1.753179e+02	-3.135617e+01	-5.302591e+00	-9.417581e+01	5.321316e+01	-2.649217e+01	1.699442e+02
3.628781e+06	-2.649589e+01	1.753143e+02	-3.135506e+01	-5.301478e+00	-9.596377e+01	4.786098e+01	-2.649231e+01	1.699486e+02
3.628812e+06	-2.649673e+01	1.753105e+02	-3.135393e+01	-5.300421e+00	-9.811831e+01	3.947657e+01	-2.649247e+01	1.699531e+02
3.628844e+06	-2.649756e+01	1.753067e+02	-3.135280e+01	-5.299365e+00	-1.005520e+02	2.515928e+01	-2.649262e+01	1.699576e+02
3.628875e+06	-2.649839e+01	1.753030e+02	-3.135167e+01	-5.298309e+00	-1.026125e+02	6.478059e-01	-2.649278e+01	1.699620e+02
3.628906e+06	-2.649922e+01	1.752992e+02	-3.135054e+01	-5.297253e+00	-1.026420e+02	-3.120497e+01	-2.649293e+01	1.699665e+02
3.628937e+06	-2.650066e+01	1.752906e+02	-3.134854e+01	-5.312152e+00	-1.023726e+02	3.409493e+00	-2.649454e+01	1.699566e+02
3.628968e+06	-2.650211e+01	1.752821e+02	-3.134654e+01	-5.327043e+00	-9.994611e+01	2.802200e+01	-2.649616e+01	1.699468e+02
