# Hz S dB R 50.000
3.627969e+06	-2.648696e+01	1.756418e+02	-3.133884e+01	-4.688626e+00	-9.603582e+01	1.574158e+01	-2.661819e+01	1.701032e+02
3.628000e+06	-2.648758e+01	1.756444e+02	-3.134013e+01	-4.673886e+00	-9.498732e+01	1.623500e+00	-2.661704e+01	1.701010e+02
3.628032e+06	-2.648821e+01	1.756470e+02	-3.134143e+01	-4.659142e+00	-9.369224e+01	-9.109870e+00	-2.661589e+01	1.700987e+02
3.628063e+06	-2.648883e+01	1.756496e+02	-3.134272e+01	-4.644393e+00	-9.236801e+01	-1.702778e+01	-2.661475e+01	1.700965e+02
3.628094e+06	-2.648945e+01	1.756522e+02	-3.134402e+01	-4.629640e+00	-9.111141e+01	-2.290195e+01	-2.661360e+01	1.700942e+02
3.628125e+06	-2.649006e+01	1.756548e+02	-3.134530e+01	-4.615045e+00	-8.996468e+01	-2.723444e+01	-2.661246e+01	1.700920e+02
3.628156e+06	-2.648937e+01	1.756589e+02	-3.134510e+01	-4.620636e+00	-9.018068e+01	-1.674539e+01	-2.661242e+01	1.700964e+02
3.628188e+06	-2.648867e+01	1.756629e+02	-3.134490e+01	-4.626227e+00	-9.009979e+01	-6.089987e+00	-2.661237e+01	1.701008e+02
3.628219e+06	-2.648797e+01	1.756669e+02	-3.134470e+01	-4.631818e+00	-8.973767e+01	4.029856e+00	-2.661233e+01	1.701051e+02
3.628250e+06	-2.648727e+01	1.756709e+02	-3.134451e+01	-4.637408e+00	-8.915712e+01	1.309960e+01	-2.661228e+01	1.701095e+02
3.628282e+06	-2.648657e+01	1.756749e+02	-3.134434e+01	-4.642916e+00	-8.846862e+01	2.086574e+01	-2.661224e+01	1.701137e+02
3.628313e+06	-2.648622e+01	1.756726e+02	-3.134650e+01	-4.643334e+00	-8.970669e+01	2.670130e+01	-2.661229e+01	1.701097e+02
3.628344e+06	-2.648587e+01	1.756703e+02	-3.134865e+01	-4.643752e+00	-9.100861e+01	3.452988e+01	-2.661234e+01	1.701057e+02
3.628375e+06	-2.648551e+01	1.756680e+02	-3.135080e+01	-4.644170e+00	-9.228097e+01	4.508600e+01	-2.661239e+01	1.701017e+02
3.628406e+06	-2.648516e+01	1.756657e+02	-3.135295e+01	-4.644589e+00	-9.331709e+01	5.891185e+01	-2.661244e+01	1.700977e+02
3.628438e+06	-2.648480e+01	1.756634e+02	-3.135510e+01	-4.645008e+00	-9.380742e+01	7.546378e+01	-2.661249e+01	1.700936e+02
3.628469e+06	-2.648596e+01	1.756690e+02	-3.135497e+01	-4.640396e+00	-9.549902e+01	7.281963e+01	-2.661291e+01	1.700972e+02
3.628500e+06	-2.648713e+01	1.756746e+02	-3.135482e+01	-4.635744e+00	-9.757861e+01	6.848801e+01	-2.661333e+01	1.701009e+02
3.628532e+06	-2.648830e+01	1.756802e+02	-3.135468e+01	-4.631092e+00	-1.002014e+02	6.103068e+01	-2.661375e+01	1.701045e+02
3.628563e+06	-2.648947e+01	1.756858e+02	-3.135453e+01	-4.626440e+00	-1.035268e+02	4.611364e+01	-2.661418e+01	1.701082e+02
3.628594e+06	-2.649064e+01	1.756914e+02	-3.135438e+01	-4.621788e+00	-1.066932e+02	1.318859e+01	-2.661460e+01	1.701118e+02
3.628625e+06	-2.648954e+01	1.756884e+02	-3.135290e+01	-4.632989e+00	-1.028655e+02	-5.924630e+01	-2.661348e+01	1.701092e+02
3.628656e+06	-2.648843e+01	1.756855e+02	-3.135142e+01	-4.644187e+00	-9.725771e+01	-7.801378e+01	-2.661237e+01	1.701066e+02
3.628688e+06	-2.648733e+01	1.756825e+02	-3.134994e+01	-4.655381e+00	-9.366108e+01	-8.441547e+01	-2.661125e+01	1.701040e+02
3.628719e+06	-2.648622e+01	1.756795e+02	-3.134846e+01	-4.666570e+00	-9.108540e+01	-8.755593e+01	-2.661014e+01	1.701015e+02
3.628750e+06	-2.648513e+01	1.756766e+02	-3.134700e+01	-4.677622e+00	-8.912765e+01	-8.931927e+01	-2.660905e+01	1.700989e+02
3.628782e+06	-2.648484e+01	1.756739e+02	-3.134766e+01	-4.671986e+00	-9.255732e+01	-7.436784e+01	-2.661101e+01	1.701017e+02
3.628813e+06	-2.648454e+01	1.756711e+02	-3.134833e+01	-4.666348e+00	-9.586352e+01	-4.029192e+01	-2.661297e+01	1.701044e+02
3.628844e+06	-2.648425e+01	1.756684e+02	-3.134900e+01	-4.660710e+00	-9.474721e+01	5.841457e+00	-2.661493e+01	1.701072e+02
3.628875e+06	-2.648396e+01	1.756657e+02	-3.134966e+01	-4.655072e+00	-9.106301e+01	3.035083e+01	-2.661689e+01	1.701100e+02
3.628906e+06	-2.648367e+01	1.756629e+02	-3.135030e+01	-4.649520e+00	-8.802059e+01	4.122212e+01	-2.661879e+01	1.701128e+02
3.628938e+06	-2.648392e+01	1.756554e+02	-3.134936e+01	-4.649367e+00	-8.967660e+01	4.548622e+01	-2.661679e+01	1.701168e+02
3.628969e+06	-2.648416e+01	1.756479e+02	-3.134841e+01	-4.649214e+00	-9.163228e+01	5.195667e+01	-2.661480e+01	1.701208e+02
3.629000e+06	-2.648440e+01	1.756404e+02	-3.134747e+01	-4.649061e+00	-9.391901e+01	6.253953e+01	-2.661281e+01	1.701248e+02
3.629032e+06	-2.648465e+01	1.756329e+02	-3.134652e+01	-4.648908e+00	-9.630814e+01	8.087808e+01	-2.661082e+01	1.701288e+02
3.629063e+06	-2.648489e+01	1.756254e+02	-3.134558e+01	-4.648755e+00	-9.764831e+01	1.097828e+02	-2.660883e+01	1.701328e+02
3.629094e+06	-2.648598e+01	1.756413e+02	-3.134753e+01	-4.637562e+00	-1.008136e+02	9.156354e+01	-2.661061e+01	1.701375e+02
3.629125e+06	-2.648707e+01	1.756574e+02	-3.134951e+01	-4.626276e+00	-1.029553e+02	5.551334e+01	-2.661242e+01	1.701423e+02
3.629156e+06	-2.648817e+01	1.756735e+02	-3.135149e+01	-4.614984e+00	-1.011969e+02	1.755791e+01	-2.661423e+01	1.701471e+02
3.629188e+06	-2.648927e+01	1.756897e+02	-3.135346e+01	-4.603686e+00	-9.799317e+01	-2.769161e+00	-2.661604e+01	1.701519e+02
3.629219e+06	-2.649036e+01	1.757058e+02	-3.135544e+01	-4.592384e+00	-9.524155e+01	-1.284773e+01	-2.661785e+01	1.701567e+02
3.629250e+06	-2.648930e+01	1.756998e+02	-3.135364e+01	-4.597640e+00	-9.624026e+01	6.210187e-01	-2.661682e+01	1.701468e+02
3.629282e+06	-2.648824e+01	1.756938e+02	-3.135185e+01	-4.602894e+00	-9.672416e+01	1.665852e+01	-2.661578e+01	1.701368e+02
3.629313e+06	-2.648717e+01	1.756878e+02	-3.135005e+01	-4.608145e+00	-9.649867e+01	3.319400e+01	-2.661475e+01	1.701269e+02
3.629344e+06	-2.648611e+01	1.756818e+02	-3.134826e+01	-4.613395e+00	-9.565972e+01	4.777705e+01	-2.661372e+01	1.701170e+02
3.629375e+06	-2.648506e+01	1.756758e+02	-3.134648e+01	-4.618674e+00	-9.449578e+01	5.911034e+01	-2.661269e+01	1.701071e+02
3.629406e+06	-2.648529e+01	1.756706e+02	-3.134626e+01	-4.627983e+00	-9.396314e+01	4.612986e+01	-2.661322e+01	1.701057e+02
3.629438e+06	-2.648553e+01	1.756653e+02	-3.134604e+01	-4.637290e+00	-9.310441e+01	3.509700e+01	-2.661374e+01	1.701043e+02
3.629469e+06	-2.648576e+01	1.756601e+02	-3.134582e+01	-4.646598e+00	-9.208659e+01	2.622729e+01	-2.661426e+01	1.701029e+02
3.629500e+06	-2.648599e+01	1.756549e+02	-3.134561e+01	-4.655905e+00	-9.102835e+01	1.925391e+01	-2.661479e+01	1.701016e+02
3.629532e+06	-2.648621e+01	1.756499e+02	-3.134541e+01	-4.664948e+00	-9.001643e+01	1.401061e+01	-2.661532e+01	1.701002e+02
3.629563e+06	-2.648564e+01	1.756533e+02	-3.134692e+01	-4.657816e+00	-9.024754e+01	2.398192e+01	-2.661640e+01	1.700973e+02
3.629594e+06	-2.648507e+01	1.756567e+02	-3.134843e+01	-4.650682e+00	-9.020928e+01	3.417945e+01	-2.661749e+01	1.700945e+02
3.629625e+06	-2.648450e+01	1.756601e+02	-3.134994e+01	-4.643545e+00	-8.990847e+01	4.398264e+01	-2.661858e+01	1.700917e+02
3.629656e+06	-2.648393e+01	1.756635e+02	-3.135145e+01	-4.636406e+00	-8.939441e+01	5.290045e+01	-2.661966e+01	1.700889e+02
3.629688e+06	-2.648335e+01	1.756670e+02	-3.135296e+01	-4.629264e+00	-8.873560e+01	6.068433e+01	-2.662075e+01	1.700861e+02
3.629719e+06	-2.648392e+01	1.756651e+02	-3.135227e+01	-4.621889e+00	-8.994750e+01	7.379699e+01	-2.661867e+01	1.700912e+02
3.629750e+06	-2.648450e+01	1.756631e+02	-3.135157e+01	-4.614514e+00	-9.070463e+01	9.040585e+01	-2.661657e+01	1.700963e+02
3.629782e+06	-2.648507e+01	1.756612e+02	-3.135087e+01	-4.607139e+00	-9.066906e+01	1.085010e+02	-2.661447e+01	1.701015e+02
3.629813e+06	-2.648565e+01	1.756592e+02	-3.135017e+01	-4.599766e+00	-8.985843e+01	1.248665e+02	-2.661237e+01	1.701066e+02
3.629844e+06	-2.648622e+01	1.756573e+02	-3.134947e+01	-4.592394e+00	-8.860760e+01	1.377069e+02	-2.661027e+01	1.701117e+02
3.629875e+06	-2.648591e+01	1.756520e+02	-3.134998e+01	-4.597528e+00	-9.064031e+01	1.296713e+02	-2.661047e+01	1.701121e+02
3.629906e+06	-2.648560e+01	1.756467e+02	-3.135050e+01	-4.602662e+00	-9.291854e+01	1.163964e+02	-2.661067e+01	1.701125e+02
3.629938e+06	-2.648529e+01	1.756414e+02	-3.135101e+01	-4.607797e+00	-9.493155e+01	9.428927e+01	-2.661088e+01	1.701128e+02
3.629969e+06	-2.648498e+01	1.756361e+02	-3.135152e+01	-4.612933e+00	-9.530706e+01	6.458946e+01	-2.661108e+01	1.701132e+02
3.630000e+06	-2.648467e+01	1.756309e+02	-3.135202e+01	-4.618116e+00	-9.368184e+01	3.946165e+01	-2.661128e+01	1.701136e+02
3.630032e+06	-2.648462e+01	1.756361e+02	-3.135034e+01	-4.629104e+00	-9.464014e+01	4.495957e+01	-2.661130e+01	1.701181e+02
3.630063e+06	-2.648457e+01	1.756413e+02	-3.134866e+01	-4.640089e+00	-9.560454e+01	5.182562e+01	-2.661132e+01	1.701225e+02
3.630094e+06	-2.648451e+01	1.756465e+02	-3.134697e+01	-4.651068e+00	-9.651441e+01	6.035634e+01	-2.661134e+01	1.701270e+02
3.630125e+06	-2.648446e+01	1.756517e+02	-3.134529e+01	-4.662044e+00	-9.726921e+01	7.070725e+01	-2.661136e+01	1.701314e+02
3.630156e+06	-2.648441e+01	1.756569e+02	-3.134367e+01	-4.672459e+00	-9.778888e+01	8.289994e+01	-2.661140e+01	1.701358e+02
3.630188e+06	-2.648426e+01	1.756651e+02	-3.134531e+01	-4.648615e+00	-9.992866e+01	1.225661e+02	-2.661288e+01	1.701384e+02
3.630219e+06	-2.648412e+01	1.756733e+02	-3.134696e+01	-4.624762e+00	-9.763061e+01	1.613796e+02	-2.661435e+01	1.701409e+02
3.630250e+06	-2.648397e+01	1.756815e+02	-3.134861e+01	-4.600899e+00	-9.421253e+01	-1.796807e+02	-2.661583e+01	1.701435e+02
3.630282e+06	-2.648383e+01	1.756897e+02	-3.135025e+01	-4.577028e+00	-9.141909e+01	-1.705458e+02	-2.661730e+01	1.701460e+02
3.630313e+06	-2.648368e+01	1.756978e+02	-3.135190e+01	-4.553148e+00	-8.921161e+01	-1.654244e+02	-2.661878e+01	1.701486e+02
3.630344e+06	-2.648460e+01	1.756945e+02	-3.135033e+01	-4.552164e+00	-9.122202e+01	-1.684470e+02	-2.661794e+01	1.701465e+02
3.630375e+06	-2.648554e+01	1.756910e+02	-3.134873e+01	-4.551364e+00	-9.383653e+01	-1.737052e+02	-2.661708e+01	1.701444e+02
3.630406e+06	-2.648647e+01	1.756876e+02	-3.134714e+01	-4.550565e+00	-9.736600e+01	1.755805e+02	-2.661622e+01	1.701424e+02
3.630438e+06	-2.648740e+01	1.756841e+02	-3.134554e+01	-4.549766e+00	-1.018836e+02	1.475768e+02	-2.661536e+01	1.701403e+02
3.630469e+06	-2.648833e+01	1.756807e+02	-3.134395e+01	-4.548968e+00	-1.023955e+02	9.066893e+01	-2.661450e+01	1.701382e+02
3.630500e+06	-2.648749e+01	1.756781e+02	-3.134606e+01	-4.554626e+00	-1.049531e+02	5.869388e+01	-2.661451e+01	1.701416e+02
3.630532e+06	-2.648664e+01	1.756754e+02	-3.134817e+01	-4.560287e+00	-1.039940e+02	1.915918e+01	-2.661452e+01	1.701451e+02
3.630563e+06	-2.648580e+01	1.756728e+02	-3.135028e+01	-4.565951e+00	-1.008989e+02	-4.365115e+00	-2.661453e+01	1.701485e+02
3.630594e+06	-2.648496e+01	1.756701e+02	-3.135239e+01	-4.571617e+00	-9.806105e+01	-1.599531e+01	-2.661454e+01	1.701519e+02
3.630625e+06	-2.648413e+01	1.756675e+02	-3.135446e+01	-4.577337e+00	-9.578467e+01	-2.203302e+01	-2.661454e+01	1.701553e+02
3.630656e+06	-2.648499e+01	1.756703e+02	-3.135188e+01	-4.589335e+00	-9.367462e+01	1.312527e+01	-2.661369e+01	1.701521e+02
3.630688e+06	-2.648585e+01	1.756731e+02	-3.134930e+01	-4.601327e+00	-9.055663e+01	3.151179e+01	-2.661284e+01	1.701489e+02
3.630719e+06	-2.648672e+01	1.756759e+02	-3.134672e+01	-4.613311e+00	-8.791603e+01	4.086631e+01	-2.661198e+01	1.701457e+02
3.630750e+06	-2.648758e+01	1.756787e+02	-3.134414e+01	-4.625288e+00	-8.578813e+01	4.625279e+01	-2.661113e+01	1.701425e+02
3.630782e+06	-2.648843e+01	1.756814e+02	-3.134160e+01	-4.636963e+00	-8.409044e+01	4.960459e+01	-2.661030e+01	1.701394e+02
3.630813e+06	-2.648835e+01	1.756736e+02	-3.134166e+01	-4.630509e+00	-8.579085e+01	4.598045e+01	-2.661078e+01	1.701420e+02
3.630844e+06	-2.648827e+01	1.756658e+02	-3.134172e+01	-4.624056e+00	-8.783897e+01	4.039537e+01	-2.661126e+01	1.701447e+02
3.630875e+06	-2.648818e+01	1.756580e+02	-3.134179e+01	-4.617602e+00	-9.033456e+01	3.094393e+01	-2.661174e+01	1.701473e+02
3.630906e+06	-2.648810e+01	1.756502e+02	-3.134185e+01	-4.611148e+00	-9.319571e+01	1.323045e+01	-2.661222e+01	1.701499e+02
3.630938e+06	-2.648802e+01	1.756424e+02	-3.134191e+01	-4.604695e+00	-9.516415e+01	-1.881169e+01	-2.661271e+01	1.701525e+02
3.630969e+06	-2.648643e+01	1.756527e+02	-3.134284e+01	-4.606595e+00	-9.682770e+01	-1.602129e+01	-2.661356e+01	1.701550e+02
3.631000e+06	-2.648484e+01	1.756631e+02	-3.134379e+01	-4.608563e+00	-9.884957e+01	-1.125061e+01	-2.661443e+01	1.701576e+02
3.631032e+06	-2.648324e+01	1.756735e+02	-3.134473e+01	-4.610531e+00	-1.013523e+02	-3.201668e+00	-2.661529e+01	1.701602e+02
3.631063e+06	-2.648164e+01	1.756840e+02	-3.134567e+01	-4.612500e+00	-1.043958e+02	1.217437e+01	-2.661615e+01	1.701627e+02
3.631094e+06	-2.648004e+01	1.756944e+02	-3.134661e+01	-4.614469e+00	-1.070711e+02	4.298457e+01	-2.661701e+01	1.701653e+02
3.631125e+06	-2.648053e+01	1.756934e+02	-3.134405e+01	-4.609069e+00	-1.024469e+02	9.884030e+01	-2.661620e+01	1.701607e+02
3.631156e+06	-2.648102e+01	1.756923e+02	-3.134149e+01	-4.603673e+00	-9.763752e+01	1.150620e+02	-2.661538e+01	1.701560e+02
3.631188e+06	-2.648151e+01	1.756913e+02	-3.133893e+01	-4.598279e+00	-9.436868e+01	1.213897e+02	-2.661457e+01	1.701514e+02
3.631219e+06	-2.648200e+01	1.756902e+02	-3.133637e+01	-4.592889e+00	-9.195732e+01	1.246752e+02	-2.661376e+01	1.701468e+02
3.631250e+06	-2.648251e+01	1.756892e+02	-3.133384e+01	-4.587565e+00	-9.009965e+01	1.266976e+02	-2.661295e+01	1.701423e+02
3.631282e+06	-2.648466e+01	1.756912e+02	-3.133456e+01	-4.590055e+00	-9.450469e+01	1.341656e+02	-2.661264e+01	1.701487e+02
3.631313e+06	-2.648682e+01	1.756932e+02	-3.133529e+01	-4.592546e+00	-1.021603e+02	1.655690e+02	-2.661234e+01	1.701552e+02
3.631344e+06	-2.648897e+01	1.756952e+02	-3.133602e+01	-4.595037e+00	-1.001569e+02	-1.016731e+02	-2.661203e+01	1.701617e+02
3.631375e+06	-2.649113e+01	1.756972e+02	-3.133674e+01	-4.597528e+00	-9.335962e+01	-8.041130e+01	-2.661173e+01	1.701682e+02
3.631406e+06	-2.649323e+01	1.756992e+02	-3.133748e+01	-4.599914e+00	-8.946063e+01	-7.438486e+01	-2.661145e+01	1.701745e+02
3.631438e+06	-2.649183e+01	1.756969e+02	-3.133866e+01	-4.595810e+00	-9.207250e+01	-6.812544e+01	-2.661274e+01	1.701670e+02
3.631469e+06	-2.649042e+01	1.756945e+02	-3.133984e+01	-4.591704e+00	-9.550518e+01	-5.549495e+01	-2.661403e+01	1.701596e+02
3.631500e+06	-2.648902e+01	1.756922e+02	-3.134103e+01	-4.587597e+00	-9.938514e+01	-2.499979e+01	-2.661532e+01	1.701521e+02
3.631532e+06	-2.648762e+01	1.756899e+02	-3.134221e+01	-4.583489e+00	-9.914953e+01	2.553507e+01	-2.661661e+01	1.701446e+02
3.631563e+06	-2.648622e+01	1.756876e+02	-3.134339e+01	-4.579380e+00	-9.521764e+01	5.407708e+01	-2.661790e+01	1.701372e+02
3.631594e+06	-2.648613e+01	1.756895e+02	-3.134447e+01	-4.581137e+00	-9.340155e+01	6.139686e+01	-2.661698e+01	1.701466e+02
3.631625e+06	-2.648606e+01	1.756915e+02	-3.134555e+01	-4.582943e+00	-9.183137e+01	6.630918e+01	-2.661605e+01	1.701561e+02
3.631656e+06	-2.648598e+01	1.756934e+02	-3.134663e+01	-4.584748e+00	-9.046302e+01	6.980942e+01	-2.661511e+01	1.701657e+02
3.631688e+06	-2.648591e+01	1.756954e+02	-3.134771e+01	-4.586554e+00	-8.926014e+01	7.241207e+01	-2.661418e+01	1.701752e+02
3.631719e+06	-2.648583e+01	1.756973e+02	-3.134879e+01	-4.588361e+00	-8.819155e+01	7.441553e+01	-2.661324e+01	1.701848e+02
3.631750e+06	-2.648587e+01	1.756977e+02	-3.134691e+01	-4.596771e+00	-8.921666e+01	5.616850e+01	-2.661347e+01	1.701860e+02
3.631782e+06	-2.648591e+01	1.756982e+02	-3.134502e+01	-4.605177e+00	-8.925376e+01	3.544579e+01	-2.661371e+01	1.701872e+02
3.631813e+06	-2.648596e+01	1.756986e+02	-3.134314e+01	-4.613579e+00	-8.827998e+01	1.692356e+01	-2.661394e+01	1.701883e+02
3.631844e+06	-2.648600e+01	1.756991e+02	-3.134126e+01	-4.621978e+00	-8.679216e+01	3.079735e+00	-2.661418e+01	1.701895e+02
3.631875e+06	-2.648604e+01	1.756995e+02	-3.133938e+01	-4.630259e+00	-8.524487e+01	-6.510944e+00	-2.661441e+01	1.701906e+02
3.631906e+06	-2.648612e+01	1.756971e+02	-3.133866e+01	-4.624387e+00	-8.758380e+01	-2.362705e+00	-2.661482e+01	1.701793e+02
3.631938e+06	-2.648620e+01	1.756948e+02	-3.133793e+01	-4.618516e+00	-9.067148e+01	5.402356e+00	-2.661522e+01	1.701679e+02
3.631969e+06	-2.648629e+01	1.756925e+02	-3.133720e+01	-4.612646e+00	-9.486434e+01	2.360663e+01	-2.661563e+01	1.701565e+02
3.632000e+06	-2.648637e+01	1.756901e+02	-3.133647e+01	-4.606776e+00	-9.815757e+01	7.130787e+01	-2.661603e+01	1.701452e+02
3.632032e+06	-2.648645e+01	1.756878e+02	-3.133574e+01	-4.601139e+00	-9.483390e+01	1.173972e+02	-2.661642e+01	1.701340e+02
3.632063e+06	-2.648641e+01	1.756863e+02	-3.133536e+01	-4.609696e+00	-9.652036e+01	1.017890e+02	-2.661569e+01	1.701330e+02
3.632094e+06	-2.648638e+01	1.756848e+02	-3.133497e+01	-4.618251e+00	-9.750876e+01	8.031418e+01	-2.661495e+01	1.701321e+02
3.632125e+06	-2.648634e+01	1.756832e+02	-3.133458e+01	-4.626807e+00	-9.715592e+01	5.711780e+01	-2.661422e+01	1.701311e+02
3.632156e+06	-2.648631e+01	1.756817e+02	-3.133419e+01	-4.635361e+00	-9.572050e+01	3.841895e+01	-2.661349e+01	1.701302e+02
3.632188e+06	-2.648627e+01	1.756802e+02	-3.133380e+01	-4.643915e+00	-9.393987e+01	2.562841e+01	-2.661276e+01	1.701292e+02
3.632219e+06	-2.648621e+01	1.756818e+02	-3.133724e+01	-4.642702e+00	-9.312375e+01	2.784935e+01	-2.661388e+01	1.701277e+02
3.632250e+06	-2.648615e+01	1.756835e+02	-3.134070e+01	-4.641409e+00	-9.237314e+01	2.979119e+01	-2.661501e+01	1.701261e+02
3.632282e+06	-2.648608e+01	1.756851e+02	-3.134417e+01	-4.640116e+00	-9.167446e+01	3.143452e+01	-2.661615e+01	1.701245e+02
3.632313e+06	-2.648602e+01	1.756868e+02	-3.134764e+01	-4.638822e+00	-9.102215e+01	3.284109e+01	-2.661728e+01	1.701230e+02
3.632344e+06	-2.648596e+01	1.756884e+02	-3.135111e+01	-4.637526e+00	-9.041120e+01	3.405724e+01	-2.661842e+01	1.701214e+02
3.632375e+06	-2.648632e+01	1.756831e+02	-3.134720e+01	-4.626663e+00	-9.109512e+01	3.534826e+01	-2.661779e+01	1.701232e+02
3.632406e+06	-2.648667e+01	1.756778e+02	-3.134330e+01	-4.615811e+00	-9.183188e+01	3.686874e+01	-2.661716e+01	1.701251e+02
3.632438e+06	-2.648703e+01	1.756725e+02	-3.133939e+01	-4.604967e+00	-9.262896e+01	3.868298e+01	-2.661653e+01	1.701269e+02
3.632469e+06	-2.648739e+01	1.756672e+02	-3.133549e+01	-4.594134e+00	-9.349498e+01	4.088025e+01	-2.661590e+01	1.701288e+02
3.632500e+06	-2.648774e+01	1.756621e+02	-3.133163e+01	-4.583497e+00	-9.445540e+01	4.365123e+01	-2.661528e+01	1.701306e+02
3.632532e+06	-2.648738e+01	1.756696e+02	-3.133228e+01	-4.596029e+00	-9.775315e+01	6.004306e+01	-2.661612e+01	1.701350e+02
3.632563e+06	-2.648702e+01	1.756771e+02	-3.133294e+01	-4.608563e+00	-1.005324e+02	9.465979e+01	-2.661696e+01	1.701394e+02
3.632594e+06	-2.648666e+01	1.756847e+02	-3.133360e+01	-4.621099e+00	-9.918690e+01	1.367298e+02	-2.661779e+01	1.701439e+02
3.632625e+06	-2.648630e+01	1.756922e+02	-3.133425e+01	-4.633636e+00	-9.578169e+01	1.595452e+02	-2.661863e+01	1.701483e+02
3.632656e+06	-2.648593e+01	1.756996e+02	-3.133492e+01	-4.645902e+00	-9.292552e+01	1.699301e+02	-2.661946e+01	1.701526e+02
3.632688e+06	-2.648533e+01	1.757008e+02	-3.133593e+01	-4.641365e+00	-9.494557e+01	1.485490e+02	-2.661916e+01	1.701526e+02
3.632719e+06	-2.648472e+01	1.757019e+02	-3.133695e+01	-4.636826e+00	-9.544062e+01	1.194050e+02	-2.661886e+01	1.701526e+02
3.632750e+06	-2.648412e+01	1.757030e+02	-3.133796e+01	-4.632287e+00	-9.391087e+01	9.379037e+01	-2.661856e+01	1.701525e+02
3.632782e+06	-2.648352e+01	1.757042e+02	-3.133898e+01	-4.627746e+00	-9.166121e+01	7.754278e+01	-2.661826e+01	1.701525e+02
3.632813e+06	-2.648291e+01	1.757053e+02	-3.133999e+01	-4.623204e+00	-8.953475e+01	6.780998e+01	-2.661796e+01	1.701525e+02
3.632844e+06	-2.648376e+01	1.757062e+02	-3.133736e+01	-4.632807e+00	-9.080112e+01	6.213504e+01	-2.661637e+01	1.701456e+02
3.632875e+06	-2.648462e+01	1.757071e+02	-3.133469e+01	-4.642518e+00	-9.218273e+01	5.443316e+01	-2.661478e+01	1.701386e+02
3.632906e+06	-2.648548e+01	1.757080e+02	-3.133203e+01	-4.652222e+00	-9.356615e+01	4.381551e+01	-2.661318e+01	1.701316e+02
3.632938e+06	-2.648633e+01	1.757089e+02	-3.132936e+01	-4.661921e+00	-9.473064e+01	2.951157e+01	-2.661158e+01	1.701246e+02
3.632969e+06	-2.648719e+01	1.757098e+02	-3.132670e+01	-4.671614e+00	-9.530837e+01	1.193730e+01	-2.660998e+01	1.701176e+02
3.633000e+06	-2.648740e+01	1.757118e+02	-3.132890e+01	-4.651827e+00	-9.349187e+01	2.607966e+01	-2.661118e+01	1.701201e+02
3.633032e+06	-2.648761e+01	1.757138e+02	-3.133110e+01	-4.632030e+00	-9.169810e+01	3.535840e+01	-2.661237e+01	1.701226e+02
