# Hz S dB R 50.000
3.626875e+06	-2.650440e+01	1.750417e+02	-3.134047e+01	-4.867779e+00	-8.884965e+01	1.042151e+02	-2.653449e+01	1.700342e+02
3.626906e+06	-2.650413e+01	1.750439e+02	-3.133970e+01	-4.880011e+00	-9.143199e+01	1.003862e+02	-2.653715e+01	1.700243e+02
3.626938e+06	-2.650386e+01	1.750460e+02	-3.133893e+01	-4.892242e+00	-9.500294e+01	9.259217e+01	-2.653982e+01	1.700143e+02
3.626969e+06	-2.650359e+01	1.750482e+02	-3.133816e+01	-4.904470e+00	-1.002709e+02	7.055653e+01	-2.654248e+01	1.700044e+02
3.627000e+06	-2.650333e+01	1.750504e+02	-3.133739e+01	-4.916696e+00	-1.027624e+02	4.111698e+00	-2.654515e+01	1.699945e+02
3.627031e+06	-2.650305e+01	1.750525e+02	-3.133664e+01	-4.928902e+00	-9.720053e+01	-3.545111e+01	-2.654778e+01	1.699847e+02
3.627062e+06	-2.650227e+01	1.750469e+02	-3.133787e+01	-4.938868e+00	-9.905172e+01	-2.814174e+01	-2.654609e+01	1.699980e+02
3.627094e+06	-2.650149e+01	1.750414e+02	-3.133910e+01	-4.948836e+00	-1.011168e+02	-1.662192e+01	-2.654440e+01	1.700113e+02
3.627125e+06	-2.650071e+01	1.750359e+02	-3.134033e+01	-4.958808e+00	-1.030724e+02	1.875854e+00	-2.654271e+01	1.700246e+02
3.627156e+06	-2.649992e+01	1.750303e+02	-3.134156e+01	-4.968782e+00	-1.039470e+02	2.794629e+01	-2.654103e+01	1.700378e+02
3.627188e+06	-2.649914e+01	1.750248e+02	-3.134279e+01	-4.978759e+00	-1.029798e+02	5.372004e+01	-2.653934e+01	1.700511e+02
3.627219e+06	-2.650060e+01	1.750237e+02	-3.134300e+01	-4.974979e+00	-1.027217e+02	5.612447e+01	-2.654067e+01	1.700524e+02
3.627250e+06	-2.650210e+01	1.750226e+02	-3.134319e+01	-4.970975e+00	-1.024825e+02	5.809697e+01	-2.654205e+01	1.700536e+02
3.627281e+06	-2.650360e+01	1.750215e+02	-3.134338e+01	-4.966971e+00	-1.022403e+02	5.996309e+01	-2.654343e+01	1.700548e+02
3.627312e+06	-2.650510e+01	1.750205e+02	-3.134357e+01	-4.962967e+00	-1.019962e+02	6.172756e+01	-2.654481e+01	1.700559e+02
3.627344e+06	-2.650660e+01	1.750194e+02	-3.134376e+01	-4.958962e+00	-1.017512e+02	6.339538e+01	-2.654619e+01	1.700571e+02
3.627375e+06	-2.650486e+01	1.750287e+02	-3.134315e+01	-4.944627e+00	-1.059494e+02	3.985064e+01	-2.654682e+01	1.700594e+02
3.627406e+06	-2.650310e+01	1.750382e+02	-3.134253e+01	-4.930211e+00	-1.075832e+02	-1.221005e+01	-2.654744e+01	1.700617e+02
3.627438e+06	-2.650134e+01	1.750476e+02	-3.134191e+01	-4.915796e+00	-1.036238e+02	-4.932489e+01	-2.654807e+01	1.700640e+02
3.627469e+06	-2.649957e+01	1.750570e+02	-3.134129e+01	-4.901384e+00	-9.985838e+01	-6.368153e+01	-2.654869e+01	1.700663e+02
3.627500e+06	-2.649781e+01	1.750664e+02	-3.134067e+01	-4.886974e+00	-9.705199e+01	-7.036329e+01	-2.654932e+01	1.700686e+02
3.627531e+06	-2.649827e+01	1.750600e+02	-3.134085e+01	-4.893957e+00	-9.710280e+01	-8.683574e+01	-2.654679e+01	1.700704e+02
3.627562e+06	-2.649873e+01	1.750536e+02	-3.134102e+01	-4.900941e+00	-9.648285e+01	-1.022366e+02	-2.654427e+01	1.700722e+02
3.627594e+06	-2.649919e+01	1.750472e+02	-3.134120e+01	-4.907924e+00	-9.542347e+01	-1.148800e+02	-2.654174e+01	1.700740e+02
3.627625e+06	-2.649965e+01	1.750408e+02	-3.134138e+01	-4.914909e+00	-9.418924e+01	-1.245566e+02	-2.653921e+01	1.700757e+02
3.627656e+06	-2.650012e+01	1.750344e+02	-3.134156e+01	-4.921762e+00	-9.296194e+01	-1.318157e+02	-2.653672e+01	1.700775e+02
3.627688e+06	-2.650104e+01	1.750370e+02	-3.134266e+01	-4.912407e+00	-9.388344e+01	-1.388343e+02	-2.653805e+01	1.700776e+02
3.627719e+06	-2.650197e+01	1.750396e+02	-3.134376e+01	-4.903050e+00	-9.473469e+01	-1.474529e+02	-2.653939e+01	1.700777e+02
3.627750e+06	-2.650290e+01	1.750422e+02	-3.134487e+01	-4.893691e+00	-9.541762e+01	-1.577532e+02	-2.654072e+01	1.700779e+02
3.627781e+06	-2.650383e+01	1.750448e+02	-3.134597e+01	-4.884329e+00	-9.581372e+01	-1.694340e+02	-2.654205e+01	1.700780e+02
3.627812e+06	-2.650476e+01	1.750474e+02	-3.134707e+01	-4.874965e+00	-9.583304e+01	1.783044e+02	-2.654339e+01	1.700781e+02
3.627844e+06	-2.650400e+01	1.750517e+02	-3.134733e+01	-4.884530e+00	-9.974571e+01	-1.770076e+02	-2.654308e+01	1.700687e+02
3.627875e+06	-2.650321e+01	1.750560e+02	-3.134757e+01	-4.894404e+00	-1.067195e+02	-1.593666e+02	-2.654275e+01	1.700591e+02
3.627906e+06	-2.650242e+01	1.750603e+02	-3.134781e+01	-4.904278e+00	-1.099648e+02	-5.873087e+01	-2.654242e+01	1.700495e+02
3.627938e+06	-2.650163e+01	1.750646e+02	-3.134806e+01	-4.914153e+00	-1.014012e+02	-2.653648e+01	-2.654209e+01	1.700400e+02
3.627969e+06	-2.650085e+01	1.750690e+02	-3.134830e+01	-4.924028e+00	-9.681292e+01	-1.980537e+01	-2.654175e+01	1.700304e+02
3.628000e+06	-2.650113e+01	1.750691e+02	-3.134972e+01	-4.911977e+00	-9.506740e+01	-1.899750e+01	-2.654294e+01	1.700348e+02
3.628031e+06	-2.650141e+01	1.750691e+02	-3.135115e+01	-4.899745e+00	-9.362300e+01	-1.845368e+01	-2.654415e+01	1.700394e+02
3.628062e+06	-2.650170e+01	1.750692e+02	-3.135259e+01	-4.887509e+00	-9.238440e+01	-1.805438e+01	-2.654535e+01	1.700440e+02
3.628094e+06	-2.650199e+01	1.750692e+02	-3.135402e+01	-4.875269e+00	-9.130029e+01	-1.774877e+01	-2.654656e+01	1.700486e+02
3.628125e+06	-2.650228e+01	1.750693e+02	-3.135545e+01	-4.863025e+00	-9.033643e+01	-1.750736e+01	-2.654776e+01	1.700532e+02
3.628156e+06	-2.650203e+01	1.750717e+02	-3.135401e+01	-4.873114e+00	-9.579285e+01	-9.472978e+00	-2.654593e+01	1.700538e+02
3.628188e+06	-2.650179e+01	1.750741e+02	-3.135258e+01	-4.883200e+00	-1.062791e+02	5.169950e+01	-2.654411e+01	1.700544e+02
3.628219e+06	-2.650154e+01	1.750765e+02	-3.135114e+01	-4.893283e+00	-9.686674e+01	1.341669e+02	-2.654228e+01	1.700550e+02
3.628250e+06	-2.650129e+01	1.750789e+02	-3.134970e+01	-4.903362e+00	-9.091502e+01	1.438998e+02	-2.654045e+01	1.700556e+02
3.628281e+06	-2.650105e+01	1.750813e+02	-3.134828e+01	-4.913376e+00	-8.741150e+01	1.471216e+02	-2.653863e+01	1.700562e+02
3.628312e+06	-2.650070e+01	1.750781e+02	-3.134886e+01	-4.915699e+00	-9.184388e+01	1.461163e+02	-2.653753e+01	1.700508e+02
3.628344e+06	-2.650036e+01	1.750749e+02	-3.134944e+01	-4.918023e+00	-1.013237e+02	1.411228e+02	-2.653643e+01	1.700454e+02
3.628375e+06	-2.650002e+01	1.750717e+02	-3.135002e+01	-4.920347e+00	-1.013125e+02	-2.387110e+01	-2.653533e+01	1.700401e+02
3.628406e+06	-2.649968e+01	1.750685e+02	-3.135060e+01	-4.922671e+00	-9.184012e+01	-2.885607e+01	-2.653424e+01	1.700347e+02
3.628438e+06	-2.649934e+01	1.750653e+02	-3.135118e+01	-4.924996e+00	-8.740925e+01	-2.986062e+01	-2.653314e+01	1.700294e+02
3.628469e+06	-2.649901e+01	1.750662e+02	-3.134875e+01	-4.909149e+00	-9.093453e+01	-2.535782e+01	-2.653591e+01	1.700296e+02
3.628500e+06	-2.649868e+01	1.750672e+02	-3.134627e+01	-4.893016e+00	-9.693715e+01	-1.141272e+01	-2.653874e+01	1.700299e+02
3.628531e+06	-2.649835e+01	1.750682e+02	-3.134380e+01	-4.876892e+00	-1.032207e+02	7.112988e+01	-2.654157e+01	1.700302e+02
3.628562e+06	-2.649802e+01	1.750692e+02	-3.134132e+01	-4.860777e+00	-9.465979e+01	1.208466e+02	-2.654440e+01	1.700305e+02
3.628594e+06	-2.649769e+01	1.750702e+02	-3.133884e+01	-4.844672e+00	-8.964363e+01	1.300421e+02	-2.654724e+01	1.700308e+02
3.628625e+06	-2.649875e+01	1.750642e+02	-3.133925e+01	-4.850954e+00	-9.211867e+01	1.168198e+02	-2.654501e+01	1.700351e+02
3.628656e+06	-2.649982e+01	1.750582e+02	-3.133968e+01	-4.857418e+00	-9.445829e+01	9.298953e+01	-2.654273e+01	1.700394e+02
3.628688e+06	-2.650089e+01	1.750521e+02	-3.134011e+01	-4.863882e+00	-9.480280e+01	5.960032e+01	-2.654046e+01	1.700437e+02
3.628719e+06	-2.650196e+01	1.750461e+02	-3.134055e+01	-4.870347e+00	-9.274096e+01	3.275410e+01	-2.653819e+01	1.700480e+02
3.628750e+06	-2.650303e+01	1.750400e+02	-3.134098e+01	-4.876812e+00	-9.017070e+01	1.739074e+01	-2.653592e+01	1.700523e+02
3.628781e+06	-2.650222e+01	1.750482e+02	-3.134325e+01	-4.870043e+00	-9.106305e+01	2.154015e+01	-2.653873e+01	1.700527e+02
3.628812e+06	-2.650141e+01	1.750564e+02	-3.134553e+01	-4.863271e+00	-9.199468e+01	2.666149e+01	-2.654153e+01	1.700532e+02
3.628844e+06	-2.650060e+01	1.750646e+02	-3.134780e+01	-4.856496e+00	-9.294131e+01	3.302375e+01	-2.654434e+01	1.700536e+02
3.628875e+06	-2.649979e+01	1.750728e+02	-3.135007e+01	-4.849716e+00	-9.385409e+01	4.091348e+01	-2.654715e+01	1.700541e+02
3.628906e+06	-2.649899e+01	1.750809e+02	-3.135232e+01	-4.843110e+00	-9.465599e+01	5.038946e+01	-2.654993e+01	1.700545e+02
3.628938e+06	-2.649917e+01	1.750793e+02	-3.135091e+01	-4.858388e+00	-9.627240e+01	4.146813e+01	-2.654906e+01	1.700508e+02
3.628969e+06	-2.649936e+01	1.750777e+02	-3.134950e+01	-4.873661e+00	-9.787730e+01	2.848249e+01	-2.654819e+01	1.700471e+02
3.629000e+06	-2.649954e+01	1.750761e+02	-3.134809e+01	-4.888929e+00	-9.907858e+01	1.039900e+01	-2.654731e+01	1.700434e+02
3.629031e+06	-2.649972e+01	1.750745e+02	-3.134668e+01	-4.904192e+00	-9.929112e+01	-1.102533e+01	-2.654644e+01	1.700397e+02
3.629062e+06	-2.649991e+01	1.750729e+02	-3.134527e+01	-4.919450e+00	-9.837686e+01	-3.071485e+01	-2.654556e+01	1.700361e+02
3.629094e+06	-2.649959e+01	1.750796e+02	-3.134739e+01	-4.906890e+00	-9.844981e+01	-1.620849e+01	-2.654520e+01	1.700376e+02
3.629125e+06	-2.649927e+01	1.750865e+02	-3.134957e+01	-4.893871e+00	-9.797669e+01	-1.834473e+00	-2.654485e+01	1.700392e+02
3.629156e+06	-2.649894e+01	1.750933e+02	-3.135175e+01	-4.880845e+00	-9.708677e+01	1.041663e+01	-2.654450e+01	1.700408e+02
3.629188e+06	-2.649862e+01	1.751002e+02	-3.135393e+01	-4.867813e+00	-9.599278e+01	2.013853e+01	-2.654415e+01	1.700425e+02
3.629219e+06	-2.649829e+01	1.751070e+02	-3.135611e+01	-4.854774e+00	-9.484889e+01	2.763768e+01	-2.654379e+01	1.700441e+02
3.629250e+06	-2.649875e+01	1.750991e+02	-3.135316e+01	-4.852999e+00	-9.559255e+01	4.026643e+01	-2.654264e+01	1.700489e+02
3.629281e+06	-2.649921e+01	1.750909e+02	-3.135017e+01	-4.851315e+00	-9.589961e+01	5.462449e+01	-2.654149e+01	1.700538e+02
3.629312e+06	-2.649967e+01	1.750828e+02	-3.134718e+01	-4.849633e+00	-9.565162e+01	6.908265e+01	-2.654033e+01	1.700586e+02
3.629344e+06	-2.650014e+01	1.750747e+02	-3.134419e+01	-4.847951e+00	-9.493207e+01	8.198877e+01	-2.653918e+01	1.700635e+02
3.629375e+06	-2.650060e+01	1.750666e+02	-3.134120e+01	-4.846271e+00	-9.393407e+01	9.254968e+01	-2.653802e+01	1.700683e+02
3.629406e+06	-2.649939e+01	1.750746e+02	-3.134302e+01	-4.858079e+00	-9.348690e+01	8.700603e+01	-2.653807e+01	1.700629e+02
3.629438e+06	-2.649819e+01	1.750826e+02	-3.134483e+01	-4.869892e+00	-9.299221e+01	8.203359e+01	-2.653812e+01	1.700574e+02
3.629469e+06	-2.649698e+01	1.750906e+02	-3.134665e+01	-4.881710e+00	-9.246908e+01	7.761214e+01	-2.653818e+01	1.700520e+02
3.629500e+06	-2.649578e+01	1.750986e+02	-3.134847e+01	-4.893533e+00	-9.193244e+01	7.369938e+01	-2.653823e+01	1.700465e+02
3.629531e+06	-2.649458e+01	1.751064e+02	-3.135025e+01	-4.905301e+00	-9.141601e+01	7.017257e+01	-2.653828e+01	1.700412e+02
3.629562e+06	-2.649464e+01	1.750984e+02	-3.134789e+01	-4.909737e+00	-9.374852e+01	5.416423e+01	-2.653885e+01	1.700487e+02
3.629594e+06	-2.649470e+01	1.750903e+02	-3.134552e+01	-4.914169e+00	-9.541268e+01	2.825732e+01	-2.653942e+01	1.700563e+02
3.629625e+06	-2.649476e+01	1.750823e+02	-3.134316e+01	-4.918600e+00	-9.496294e+01	-1.906437e+00	-2.653998e+01	1.700639e+02
3.629656e+06	-2.649482e+01	1.750742e+02	-3.134079e+01	-4.923028e+00	-9.287378e+01	-2.393804e+01	-2.654055e+01	1.700715e+02
3.629688e+06	-2.649488e+01	1.750661e+02	-3.133843e+01	-4.927453e+00	-9.056184e+01	-3.699988e+01	-2.654111e+01	1.700791e+02
3.629719e+06	-2.649511e+01	1.750739e+02	-3.133960e+01	-4.919207e+00	-9.264394e+01	-2.740305e+01	-2.654171e+01	1.700732e+02
3.629750e+06	-2.649533e+01	1.750819e+02	-3.134083e+01	-4.910752e+00	-9.491159e+01	-1.082813e+01	-2.654231e+01	1.700671e+02
3.629781e+06	-2.649556e+01	1.750898e+02	-3.134207e+01	-4.902295e+00	-9.641037e+01	1.528369e+01	-2.654291e+01	1.700610e+02
3.629812e+06	-2.649579e+01	1.750978e+02	-3.134330e+01	-4.893836e+00	-9.582633e+01	4.455882e+01	-2.654351e+01	1.700549e+02
3.629844e+06	-2.649602e+01	1.751058e+02	-3.134453e+01	-4.885374e+00	-9.375284e+01	6.566581e+01	-2.654411e+01	1.700487e+02
3.629875e+06	-2.649673e+01	1.750981e+02	-3.134363e+01	-4.887590e+00	-9.437998e+01	6.071680e+01	-2.654414e+01	1.700514e+02
3.629906e+06	-2.649745e+01	1.750901e+02	-3.134272e+01	-4.889891e+00	-9.499671e+01	5.479350e+01	-2.654417e+01	1.700542e+02
3.629938e+06	-2.649817e+01	1.750822e+02	-3.134181e+01	-4.892192e+00	-9.554610e+01	4.801538e+01	-2.654420e+01	1.700569e+02
3.629969e+06	-2.649888e+01	1.750743e+02	-3.134089e+01	-4.894493e+00	-9.598702e+01	4.041411e+01	-2.654423e+01	1.700597e+02
3.630000e+06	-2.649960e+01	1.750664e+02	-3.133998e+01	-4.896793e+00	-9.627637e+01	3.214164e+01	-2.654426e+01	1.700624e+02
3.630031e+06	-2.649954e+01	1.750669e+02	-3.134221e+01	-4.897235e+00	-9.796211e+01	6.283796e+01	-2.654392e+01	1.700590e+02
3.630062e+06	-2.649948e+01	1.750673e+02	-3.134443e+01	-4.897677e+00	-9.682937e+01	9.579741e+01	-2.654357e+01	1.700556e+02
3.630094e+06	-2.649943e+01	1.750678e+02	-3.134666e+01	-4.898120e+00	-9.421782e+01	1.165005e+02	-2.654323e+01	1.700522e+02
3.630125e+06	-2.649937e+01	1.750682e+02	-3.134889e+01	-4.898563e+00	-9.171848e+01	1.278200e+02	-2.654289e+01	1.700488e+02
3.630156e+06	-2.649931e+01	1.750687e+02	-3.135107e+01	-4.898993e+00	-8.965455e+01	1.343376e+02	-2.654255e+01	1.700454e+02
3.630188e+06	-2.649932e+01	1.750727e+02	-3.134793e+01	-4.897862e+00	-9.211250e+01	1.209261e+02	-2.654213e+01	1.700418e+02
3.630219e+06	-2.649933e+01	1.750767e+02	-3.134478e+01	-4.896732e+00	-9.434854e+01	9.746162e+01	-2.654172e+01	1.700382e+02
3.630250e+06	-2.649934e+01	1.750807e+02	-3.134164e+01	-4.895602e+00	-9.467830e+01	6.511638e+01	-2.654130e+01	1.700346e+02
3.630281e+06	-2.649935e+01	1.750847e+02	-3.133849e+01	-4.894474e+00	-9.272272e+01	3.877688e+01	-2.654089e+01	1.700310e+02
3.630312e+06	-2.649936e+01	1.750887e+02	-3.133535e+01	-4.893346e+00	-9.022977e+01	2.335885e+01	-2.654048e+01	1.700274e+02
3.630344e+06	-2.649926e+01	1.750821e+02	-3.133541e+01	-4.893437e+00	-9.214110e+01	2.529008e+01	-2.654048e+01	1.700360e+02
3.630375e+06	-2.649915e+01	1.750753e+02	-3.133553e+01	-4.893547e+00	-9.467946e+01	2.889227e+01	-2.654050e+01	1.700448e+02
3.630406e+06	-2.649904e+01	1.750685e+02	-3.133564e+01	-4.893657e+00	-9.817691e+01	3.612371e+01	-2.654051e+01	1.700537e+02
3.630438e+06	-2.649894e+01	1.750617e+02	-3.133575e+01	-4.893768e+00	-1.033795e+02	5.616700e+01	-2.654053e+01	1.700625e+02
3.630469e+06	-2.649883e+01	1.750550e+02	-3.133587e+01	-4.893878e+00	-1.066282e+02	1.212360e+02	-2.654054e+01	1.700713e+02
3.630500e+06	-2.649910e+01	1.750650e+02	-3.133680e+01	-4.895236e+00	-1.091215e+02	1.447794e+02	-2.654039e+01	1.700697e+02
3.630531e+06	-2.649937e+01	1.750751e+02	-3.133773e+01	-4.896604e+00	-1.097543e+02	1.791757e+02	-2.654024e+01	1.700680e+02
3.630562e+06	-2.649965e+01	1.750852e+02	-3.133866e+01	-4.897973e+00	-1.076946e+02	-1.521825e+02	-2.654009e+01	1.700664e+02
3.630594e+06	-2.649992e+01	1.750954e+02	-3.133960e+01	-4.899342e+00	-1.050160e+02	-1.360538e+02	-2.653994e+01	1.700647e+02
3.630625e+06	-2.650019e+01	1.751055e+02	-3.134053e+01	-4.900711e+00	-1.026688e+02	-1.270934e+02	-2.653979e+01	1.700630e+02
3.630656e+06	-2.649976e+01	1.751007e+02	-3.134130e+01	-4.904644e+00	-1.045792e+02	-8.929608e+01	-2.654003e+01	1.700664e+02
3.630688e+06	-2.649934e+01	1.750959e+02	-3.134207e+01	-4.908578e+00	-1.024995e+02	-5.235156e+01	-2.654028e+01	1.700697e+02
3.630719e+06	-2.649891e+01	1.750911e+02	-3.134284e+01	-4.912512e+00	-9.927049e+01	-3.331393e+01	-2.654052e+01	1.700731e+02
3.630750e+06	-2.649848e+01	1.750863e+02	-3.134361e+01	-4.916448e+00	-9.655624e+01	-2.384267e+01	-2.654077e+01	1.700765e+02
3.630781e+06	-2.649807e+01	1.750816e+02	-3.134437e+01	-4.920391e+00	-9.439257e+01	-1.846142e+01	-2.654101e+01	1.700798e+02
3.630812e+06	-2.649908e+01	1.750784e+02	-3.134275e+01	-4.925292e+00	-9.343239e+01	-1.457517e+01	-2.654062e+01	1.700760e+02
3.630844e+06	-2.650009e+01	1.750751e+02	-3.134113e+01	-4.930190e+00	-9.253865e+01	-1.143669e+01	-2.654023e+01	1.700723e+02
3.630875e+06	-2.650111e+01	1.750719e+02	-3.133952e+01	-4.935087e+00	-9.170889e+01	-8.863493e+00	-2.653984e+01	1.700686e+02
3.630906e+06	-2.650212e+01	1.750687e+02	-3.133790e+01	-4.939982e+00	-9.093818e+01	-6.723538e+00	-2.653945e+01	1.700649e+02
3.630938e+06	-2.650313e+01	1.750655e+02	-3.133629e+01	-4.944876e+00	-9.022091e+01	-4.920619e+00	-2.653906e+01	1.700612e+02
3.630969e+06	-2.650322e+01	1.750706e+02	-3.133625e+01	-4.940592e+00	-9.149093e+01	-9.055638e+00	-2.654013e+01	1.700562e+02
3.631000e+06	-2.650330e+01	1.750760e+02	-3.133624e+01	-4.936159e+00	-9.294428e+01	-1.485447e+01	-2.654122e+01	1.700512e+02
3.631031e+06	-2.650337e+01	1.750813e+02	-3.133622e+01	-4.931726e+00	-9.453632e+01	-2.310287e+01	-2.654232e+01	1.700462e+02
3.631062e+06	-2.650345e+01	1.750866e+02	-3.133621e+01	-4.927293e+00	-9.616143e+01	-3.509515e+01	-2.654342e+01	1.700412e+02
3.631094e+06	-2.650352e+01	1.750920e+02	-3.133620e+01	-4.922859e+00	-9.749207e+01	-5.207322e+01	-2.654451e+01	1.700362e+02
3.631125e+06	-2.650316e+01	1.750843e+02	-3.133678e+01	-4.917625e+00	-1.033306e+02	-2.689202e+01	-2.654320e+01	1.700435e+02
3.631156e+06	-2.650280e+01	1.750766e+02	-3.133737e+01	-4.912383e+00	-1.045035e+02	4.816274e+01	-2.654187e+01	1.700509e+02
3.631188e+06	-2.650244e+01	1.750688e+02	-3.133796e+01	-4.907141e+00	-9.834474e+01	8.113316e+01	-2.654055e+01	1.700582e+02
3.631219e+06	-2.650208e+01	1.750611e+02	-3.133854e+01	-4.901898e+00	-9.421047e+01	9.071077e+01	-2.653922e+01	1.700656e+02
3.631250e+06	-2.650172e+01	1.750533e+02	-3.133913e+01	-4.896654e+00	-9.134252e+01	9.497187e+01	-2.653789e+01	1.700729e+02
3.631281e+06	-2.650159e+01	1.750628e+02	-3.133896e+01	-4.883414e+00	-9.377436e+01	7.463650e+01	-2.653781e+01	1.700673e+02
3.631312e+06	-2.650146e+01	1.750723e+02	-3.133878e+01	-4.870174e+00	-9.480885e+01	4.344154e+01	-2.653772e+01	1.700616e+02
3.631344e+06	-2.650133e+01	1.750818e+02	-3.133861e+01	-4.856935e+00	-9.330267e+01	1.406321e+01	-2.653764e+01	1.700560e+02
3.631375e+06	-2.650120e+01	1.750914e+02	-3.133843e+01	-4.843697e+00	-9.080761e+01	-3.965126e+00	-2.653755e+01	1.700504e+02
3.631406e+06	-2.650107e+01	1.751008e+02	-3.133827e+01	-4.830704e+00	-8.851125e+01	-1.414941e+01	-2.653748e+01	1.700449e+02
3.631438e+06	-2.650129e+01	1.750982e+02	-3.133889e+01	-4.848119e+00	-9.046029e+01	-1.650712e+01	-2.653894e+01	1.700543e+02
3.631469e+06	-2.650151e+01	1.750956e+02	-3.133952e+01	-4.865536e+00	-9.294443e+01	-2.043690e+01	-2.654041e+01	1.700637e+02
3.631500e+06	-2.650173e+01	1.750931e+02	-3.134014e+01	-4.882955e+00	-9.631722e+01	-2.816711e+01	-2.654187e+01	1.700732e+02
3.631531e+06	-2.650195e+01	1.750905e+02	-3.134077e+01	-4.900377e+00	-1.011351e+02	-4.837155e+01	-2.654333e+01	1.700826e+02
3.631562e+06	-2.650217e+01	1.750879e+02	-3.134139e+01	-4.917801e+00	-1.041847e+02	-1.070652e+02	-2.654480e+01	1.700920e+02
3.631594e+06	-2.650070e+01	1.750867e+02	-3.134058e+01	-4.926536e+00	-1.094407e+02	-1.406709e+02	-2.654350e+01	1.700857e+02
3.631625e+06	-2.649921e+01	1.750855e+02	-3.133975e+01	-4.935128e+00	-1.086417e+02	1.529675e+02	-2.654216e+01	1.700790e+02
3.631656e+06	-2.649772e+01	1.750843e+02	-3.133892e+01	-4.943718e+00	-1.033666e+02	1.258874e+02	-2.654082e+01	1.700724e+02
3.631688e+06	-2.649623e+01	1.750831e+02	-3.133809e+01	-4.952306e+00	-9.964397e+01	1.165895e+02	-2.653948e+01	1.700658e+02
3.631719e+06	-2.649474e+01	1.750819e+02	-3.133726e+01	-4.960893e+00	-9.696551e+01	1.121550e+02	-2.653814e+01	1.700592e+02
3.631750e+06	-2.649566e+01	1.750847e+02	-3.133553e+01	-4.943605e+00	-9.590714e+01	1.152458e+02	-2.653852e+01	1.700576e+02
3.631781e+06	-2.649661e+01	1.750876e+02	-3.133380e+01	-4.926114e+00	-9.495295e+01	1.177429e+02	-2.653891e+01	1.700561e+02
3.631812e+06	-2.649755e+01	1.750905e+02	-3.133206e+01	-4.908631e+00	-9.408117e+01	1.197663e+02	-2.653930e+01	1.700545e+02
3.631844e+06	-2.649849e+01	1.750933e+02	-3.133033e+01	-4.891154e+00	-9.328082e+01	1.214353e+02	-2.653969e+01	1.700530e+02
3.631875e+06	-2.649943e+01	1.750962e+02	-3.132859e+01	-4.873685e+00	-9.254235e+01	1.228332e+02	-2.654008e+01	1.700515e+02
3.631906e+06	-2.649998e+01	1.750982e+02	-3.133154e+01	-4.882864e+00	-9.586842e+01	1.280514e+02	-2.653983e+01	1.700527e+02
3.631938e+06	-2.650053e+01	1.751003e+02	-3.133449e+01	-4.892049e+00	-1.009708e+02	1.419383e+02	-2.653958e+01	1.700540e+02
