!CETC41,AV3656A,ZGL00048,1.3.2
!Calibration ON (Full Solt 2-Port(Omit Isolation))
!Measurements: S11 S21 S12 S22
!2025-04-18 23:30
# Hz  S  dB  R 50.000
1.095000e+007	-3.636306e+001	-1.790091e+002	-3.033266e+001	-2.519360e+001	-9.787468e+001	1.109969e+002	-3.279751e+001	1.526325e+002
1.095001e+007	-3.636287e+001	-1.789616e+002	-3.033507e+001	-2.554677e+001	-9.708690e+001	7.762369e+001	-3.284050e+001	1.524690e+002
1.095002e+007	-3.637031e+001	-1.790315e+002	-3.035287e+001	-2.532334e+001	-9.770051e+001	8.500105e+001	-3.282447e+001	1.527329e+002
1.095002e+007	-3.636189e+001	-1.790986e+002	-3.031313e+001	-2.543512e+001	-9.788560e+001	1.161269e+002	-3.281311e+001	1.525064e+002
1.095003e+007	-3.636409e+001	-1.790602e+002	-3.035683e+001	-2.549744e+001	-9.788804e+001	1.000736e+002	-3.283949e+001	1.525146e+002
1.095004e+007	-3.636262e+001	-1.790549e+002	-3.033290e+001	-2.532315e+001	-9.616800e+001	1.115298e+002	-3.281217e+001	1.526660e+002
1.095005e+007	-3.636938e+001	-1.791731e+002	-3.033216e+001	-2.551061e+001	-9.686019e+001	8.226198e+001	-3.283888e+001	1.524052e+002
1.095005e+007	-3.637028e+001	-1.790953e+002	-3.035367e+001	-2.529029e+001	-9.482115e+001	8.872857e+001	-3.281405e+001	1.527145e+002
1.095006e+007	-3.637283e+001	-1.790477e+002	-3.031966e+001	-2.540916e+001	-9.455845e+001	1.089667e+002	-3.281942e+001	1.524611e+002
1.095007e+007	-3.637193e+001	-1.790696e+002	-3.035487e+001	-2.536258e+001	-9.522669e+001	9.021901e+001	-3.284115e+001	1.526170e+002
1.095008e+007	-3.635691e+001	-1.790355e+002	-3.032001e+001	-2.532308e+001	-9.504691e+001	8.921510e+001	-3.281008e+001	1.524177e+002
1.095009e+007	-3.635948e+001	-1.790614e+002	-3.034922e+001	-2.541120e+001	-9.648451e+001	9.643907e+001	-3.283540e+001	1.526662e+002
1.095009e+007	-3.635735e+001	-1.790868e+002	-3.031560e+001	-2.539622e+001	-9.771040e+001	7.547114e+001	-3.281715e+001	1.525187e+002
1.095010e+007	-3.636776e+001	-1.790856e+002	-3.033943e+001	-2.539564e+001	-9.807156e+001	1.050292e+002	-3.285039e+001	1.525739e+002
1.095011e+007	-3.636930e+001	-1.790935e+002	-3.032076e+001	-2.532738e+001	-9.648538e+001	8.642031e+001	-3.280821e+001	1.525436e+002
1.095012e+007	-3.637463e+001	-1.791313e+002	-3.033573e+001	-2.541487e+001	-1.041661e+002	9.180413e+001	-3.283983e+001	1.525812e+002
1.095013e+007	-3.635873e+001	-1.791335e+002	-3.032896e+001	-2.534022e+001	-1.004709e+002	1.093341e+002	-3.281504e+001	1.525131e+002
1.095013e+007	-3.636565e+001	-1.791341e+002	-3.033487e+001	-2.553009e+001	-9.506210e+001	9.048870e+001	-3.283544e+001	1.525753e+002
1.095014e+007	-3.635224e+001	-1.791284e+002	-3.031515e+001	-2.531596e+001	-9.728099e+001	1.151833e+002	-3.281636e+001	1.525287e+002
1.095015e+007	-3.636249e+001	-1.789776e+002	-3.033889e+001	-2.539482e+001	-9.634814e+001	8.431633e+001	-3.284795e+001	1.525308e+002
1.095016e+007	-3.637427e+001	-1.791287e+002	-3.031809e+001	-2.536444e+001	-9.566710e+001	1.006186e+002	-3.280817e+001	1.525804e+002
1.095016e+007	-3.637639e+001	-1.792222e+002	-3.033673e+001	-2.547310e+001	-9.655524e+001	8.173254e+001	-3.282710e+001	1.525371e+002
1.095017e+007	-3.637269e+001	-1.790253e+002	-3.031034e+001	-2.538925e+001	-9.393232e+001	8.175890e+001	-3.281480e+001	1.524448e+002
1.095018e+007	-3.635272e+001	-1.791386e+002	-3.032675e+001	-2.536717e+001	-9.495903e+001	9.620545e+001	-3.283069e+001	1.525603e+002
1.095019e+007	-3.635216e+001	-1.792251e+002	-3.030317e+001	-2.532432e+001	-9.567581e+001	9.637630e+001	-3.281890e+001	1.525239e+002
1.095020e+007	-3.635707e+001	-1.790909e+002	-3.032937e+001	-2.533564e+001	-9.525267e+001	1.101246e+002	-3.281194e+001	1.526833e+002
1.095020e+007	-3.634804e+001	-1.791824e+002	-3.031633e+001	-2.543696e+001	-9.798606e+001	1.208219e+002	-3.282951e+001	1.525293e+002
1.095021e+007	-3.634941e+001	-1.791987e+002	-3.031919e+001	-2.533643e+001	-9.649900e+001	1.229670e+002	-3.281146e+001	1.525007e+002
1.095022e+007	-3.636629e+001	-1.791260e+002	-3.031131e+001	-2.542247e+001	-9.746460e+001	8.778937e+001	-3.282671e+001	1.526045e+002
1.095023e+007	-3.636293e+001	-1.791909e+002	-3.030239e+001	-2.533206e+001	-9.785546e+001	1.012569e+002	-3.281230e+001	1.525337e+002
1.095023e+007	-3.637786e+001	-1.790815e+002	-3.031757e+001	-2.537517e+001	-9.447966e+001	9.721249e+001	-3.281878e+001	1.526646e+002
1.095024e+007	-3.636281e+001	-1.790815e+002	-3.030496e+001	-2.541016e+001	-9.545973e+001	9.851138e+001	-3.282809e+001	1.525457e+002
1.095025e+007	-3.636573e+001	-1.790132e+002	-3.030841e+001	-2.538253e+001	-9.900367e+001	1.177268e+002	-3.281465e+001	1.525699e+002
1.095026e+007	-3.637760e+001	-1.790169e+002	-3.031425e+001	-2.538739e+001	-9.434717e+001	1.242754e+002	-3.283190e+001	1.525397e+002
1.095027e+007	-3.637571e+001	-1.791412e+002	-3.031167e+001	-2.539711e+001	-1.000546e+002	9.996668e+001	-3.282098e+001	1.525340e+002
1.095027e+007	-3.636140e+001	-1.791059e+002	-3.032123e+001	-2.533904e+001	-9.752847e+001	1.040063e+002	-3.282617e+001	1.526463e+002
1.095028e+007	-3.639278e+001	-1.791679e+002	-3.030510e+001	-2.535284e+001	-9.784495e+001	1.138932e+002	-3.283501e+001	1.525207e+002
1.095029e+007	-3.636587e+001	-1.791467e+002	-3.030160e+001	-2.534438e+001	-9.345183e+001	1.055638e+002	-3.280540e+001	1.524721e+002
1.095030e+007	-3.636787e+001	-1.790031e+002	-3.029688e+001	-2.534122e+001	-9.522063e+001	1.059186e+002	-3.283042e+001	1.525169e+002
1.095030e+007	-3.637421e+001	-1.790657e+002	-3.029377e+001	-2.540490e+001	-9.729461e+001	9.939593e+001	-3.283193e+001	1.525503e+002
1.095031e+007	-3.637079e+001	-1.790685e+002	-3.030189e+001	-2.536652e+001	-9.963700e+001	1.144969e+002	-3.282621e+001	1.525637e+002
1.095032e+007	-3.637188e+001	-1.791052e+002	-3.030141e+001	-2.537639e+001	-9.665012e+001	1.119836e+002	-3.281821e+001	1.525992e+002
1.095033e+007	-3.637492e+001	-1.790531e+002	-3.030371e+001	-2.533769e+001	-9.939036e+001	8.453377e+001	-3.282151e+001	1.525032e+002
1.095034e+007	-3.635157e+001	-1.790257e+002	-3.029810e+001	-2.542184e+001	-9.534880e+001	1.157931e+002	-3.282492e+001	1.525350e+002
1.095034e+007	-3.637862e+001	-1.791805e+002	-3.029361e+001	-2.533764e+001	-9.554027e+001	8.367816e+001	-3.281421e+001	1.525603e+002
1.095035e+007	-3.635552e+001	-1.791362e+002	-3.029955e+001	-2.542358e+001	-9.680087e+001	8.494032e+001	-3.282071e+001	1.525361e+002
1.095036e+007	-3.637782e+001	-1.789631e+002	-3.029539e+001	-2.541436e+001	-9.533799e+001	9.356095e+001	-3.281691e+001	1.525967e+002
1.095037e+007	-3.636869e+001	-1.792058e+002	-3.029143e+001	-2.538105e+001	-9.572197e+001	1.199920e+002	-3.282460e+001	1.525731e+002
1.095038e+007	-3.636407e+001	-1.790917e+002	-3.029349e+001	-2.534505e+001	-9.561941e+001	1.045509e+002	-3.282816e+001	1.525759e+002
1.095038e+007	-3.635287e+001	-1.791164e+002	-3.028626e+001	-2.541444e+001	-9.711290e+001	1.071303e+002	-3.282634e+001	1.525890e+002
1.095039e+007	-3.634942e+001	-1.791736e+002	-3.029603e+001	-2.539781e+001	-9.521331e+001	9.097610e+001	-3.282753e+001	1.525962e+002
1.095040e+007	-3.638133e+001	-1.791468e+002	-3.028520e+001	-2.535388e+001	-9.499822e+001	1.014477e+002	-3.282909e+001	1.525731e+002
1.095041e+007	-3.636895e+001	-1.791462e+002	-3.028767e+001	-2.540921e+001	-9.720496e+001	1.004600e+002	-3.281722e+001	1.525672e+002
1.095041e+007	-3.637222e+001	-1.791617e+002	-3.028087e+001	-2.535632e+001	-9.887706e+001	1.275317e+002	-3.282500e+001	1.525240e+002
1.095042e+007	-3.635359e+001	-1.791050e+002	-3.027533e+001	-2.535622e+001	-9.596890e+001	1.042854e+002	-3.283588e+001	1.525340e+002
1.095043e+007	-3.634527e+001	-1.791371e+002	-3.028002e+001	-2.535138e+001	-9.949983e+001	9.039846e+001	-3.282310e+001	1.525831e+002
1.095044e+007	-3.636663e+001	-1.792159e+002	-3.027429e+001	-2.538327e+001	-9.661995e+001	1.070978e+002	-3.282988e+001	1.525673e+002
1.095045e+007	-3.636413e+001	-1.791344e+002	-3.027999e+001	-2.539939e+001	-9.379436e+001	9.570431e+001	-3.282363e+001	1.526405e+002
1.095045e+007	-3.636084e+001	-1.790942e+002	-3.028788e+001	-2.540793e+001	-1.001899e+002	9.377841e+001	-3.281947e+001	1.526421e+002
1.095046e+007	-3.636395e+001	-1.791145e+002	-3.026898e+001	-2.533388e+001	-9.509007e+001	8.551678e+001	-3.281710e+001	1.525915e+002
1.095047e+007	-3.637517e+001	-1.790506e+002	-3.028006e+001	-2.536580e+001	-9.722888e+001	1.016608e+002	-3.282134e+001	1.525621e+002
1.095048e+007	-3.638251e+001	-1.790751e+002	-3.028462e+001	-2.534880e+001	-9.449626e+001	7.304832e+001	-3.282051e+001	1.525734e+002
1.095048e+007	-3.636892e+001	-1.791327e+002	-3.027751e+001	-2.530800e+001	-9.546078e+001	8.490641e+001	-3.282515e+001	1.525772e+002
1.095049e+007	-3.637024e+001	-1.791291e+002	-3.027044e+001	-2.542537e+001	-9.793052e+001	1.049552e+002	-3.281130e+001	1.525637e+002
1.095050e+007	-3.635532e+001	-1.790532e+002	-3.026393e+001	-2.541914e+001	-9.626588e+001	1.038059e+002	-3.281252e+001	1.526250e+002
1.095051e+007	-3.637008e+001	-1.791362e+002	-3.027103e+001	-2.543812e+001	-9.535275e+001	8.581254e+001	-3.281556e+001	1.525454e+002
1.095052e+007	-3.636435e+001	-1.790403e+002	-3.025867e+001	-2.541063e+001	-9.849136e+001	9.985830e+001	-3.282013e+001	1.525502e+002
1.095052e+007	-3.636987e+001	-1.790220e+002	-3.025003e+001	-2.539662e+001	-9.630416e+001	9.886452e+001	-3.281738e+001	1.525665e+002
1.095053e+007	-3.636912e+001	-1.792296e+002	-3.024814e+001	-2.533489e+001	-1.008918e+002	1.174251e+002	-3.282254e+001	1.525891e+002
1.095054e+007	-3.637520e+001	-1.789954e+002	-3.025169e+001	-2.538766e+001	-9.562421e+001	9.546012e+001	-3.282426e+001	1.525141e+002
1.095055e+007	-3.636491e+001	-1.791678e+002	-3.025684e+001	-2.534693e+001	-9.558993e+001	7.394084e+001	-3.282130e+001	1.525732e+002
1.095055e+007	-3.636926e+001	-1.790529e+002	-3.026214e+001	-2.537063e+001	-9.742175e+001	9.752225e+001	-3.282824e+001	1.524720e+002
1.095056e+007	-3.635966e+001	-1.790979e+002	-3.025629e+001	-2.537840e+001	-9.490376e+001	9.255489e+001	-3.281464e+001	1.524698e+002
1.095057e+007	-3.636958e+001	-1.791183e+002	-3.025135e+001	-2.536486e+001	-9.828731e+001	1.157396e+002	-3.281094e+001	1.525699e+002
1.095058e+007	-3.636941e+001	-1.791717e+002	-3.025933e+001	-2.536388e+001	-9.492785e+001	6.991228e+001	-3.281859e+001	1.525495e+002
1.095059e+007	-3.636275e+001	-1.790275e+002	-3.025150e+001	-2.539206e+001	-9.527248e+001	1.005488e+002	-3.281516e+001	1.525602e+002
1.095059e+007	-3.638355e+001	-1.791319e+002	-3.025585e+001	-2.537429e+001	-9.715430e+001	9.801564e+001	-3.282155e+001	1.525293e+002
1.095060e+007	-3.636973e+001	-1.791014e+002	-3.024830e+001	-2.543087e+001	-9.437019e+001	9.751746e+001	-3.282757e+001	1.525221e+002
1.095061e+007	-3.638076e+001	-1.791869e+002	-3.023981e+001	-2.539283e+001	-9.641152e+001	1.082531e+002	-3.282107e+001	1.526161e+002
1.095062e+007	-3.637057e+001	-1.790110e+002	-3.023353e+001	-2.545188e+001	-9.909715e+001	9.571988e+001	-3.282735e+001	1.525054e+002
1.095063e+007	-3.636895e+001	-1.791392e+002	-3.023509e+001	-2.539367e+001	-9.547589e+001	1.033902e+002	-3.283602e+001	1.525153e+002
1.095063e+007	-3.637769e+001	-1.791142e+002	-3.024259e+001	-2.540599e+001	-9.787459e+001	7.910535e+001	-3.283876e+001	1.525929e+002
1.095064e+007	-3.636384e+001	-1.791095e+002	-3.023889e+001	-2.545246e+001	-9.690986e+001	8.192511e+001	-3.282707e+001	1.525247e+002
1.095065e+007	-3.636805e+001	-1.790177e+002	-3.025223e+001	-2.554709e+001	-9.514286e+001	1.094735e+002	-3.282662e+001	1.525244e+002
1.095066e+007	-3.636673e+001	-1.790302e+002	-3.024081e+001	-2.547848e+001	-9.433264e+001	8.008115e+001	-3.283104e+001	1.525545e+002
1.095066e+007	-3.636843e+001	-1.790955e+002	-3.023173e+001	-2.550200e+001	-9.649839e+001	1.085708e+002	-3.282997e+001	1.526036e+002
1.095067e+007	-3.636581e+001	-1.790647e+002	-3.022573e+001	-2.551403e+001	-9.563823e+001	9.623980e+001	-3.284169e+001	1.525678e+002
1.095068e+007	-3.636635e+001	-1.791187e+002	-3.022950e+001	-2.550495e+001	-9.648598e+001	9.658011e+001	-3.283629e+001	1.525656e+002
1.095069e+007	-3.635524e+001	-1.790161e+002	-3.023550e+001	-2.559175e+001	-9.606557e+001	8.991139e+001	-3.283348e+001	1.526445e+002
1.095070e+007	-3.636302e+001	-1.790966e+002	-3.024041e+001	-2.563042e+001	-9.302287e+001	1.036161e+002	-3.282846e+001	1.525998e+002
1.095070e+007	-3.636982e+001	-1.790589e+002	-3.025085e+001	-2.557432e+001	-9.976091e+001	7.715112e+001	-3.282738e+001	1.526441e+002
1.095071e+007	-3.637461e+001	-1.791574e+002	-3.025044e+001	-2.562170e+001	-9.801621e+001	1.094119e+002	-3.282452e+001	1.526769e+002
1.095072e+007	-3.636853e+001	-1.790336e+002	-3.026839e+001	-2.561234e+001	-9.575832e+001	7.959868e+001	-3.281866e+001	1.526169e+002
1.095073e+007	-3.637584e+001	-1.790634e+002	-3.025888e+001	-2.560438e+001	-9.646352e+001	9.341091e+001	-3.282303e+001	1.526452e+002
1.095073e+007	-3.635759e+001	-1.791598e+002	-3.028416e+001	-2.550287e+001	-9.763514e+001	9.169878e+001	-3.282155e+001	1.525886e+002
1.095074e+007	-3.634677e+001	-1.791205e+002	-3.026870e+001	-2.537981e+001	-9.926499e+001	9.656164e+001	-3.281122e+001	1.525120e+002
1.095075e+007	-3.637078e+001	-1.791878e+002	-3.027684e+001	-2.524791e+001	-9.654327e+001	9.829546e+001	-3.282121e+001	1.525530e+002
1.095076e+007	-3.635770e+001	-1.790547e+002	-3.026832e+001	-2.508857e+001	-9.673978e+001	1.011404e+002	-3.282253e+001	1.524983e+002
1.095077e+007	-3.636876e+001	-1.791294e+002	-3.023423e+001	-2.504373e+001	-9.502736e+001	1.099354e+002	-3.282997e+001	1.525056e+002
1.095077e+007	-3.636067e+001	-1.790941e+002	-3.019934e+001	-2.508187e+001	-9.958303e+001	9.415959e+001	-3.282184e+001	1.525406e+002
1.095078e+007	-3.638677e+001	-1.791105e+002	-3.017987e+001	-2.528488e+001	-9.551622e+001	1.024952e+002	-3.281875e+001	1.526048e+002
1.095079e+007	-3.636371e+001	-1.791700e+002	-3.018584e+001	-2.554830e+001	-9.652085e+001	1.168600e+002	-3.280715e+001	1.526805e+002
1.095080e+007	-3.636294e+001	-1.790614e+002	-3.020942e+001	-2.572553e+001	-9.838794e+001	8.734378e+001	-3.282116e+001	1.525507e+002
1.095080e+007	-3.635667e+001	-1.791119e+002	-3.024411e+001	-2.565126e+001	-9.656167e+001	1.182667e+002	-3.281362e+001	1.525684e+002
1.095081e+007	-3.636777e+001	-1.792310e+002	-3.027106e+001	-2.550490e+001	-9.670449e+001	9.089317e+001	-3.281159e+001	1.525189e+002
1.095082e+007	-3.635641e+001	-1.791808e+002	-3.025987e+001	-2.512627e+001	-9.751875e+001	7.568350e+001	-3.282965e+001	1.524795e+002
1.095083e+007	-3.636331e+001	-1.790666e+002	-3.021658e+001	-2.505550e+001	-9.451649e+001	9.625617e+001	-3.282714e+001	1.524673e+002
1.095084e+007	-3.634821e+001	-1.791029e+002	-3.017512e+001	-2.523457e+001	-1.000336e+002	9.467759e+001	-3.283004e+001	1.526081e+002
1.095084e+007	-3.636751e+001	-1.790817e+002	-3.018352e+001	-2.551202e+001	-9.686258e+001	7.624853e+001	-3.282088e+001	1.525786e+002
1.095085e+007	-3.635316e+001	-1.790695e+002	-3.022346e+001	-2.567314e+001	-9.776373e+001	1.065894e+002	-3.281507e+001	1.525190e+002
1.095086e+007	-3.637135e+001	-1.791433e+002	-3.026794e+001	-2.543932e+001	-9.568738e+001	7.994799e+001	-3.280903e+001	1.525281e+002
1.095087e+007	-3.635897e+001	-1.791279e+002	-3.024436e+001	-2.510435e+001	-9.563734e+001	8.857161e+001	-3.281606e+001	1.525175e+002
1.095088e+007	-3.637593e+001	-1.789829e+002	-3.017852e+001	-2.512885e+001	-9.770699e+001	7.650178e+001	-3.282362e+001	1.525753e+002
1.095088e+007	-3.635206e+001	-1.790440e+002	-3.015809e+001	-2.550535e+001	-9.911358e+001	7.642969e+001	-3.283076e+001	1.525822e+002
1.095089e+007	-3.637378e+001	-1.789989e+002	-3.021241e+001	-2.570717e+001	-9.693023e+001	9.449439e+001	-3.282230e+001	1.524640e+002
1.095090e+007	-3.637278e+001	-1.791662e+002	-3.025173e+001	-2.539777e+001	-9.706812e+001	1.153335e+002	-3.281597e+001	1.524638e+002
1.095091e+007	-3.636823e+001	-1.791074e+002	-3.021724e+001	-2.510504e+001	-9.746218e+001	1.037781e+002	-3.282627e+001	1.524913e+002
1.095091e+007	-3.635856e+001	-1.790036e+002	-3.015633e+001	-2.523022e+001	-9.702180e+001	7.258018e+001	-3.282049e+001	1.526224e+002
1.095092e+007	-3.637368e+001	-1.791403e+002	-3.017338e+001	-2.564461e+001	-9.728339e+001	1.125330e+002	-3.281310e+001	1.525279e+002
1.095093e+007	-3.636318e+001	-1.791190e+002	-3.023886e+001	-2.553761e+001	-9.580203e+001	8.023546e+001	-3.282264e+001	1.525644e+002
1.095094e+007	-3.636984e+001	-1.791621e+002	-3.021465e+001	-2.516790e+001	-1.009725e+002	6.734507e+001	-3.282110e+001	1.525101e+002
1.095095e+007	-3.637312e+001	-1.790642e+002	-3.015194e+001	-2.521772e+001	-1.001733e+002	1.121731e+002	-3.281792e+001	1.526092e+002
1.095095e+007	-3.636394e+001	-1.789776e+002	-3.016882e+001	-2.564082e+001	-9.496552e+001	9.141026e+001	-3.280561e+001	1.525897e+002
1.095096e+007	-3.637594e+001	-1.790306e+002	-3.021867e+001	-2.543805e+001	-9.656248e+001	8.498653e+001	-3.282569e+001	1.525318e+002
1.095097e+007	-3.637024e+001	-1.790885e+002	-3.018897e+001	-2.514314e+001	-9.578405e+001	6.657849e+001	-3.283645e+001	1.526252e+002
1.095098e+007	-3.637511e+001	-1.791114e+002	-3.014337e+001	-2.542544e+001	-9.864193e+001	7.127362e+001	-3.281898e+001	1.527062e+002
1.095098e+007	-3.636178e+001	-1.790698e+002	-3.019676e+001	-2.562700e+001	-9.354113e+001	1.059428e+002	-3.282353e+001	1.524458e+002
1.095099e+007	-3.635651e+001	-1.791539e+002	-3.020393e+001	-2.528712e+001	-1.009120e+002	9.228546e+001	-3.283109e+001	1.525370e+002
1.095100e+007	-3.636047e+001	-1.789976e+002	-3.014996e+001	-2.523503e+001	-9.847438e+001	1.042394e+002	-3.281894e+001	1.525466e+002
1.095101e+007	-3.636378e+001	-1.791402e+002	-3.016642e+001	-2.561638e+001	-9.768444e+001	1.040424e+002	-3.281754e+001	1.525477e+002
1.095102e+007	-3.636297e+001	-1.791415e+002	-3.021661e+001	-2.533100e+001	-1.010475e+002	8.648598e+001	-3.282754e+001	1.525542e+002
1.095102e+007	-3.637265e+001	-1.791782e+002	-3.014316e+001	-2.519333e+001	-9.748864e+001	8.553922e+001	-3.282598e+001	1.526175e+002
1.095103e+007	-3.634950e+001	-1.792270e+002	-3.016077e+001	-2.558419e+001	-9.533505e+001	1.010696e+002	-3.281615e+001	1.524378e+002
1.095104e+007	-3.636540e+001	-1.791026e+002	-3.020363e+001	-2.531482e+001	-9.780206e+001	9.477832e+001	-3.282169e+001	1.525721e+002
1.095105e+007	-3.635572e+001	-1.790308e+002	-3.014513e+001	-2.527934e+001	-9.828997e+001	9.367188e+001	-3.281131e+001	1.525249e+002
1.095105e+007	-3.635798e+001	-1.791512e+002	-3.018188e+001	-2.555027e+001	-9.629615e+001	8.527596e+001	-3.283190e+001	1.524843e+002
1.095106e+007	-3.636580e+001	-1.791486e+002	-3.018362e+001	-2.525119e+001	-9.548807e+001	9.580171e+001	-3.283030e+001	1.525841e+002
1.095107e+007	-3.636961e+001	-1.791928e+002	-3.013412e+001	-2.543684e+001	-9.933652e+001	9.324428e+001	-3.281622e+001	1.525332e+002
1.095108e+007	-3.636932e+001	-1.791481e+002	-3.019845e+001	-2.547642e+001	-9.997883e+001	1.085115e+002	-3.282470e+001	1.525768e+002
1.095109e+007	-3.635805e+001	-1.791826e+002	-3.014928e+001	-2.512144e+001	-9.672736e+001	8.494062e+001	-3.281339e+001	1.525869e+002
1.095109e+007	-3.637105e+001	-1.791821e+002	-3.014681e+001	-2.565064e+001	-9.850949e+001	8.911080e+001	-3.282243e+001	1.524995e+002
1.095110e+007	-3.635385e+001	-1.792315e+002	-3.019025e+001	-2.519610e+001	-9.537961e+001	9.312152e+001	-3.282499e+001	1.525499e+002
1.095111e+007	-3.636635e+001	-1.791346e+002	-3.011870e+001	-2.547214e+001	-9.717761e+001	1.049698e+002	-3.281244e+001	1.525980e+002
1.095112e+007	-3.636975e+001	-1.791829e+002	-3.019261e+001	-2.549025e+001	-9.819108e+001	9.539750e+001	-3.282831e+001	1.526161e+002
1.095113e+007	-3.636327e+001	-1.790606e+002	-3.011832e+001	-2.511003e+001	-9.390088e+001	1.123104e+002	-3.280915e+001	1.525942e+002
1.095113e+007	-3.636751e+001	-1.791244e+002	-3.015467e+001	-2.570944e+001	-9.602724e+001	9.527824e+001	-3.283002e+001	1.525123e+002
1.095114e+007	-3.636340e+001	-1.791437e+002	-3.014421e+001	-2.510643e+001	-9.494076e+001	9.979945e+001	-3.280898e+001	1.525931e+002
1.095115e+007	-3.636373e+001	-1.790415e+002	-3.013320e+001	-2.568715e+001	-9.879327e+001	9.561472e+001	-3.281746e+001	1.525578e+002
1.095116e+007	-3.637575e+001	-1.791530e+002	-3.016274e+001	-2.512633e+001	-9.506137e+001	8.602208e+001	-3.281719e+001	1.526039e+002
