!CETC41,AV3656A,ZGL00048,1.3.2
!Calibration ON (Full Solt 2-Port(Omit Isolation))
!Measurements: S11 S21 S12 S22
!2025-04-18 22:23
# Hz  S  dB  R 50.000
1.095000e+007	-3.622978e+001	1.793798e+002	-3.065818e+001	-2.374837e+001	-9.894253e+001	1.120664e+002	-3.329460e+001	1.525907e+002
1.095001e+007	-3.622744e+001	1.793307e+002	-3.066003e+001	-2.372296e+001	-9.469595e+001	1.085628e+002	-3.330399e+001	1.525273e+002
1.095002e+007	-3.621644e+001	1.792774e+002	-3.064281e+001	-2.368284e+001	-9.634736e+001	7.762037e+001	-3.329430e+001	1.525619e+002
1.095002e+007	-3.623295e+001	1.792690e+002	-3.065445e+001	-2.377237e+001	-9.764584e+001	1.004726e+002	-3.330886e+001	1.524891e+002
1.095003e+007	-3.622250e+001	1.793141e+002	-3.064626e+001	-2.372846e+001	-1.047393e+002	8.890884e+001	-3.329457e+001	1.525368e+002
1.095004e+007	-3.621773e+001	1.793935e+002	-3.065011e+001	-2.374897e+001	-9.634619e+001	9.154310e+001	-3.330293e+001	1.525222e+002
1.095005e+007	-3.622418e+001	1.794276e+002	-3.065097e+001	-2.369564e+001	-9.760040e+001	8.792324e+001	-3.330109e+001	1.524934e+002
1.095005e+007	-3.621280e+001	1.793183e+002	-3.064247e+001	-2.380219e+001	-9.712966e+001	1.153468e+002	-3.330791e+001	1.524996e+002
1.095006e+007	-3.624092e+001	1.793543e+002	-3.064831e+001	-2.372531e+001	-9.657202e+001	8.911779e+001	-3.330271e+001	1.524559e+002
1.095007e+007	-3.623519e+001	1.793648e+002	-3.063305e+001	-2.384194e+001	-9.685529e+001	8.082324e+001	-3.329475e+001	1.525575e+002
1.095008e+007	-3.622733e+001	1.793699e+002	-3.065675e+001	-2.385162e+001	-9.573847e+001	1.008649e+002	-3.328850e+001	1.525256e+002
1.095009e+007	-3.622438e+001	1.793869e+002	-3.065524e+001	-2.379690e+001	-9.489463e+001	8.510832e+001	-3.330116e+001	1.525264e+002
1.095009e+007	-3.622742e+001	1.792858e+002	-3.066763e+001	-2.384671e+001	-9.862230e+001	1.149620e+002	-3.330001e+001	1.525573e+002
1.095010e+007	-3.622942e+001	1.793185e+002	-3.066975e+001	-2.385874e+001	-9.576055e+001	9.884097e+001	-3.329473e+001	1.525123e+002
1.095011e+007	-3.621802e+001	1.793356e+002	-3.067202e+001	-2.380331e+001	-9.860945e+001	9.942142e+001	-3.328451e+001	1.524699e+002
1.095012e+007	-3.622395e+001	1.792142e+002	-3.068497e+001	-2.374393e+001	-1.054588e+002	9.283456e+001	-3.329251e+001	1.524766e+002
1.095013e+007	-3.622643e+001	1.793951e+002	-3.069523e+001	-2.373535e+001	-9.631472e+001	8.752494e+001	-3.329909e+001	1.524058e+002
1.095013e+007	-3.622048e+001	1.793267e+002	-3.069574e+001	-2.372090e+001	-9.452367e+001	1.082934e+002	-3.329558e+001	1.524857e+002
1.095014e+007	-3.622087e+001	1.792851e+002	-3.069527e+001	-2.366393e+001	-9.501627e+001	9.876923e+001	-3.330691e+001	1.523990e+002
1.095015e+007	-3.620816e+001	1.793415e+002	-3.068326e+001	-2.355374e+001	-9.688741e+001	1.066521e+002	-3.329701e+001	1.524600e+002
1.095016e+007	-3.622526e+001	1.792934e+002	-3.066020e+001	-2.353039e+001	-9.694424e+001	6.908878e+001	-3.330480e+001	1.524591e+002
1.095016e+007	-3.621723e+001	1.794164e+002	-3.066179e+001	-2.352987e+001	-9.595557e+001	7.805487e+001	-3.329300e+001	1.524770e+002
1.095017e+007	-3.622315e+001	1.792956e+002	-3.064677e+001	-2.364430e+001	-9.430547e+001	9.942092e+001	-3.329102e+001	1.525319e+002
1.095018e+007	-3.622262e+001	1.793801e+002	-3.064882e+001	-2.372682e+001	-1.047730e+002	1.066564e+002	-3.329638e+001	1.525459e+002
1.095019e+007	-3.622928e+001	1.793288e+002	-3.066647e+001	-2.378026e+001	-9.579239e+001	1.160516e+002	-3.330356e+001	1.524870e+002
1.095020e+007	-3.623459e+001	1.793808e+002	-3.067776e+001	-2.369531e+001	-9.614080e+001	8.663144e+001	-3.328998e+001	1.524417e+002
1.095020e+007	-3.622249e+001	1.793230e+002	-3.070190e+001	-2.364495e+001	-9.475539e+001	1.056133e+002	-3.329350e+001	1.524724e+002
1.095021e+007	-3.622418e+001	1.792840e+002	-3.066879e+001	-2.356433e+001	-9.437510e+001	8.614701e+001	-3.329754e+001	1.524744e+002
1.095022e+007	-3.622807e+001	1.792653e+002	-3.066166e+001	-2.356050e+001	-9.852490e+001	7.656869e+001	-3.330662e+001	1.525562e+002
1.095023e+007	-3.620969e+001	1.793699e+002	-3.064933e+001	-2.361549e+001	-9.659487e+001	1.142589e+002	-3.329509e+001	1.524824e+002
1.095023e+007	-3.621478e+001	1.793033e+002	-3.065222e+001	-2.367955e+001	-1.000185e+002	1.185011e+002	-3.329570e+001	1.525286e+002
1.095024e+007	-3.623286e+001	1.792790e+002	-3.067148e+001	-2.368631e+001	-9.582627e+001	8.811465e+001	-3.329342e+001	1.524973e+002
1.095025e+007	-3.622870e+001	1.793364e+002	-3.068160e+001	-2.363995e+001	-9.561314e+001	8.097869e+001	-3.330049e+001	1.524040e+002
1.095026e+007	-3.622671e+001	1.794241e+002	-3.065947e+001	-2.351978e+001	-9.671641e+001	7.328530e+001	-3.329378e+001	1.524662e+002
1.095027e+007	-3.622116e+001	1.792553e+002	-3.065806e+001	-2.364020e+001	-9.344680e+001	7.895248e+001	-3.329391e+001	1.524810e+002
1.095027e+007	-3.621397e+001	1.792881e+002	-3.065509e+001	-2.371508e+001	-9.602847e+001	1.047552e+002	-3.328859e+001	1.525160e+002
1.095028e+007	-3.622360e+001	1.793423e+002	-3.066714e+001	-2.368964e+001	-9.517301e+001	7.144723e+001	-3.329871e+001	1.524391e+002
1.095029e+007	-3.621831e+001	1.793375e+002	-3.066285e+001	-2.368486e+001	-9.723102e+001	1.147632e+002	-3.328998e+001	1.524520e+002
1.095030e+007	-3.622795e+001	1.793457e+002	-3.066634e+001	-2.354741e+001	-9.951714e+001	7.194486e+001	-3.329351e+001	1.525171e+002
1.095030e+007	-3.621802e+001	1.793069e+002	-3.066024e+001	-2.362817e+001	-9.599118e+001	8.942188e+001	-3.330329e+001	1.524768e+002
1.095031e+007	-3.622133e+001	1.793932e+002	-3.065458e+001	-2.365043e+001	-9.675138e+001	8.753971e+001	-3.329058e+001	1.524671e+002
1.095032e+007	-3.620186e+001	1.793438e+002	-3.067484e+001	-2.367267e+001	-9.448174e+001	8.528862e+001	-3.329459e+001	1.525098e+002
1.095033e+007	-3.621940e+001	1.794490e+002	-3.066715e+001	-2.362911e+001	-9.573885e+001	9.242764e+001	-3.329882e+001	1.524890e+002
1.095034e+007	-3.624597e+001	1.793803e+002	-3.066107e+001	-2.367193e+001	-9.554875e+001	9.935403e+001	-3.330433e+001	1.525189e+002
1.095034e+007	-3.624440e+001	1.793697e+002	-3.065815e+001	-2.363849e+001	-9.513628e+001	7.459318e+001	-3.328298e+001	1.524699e+002
1.095035e+007	-3.623039e+001	1.792585e+002	-3.066312e+001	-2.361705e+001	-9.396840e+001	7.687423e+001	-3.328538e+001	1.524263e+002
1.095036e+007	-3.622808e+001	1.793630e+002	-3.066321e+001	-2.366127e+001	-9.659146e+001	8.483282e+001	-3.330454e+001	1.524644e+002
1.095037e+007	-3.622473e+001	1.793337e+002	-3.067519e+001	-2.365725e+001	-9.688422e+001	9.201137e+001	-3.329900e+001	1.525115e+002
1.095038e+007	-3.623650e+001	1.793333e+002	-3.066898e+001	-2.360666e+001	-9.616540e+001	9.972610e+001	-3.329830e+001	1.524940e+002
1.095038e+007	-3.622604e+001	1.792377e+002	-3.066938e+001	-2.366513e+001	-9.431536e+001	9.585204e+001	-3.330150e+001	1.524619e+002
1.095039e+007	-3.622155e+001	1.793060e+002	-3.067112e+001	-2.366081e+001	-9.742983e+001	9.740572e+001	-3.329291e+001	1.524636e+002
1.095040e+007	-3.623082e+001	1.794889e+002	-3.065807e+001	-2.359174e+001	-9.666380e+001	8.525441e+001	-3.329414e+001	1.524995e+002
1.095041e+007	-3.621945e+001	1.793519e+002	-3.066367e+001	-2.364289e+001	-1.001572e+002	8.801001e+001	-3.328577e+001	1.524562e+002
1.095041e+007	-3.622856e+001	1.792911e+002	-3.068015e+001	-2.368856e+001	-9.484709e+001	8.815841e+001	-3.329795e+001	1.525163e+002
1.095042e+007	-3.622503e+001	1.793011e+002	-3.065840e+001	-2.362231e+001	-9.662435e+001	9.053741e+001	-3.329414e+001	1.524908e+002
1.095043e+007	-3.622717e+001	1.794068e+002	-3.066738e+001	-2.370971e+001	-9.799388e+001	1.148610e+002	-3.329416e+001	1.524790e+002
1.095044e+007	-3.621452e+001	1.793335e+002	-3.067270e+001	-2.361649e+001	-9.398938e+001	9.941088e+001	-3.328769e+001	1.525339e+002
1.095045e+007	-3.622803e+001	1.794059e+002	-3.065364e+001	-2.365826e+001	-1.015832e+002	7.017101e+001	-3.328931e+001	1.524882e+002
1.095045e+007	-3.621968e+001	1.793276e+002	-3.066245e+001	-2.369983e+001	-9.728408e+001	9.536382e+001	-3.329572e+001	1.524518e+002
1.095046e+007	-3.624215e+001	1.794217e+002	-3.066422e+001	-2.356752e+001	-9.950821e+001	9.991618e+001	-3.329042e+001	1.524463e+002
1.095047e+007	-3.622689e+001	1.793123e+002	-3.064975e+001	-2.374292e+001	-9.669484e+001	1.080817e+002	-3.328618e+001	1.524636e+002
1.095048e+007	-3.622389e+001	1.792739e+002	-3.067409e+001	-2.368063e+001	-9.846061e+001	9.866087e+001	-3.328470e+001	1.524880e+002
1.095048e+007	-3.622215e+001	1.792956e+002	-3.065822e+001	-2.358230e+001	-1.002977e+002	1.081440e+002	-3.328510e+001	1.525118e+002
1.095049e+007	-3.622740e+001	1.792476e+002	-3.065647e+001	-2.372317e+001	-9.493394e+001	9.538205e+001	-3.328838e+001	1.524875e+002
1.095050e+007	-3.621950e+001	1.793364e+002	-3.066564e+001	-2.363016e+001	-9.642198e+001	9.186031e+001	-3.328117e+001	1.524462e+002
1.095051e+007	-3.622921e+001	1.794034e+002	-3.065659e+001	-2.371601e+001	-9.472550e+001	7.467242e+001	-3.328742e+001	1.524607e+002
1.095052e+007	-3.621745e+001	1.793005e+002	-3.066228e+001	-2.359042e+001	-9.627715e+001	1.077736e+002	-3.329574e+001	1.524465e+002
1.095052e+007	-3.620696e+001	1.793288e+002	-3.065300e+001	-2.364747e+001	-9.909103e+001	8.056718e+001	-3.329962e+001	1.524531e+002
1.095053e+007	-3.621409e+001	1.793059e+002	-3.066694e+001	-2.358684e+001	-9.617458e+001	8.524622e+001	-3.329109e+001	1.525511e+002
1.095054e+007	-3.622028e+001	1.793022e+002	-3.065321e+001	-2.358097e+001	-9.560420e+001	9.578277e+001	-3.329669e+001	1.524464e+002
1.095055e+007	-3.621581e+001	1.793311e+002	-3.066834e+001	-2.369254e+001	-9.482560e+001	1.046510e+002	-3.329580e+001	1.524777e+002
1.095055e+007	-3.621831e+001	1.793767e+002	-3.064490e+001	-2.358768e+001	-9.693562e+001	1.044381e+002	-3.329286e+001	1.525297e+002
1.095056e+007	-3.622426e+001	1.793521e+002	-3.067445e+001	-2.365260e+001	-9.911163e+001	1.029534e+002	-3.329085e+001	1.524513e+002
1.095057e+007	-3.622863e+001	1.793911e+002	-3.065198e+001	-2.354312e+001	-9.459688e+001	1.007745e+002	-3.328553e+001	1.524644e+002
1.095058e+007	-3.622190e+001	1.793189e+002	-3.066786e+001	-2.378963e+001	-9.395107e+001	8.814180e+001	-3.329259e+001	1.525100e+002
1.095059e+007	-3.623305e+001	1.792091e+002	-3.065392e+001	-2.358864e+001	-9.614120e+001	9.057323e+001	-3.330110e+001	1.525063e+002
1.095059e+007	-3.623117e+001	1.793791e+002	-3.066877e+001	-2.375899e+001	-9.806246e+001	7.764405e+001	-3.329368e+001	1.524338e+002
1.095060e+007	-3.622353e+001	1.793365e+002	-3.065774e+001	-2.349425e+001	-9.571040e+001	1.051564e+002	-3.329538e+001	1.525415e+002
1.095061e+007	-3.622435e+001	1.793015e+002	-3.068088e+001	-2.368872e+001	-9.778528e+001	1.114870e+002	-3.329036e+001	1.524832e+002
1.095062e+007	-3.623018e+001	1.793027e+002	-3.064762e+001	-2.360887e+001	-9.712320e+001	8.965948e+001	-3.329688e+001	1.524855e+002
1.095063e+007	-3.622409e+001	1.793693e+002	-3.067909e+001	-2.372693e+001	-9.961520e+001	1.046175e+002	-3.329753e+001	1.525211e+002
1.095063e+007	-3.623190e+001	1.793060e+002	-3.063636e+001	-2.357518e+001	-9.519954e+001	7.835332e+001	-3.328770e+001	1.524873e+002
1.095064e+007	-3.623149e+001	1.792481e+002	-3.068096e+001	-2.364321e+001	-9.618933e+001	1.113747e+002	-3.329636e+001	1.525678e+002
1.095065e+007	-3.622216e+001	1.793180e+002	-3.064299e+001	-2.379754e+001	-1.027385e+002	9.275718e+001	-3.329939e+001	1.524520e+002
1.095066e+007	-3.622978e+001	1.793680e+002	-3.066654e+001	-2.353392e+001	-9.835945e+001	9.344692e+001	-3.328455e+001	1.524773e+002
1.095066e+007	-3.621707e+001	1.793855e+002	-3.065915e+001	-2.374708e+001	-9.995284e+001	7.429193e+001	-3.328971e+001	1.524869e+002
1.095067e+007	-3.623160e+001	1.793813e+002	-3.065841e+001	-2.357059e+001	-9.978763e+001	8.135926e+001	-3.329990e+001	1.524447e+002
1.095068e+007	-3.621875e+001	1.793661e+002	-3.066887e+001	-2.376706e+001	-9.467342e+001	8.352995e+001	-3.329737e+001	1.525448e+002
1.095069e+007	-3.623827e+001	1.793867e+002	-3.063915e+001	-2.369732e+001	-9.492073e+001	7.384712e+001	-3.330351e+001	1.524653e+002
1.095070e+007	-3.621418e+001	1.793136e+002	-3.067806e+001	-2.363550e+001	-9.895449e+001	9.903403e+001	-3.328742e+001	1.524508e+002
1.095070e+007	-3.623430e+001	1.792325e+002	-3.065071e+001	-2.379109e+001	-9.280241e+001	1.015348e+002	-3.329270e+001	1.524448e+002
1.095071e+007	-3.621936e+001	1.793860e+002	-3.066131e+001	-2.353894e+001	-9.761250e+001	8.379798e+001	-3.329107e+001	1.524879e+002
1.095072e+007	-3.622241e+001	1.793726e+002	-3.066967e+001	-2.366254e+001	-9.478050e+001	8.576947e+001	-3.329170e+001	1.524685e+002
1.095073e+007	-3.622567e+001	1.793621e+002	-3.064582e+001	-2.365385e+001	-9.959770e+001	7.437169e+001	-3.328725e+001	1.524663e+002
1.095073e+007	-3.621098e+001	1.792909e+002	-3.067281e+001	-2.360532e+001	-9.665372e+001	9.551837e+001	-3.328645e+001	1.525288e+002
1.095074e+007	-3.621868e+001	1.793235e+002	-3.066408e+001	-2.372953e+001	-9.707461e+001	6.853415e+001	-3.327973e+001	1.524597e+002
1.095075e+007	-3.622419e+001	1.794492e+002	-3.063160e+001	-2.369740e+001	-9.742203e+001	7.708414e+001	-3.328926e+001	1.524159e+002
1.095076e+007	-3.622542e+001	1.794084e+002	-3.066857e+001	-2.358112e+001	-9.445220e+001	9.150228e+001	-3.329332e+001	1.524643e+002
1.095077e+007	-3.624321e+001	1.793428e+002	-3.066008e+001	-2.372573e+001	-9.517237e+001	9.906245e+001	-3.329461e+001	1.524893e+002
1.095077e+007	-3.621918e+001	1.792880e+002	-3.064727e+001	-2.372815e+001	-9.808930e+001	8.778374e+001	-3.328925e+001	1.524066e+002
1.095078e+007	-3.622984e+001	1.793250e+002	-3.065899e+001	-2.357479e+001	-9.621834e+001	9.538515e+001	-3.328412e+001	1.524954e+002
1.095079e+007	-3.623666e+001	1.793217e+002	-3.066354e+001	-2.375902e+001	-9.623192e+001	7.586536e+001	-3.329107e+001	1.524716e+002
1.095080e+007	-3.621471e+001	1.793144e+002	-3.064448e+001	-2.369512e+001	-9.639089e+001	9.638162e+001	-3.329102e+001	1.524642e+002
1.095080e+007	-3.622508e+001	1.793749e+002	-3.064583e+001	-2.358595e+001	-9.663619e+001	9.663555e+001	-3.329138e+001	1.525369e+002
1.095081e+007	-3.620978e+001	1.792574e+002	-3.068085e+001	-2.357560e+001	-9.460763e+001	7.647792e+001	-3.328694e+001	1.524935e+002
1.095082e+007	-3.622872e+001	1.792280e+002	-3.065086e+001	-2.375478e+001	-9.543678e+001	9.733898e+001	-3.329639e+001	1.525157e+002
1.095083e+007	-3.621635e+001	1.792956e+002	-3.063274e+001	-2.356357e+001	-9.756413e+001	1.013503e+002	-3.328543e+001	1.525395e+002
1.095084e+007	-3.623220e+001	1.793057e+002	-3.065889e+001	-2.353626e+001	-9.565694e+001	1.150045e+002	-3.328619e+001	1.524694e+002
1.095084e+007	-3.621885e+001	1.793322e+002	-3.066186e+001	-2.368685e+001	-9.399182e+001	8.602694e+001	-3.330458e+001	1.525047e+002
1.095085e+007	-3.622684e+001	1.792899e+002	-3.065215e+001	-2.375674e+001	-9.555855e+001	8.796569e+001	-3.329694e+001	1.525258e+002
1.095086e+007	-3.622279e+001	1.792848e+002	-3.063236e+001	-2.359713e+001	-9.674867e+001	8.917078e+001	-3.330096e+001	1.524442e+002
1.095087e+007	-3.623546e+001	1.793717e+002	-3.066043e+001	-2.351591e+001	-9.350443e+001	7.713819e+001	-3.329783e+001	1.525208e+002
1.095088e+007	-3.622514e+001	1.793644e+002	-3.068283e+001	-2.361771e+001	-9.743123e+001	7.816285e+001	-3.329881e+001	1.525400e+002
1.095088e+007	-3.623330e+001	1.792111e+002	-3.065266e+001	-2.376871e+001	-9.622070e+001	7.982117e+001	-3.329547e+001	1.525121e+002
1.095089e+007	-3.622396e+001	1.792860e+002	-3.062768e+001	-2.367452e+001	-9.811000e+001	1.049577e+002	-3.329683e+001	1.525455e+002
1.095090e+007	-3.621782e+001	1.793441e+002	-3.063729e+001	-2.354653e+001	-9.485033e+001	1.101581e+002	-3.329667e+001	1.524493e+002
1.095091e+007	-3.623141e+001	1.793691e+002	-3.066312e+001	-2.355318e+001	-9.990219e+001	7.793292e+001	-3.329409e+001	1.524315e+002
1.095091e+007	-3.621350e+001	1.793941e+002	-3.067614e+001	-2.368624e+001	-9.858233e+001	7.790697e+001	-3.328049e+001	1.524873e+002
1.095092e+007	-3.623512e+001	1.792615e+002	-3.066121e+001	-2.373475e+001	-9.634324e+001	6.408837e+001	-3.329879e+001	1.525118e+002
1.095093e+007	-3.622416e+001	1.793489e+002	-3.063600e+001	-2.375855e+001	-9.572017e+001	1.052278e+002	-3.329482e+001	1.524241e+002
1.095094e+007	-3.622331e+001	1.794965e+002	-3.063192e+001	-2.354424e+001	-9.766785e+001	6.944917e+001	-3.329448e+001	1.524529e+002
1.095095e+007	-3.621563e+001	1.794267e+002	-3.064993e+001	-2.350369e+001	-9.543503e+001	1.164586e+002	-3.329881e+001	1.524753e+002
1.095095e+007	-3.622705e+001	1.793365e+002	-3.068155e+001	-2.354751e+001	-9.655323e+001	9.257895e+001	-3.329642e+001	1.525117e+002
1.095096e+007	-3.622443e+001	1.792624e+002	-3.067647e+001	-2.368121e+001	-9.521388e+001	8.428838e+001	-3.328616e+001	1.524644e+002
1.095097e+007	-3.623668e+001	1.792552e+002	-3.066503e+001	-2.378298e+001	-9.390648e+001	7.929585e+001	-3.329167e+001	1.524955e+002
1.095098e+007	-3.622731e+001	1.793468e+002	-3.064702e+001	-2.373773e+001	-9.499394e+001	7.666879e+001	-3.328651e+001	1.525592e+002
1.095098e+007	-3.622044e+001	1.794109e+002	-3.063842e+001	-2.369934e+001	-9.504789e+001	8.088742e+001	-3.328787e+001	1.524473e+002
1.095099e+007	-3.623096e+001	1.793711e+002	-3.063120e+001	-2.363702e+001	-9.591178e+001	1.168475e+002	-3.329098e+001	1.524881e+002
1.095100e+007	-3.621520e+001	1.793567e+002	-3.063060e+001	-2.353938e+001	-9.716735e+001	8.956289e+001	-3.329633e+001	1.524613e+002
1.095101e+007	-3.623153e+001	1.793170e+002	-3.064198e+001	-2.349014e+001	-9.812900e+001	1.061426e+002	-3.328824e+001	1.524047e+002
1.095102e+007	-3.623082e+001	1.793040e+002	-3.066606e+001	-2.347395e+001	-9.656457e+001	8.732949e+001	-3.329487e+001	1.524159e+002
1.095102e+007	-3.623612e+001	1.793170e+002	-3.066781e+001	-2.359423e+001	-9.569205e+001	7.985738e+001	-3.329220e+001	1.524914e+002
1.095103e+007	-3.622339e+001	1.794051e+002	-3.066716e+001	-2.361834e+001	-9.344810e+001	9.479594e+001	-3.328816e+001	1.523846e+002
1.095104e+007	-3.621559e+001	1.792447e+002	-3.066833e+001	-2.369938e+001	-9.582789e+001	8.410582e+001	-3.328270e+001	1.524933e+002
1.095105e+007	-3.621107e+001	1.792737e+002	-3.066309e+001	-2.379821e+001	-9.553127e+001	9.732974e+001	-3.330426e+001	1.525078e+002
1.095105e+007	-3.622424e+001	1.794084e+002	-3.065502e+001	-2.374164e+001	-9.701054e+001	1.052734e+002	-3.329724e+001	1.524395e+002
1.095106e+007	-3.623467e+001	1.792678e+002	-3.065061e+001	-2.375165e+001	-9.799060e+001	9.335577e+001	-3.328545e+001	1.525290e+002
1.095107e+007	-3.623161e+001	1.793930e+002	-3.065008e+001	-2.374387e+001	-9.614468e+001	9.140985e+001	-3.329604e+001	1.524735e+002
1.095108e+007	-3.622379e+001	1.793493e+002	-3.064724e+001	-2.368595e+001	-9.592860e+001	9.634092e+001	-3.328148e+001	1.524858e+002
1.095109e+007	-3.623218e+001	1.793462e+002	-3.063960e+001	-2.370974e+001	-9.707865e+001	8.909039e+001	-3.329293e+001	1.524880e+002
1.095109e+007	-3.622991e+001	1.793482e+002	-3.063417e+001	-2.376049e+001	-9.484895e+001	8.865924e+001	-3.329383e+001	1.525131e+002
1.095110e+007	-3.622320e+001	1.793451e+002	-3.063353e+001	-2.369974e+001	-9.635393e+001	9.029680e+001	-3.329775e+001	1.525148e+002
1.095111e+007	-3.621824e+001	1.793155e+002	-3.063931e+001	-2.373403e+001	-9.446291e+001	8.820139e+001	-3.329836e+001	1.525013e+002
1.095112e+007	-3.622617e+001	1.793364e+002	-3.063850e+001	-2.374467e+001	-9.662090e+001	9.266107e+001	-3.329188e+001	1.525296e+002
1.095113e+007	-3.622742e+001	1.793574e+002	-3.062509e+001	-2.371356e+001	-9.471312e+001	9.777353e+001	-3.328564e+001	1.525634e+002
1.095113e+007	-3.622191e+001	1.793692e+002	-3.064175e+001	-2.380146e+001	-9.893670e+001	8.769977e+001	-3.328768e+001	1.525492e+002
1.095114e+007	-3.623586e+001	1.792864e+002	-3.064977e+001	-2.388958e+001	-1.005113e+002	6.947271e+001	-3.329598e+001	1.524927e+002
1.095115e+007	-3.622595e+001	1.793380e+002	-3.065376e+001	-2.386858e+001	-9.380646e+001	8.509737e+001	-3.329145e+001	1.525228e+002
1.095116e+007	-3.621002e+001	1.792355e+002	-3.064842e+001	-2.382396e+001	-9.974060e+001	8.777456e+001	-3.328659e+001	1.525012e+002
1.095116e+007	-3.620577e+001	1.792422e+002	-3.065973e+001	-2.382613e+001	-9.579454e+001	1.052161e+002	-3.329922e+001	1.525047e+002
