!CETC41,AV3656A,ZGL00048,1.3.2
!Calibration ON (Full Solt 2-Port(Omit Isolation))
!Measurements: S11 S21 S12 S22
!2025-04-18 23:44
# Hz  S  dB  R 50.000
1.094000e+007	-3.641656e+001	-1.796557e+002	-3.066564e+001	-2.573465e+001	-9.643426e+001	8.736400e+001	-3.273446e+001	1.527059e+002
1.094000e+007	-3.641321e+001	-1.796151e+002	-3.065669e+001	-2.579896e+001	-9.819950e+001	1.039726e+002	-3.274169e+001	1.527072e+002
1.094001e+007	-3.640639e+001	-1.795915e+002	-3.066375e+001	-2.570064e+001	-9.352302e+001	1.006341e+002	-3.272407e+001	1.527767e+002
1.094001e+007	-3.642131e+001	-1.795360e+002	-3.066057e+001	-2.569695e+001	-9.579076e+001	1.153620e+002	-3.272890e+001	1.526942e+002
1.094002e+007	-3.642296e+001	-1.797033e+002	-3.066582e+001	-2.570430e+001	-1.005258e+002	1.051796e+002	-3.274105e+001	1.527046e+002
1.094002e+007	-3.641274e+001	-1.796278e+002	-3.066985e+001	-2.572608e+001	-9.785742e+001	1.109892e+002	-3.274469e+001	1.527456e+002
1.094003e+007	-3.641528e+001	-1.794603e+002	-3.067700e+001	-2.575661e+001	-9.598170e+001	1.008256e+002	-3.274076e+001	1.527351e+002
1.094003e+007	-3.639822e+001	-1.796684e+002	-3.066861e+001	-2.570892e+001	-9.568147e+001	9.697600e+001	-3.273959e+001	1.527403e+002
1.094004e+007	-3.641641e+001	-1.796400e+002	-3.066416e+001	-2.576385e+001	-9.836466e+001	1.092598e+002	-3.274000e+001	1.527721e+002
1.094004e+007	-3.640980e+001	-1.796690e+002	-3.066886e+001	-2.571431e+001	-9.402151e+001	9.904491e+001	-3.274180e+001	1.527501e+002
1.094005e+007	-3.642157e+001	-1.795945e+002	-3.066564e+001	-2.571441e+001	-9.661248e+001	1.007747e+002	-3.274553e+001	1.526389e+002
1.094005e+007	-3.640366e+001	-1.796850e+002	-3.066422e+001	-2.579236e+001	-9.735431e+001	9.657550e+001	-3.273967e+001	1.527121e+002
1.094006e+007	-3.642164e+001	-1.795677e+002	-3.066789e+001	-2.574985e+001	-9.744679e+001	9.200163e+001	-3.273912e+001	1.527132e+002
1.094006e+007	-3.642199e+001	-1.796464e+002	-3.067010e+001	-2.571108e+001	-9.575887e+001	1.022614e+002	-3.273696e+001	1.527034e+002
1.094007e+007	-3.641734e+001	-1.795909e+002	-3.066460e+001	-2.573607e+001	-9.590004e+001	1.000101e+002	-3.274317e+001	1.527465e+002
1.094007e+007	-3.641877e+001	-1.796563e+002	-3.066782e+001	-2.577375e+001	-9.372082e+001	8.778942e+001	-3.273619e+001	1.527073e+002
1.094008e+007	-3.641892e+001	-1.795863e+002	-3.067130e+001	-2.573638e+001	-9.371696e+001	9.224466e+001	-3.274081e+001	1.526945e+002
1.094008e+007	-3.641024e+001	-1.796310e+002	-3.066074e+001	-2.576980e+001	-9.680431e+001	1.061618e+002	-3.273997e+001	1.527365e+002
1.094008e+007	-3.642050e+001	-1.796121e+002	-3.067282e+001	-2.568679e+001	-9.666951e+001	8.873785e+001	-3.272922e+001	1.526879e+002
1.094009e+007	-3.641860e+001	-1.796467e+002	-3.065913e+001	-2.568223e+001	-9.536898e+001	9.328414e+001	-3.273814e+001	1.527268e+002
1.094009e+007	-3.640684e+001	-1.796493e+002	-3.067204e+001	-2.573116e+001	-9.765901e+001	1.058499e+002	-3.272714e+001	1.527732e+002
1.094010e+007	-3.641424e+001	-1.795576e+002	-3.066931e+001	-2.570385e+001	-9.788389e+001	1.058761e+002	-3.273426e+001	1.526471e+002
1.094010e+007	-3.642841e+001	-1.795169e+002	-3.065772e+001	-2.572578e+001	-9.366289e+001	1.041335e+002	-3.274476e+001	1.527378e+002
1.094011e+007	-3.641444e+001	-1.794914e+002	-3.066800e+001	-2.579368e+001	-9.695369e+001	1.225390e+002	-3.272478e+001	1.527676e+002
1.094011e+007	-3.642036e+001	-1.795936e+002	-3.065826e+001	-2.574849e+001	-9.569322e+001	1.115363e+002	-3.274276e+001	1.526987e+002
1.094012e+007	-3.641138e+001	-1.796296e+002	-3.066394e+001	-2.575401e+001	-1.017070e+002	9.843449e+001	-3.273432e+001	1.527027e+002
1.094012e+007	-3.641418e+001	-1.795700e+002	-3.067074e+001	-2.567498e+001	-9.531085e+001	1.163727e+002	-3.274204e+001	1.526455e+002
1.094013e+007	-3.640831e+001	-1.795899e+002	-3.066099e+001	-2.568114e+001	-9.757978e+001	9.227376e+001	-3.272482e+001	1.527149e+002
1.094013e+007	-3.640975e+001	-1.795950e+002	-3.066614e+001	-2.574522e+001	-9.663107e+001	9.134994e+001	-3.273966e+001	1.526665e+002
1.094014e+007	-3.641936e+001	-1.795542e+002	-3.065777e+001	-2.569667e+001	-9.857055e+001	8.976035e+001	-3.273932e+001	1.527213e+002
1.094014e+007	-3.642481e+001	-1.795169e+002	-3.067211e+001	-2.584178e+001	-9.995293e+001	1.149100e+002	-3.272704e+001	1.527431e+002
1.094015e+007	-3.642920e+001	-1.796025e+002	-3.066643e+001	-2.570682e+001	-9.639806e+001	9.311187e+001	-3.273405e+001	1.527261e+002
1.094015e+007	-3.641747e+001	-1.796577e+002	-3.066290e+001	-2.579556e+001	-9.604698e+001	9.418947e+001	-3.273002e+001	1.527882e+002
1.094015e+007	-3.642805e+001	-1.795453e+002	-3.067059e+001	-2.569736e+001	-9.955527e+001	7.734006e+001	-3.272852e+001	1.526624e+002
1.094016e+007	-3.640601e+001	-1.795714e+002	-3.066663e+001	-2.571356e+001	-9.619694e+001	8.436480e+001	-3.273200e+001	1.526807e+002
1.094016e+007	-3.641288e+001	-1.795648e+002	-3.065505e+001	-2.576081e+001	-9.709408e+001	9.185498e+001	-3.273342e+001	1.526516e+002
1.094017e+007	-3.639374e+001	-1.796399e+002	-3.066783e+001	-2.571363e+001	-9.821218e+001	9.241804e+001	-3.272886e+001	1.527139e+002
1.094017e+007	-3.641382e+001	-1.796097e+002	-3.066920e+001	-2.579480e+001	-9.628328e+001	9.282229e+001	-3.272843e+001	1.527021e+002
1.094018e+007	-3.640811e+001	-1.796240e+002	-3.066096e+001	-2.569160e+001	-9.544965e+001	1.054799e+002	-3.273486e+001	1.526638e+002
1.094018e+007	-3.641096e+001	-1.795861e+002	-3.066535e+001	-2.581385e+001	-9.704181e+001	1.249215e+002	-3.272775e+001	1.527146e+002
1.094019e+007	-3.641173e+001	-1.795682e+002	-3.065081e+001	-2.570178e+001	-9.638535e+001	1.098316e+002	-3.274014e+001	1.526735e+002
1.094019e+007	-3.641679e+001	-1.796224e+002	-3.065807e+001	-2.577728e+001	-9.828347e+001	1.091709e+002	-3.273253e+001	1.526888e+002
1.094020e+007	-3.642040e+001	-1.797063e+002	-3.066690e+001	-2.575447e+001	-9.408092e+001	1.091503e+002	-3.274030e+001	1.527051e+002
1.094020e+007	-3.642039e+001	-1.796057e+002	-3.066710e+001	-2.576787e+001	-9.629008e+001	1.106146e+002	-3.272221e+001	1.526707e+002
1.094021e+007	-3.642578e+001	-1.796178e+002	-3.066655e+001	-2.570589e+001	-9.439192e+001	1.016606e+002	-3.273039e+001	1.527077e+002
1.094021e+007	-3.641104e+001	-1.796203e+002	-3.066933e+001	-2.572472e+001	-9.552940e+001	1.041862e+002	-3.274088e+001	1.527007e+002
1.094022e+007	-3.639386e+001	-1.795713e+002	-3.066565e+001	-2.563928e+001	-9.539740e+001	9.339270e+001	-3.274527e+001	1.527231e+002
1.094022e+007	-3.641712e+001	-1.796419e+002	-3.065788e+001	-2.578620e+001	-1.009297e+002	1.106834e+002	-3.273354e+001	1.527371e+002
1.094023e+007	-3.643988e+001	-1.796719e+002	-3.066680e+001	-2.574533e+001	-9.668256e+001	9.809364e+001	-3.274086e+001	1.527469e+002
1.094023e+007	-3.642997e+001	-1.797066e+002	-3.065806e+001	-2.579739e+001	-9.630010e+001	1.256598e+002	-3.273081e+001	1.527454e+002
1.094023e+007	-3.641956e+001	-1.795599e+002	-3.065491e+001	-2.567453e+001	-9.763721e+001	1.205254e+002	-3.274570e+001	1.527183e+002
1.094024e+007	-3.641728e+001	-1.796683e+002	-3.065407e+001	-2.568501e+001	-9.422130e+001	7.784588e+001	-3.273224e+001	1.527142e+002
1.094024e+007	-3.640170e+001	-1.795976e+002	-3.066925e+001	-2.569500e+001	-9.568419e+001	1.140633e+002	-3.273614e+001	1.528336e+002
1.094025e+007	-3.642075e+001	-1.795736e+002	-3.066985e+001	-2.572121e+001	-9.801572e+001	1.026532e+002	-3.273815e+001	1.526983e+002
1.094025e+007	-3.641190e+001	-1.795532e+002	-3.066509e+001	-2.573431e+001	-1.051043e+002	1.260573e+002	-3.273667e+001	1.526724e+002
1.094026e+007	-3.641674e+001	-1.796791e+002	-3.066125e+001	-2.575450e+001	-9.792927e+001	1.090323e+002	-3.273102e+001	1.526987e+002
1.094026e+007	-3.639228e+001	-1.796008e+002	-3.066730e+001	-2.569644e+001	-9.680087e+001	7.558277e+001	-3.272724e+001	1.527223e+002
1.094027e+007	-3.640738e+001	-1.796230e+002	-3.065207e+001	-2.578817e+001	-9.888204e+001	1.415900e+002	-3.273255e+001	1.526968e+002
1.094027e+007	-3.642435e+001	-1.795730e+002	-3.066390e+001	-2.570691e+001	-9.716962e+001	1.060961e+002	-3.272858e+001	1.527717e+002
1.094028e+007	-3.643285e+001	-1.795653e+002	-3.066080e+001	-2.572773e+001	-9.649509e+001	1.035637e+002	-3.273453e+001	1.526328e+002
1.094028e+007	-3.640865e+001	-1.795655e+002	-3.065794e+001	-2.569445e+001	-9.624084e+001	1.041591e+002	-3.273797e+001	1.527810e+002
1.094029e+007	-3.640387e+001	-1.796625e+002	-3.065641e+001	-2.579926e+001	-9.649749e+001	1.155482e+002	-3.274035e+001	1.526687e+002
1.094029e+007	-3.640790e+001	-1.796874e+002	-3.066168e+001	-2.570486e+001	-9.766142e+001	1.037258e+002	-3.272056e+001	1.526961e+002
1.094030e+007	-3.641964e+001	-1.796197e+002	-3.066379e+001	-2.576107e+001	-9.531896e+001	1.011511e+002	-3.273869e+001	1.527661e+002
1.094030e+007	-3.640593e+001	-1.795809e+002	-3.065046e+001	-2.570491e+001	-9.472918e+001	8.151599e+001	-3.273017e+001	1.526878e+002
1.094030e+007	-3.640888e+001	-1.795896e+002	-3.066905e+001	-2.570348e+001	-9.514315e+001	1.107470e+002	-3.272639e+001	1.527542e+002
1.094031e+007	-3.643437e+001	-1.795291e+002	-3.066190e+001	-2.569178e+001	-9.559302e+001	1.253551e+002	-3.273640e+001	1.526914e+002
1.094031e+007	-3.641226e+001	-1.796268e+002	-3.066575e+001	-2.561888e+001	-9.424595e+001	1.017246e+002	-3.272417e+001	1.527564e+002
1.094032e+007	-3.640481e+001	-1.796595e+002	-3.066569e+001	-2.576905e+001	-9.535485e+001	9.126231e+001	-3.274188e+001	1.527565e+002
1.094032e+007	-3.642032e+001	-1.797132e+002	-3.065767e+001	-2.576651e+001	-9.637275e+001	1.060344e+002	-3.273273e+001	1.526409e+002
1.094033e+007	-3.641576e+001	-1.795162e+002	-3.066767e+001	-2.579291e+001	-9.513940e+001	7.458168e+001	-3.273903e+001	1.526775e+002
1.094033e+007	-3.643141e+001	-1.795592e+002	-3.066831e+001	-2.574572e+001	-9.480368e+001	1.075097e+002	-3.274858e+001	1.527452e+002
1.094034e+007	-3.641761e+001	-1.795419e+002	-3.066663e+001	-2.572771e+001	-9.572023e+001	8.594632e+001	-3.273293e+001	1.527126e+002
1.094034e+007	-3.641771e+001	-1.795447e+002	-3.066257e+001	-2.574206e+001	-9.644457e+001	1.150606e+002	-3.274622e+001	1.527019e+002
1.094035e+007	-3.641996e+001	-1.796152e+002	-3.066369e+001	-2.575461e+001	-9.635594e+001	1.108696e+002	-3.273489e+001	1.527014e+002
1.094035e+007	-3.641229e+001	-1.796262e+002	-3.066343e+001	-2.568987e+001	-9.544547e+001	7.570323e+001	-3.272168e+001	1.526816e+002
1.094036e+007	-3.640411e+001	-1.796353e+002	-3.065873e+001	-2.575167e+001	-9.658600e+001	7.594309e+001	-3.274122e+001	1.527396e+002
1.094036e+007	-3.642377e+001	-1.795639e+002	-3.064881e+001	-2.572121e+001	-9.724069e+001	8.522659e+001	-3.272959e+001	1.526574e+002
1.094037e+007	-3.642483e+001	-1.797040e+002	-3.065304e+001	-2.571387e+001	-9.673396e+001	1.091673e+002	-3.271899e+001	1.527005e+002
1.094037e+007	-3.640922e+001	-1.795314e+002	-3.066007e+001	-2.572829e+001	-9.638797e+001	1.072908e+002	-3.273662e+001	1.526769e+002
1.094038e+007	-3.642172e+001	-1.796154e+002	-3.066463e+001	-2.568956e+001	-9.647378e+001	1.033789e+002	-3.273141e+001	1.526759e+002
1.094038e+007	-3.642034e+001	-1.796122e+002	-3.066967e+001	-2.575306e+001	-9.654893e+001	1.013689e+002	-3.273215e+001	1.526740e+002
1.094038e+007	-3.640041e+001	-1.795321e+002	-3.066288e+001	-2.568373e+001	-9.840999e+001	1.061737e+002	-3.273825e+001	1.527684e+002
1.094039e+007	-3.642281e+001	-1.795436e+002	-3.066046e+001	-2.568107e+001	-9.652071e+001	8.727714e+001	-3.273361e+001	1.526687e+002
1.094039e+007	-3.639503e+001	-1.795348e+002	-3.065545e+001	-2.576694e+001	-9.749343e+001	1.200596e+002	-3.273975e+001	1.527600e+002
1.094040e+007	-3.642063e+001	-1.796621e+002	-3.065423e+001	-2.567681e+001	-1.004085e+002	1.287364e+002	-3.273601e+001	1.526862e+002
1.094040e+007	-3.641930e+001	-1.796468e+002	-3.066027e+001	-2.570865e+001	-9.836384e+001	8.473697e+001	-3.273554e+001	1.526858e+002
1.094041e+007	-3.642100e+001	-1.795495e+002	-3.066462e+001	-2.573053e+001	-9.399569e+001	1.043140e+002	-3.274163e+001	1.527266e+002
1.094041e+007	-3.641691e+001	-1.796873e+002	-3.066074e+001	-2.581672e+001	-1.013796e+002	8.892258e+001	-3.273910e+001	1.527748e+002
1.094042e+007	-3.641741e+001	-1.795183e+002	-3.066414e+001	-2.574137e+001	-9.812776e+001	9.429912e+001	-3.273656e+001	1.526955e+002
1.094042e+007	-3.642466e+001	-1.795490e+002	-3.064872e+001	-2.566982e+001	-9.628165e+001	7.940184e+001	-3.272915e+001	1.527416e+002
1.094043e+007	-3.641211e+001	-1.796695e+002	-3.065668e+001	-2.577193e+001	-9.382554e+001	7.826093e+001	-3.274259e+001	1.527317e+002
1.094043e+007	-3.641451e+001	-1.795692e+002	-3.066125e+001	-2.569963e+001	-9.568883e+001	8.568282e+001	-3.272740e+001	1.526995e+002
1.094044e+007	-3.642122e+001	-1.795809e+002	-3.066472e+001	-2.576084e+001	-1.007009e+002	1.131405e+002	-3.273615e+001	1.526921e+002
1.094044e+007	-3.641346e+001	-1.796063e+002	-3.065921e+001	-2.573593e+001	-9.475404e+001	9.832751e+001	-3.274239e+001	1.527218e+002
1.094045e+007	-3.641593e+001	-1.794322e+002	-3.065628e+001	-2.569585e+001	-9.593839e+001	9.386515e+001	-3.273216e+001	1.526845e+002
1.094045e+007	-3.641604e+001	-1.796776e+002	-3.066719e+001	-2.564352e+001	-9.798308e+001	9.325402e+001	-3.272631e+001	1.526839e+002
1.094045e+007	-3.642207e+001	-1.795815e+002	-3.065961e+001	-2.582035e+001	-9.837076e+001	9.696170e+001	-3.272506e+001	1.527131e+002
1.094046e+007	-3.641954e+001	-1.796963e+002	-3.066138e+001	-2.575371e+001	-1.009910e+002	1.275156e+002	-3.272315e+001	1.527249e+002
1.094046e+007	-3.642537e+001	-1.796418e+002	-3.065209e+001	-2.572276e+001	-9.784875e+001	9.242435e+001	-3.274082e+001	1.526930e+002
1.094047e+007	-3.640760e+001	-1.795229e+002	-3.066287e+001	-2.575908e+001	-9.714344e+001	1.118652e+002	-3.273366e+001	1.526506e+002
1.094047e+007	-3.641708e+001	-1.796454e+002	-3.065872e+001	-2.573452e+001	-9.826140e+001	1.060101e+002	-3.273121e+001	1.527194e+002
1.094048e+007	-3.641277e+001	-1.795715e+002	-3.065421e+001	-2.575838e+001	-9.761018e+001	9.633389e+001	-3.273159e+001	1.527296e+002
1.094048e+007	-3.642348e+001	-1.796311e+002	-3.066255e+001	-2.563028e+001	-9.388062e+001	9.039672e+001	-3.273470e+001	1.526488e+002
1.094049e+007	-3.643094e+001	-1.796000e+002	-3.066599e+001	-2.583739e+001	-9.528014e+001	8.983796e+001	-3.272396e+001	1.527402e+002
1.094049e+007	-3.642117e+001	-1.796082e+002	-3.065549e+001	-2.569515e+001	-9.738477e+001	1.040300e+002	-3.273842e+001	1.527272e+002
1.094050e+007	-3.641202e+001	-1.795223e+002	-3.065954e+001	-2.573808e+001	-9.998404e+001	1.145826e+002	-3.273533e+001	1.526893e+002
1.094050e+007	-3.641544e+001	-1.796124e+002	-3.066070e+001	-2.569255e+001	-9.494686e+001	9.017476e+001	-3.273640e+001	1.526687e+002
1.094051e+007	-3.642820e+001	-1.795861e+002	-3.067309e+001	-2.577302e+001	-9.745902e+001	9.053600e+001	-3.273499e+001	1.526818e+002
1.094051e+007	-3.642009e+001	-1.796605e+002	-3.064994e+001	-2.575462e+001	-9.407571e+001	1.072740e+002	-3.273701e+001	1.526834e+002
1.094052e+007	-3.643563e+001	-1.794985e+002	-3.064088e+001	-2.575375e+001	-9.601862e+001	9.337986e+001	-3.272325e+001	1.528017e+002
1.094052e+007	-3.641388e+001	-1.796349e+002	-3.066661e+001	-2.565855e+001	-9.569512e+001	8.986843e+001	-3.273680e+001	1.526868e+002
1.094053e+007	-3.641887e+001	-1.795913e+002	-3.065704e+001	-2.577110e+001	-9.338516e+001	9.672005e+001	-3.272470e+001	1.526926e+002
1.094053e+007	-3.642408e+001	-1.796897e+002	-3.067257e+001	-2.578682e+001	-9.436645e+001	1.019020e+002	-3.272942e+001	1.527747e+002
1.094053e+007	-3.640665e+001	-1.795384e+002	-3.065639e+001	-2.576953e+001	-9.671896e+001	1.019324e+002	-3.272870e+001	1.527350e+002
1.094054e+007	-3.640489e+001	-1.796083e+002	-3.066302e+001	-2.570696e+001	-9.451860e+001	1.111455e+002	-3.274197e+001	1.527040e+002
1.094054e+007	-3.641686e+001	-1.795453e+002	-3.065793e+001	-2.569220e+001	-9.265625e+001	9.605793e+001	-3.274747e+001	1.526530e+002
1.094055e+007	-3.640055e+001	-1.795613e+002	-3.065790e+001	-2.576056e+001	-9.782584e+001	9.027907e+001	-3.273382e+001	1.526272e+002
1.094055e+007	-3.641689e+001	-1.796407e+002	-3.066261e+001	-2.580097e+001	-9.592133e+001	9.336391e+001	-3.272653e+001	1.527002e+002
1.094056e+007	-3.640392e+001	-1.796934e+002	-3.065122e+001	-2.580460e+001	-9.686103e+001	9.247892e+001	-3.272797e+001	1.526720e+002
1.094056e+007	-3.639764e+001	-1.795899e+002	-3.065638e+001	-2.571582e+001	-9.789089e+001	7.365168e+001	-3.272939e+001	1.527728e+002
1.094057e+007	-3.640264e+001	-1.796234e+002	-3.065258e+001	-2.572254e+001	-9.609866e+001	9.121928e+001	-3.273424e+001	1.527279e+002
1.094057e+007	-3.641578e+001	-1.796237e+002	-3.066195e+001	-2.568384e+001	-9.501646e+001	7.639160e+001	-3.273818e+001	1.527510e+002
1.094058e+007	-3.642257e+001	-1.796323e+002	-3.066181e+001	-2.568753e+001	-9.309469e+001	1.052923e+002	-3.273151e+001	1.526818e+002
1.094058e+007	-3.639687e+001	-1.796790e+002	-3.066013e+001	-2.577421e+001	-9.557548e+001	1.072208e+002	-3.273830e+001	1.526875e+002
1.094059e+007	-3.641764e+001	-1.796494e+002	-3.065550e+001	-2.577406e+001	-1.002014e+002	1.300346e+002	-3.272382e+001	1.526930e+002
1.094059e+007	-3.642253e+001	-1.796616e+002	-3.064785e+001	-2.572358e+001	-9.802844e+001	9.943617e+001	-3.273264e+001	1.527492e+002
1.094060e+007	-3.641092e+001	-1.796450e+002	-3.065826e+001	-2.566612e+001	-9.659637e+001	1.229585e+002	-3.274672e+001	1.526703e+002
1.094060e+007	-3.640386e+001	-1.796666e+002	-3.065458e+001	-2.566173e+001	-9.600139e+001	9.547597e+001	-3.273560e+001	1.526830e+002
1.094060e+007	-3.641527e+001	-1.795775e+002	-3.066997e+001	-2.575651e+001	-9.863021e+001	1.388920e+002	-3.273498e+001	1.526845e+002
1.094061e+007	-3.640837e+001	-1.795417e+002	-3.064964e+001	-2.571567e+001	-9.818853e+001	7.786198e+001	-3.273642e+001	1.526459e+002
1.094061e+007	-3.641097e+001	-1.795119e+002	-3.065696e+001	-2.576493e+001	-9.672249e+001	9.240077e+001	-3.272337e+001	1.526709e+002
1.094062e+007	-3.641673e+001	-1.795837e+002	-3.065328e+001	-2.574969e+001	-9.551898e+001	1.096041e+002	-3.273701e+001	1.526864e+002
1.094062e+007	-3.639737e+001	-1.795943e+002	-3.064743e+001	-2.573167e+001	-9.617524e+001	9.864793e+001	-3.272558e+001	1.526320e+002
1.094063e+007	-3.640436e+001	-1.794300e+002	-3.065685e+001	-2.572818e+001	-9.761108e+001	1.018030e+002	-3.273249e+001	1.526448e+002
1.094063e+007	-3.641194e+001	-1.795569e+002	-3.065391e+001	-2.569033e+001	-9.910399e+001	1.197755e+002	-3.273804e+001	1.527273e+002
1.094064e+007	-3.642485e+001	-1.795766e+002	-3.065185e+001	-2.568711e+001	-9.551113e+001	9.238249e+001	-3.274139e+001	1.526840e+002
1.094064e+007	-3.641386e+001	-1.795905e+002	-3.066022e+001	-2.569495e+001	-9.731530e+001	7.960161e+001	-3.273135e+001	1.527368e+002
1.094065e+007	-3.642180e+001	-1.796557e+002	-3.066317e+001	-2.573473e+001	-9.912589e+001	9.512161e+001	-3.273660e+001	1.527173e+002
1.094065e+007	-3.640481e+001	-1.796291e+002	-3.065592e+001	-2.574625e+001	-9.862992e+001	1.028184e+002	-3.274297e+001	1.526576e+002
1.094066e+007	-3.642719e+001	-1.796985e+002	-3.065658e+001	-2.573401e+001	-9.671198e+001	1.145531e+002	-3.273810e+001	1.527422e+002
1.094066e+007	-3.641819e+001	-1.795845e+002	-3.065119e+001	-2.581508e+001	-9.680848e+001	9.638903e+001	-3.273199e+001	1.527205e+002
1.094067e+007	-3.641958e+001	-1.795296e+002	-3.065450e+001	-2.570704e+001	-9.498829e+001	7.054555e+001	-3.272242e+001	1.527029e+002
1.094067e+007	-3.641811e+001	-1.797002e+002	-3.066067e+001	-2.576379e+001	-9.780317e+001	9.049293e+001	-3.272648e+001	1.527039e+002
1.094068e+007	-3.642648e+001	-1.795682e+002	-3.065436e+001	-2.567757e+001	-9.947077e+001	9.440914e+001	-3.272763e+001	1.526849e+002
1.094068e+007	-3.641609e+001	-1.796211e+002	-3.064136e+001	-2.567229e+001	-9.386957e+001	1.090198e+002	-3.273425e+001	1.526211e+002
1.094068e+007	-3.641543e+001	-1.795083e+002	-3.063660e+001	-2.572193e+001	-9.558042e+001	1.059499e+002	-3.272265e+001	1.526569e+002
1.094069e+007	-3.642941e+001	-1.797042e+002	-3.065028e+001	-2.575040e+001	-9.448772e+001	1.019853e+002	-3.272690e+001	1.526864e+002
1.094069e+007	-3.642503e+001	-1.795663e+002	-3.065396e+001	-2.572675e+001	-9.458051e+001	1.257581e+002	-3.272844e+001	1.527462e+002
