!CETC41,AV3656A,ZGL00048,1.3.2
!Calibration ON (Full Solt 2-Port(Omit Isolation))
!Measurements: S11 S21 S12 S22
!2025-04-18 23:03
# Hz  S  dB  R 50.000
1.095000e+007	-3.629721e+001	-1.785119e+002	-3.056135e+001	-2.468309e+001	-9.717970e+001	9.578745e+001	-3.298191e+001	1.530369e+002
1.095001e+007	-3.629764e+001	-1.784766e+002	-3.055596e+001	-2.462634e+001	-9.759813e+001	1.044560e+002	-3.300198e+001	1.529460e+002
1.095002e+007	-3.628424e+001	-1.785015e+002	-3.055509e+001	-2.466315e+001	-9.545677e+001	1.093878e+002	-3.298620e+001	1.529827e+002
1.095002e+007	-3.628279e+001	-1.785747e+002	-3.055545e+001	-2.464503e+001	-9.650454e+001	9.655416e+001	-3.299027e+001	1.529798e+002
1.095003e+007	-3.630172e+001	-1.785151e+002	-3.055402e+001	-2.465477e+001	-9.525874e+001	1.028567e+002	-3.300113e+001	1.529599e+002
1.095004e+007	-3.629488e+001	-1.785309e+002	-3.055621e+001	-2.455928e+001	-9.664661e+001	1.153005e+002	-3.299346e+001	1.529645e+002
1.095005e+007	-3.629067e+001	-1.785170e+002	-3.055875e+001	-2.468309e+001	-9.615804e+001	8.948964e+001	-3.299218e+001	1.530177e+002
1.095005e+007	-3.629017e+001	-1.784892e+002	-3.055929e+001	-2.466510e+001	-9.658040e+001	9.241812e+001	-3.298075e+001	1.529794e+002
1.095006e+007	-3.628615e+001	-1.785659e+002	-3.055502e+001	-2.461535e+001	-9.703052e+001	1.046492e+002	-3.298749e+001	1.529993e+002
1.095007e+007	-3.630180e+001	-1.785445e+002	-3.055841e+001	-2.466617e+001	-9.462372e+001	1.027206e+002	-3.298324e+001	1.529833e+002
1.095008e+007	-3.629272e+001	-1.785206e+002	-3.055470e+001	-2.465778e+001	-9.565655e+001	1.005890e+002	-3.298215e+001	1.529145e+002
1.095009e+007	-3.630746e+001	-1.785357e+002	-3.055688e+001	-2.466363e+001	-9.842134e+001	1.109939e+002	-3.298919e+001	1.530610e+002
1.095009e+007	-3.629541e+001	-1.785247e+002	-3.055112e+001	-2.461605e+001	-9.726678e+001	9.511157e+001	-3.299119e+001	1.530677e+002
1.095010e+007	-3.629281e+001	-1.785399e+002	-3.053224e+001	-2.469165e+001	-9.444240e+001	1.015412e+002	-3.298880e+001	1.530014e+002
1.095011e+007	-3.629148e+001	-1.785027e+002	-3.053896e+001	-2.459110e+001	-9.655466e+001	1.167824e+002	-3.299741e+001	1.529243e+002
1.095012e+007	-3.629171e+001	-1.784978e+002	-3.055142e+001	-2.469467e+001	-9.257584e+001	1.068837e+002	-3.298379e+001	1.530384e+002
1.095013e+007	-3.629914e+001	-1.783425e+002	-3.054856e+001	-2.463573e+001	-1.004196e+002	8.682501e+001	-3.298994e+001	1.530518e+002
1.095013e+007	-3.629142e+001	-1.785531e+002	-3.053934e+001	-2.466152e+001	-9.836703e+001	8.804877e+001	-3.298321e+001	1.530346e+002
1.095014e+007	-3.626986e+001	-1.785042e+002	-3.056075e+001	-2.458294e+001	-9.437757e+001	9.576169e+001	-3.299037e+001	1.529824e+002
1.095015e+007	-3.628529e+001	-1.786227e+002	-3.053952e+001	-2.466746e+001	-9.839340e+001	9.977457e+001	-3.298825e+001	1.529364e+002
1.095016e+007	-3.629854e+001	-1.783667e+002	-3.053902e+001	-2.465472e+001	-9.488820e+001	1.109789e+002	-3.299220e+001	1.530187e+002
1.095016e+007	-3.628820e+001	-1.785184e+002	-3.053726e+001	-2.459933e+001	-9.725060e+001	8.169643e+001	-3.298189e+001	1.529463e+002
1.095017e+007	-3.630080e+001	-1.785719e+002	-3.053864e+001	-2.463454e+001	-9.516605e+001	9.787154e+001	-3.299085e+001	1.530052e+002
1.095018e+007	-3.630786e+001	-1.784945e+002	-3.053967e+001	-2.463311e+001	-9.581048e+001	8.974005e+001	-3.299614e+001	1.528759e+002
1.095019e+007	-3.630325e+001	-1.785060e+002	-3.054408e+001	-2.465377e+001	-9.505111e+001	9.450805e+001	-3.299392e+001	1.530063e+002
1.095020e+007	-3.629144e+001	-1.785370e+002	-3.054288e+001	-2.462573e+001	-9.425172e+001	1.091121e+002	-3.298970e+001	1.529241e+002
1.095020e+007	-3.628509e+001	-1.784154e+002	-3.054392e+001	-2.461328e+001	-9.511749e+001	1.035469e+002	-3.299581e+001	1.530043e+002
1.095021e+007	-3.630671e+001	-1.784515e+002	-3.053402e+001	-2.463295e+001	-9.612978e+001	1.084435e+002	-3.298483e+001	1.529997e+002
1.095022e+007	-3.629594e+001	-1.785193e+002	-3.054105e+001	-2.471013e+001	-9.564236e+001	1.109473e+002	-3.298703e+001	1.529735e+002
1.095023e+007	-3.628118e+001	-1.784488e+002	-3.054553e+001	-2.468174e+001	-9.670659e+001	9.099740e+001	-3.298798e+001	1.529270e+002
1.095023e+007	-3.629341e+001	-1.784866e+002	-3.054866e+001	-2.461810e+001	-1.021845e+002	9.261098e+001	-3.298745e+001	1.529549e+002
1.095024e+007	-3.628893e+001	-1.784877e+002	-3.054065e+001	-2.464808e+001	-9.559571e+001	8.554159e+001	-3.298774e+001	1.529890e+002
1.095025e+007	-3.629384e+001	-1.784787e+002	-3.054451e+001	-2.460432e+001	-9.915299e+001	7.841327e+001	-3.299000e+001	1.529397e+002
1.095026e+007	-3.629639e+001	-1.785281e+002	-3.054261e+001	-2.460092e+001	-9.312074e+001	1.151847e+002	-3.298608e+001	1.530151e+002
1.095027e+007	-3.627262e+001	-1.785579e+002	-3.054740e+001	-2.473202e+001	-9.467059e+001	1.140669e+002	-3.298524e+001	1.529713e+002
1.095027e+007	-3.629033e+001	-1.785152e+002	-3.053962e+001	-2.468666e+001	-9.541575e+001	1.110328e+002	-3.298956e+001	1.529960e+002
1.095028e+007	-3.629887e+001	-1.786024e+002	-3.054332e+001	-2.460911e+001	-9.589447e+001	1.064259e+002	-3.299113e+001	1.529376e+002
1.095029e+007	-3.627441e+001	-1.784574e+002	-3.053996e+001	-2.461518e+001	-9.582962e+001	1.059067e+002	-3.298689e+001	1.529438e+002
1.095030e+007	-3.628376e+001	-1.785299e+002	-3.054415e+001	-2.464098e+001	-9.498330e+001	9.742053e+001	-3.298308e+001	1.530149e+002
1.095030e+007	-3.628975e+001	-1.784380e+002	-3.054268e+001	-2.465171e+001	-9.573636e+001	1.018782e+002	-3.299365e+001	1.529899e+002
1.095031e+007	-3.629861e+001	-1.785801e+002	-3.053795e+001	-2.471776e+001	-9.558593e+001	9.155543e+001	-3.298268e+001	1.529469e+002
1.095032e+007	-3.629591e+001	-1.785823e+002	-3.053992e+001	-2.465326e+001	-9.582232e+001	1.102721e+002	-3.298232e+001	1.529826e+002
1.095033e+007	-3.629322e+001	-1.785930e+002	-3.054052e+001	-2.464756e+001	-9.557580e+001	1.090645e+002	-3.299023e+001	1.529410e+002
1.095034e+007	-3.629401e+001	-1.785020e+002	-3.054436e+001	-2.458946e+001	-9.328823e+001	1.024038e+002	-3.299773e+001	1.529980e+002
1.095034e+007	-3.629570e+001	-1.785062e+002	-3.054002e+001	-2.456014e+001	-9.551970e+001	1.138668e+002	-3.299449e+001	1.529772e+002
1.095035e+007	-3.628655e+001	-1.785405e+002	-3.054282e+001	-2.470852e+001	-1.014485e+002	8.654690e+001	-3.299096e+001	1.529571e+002
1.095036e+007	-3.627959e+001	-1.784826e+002	-3.054560e+001	-2.461198e+001	-9.663311e+001	8.442704e+001	-3.299351e+001	1.529978e+002
1.095037e+007	-3.627385e+001	-1.785713e+002	-3.053759e+001	-2.463309e+001	-9.313467e+001	8.290739e+001	-3.299682e+001	1.529498e+002
1.095038e+007	-3.631220e+001	-1.785078e+002	-3.053164e+001	-2.462549e+001	-9.821536e+001	7.624293e+001	-3.298713e+001	1.529841e+002
1.095038e+007	-3.629123e+001	-1.785154e+002	-3.054905e+001	-2.463539e+001	-9.681837e+001	8.096715e+001	-3.298810e+001	1.530030e+002
1.095039e+007	-3.627672e+001	-1.785661e+002	-3.053795e+001	-2.470526e+001	-9.608542e+001	1.130730e+002	-3.300036e+001	1.529436e+002
1.095040e+007	-3.628020e+001	-1.785157e+002	-3.053060e+001	-2.464166e+001	-9.954964e+001	9.118864e+001	-3.298459e+001	1.529712e+002
1.095041e+007	-3.628534e+001	-1.784664e+002	-3.052279e+001	-2.461560e+001	-9.895021e+001	9.945640e+001	-3.298765e+001	1.529523e+002
1.095041e+007	-3.629381e+001	-1.785170e+002	-3.053814e+001	-2.462396e+001	-9.447519e+001	1.097400e+002	-3.299017e+001	1.529981e+002
1.095042e+007	-3.629516e+001	-1.785278e+002	-3.054341e+001	-2.468227e+001	-9.783494e+001	9.580867e+001	-3.299924e+001	1.529428e+002
1.095043e+007	-3.628715e+001	-1.785889e+002	-3.053440e+001	-2.460915e+001	-9.594426e+001	9.185649e+001	-3.299328e+001	1.530473e+002
1.095044e+007	-3.629633e+001	-1.785629e+002	-3.052533e+001	-2.462817e+001	-9.881309e+001	1.015066e+002	-3.299617e+001	1.529601e+002
1.095045e+007	-3.629248e+001	-1.784873e+002	-3.053415e+001	-2.457869e+001	-9.832571e+001	1.064446e+002	-3.298437e+001	1.529847e+002
1.095045e+007	-3.629185e+001	-1.785622e+002	-3.053022e+001	-2.467441e+001	-9.881691e+001	9.799276e+001	-3.297850e+001	1.530036e+002
1.095046e+007	-3.629495e+001	-1.785259e+002	-3.054322e+001	-2.464269e+001	-9.308465e+001	1.117802e+002	-3.299137e+001	1.529810e+002
1.095047e+007	-3.629479e+001	-1.785471e+002	-3.053637e+001	-2.467744e+001	-9.738230e+001	9.933009e+001	-3.300157e+001	1.529397e+002
1.095048e+007	-3.628510e+001	-1.785821e+002	-3.052437e+001	-2.465652e+001	-9.797396e+001	7.557315e+001	-3.298789e+001	1.529478e+002
1.095048e+007	-3.630545e+001	-1.785480e+002	-3.052268e+001	-2.465492e+001	-9.427949e+001	8.257916e+001	-3.300116e+001	1.529315e+002
1.095049e+007	-3.628994e+001	-1.784751e+002	-3.053222e+001	-2.460109e+001	-9.766213e+001	8.891656e+001	-3.299835e+001	1.529552e+002
1.095050e+007	-3.631436e+001	-1.785622e+002	-3.053579e+001	-2.460449e+001	-9.565240e+001	1.155076e+002	-3.299666e+001	1.530499e+002
1.095051e+007	-3.629094e+001	-1.785498e+002	-3.053528e+001	-2.464323e+001	-9.800656e+001	1.027452e+002	-3.298996e+001	1.529719e+002
1.095052e+007	-3.629604e+001	-1.785284e+002	-3.053376e+001	-2.463405e+001	-9.559111e+001	9.166151e+001	-3.299245e+001	1.530098e+002
1.095052e+007	-3.629367e+001	-1.786086e+002	-3.052875e+001	-2.472799e+001	-9.616431e+001	8.902702e+001	-3.299509e+001	1.530469e+002
1.095053e+007	-3.629889e+001	-1.784293e+002	-3.052164e+001	-2.465743e+001	-9.278537e+001	1.118241e+002	-3.299876e+001	1.529601e+002
1.095054e+007	-3.629492e+001	-1.786354e+002	-3.051775e+001	-2.466270e+001	-9.493805e+001	1.133560e+002	-3.299038e+001	1.529224e+002
1.095055e+007	-3.628722e+001	-1.785188e+002	-3.050996e+001	-2.462148e+001	-9.805999e+001	9.307364e+001	-3.299049e+001	1.529419e+002
1.095055e+007	-3.627375e+001	-1.784733e+002	-3.051979e+001	-2.457542e+001	-1.001342e+002	8.735524e+001	-3.299049e+001	1.528948e+002
1.095056e+007	-3.629023e+001	-1.785031e+002	-3.052862e+001	-2.461023e+001	-9.710657e+001	1.098392e+002	-3.298125e+001	1.529913e+002
1.095057e+007	-3.627392e+001	-1.785373e+002	-3.052218e+001	-2.453123e+001	-9.463833e+001	7.790975e+001	-3.298477e+001	1.529959e+002
1.095058e+007	-3.628141e+001	-1.786045e+002	-3.052058e+001	-2.452056e+001	-9.584686e+001	1.101323e+002	-3.299311e+001	1.530113e+002
1.095059e+007	-3.629535e+001	-1.784558e+002	-3.053685e+001	-2.457064e+001	-9.608245e+001	1.136524e+002	-3.298966e+001	1.530106e+002
1.095059e+007	-3.629681e+001	-1.785913e+002	-3.053270e+001	-2.462155e+001	-9.481242e+001	9.831769e+001	-3.298589e+001	1.529837e+002
1.095060e+007	-3.629605e+001	-1.785201e+002	-3.053847e+001	-2.465452e+001	-9.562429e+001	1.073362e+002	-3.297982e+001	1.529219e+002
1.095061e+007	-3.627657e+001	-1.786062e+002	-3.051892e+001	-2.467760e+001	-9.712015e+001	1.100348e+002	-3.298944e+001	1.530078e+002
1.095062e+007	-3.629511e+001	-1.784625e+002	-3.052649e+001	-2.469088e+001	-9.529867e+001	8.073576e+001	-3.298436e+001	1.529722e+002
1.095063e+007	-3.629046e+001	-1.785399e+002	-3.053037e+001	-2.463950e+001	-9.670726e+001	1.112613e+002	-3.298534e+001	1.529466e+002
1.095063e+007	-3.627952e+001	-1.785033e+002	-3.052062e+001	-2.473763e+001	-9.793781e+001	8.427991e+001	-3.298793e+001	1.529848e+002
1.095064e+007	-3.628170e+001	-1.784480e+002	-3.052308e+001	-2.466321e+001	-9.523138e+001	8.722084e+001	-3.299450e+001	1.530311e+002
1.095065e+007	-3.629669e+001	-1.784754e+002	-3.052470e+001	-2.477461e+001	-1.014887e+002	6.776498e+001	-3.298984e+001	1.529718e+002
1.095066e+007	-3.628530e+001	-1.783368e+002	-3.052738e+001	-2.481387e+001	-9.459372e+001	1.006562e+002	-3.298692e+001	1.529695e+002
1.095066e+007	-3.629694e+001	-1.785385e+002	-3.051809e+001	-2.483024e+001	-9.545620e+001	9.873772e+001	-3.299045e+001	1.529715e+002
1.095067e+007	-3.630719e+001	-1.784995e+002	-3.052738e+001	-2.484997e+001	-9.863860e+001	1.021498e+002	-3.298787e+001	1.530411e+002
1.095068e+007	-3.628194e+001	-1.785674e+002	-3.052487e+001	-2.490748e+001	-9.773536e+001	9.398758e+001	-3.299044e+001	1.529683e+002
1.095069e+007	-3.629450e+001	-1.786296e+002	-3.053262e+001	-2.483881e+001	-1.004292e+002	8.441947e+001	-3.298273e+001	1.529549e+002
1.095070e+007	-3.628807e+001	-1.786341e+002	-3.054698e+001	-2.481239e+001	-9.504890e+001	9.953880e+001	-3.298289e+001	1.529485e+002
1.095070e+007	-3.629978e+001	-1.784437e+002	-3.055648e+001	-2.479207e+001	-9.488456e+001	9.236839e+001	-3.299625e+001	1.529980e+002
1.095071e+007	-3.628093e+001	-1.785386e+002	-3.057658e+001	-2.482291e+001	-9.428680e+001	9.918465e+001	-3.298813e+001	1.529972e+002
1.095072e+007	-3.631153e+001	-1.786015e+002	-3.057328e+001	-2.471016e+001	-9.373381e+001	1.154408e+002	-3.298198e+001	1.530405e+002
1.095073e+007	-3.630278e+001	-1.785564e+002	-3.057216e+001	-2.455860e+001	-9.748961e+001	8.461840e+001	-3.298505e+001	1.529496e+002
1.095073e+007	-3.629887e+001	-1.784191e+002	-3.056147e+001	-2.448729e+001	-9.248634e+001	9.984570e+001	-3.298750e+001	1.529973e+002
1.095074e+007	-3.628873e+001	-1.785408e+002	-3.054020e+001	-2.439043e+001	-9.586141e+001	1.014960e+002	-3.298807e+001	1.529726e+002
1.095075e+007	-3.628843e+001	-1.784790e+002	-3.052335e+001	-2.437336e+001	-9.764999e+001	8.721574e+001	-3.300188e+001	1.529498e+002
1.095076e+007	-3.629414e+001	-1.784981e+002	-3.049708e+001	-2.444686e+001	-9.759505e+001	6.505600e+001	-3.298685e+001	1.529956e+002
1.095077e+007	-3.628229e+001	-1.784871e+002	-3.048579e+001	-2.465914e+001	-9.602278e+001	9.328543e+001	-3.299065e+001	1.530299e+002
1.095077e+007	-3.629071e+001	-1.785679e+002	-3.049881e+001	-2.474290e+001	-9.706595e+001	1.316576e+002	-3.299140e+001	1.530349e+002
1.095078e+007	-3.628501e+001	-1.785830e+002	-3.052062e+001	-2.481032e+001	-9.939860e+001	1.249091e+002	-3.297960e+001	1.529933e+002
1.095079e+007	-3.628692e+001	-1.785377e+002	-3.055125e+001	-2.485896e+001	-9.658484e+001	1.123193e+002	-3.298321e+001	1.530006e+002
1.095080e+007	-3.628736e+001	-1.785526e+002	-3.055638e+001	-2.466000e+001	-9.785454e+001	8.461478e+001	-3.298851e+001	1.530375e+002
1.095080e+007	-3.629335e+001	-1.784537e+002	-3.054853e+001	-2.440840e+001	-9.809259e+001	7.359063e+001	-3.298652e+001	1.530007e+002
1.095081e+007	-3.630822e+001	-1.785688e+002	-3.051474e+001	-2.437030e+001	-9.368982e+001	1.230962e+002	-3.300032e+001	1.530489e+002
1.095082e+007	-3.629590e+001	-1.785362e+002	-3.048712e+001	-2.462601e+001	-9.534663e+001	1.048749e+002	-3.298675e+001	1.530091e+002
1.095083e+007	-3.630885e+001	-1.785121e+002	-3.049611e+001	-2.481449e+001	-9.450971e+001	9.571037e+001	-3.298222e+001	1.530310e+002
1.095084e+007	-3.629477e+001	-1.785387e+002	-3.053268e+001	-2.482463e+001	-9.607847e+001	1.076231e+002	-3.297669e+001	1.529767e+002
1.095084e+007	-3.629121e+001	-1.784755e+002	-3.055177e+001	-2.462976e+001	-9.500718e+001	1.079042e+002	-3.298637e+001	1.529151e+002
1.095085e+007	-3.627505e+001	-1.784347e+002	-3.053848e+001	-2.436774e+001	-9.490309e+001	1.054464e+002	-3.300132e+001	1.529809e+002
1.095086e+007	-3.630168e+001	-1.785481e+002	-3.048262e+001	-2.448127e+001	-9.931099e+001	1.159008e+002	-3.299677e+001	1.529989e+002
1.095087e+007	-3.628123e+001	-1.785799e+002	-3.048760e+001	-2.475895e+001	-9.575696e+001	1.006383e+002	-3.298968e+001	1.529938e+002
1.095088e+007	-3.628885e+001	-1.785904e+002	-3.052955e+001	-2.487484e+001	-9.220819e+001	1.023840e+002	-3.298472e+001	1.529126e+002
1.095088e+007	-3.630320e+001	-1.785527e+002	-3.054883e+001	-2.461814e+001	-9.459854e+001	9.216591e+001	-3.298132e+001	1.529333e+002
1.095089e+007	-3.627986e+001	-1.784689e+002	-3.050996e+001	-2.447447e+001	-9.327886e+001	1.120126e+002	-3.299077e+001	1.529810e+002
1.095090e+007	-3.628799e+001	-1.785873e+002	-3.047712e+001	-2.460893e+001	-9.629061e+001	9.082137e+001	-3.297883e+001	1.529470e+002
1.095091e+007	-3.629108e+001	-1.784427e+002	-3.051048e+001	-2.486914e+001	-9.617978e+001	9.274197e+001	-3.298185e+001	1.529743e+002
1.095091e+007	-3.630257e+001	-1.784596e+002	-3.053834e+001	-2.458570e+001	-9.647282e+001	1.088513e+002	-3.299167e+001	1.530071e+002
1.095092e+007	-3.629469e+001	-1.785175e+002	-3.050644e+001	-2.447350e+001	-9.845624e+001	1.034562e+002	-3.298793e+001	1.529462e+002
1.095093e+007	-3.628828e+001	-1.785317e+002	-3.049568e+001	-2.469600e+001	-9.964581e+001	1.128723e+002	-3.297441e+001	1.529789e+002
1.095094e+007	-3.628495e+001	-1.785059e+002	-3.052086e+001	-2.478861e+001	-9.918500e+001	8.006131e+001	-3.298791e+001	1.529808e+002
1.095095e+007	-3.629025e+001	-1.786626e+002	-3.053430e+001	-2.453612e+001	-9.607471e+001	1.035149e+002	-3.298440e+001	1.529913e+002
1.095095e+007	-3.629733e+001	-1.784366e+002	-3.049986e+001	-2.455359e+001	-9.569481e+001	9.813121e+001	-3.298359e+001	1.529585e+002
1.095096e+007	-3.630448e+001	-1.784653e+002	-3.049034e+001	-2.476987e+001	-9.474482e+001	1.012646e+002	-3.297608e+001	1.529931e+002
1.095097e+007	-3.630457e+001	-1.785786e+002	-3.053127e+001	-2.468716e+001	-9.908566e+001	9.191707e+001	-3.298663e+001	1.529331e+002
1.095098e+007	-3.628364e+001	-1.784070e+002	-3.051560e+001	-2.450479e+001	-9.708329e+001	8.823047e+001	-3.298568e+001	1.529472e+002
1.095098e+007	-3.628905e+001	-1.785886e+002	-3.049295e+001	-2.465868e+001	-9.658915e+001	8.135629e+001	-3.298079e+001	1.530410e+002
1.095099e+007	-3.628549e+001	-1.785681e+002	-3.051516e+001	-2.476433e+001	-9.573399e+001	9.737560e+001	-3.299367e+001	1.529689e+002
1.095100e+007	-3.628830e+001	-1.785884e+002	-3.052665e+001	-2.452839e+001	-9.594621e+001	9.684467e+001	-3.299158e+001	1.529436e+002
1.095101e+007	-3.628390e+001	-1.784975e+002	-3.048495e+001	-2.469019e+001	-9.825803e+001	1.242414e+002	-3.298080e+001	1.529891e+002
1.095102e+007	-3.629694e+001	-1.785407e+002	-3.052465e+001	-2.474505e+001	-9.700160e+001	9.014738e+001	-3.298154e+001	1.530057e+002
1.095102e+007	-3.629720e+001	-1.785570e+002	-3.051865e+001	-2.455478e+001	-9.665826e+001	9.950319e+001	-3.299310e+001	1.530361e+002
1.095103e+007	-3.628123e+001	-1.784751e+002	-3.049067e+001	-2.470850e+001	-9.847345e+001	8.435309e+001	-3.298699e+001	1.530584e+002
1.095104e+007	-3.628114e+001	-1.784203e+002	-3.053357e+001	-2.468214e+001	-9.688070e+001	1.007272e+002	-3.299488e+001	1.529358e+002
1.095105e+007	-3.629166e+001	-1.785198e+002	-3.050370e+001	-2.452072e+001	-9.787686e+001	9.388154e+001	-3.298640e+001	1.529809e+002
1.095105e+007	-3.629792e+001	-1.784893e+002	-3.050266e+001	-2.477923e+001	-9.583457e+001	9.722897e+001	-3.299276e+001	1.529924e+002
1.095106e+007	-3.628968e+001	-1.785134e+002	-3.052070e+001	-2.455206e+001	-9.804244e+001	1.066956e+002	-3.299759e+001	1.529994e+002
1.095107e+007	-3.630058e+001	-1.784193e+002	-3.049067e+001	-2.466959e+001	-9.756675e+001	9.986326e+001	-3.297568e+001	1.529453e+002
1.095108e+007	-3.630388e+001	-1.785656e+002	-3.051681e+001	-2.467755e+001	-9.636895e+001	7.968007e+001	-3.298951e+001	1.529694e+002
1.095109e+007	-3.629824e+001	-1.784780e+002	-3.050341e+001	-2.451563e+001	-9.829846e+001	1.075183e+002	-3.298946e+001	1.529730e+002
1.095109e+007	-3.629319e+001	-1.784813e+002	-3.050583e+001	-2.473784e+001	-9.597100e+001	8.927846e+001	-3.298418e+001	1.529313e+002
1.095110e+007	-3.629811e+001	-1.785805e+002	-3.051613e+001	-2.451451e+001	-9.610507e+001	1.164323e+002	-3.300191e+001	1.529171e+002
1.095111e+007	-3.629525e+001	-1.785344e+002	-3.048636e+001	-2.462373e+001	-9.589022e+001	1.020601e+002	-3.299296e+001	1.529111e+002
1.095112e+007	-3.630864e+001	-1.786044e+002	-3.052757e+001	-2.464703e+001	-9.615778e+001	1.028010e+002	-3.299162e+001	1.529526e+002
1.095113e+007	-3.630511e+001	-1.785231e+002	-3.048875e+001	-2.459536e+001	-9.694879e+001	7.926312e+001	-3.298961e+001	1.529378e+002
1.095113e+007	-3.629402e+001	-1.785372e+002	-3.050893e+001	-2.481045e+001	-9.484678e+001	1.084541e+002	-3.298492e+001	1.529741e+002
1.095114e+007	-3.630819e+001	-1.784852e+002	-3.048542e+001	-2.453953e+001	-9.496928e+001	1.037228e+002	-3.298913e+001	1.530256e+002
1.095115e+007	-3.629148e+001	-1.784937e+002	-3.050782e+001	-2.479300e+001	-9.659482e+001	1.006002e+002	-3.298412e+001	1.529025e+002
1.095116e+007	-3.630071e+001	-1.785507e+002	-3.049498e+001	-2.453976e+001	-9.492009e+001	9.872036e+001	-3.298757e+001	1.529770e+002
