!CETC41,AV3656A,ZGL00048,1.3.2
!Calibration ON (Full Solt 2-Port(Omit Isolation))
!Measurements: S11 S21 S12 S22
!2025-04-18 22:37
# Hz  S  dB  R 50.000
1.095000e+007	-3.621643e+001	-1.792104e+002	-3.063089e+001	-2.395946e+001	-9.512060e+001	1.189723e+002	-3.316110e+001	1.525159e+002
1.095001e+007	-3.620783e+001	-1.791433e+002	-3.063580e+001	-2.402290e+001	-9.330683e+001	1.141229e+002	-3.316869e+001	1.525582e+002
1.095002e+007	-3.620703e+001	-1.792264e+002	-3.064047e+001	-2.407391e+001	-9.286471e+001	1.082392e+002	-3.317274e+001	1.525486e+002
1.095002e+007	-3.619716e+001	-1.792725e+002	-3.062896e+001	-2.397796e+001	-9.442098e+001	7.505515e+001	-3.316053e+001	1.525417e+002
1.095003e+007	-3.621268e+001	-1.792413e+002	-3.065041e+001	-2.399100e+001	-9.751082e+001	1.051271e+002	-3.318062e+001	1.524802e+002
1.095004e+007	-3.620858e+001	-1.792647e+002	-3.061728e+001	-2.401162e+001	-9.534326e+001	9.911193e+001	-3.315893e+001	1.524389e+002
1.095005e+007	-3.622938e+001	-1.793123e+002	-3.063019e+001	-2.397822e+001	-1.017023e+002	9.062299e+001	-3.316697e+001	1.525456e+002
1.095005e+007	-3.621699e+001	-1.791876e+002	-3.063913e+001	-2.406392e+001	-9.401516e+001	1.068751e+002	-3.316281e+001	1.523893e+002
1.095006e+007	-3.622278e+001	-1.793125e+002	-3.062190e+001	-2.398827e+001	-9.621124e+001	1.055797e+002	-3.317039e+001	1.525619e+002
1.095007e+007	-3.622342e+001	-1.792032e+002	-3.064128e+001	-2.398158e+001	-9.570792e+001	1.003319e+002	-3.316738e+001	1.524915e+002
1.095008e+007	-3.620204e+001	-1.793633e+002	-3.063578e+001	-2.405878e+001	-9.742438e+001	1.212911e+002	-3.316663e+001	1.524707e+002
1.095009e+007	-3.619824e+001	-1.791616e+002	-3.062440e+001	-2.397763e+001	-9.761982e+001	1.008748e+002	-3.317091e+001	1.525010e+002
1.095009e+007	-3.622415e+001	-1.792612e+002	-3.063284e+001	-2.397258e+001	-9.401166e+001	8.815212e+001	-3.316395e+001	1.524699e+002
1.095010e+007	-3.620803e+001	-1.793090e+002	-3.062864e+001	-2.399042e+001	-9.531988e+001	9.440018e+001	-3.316364e+001	1.524721e+002
1.095011e+007	-3.619055e+001	-1.791767e+002	-3.063327e+001	-2.403889e+001	-9.746926e+001	9.732959e+001	-3.316340e+001	1.524516e+002
1.095012e+007	-3.620669e+001	-1.792189e+002	-3.062390e+001	-2.400969e+001	-9.619071e+001	1.015202e+002	-3.316619e+001	1.524567e+002
1.095013e+007	-3.621780e+001	-1.792607e+002	-3.063542e+001	-2.399891e+001	-1.014677e+002	9.411508e+001	-3.316205e+001	1.525044e+002
1.095013e+007	-3.621040e+001	-1.791598e+002	-3.064029e+001	-2.400948e+001	-9.709393e+001	9.962026e+001	-3.316794e+001	1.524386e+002
1.095014e+007	-3.619783e+001	-1.791522e+002	-3.062795e+001	-2.400132e+001	-9.501609e+001	9.609166e+001	-3.315736e+001	1.525497e+002
1.095015e+007	-3.621299e+001	-1.792147e+002	-3.062746e+001	-2.387553e+001	-9.569895e+001	1.091035e+002	-3.316833e+001	1.525150e+002
1.095016e+007	-3.620977e+001	-1.791687e+002	-3.063608e+001	-2.398994e+001	-9.826377e+001	7.307271e+001	-3.317448e+001	1.524875e+002
1.095016e+007	-3.622759e+001	-1.792796e+002	-3.063249e+001	-2.405884e+001	-9.821041e+001	8.162760e+001	-3.315614e+001	1.525277e+002
1.095017e+007	-3.621600e+001	-1.791884e+002	-3.062293e+001	-2.401886e+001	-9.794013e+001	9.955132e+001	-3.315889e+001	1.525034e+002
1.095018e+007	-3.620439e+001	-1.792416e+002	-3.063383e+001	-2.389090e+001	-9.729841e+001	8.724920e+001	-3.316801e+001	1.524739e+002
1.095019e+007	-3.619392e+001	-1.792840e+002	-3.064456e+001	-2.400006e+001	-9.714737e+001	9.354335e+001	-3.317370e+001	1.525032e+002
1.095020e+007	-3.622966e+001	-1.792886e+002	-3.062730e+001	-2.404571e+001	-9.765953e+001	8.898993e+001	-3.316356e+001	1.525162e+002
1.095020e+007	-3.619862e+001	-1.792569e+002	-3.060888e+001	-2.405151e+001	-9.829568e+001	9.523308e+001	-3.314924e+001	1.524977e+002
1.095021e+007	-3.621037e+001	-1.792039e+002	-3.062074e+001	-2.394545e+001	-9.352648e+001	9.881193e+001	-3.316078e+001	1.525270e+002
1.095022e+007	-3.619931e+001	-1.792432e+002	-3.063222e+001	-2.401479e+001	-9.478761e+001	1.181509e+002	-3.316856e+001	1.525259e+002
1.095023e+007	-3.621653e+001	-1.792793e+002	-3.064851e+001	-2.405162e+001	-9.458565e+001	9.139409e+001	-3.317502e+001	1.525135e+002
1.095023e+007	-3.622031e+001	-1.792815e+002	-3.063306e+001	-2.407267e+001	-9.549107e+001	1.111457e+002	-3.316249e+001	1.525171e+002
1.095024e+007	-3.621038e+001	-1.792786e+002	-3.061974e+001	-2.403110e+001	-9.794143e+001	1.259935e+002	-3.317073e+001	1.525316e+002
1.095025e+007	-3.622276e+001	-1.793505e+002	-3.062524e+001	-2.398156e+001	-9.398779e+001	9.834566e+001	-3.315802e+001	1.525595e+002
1.095026e+007	-3.622346e+001	-1.792327e+002	-3.062929e+001	-2.392859e+001	-9.718268e+001	9.311895e+001	-3.317556e+001	1.525562e+002
1.095027e+007	-3.620807e+001	-1.792213e+002	-3.063064e+001	-2.392921e+001	-9.728175e+001	7.935702e+001	-3.316444e+001	1.525197e+002
1.095027e+007	-3.621947e+001	-1.791526e+002	-3.064717e+001	-2.400300e+001	-9.701308e+001	9.712597e+001	-3.317583e+001	1.525627e+002
1.095028e+007	-3.623075e+001	-1.791926e+002	-3.062728e+001	-2.409567e+001	-9.546750e+001	8.727579e+001	-3.317241e+001	1.524453e+002
1.095029e+007	-3.621268e+001	-1.792968e+002	-3.062530e+001	-2.399142e+001	-9.608195e+001	8.741320e+001	-3.316754e+001	1.524606e+002
1.095030e+007	-3.620840e+001	-1.792757e+002	-3.061173e+001	-2.398766e+001	-9.904703e+001	1.197065e+002	-3.315734e+001	1.525306e+002
1.095030e+007	-3.621288e+001	-1.793087e+002	-3.060556e+001	-2.391631e+001	-9.867862e+001	9.757297e+001	-3.316252e+001	1.525360e+002
1.095031e+007	-3.621063e+001	-1.791920e+002	-3.061096e+001	-2.392852e+001	-9.679061e+001	8.703094e+001	-3.316408e+001	1.525212e+002
1.095032e+007	-3.620920e+001	-1.792444e+002	-3.061833e+001	-2.397071e+001	-9.718786e+001	1.097323e+002	-3.315954e+001	1.525589e+002
1.095033e+007	-3.621801e+001	-1.793104e+002	-3.063002e+001	-2.390153e+001	-9.464307e+001	8.873526e+001	-3.315530e+001	1.525662e+002
1.095034e+007	-3.620116e+001	-1.792277e+002	-3.063954e+001	-2.400403e+001	-9.960570e+001	9.743789e+001	-3.317173e+001	1.524975e+002
1.095034e+007	-3.621779e+001	-1.792773e+002	-3.064117e+001	-2.403620e+001	-9.942203e+001	1.007226e+002	-3.316061e+001	1.525153e+002
1.095035e+007	-3.620528e+001	-1.792931e+002	-3.063541e+001	-2.406649e+001	-9.815547e+001	1.008511e+002	-3.317378e+001	1.524643e+002
1.095036e+007	-3.621194e+001	-1.792165e+002	-3.062882e+001	-2.406590e+001	-9.451035e+001	1.019353e+002	-3.316620e+001	1.524946e+002
1.095037e+007	-3.621135e+001	-1.792857e+002	-3.061909e+001	-2.408449e+001	-9.675961e+001	9.598738e+001	-3.315429e+001	1.525379e+002
1.095038e+007	-3.620771e+001	-1.792233e+002	-3.062528e+001	-2.412305e+001	-9.928821e+001	1.013171e+002	-3.316199e+001	1.524472e+002
1.095038e+007	-3.621229e+001	-1.792129e+002	-3.060219e+001	-2.407531e+001	-9.880054e+001	7.691880e+001	-3.316336e+001	1.524564e+002
1.095039e+007	-3.622387e+001	-1.793298e+002	-3.061039e+001	-2.409282e+001	-9.666998e+001	1.087464e+002	-3.316502e+001	1.525512e+002
1.095040e+007	-3.620684e+001	-1.792177e+002	-3.060649e+001	-2.410695e+001	-9.535128e+001	9.647178e+001	-3.316549e+001	1.525114e+002
1.095041e+007	-3.622084e+001	-1.792335e+002	-3.060636e+001	-2.412522e+001	-9.999958e+001	1.000972e+002	-3.316833e+001	1.524594e+002
1.095041e+007	-3.620198e+001	-1.792748e+002	-3.059986e+001	-2.411098e+001	-9.769090e+001	7.420028e+001	-3.315983e+001	1.524833e+002
1.095042e+007	-3.620822e+001	-1.792299e+002	-3.060204e+001	-2.407744e+001	-9.759608e+001	1.019491e+002	-3.317725e+001	1.525354e+002
1.095043e+007	-3.622494e+001	-1.791671e+002	-3.059799e+001	-2.416033e+001	-9.430225e+001	1.022491e+002	-3.317505e+001	1.524914e+002
1.095044e+007	-3.621590e+001	-1.791921e+002	-3.059238e+001	-2.414267e+001	-9.668393e+001	9.655896e+001	-3.317388e+001	1.525370e+002
1.095045e+007	-3.622015e+001	-1.793485e+002	-3.059888e+001	-2.418834e+001	-9.709128e+001	9.815981e+001	-3.315570e+001	1.525461e+002
1.095045e+007	-3.620328e+001	-1.793493e+002	-3.060037e+001	-2.424103e+001	-9.669807e+001	9.606178e+001	-3.317917e+001	1.524348e+002
1.095046e+007	-3.621411e+001	-1.792827e+002	-3.060780e+001	-2.424704e+001	-9.686683e+001	9.682469e+001	-3.316653e+001	1.524973e+002
1.095047e+007	-3.621447e+001	-1.791412e+002	-3.061191e+001	-2.431115e+001	-9.710414e+001	1.119860e+002	-3.316667e+001	1.524711e+002
1.095048e+007	-3.620178e+001	-1.792059e+002	-3.063818e+001	-2.437032e+001	-9.539929e+001	1.091076e+002	-3.316549e+001	1.524814e+002
1.095048e+007	-3.621523e+001	-1.792968e+002	-3.064083e+001	-2.438342e+001	-9.731644e+001	9.444065e+001	-3.316016e+001	1.525066e+002
1.095049e+007	-3.618493e+001	-1.792534e+002	-3.066698e+001	-2.422320e+001	-9.700797e+001	1.116905e+002	-3.316348e+001	1.524781e+002
1.095050e+007	-3.620799e+001	-1.792935e+002	-3.067122e+001	-2.415324e+001	-9.940898e+001	9.030841e+001	-3.317514e+001	1.525035e+002
1.095051e+007	-3.621420e+001	-1.793071e+002	-3.068247e+001	-2.407884e+001	-9.361343e+001	1.189322e+002	-3.317210e+001	1.524966e+002
1.095052e+007	-3.620862e+001	-1.791737e+002	-3.067268e+001	-2.393843e+001	-9.753729e+001	1.134522e+002	-3.316121e+001	1.525294e+002
1.095052e+007	-3.619960e+001	-1.792479e+002	-3.066007e+001	-2.381090e+001	-9.715426e+001	1.049762e+002	-3.315765e+001	1.525092e+002
1.095053e+007	-3.620185e+001	-1.793467e+002	-3.063118e+001	-2.372430e+001	-9.460566e+001	9.283617e+001	-3.317640e+001	1.525258e+002
1.095054e+007	-3.621691e+001	-1.792378e+002	-3.059754e+001	-2.381607e+001	-9.910115e+001	9.382356e+001	-3.316734e+001	1.524746e+002
1.095055e+007	-3.621393e+001	-1.793053e+002	-3.058892e+001	-2.397243e+001	-9.834294e+001	8.847559e+001	-3.315519e+001	1.525086e+002
1.095055e+007	-3.621528e+001	-1.792519e+002	-3.059643e+001	-2.415217e+001	-9.746819e+001	1.055400e+002	-3.315816e+001	1.525271e+002
1.095056e+007	-3.620233e+001	-1.791725e+002	-3.062834e+001	-2.428156e+001	-9.628260e+001	8.946806e+001	-3.316244e+001	1.525012e+002
1.095057e+007	-3.621796e+001	-1.791977e+002	-3.065732e+001	-2.415946e+001	-9.837414e+001	1.150625e+002	-3.317723e+001	1.525837e+002
1.095058e+007	-3.623551e+001	-1.792131e+002	-3.066949e+001	-2.403244e+001	-9.956649e+001	8.614750e+001	-3.316764e+001	1.525519e+002
1.095059e+007	-3.619993e+001	-1.792001e+002	-3.065079e+001	-2.374958e+001	-9.392608e+001	1.095529e+002	-3.316908e+001	1.525109e+002
1.095059e+007	-3.622174e+001	-1.792753e+002	-3.061523e+001	-2.385213e+001	-9.704138e+001	9.563085e+001	-3.316858e+001	1.525520e+002
1.095060e+007	-3.621189e+001	-1.791936e+002	-3.059513e+001	-2.400929e+001	-9.967455e+001	8.613921e+001	-3.315865e+001	1.525478e+002
1.095061e+007	-3.619921e+001	-1.792635e+002	-3.060749e+001	-2.416764e+001	-9.604693e+001	1.134001e+002	-3.315853e+001	1.524342e+002
1.095062e+007	-3.620418e+001	-1.792194e+002	-3.063853e+001	-2.415149e+001	-9.292090e+001	1.069910e+002	-3.316655e+001	1.525550e+002
1.095063e+007	-3.622236e+001	-1.791433e+002	-3.065561e+001	-2.400901e+001	-9.823850e+001	9.705148e+001	-3.317054e+001	1.525661e+002
1.095063e+007	-3.621191e+001	-1.792278e+002	-3.062922e+001	-2.385202e+001	-9.952131e+001	9.818227e+001	-3.314920e+001	1.525144e+002
1.095064e+007	-3.620759e+001	-1.792060e+002	-3.059297e+001	-2.396667e+001	-9.656266e+001	9.101893e+001	-3.316471e+001	1.524820e+002
1.095065e+007	-3.621818e+001	-1.790956e+002	-3.060398e+001	-2.410233e+001	-9.650476e+001	1.062325e+002	-3.316097e+001	1.524939e+002
1.095066e+007	-3.619593e+001	-1.791863e+002	-3.063849e+001	-2.410930e+001	-9.531919e+001	9.767954e+001	-3.317291e+001	1.525559e+002
1.095066e+007	-3.620827e+001	-1.792192e+002	-3.063756e+001	-2.390426e+001	-9.456250e+001	1.049615e+002	-3.315753e+001	1.525023e+002
1.095067e+007	-3.622849e+001	-1.792063e+002	-3.061252e+001	-2.380759e+001	-9.662350e+001	1.085557e+002	-3.315209e+001	1.525188e+002
1.095068e+007	-3.620899e+001	-1.791550e+002	-3.060831e+001	-2.406468e+001	-9.248552e+001	9.396993e+001	-3.316140e+001	1.524205e+002
1.095069e+007	-3.621281e+001	-1.791240e+002	-3.063559e+001	-2.413828e+001	-1.003658e+002	8.280814e+001	-3.316476e+001	1.524725e+002
1.095070e+007	-3.621238e+001	-1.792903e+002	-3.064732e+001	-2.402608e+001	-9.641104e+001	8.300977e+001	-3.317591e+001	1.525302e+002
1.095070e+007	-3.622046e+001	-1.792081e+002	-3.061985e+001	-2.389309e+001	-9.775889e+001	8.293595e+001	-3.316301e+001	1.524632e+002
1.095071e+007	-3.620395e+001	-1.792017e+002	-3.060518e+001	-2.402064e+001	-9.912092e+001	8.654486e+001	-3.316912e+001	1.525455e+002
1.095072e+007	-3.621348e+001	-1.791359e+002	-3.062534e+001	-2.409523e+001	-9.832037e+001	9.524381e+001	-3.316328e+001	1.525172e+002
1.095073e+007	-3.621416e+001	-1.793107e+002	-3.063426e+001	-2.390469e+001	-9.783828e+001	9.311030e+001	-3.316918e+001	1.525843e+002
1.095073e+007	-3.621725e+001	-1.792679e+002	-3.062444e+001	-2.396359e+001	-9.707856e+001	1.005185e+002	-3.317015e+001	1.524968e+002
1.095074e+007	-3.620137e+001	-1.792867e+002	-3.060776e+001	-2.410206e+001	-9.694160e+001	8.647694e+001	-3.316921e+001	1.525400e+002
1.095075e+007	-3.620498e+001	-1.792485e+002	-3.063564e+001	-2.401349e+001	-9.765543e+001	8.021786e+001	-3.316525e+001	1.525634e+002
1.095076e+007	-3.619658e+001	-1.792203e+002	-3.061507e+001	-2.386167e+001	-9.767386e+001	9.190157e+001	-3.316905e+001	1.524969e+002
1.095077e+007	-3.621790e+001	-1.792675e+002	-3.061289e+001	-2.407831e+001	-9.505201e+001	9.431842e+001	-3.315514e+001	1.524725e+002
1.095077e+007	-3.621608e+001	-1.792005e+002	-3.062174e+001	-2.403443e+001	-9.801610e+001	1.071019e+002	-3.315298e+001	1.524651e+002
1.095078e+007	-3.622308e+001	-1.793078e+002	-3.061815e+001	-2.399612e+001	-9.441642e+001	9.823373e+001	-3.316019e+001	1.525393e+002
1.095079e+007	-3.620759e+001	-1.792472e+002	-3.060928e+001	-2.400989e+001	-9.684704e+001	8.454698e+001	-3.315747e+001	1.525185e+002
1.095080e+007	-3.619939e+001	-1.792927e+002	-3.062594e+001	-2.404632e+001	-9.551112e+001	9.794505e+001	-3.316394e+001	1.525337e+002
1.095080e+007	-3.621967e+001	-1.791746e+002	-3.061942e+001	-2.393794e+001	-9.813173e+001	8.288460e+001	-3.315184e+001	1.524285e+002
1.095081e+007	-3.620041e+001	-1.791817e+002	-3.062575e+001	-2.400148e+001	-9.842566e+001	1.028919e+002	-3.316412e+001	1.525186e+002
1.095082e+007	-3.621523e+001	-1.791324e+002	-3.061238e+001	-2.401198e+001	-9.491360e+001	8.415236e+001	-3.316174e+001	1.525191e+002
1.095083e+007	-3.620217e+001	-1.791498e+002	-3.061399e+001	-2.404853e+001	-9.506703e+001	1.108204e+002	-3.315939e+001	1.525129e+002
1.095084e+007	-3.621593e+001	-1.791626e+002	-3.062349e+001	-2.402471e+001	-9.456703e+001	1.050932e+002	-3.316159e+001	1.524820e+002
1.095084e+007	-3.621742e+001	-1.792628e+002	-3.062356e+001	-2.398145e+001	-9.669481e+001	6.552462e+001	-3.317153e+001	1.525634e+002
1.095085e+007	-3.620927e+001	-1.792372e+002	-3.061521e+001	-2.400345e+001	-9.504201e+001	1.054148e+002	-3.316623e+001	1.524728e+002
1.095086e+007	-3.621132e+001	-1.792468e+002	-3.062252e+001	-2.392172e+001	-9.453667e+001	1.118869e+002	-3.316468e+001	1.525335e+002
1.095087e+007	-3.620745e+001	-1.792858e+002	-3.062101e+001	-2.394935e+001	-9.772088e+001	1.063883e+002	-3.316882e+001	1.525329e+002
1.095088e+007	-3.619633e+001	-1.791897e+002	-3.062564e+001	-2.400745e+001	-9.681528e+001	1.176590e+002	-3.316534e+001	1.524837e+002
1.095088e+007	-3.621667e+001	-1.793226e+002	-3.061374e+001	-2.403094e+001	-9.697206e+001	1.070201e+002	-3.315587e+001	1.525107e+002
1.095089e+007	-3.620901e+001	-1.793049e+002	-3.061056e+001	-2.393675e+001	-9.827925e+001	9.538991e+001	-3.316116e+001	1.524966e+002
1.095090e+007	-3.621016e+001	-1.793161e+002	-3.061594e+001	-2.401058e+001	-9.539151e+001	1.227155e+002	-3.316933e+001	1.525400e+002
1.095091e+007	-3.619873e+001	-1.791766e+002	-3.060624e+001	-2.403368e+001	-9.638563e+001	1.128885e+002	-3.315510e+001	1.524431e+002
1.095091e+007	-3.621685e+001	-1.791942e+002	-3.061030e+001	-2.405209e+001	-9.617140e+001	9.347284e+001	-3.314944e+001	1.525907e+002
1.095092e+007	-3.620736e+001	-1.791524e+002	-3.062097e+001	-2.403794e+001	-9.754723e+001	1.038284e+002	-3.316319e+001	1.524857e+002
1.095093e+007	-3.621460e+001	-1.791829e+002	-3.061615e+001	-2.403593e+001	-9.410802e+001	8.573018e+001	-3.316379e+001	1.525238e+002
1.095094e+007	-3.620998e+001	-1.792201e+002	-3.062192e+001	-2.401568e+001	-9.532036e+001	1.070056e+002	-3.315866e+001	1.525665e+002
1.095095e+007	-3.620481e+001	-1.792147e+002	-3.059953e+001	-2.398952e+001	-9.398121e+001	8.457251e+001	-3.314805e+001	1.525439e+002
1.095095e+007	-3.621984e+001	-1.791736e+002	-3.062254e+001	-2.393761e+001	-9.730585e+001	1.049545e+002	-3.316337e+001	1.525958e+002
1.095096e+007	-3.622207e+001	-1.792683e+002	-3.061225e+001	-2.403218e+001	-9.556532e+001	1.013490e+002	-3.315827e+001	1.525026e+002
1.095097e+007	-3.621892e+001	-1.792011e+002	-3.061739e+001	-2.403786e+001	-9.509146e+001	1.160600e+002	-3.316216e+001	1.525301e+002
1.095098e+007	-3.621568e+001	-1.791676e+002	-3.060408e+001	-2.405725e+001	-9.680848e+001	1.099826e+002	-3.316654e+001	1.525602e+002
1.095098e+007	-3.619743e+001	-1.792239e+002	-3.062236e+001	-2.400644e+001	-9.486709e+001	9.692684e+001	-3.315480e+001	1.525528e+002
1.095099e+007	-3.621695e+001	-1.792448e+002	-3.061898e+001	-2.395963e+001	-9.689767e+001	8.882470e+001	-3.316300e+001	1.524493e+002
1.095100e+007	-3.621272e+001	-1.791453e+002	-3.062754e+001	-2.388621e+001	-9.687205e+001	1.099107e+002	-3.316754e+001	1.524576e+002
1.095101e+007	-3.621236e+001	-1.792067e+002	-3.061056e+001	-2.410639e+001	-9.545756e+001	8.619480e+001	-3.316326e+001	1.524851e+002
1.095102e+007	-3.623411e+001	-1.792172e+002	-3.061016e+001	-2.393294e+001	-9.741306e+001	9.280081e+001	-3.316987e+001	1.525271e+002
1.095102e+007	-3.622634e+001	-1.792186e+002	-3.061841e+001	-2.401454e+001	-9.836243e+001	9.303665e+001	-3.317807e+001	1.524849e+002
1.095103e+007	-3.620230e+001	-1.791847e+002	-3.060603e+001	-2.396549e+001	-9.354285e+001	9.188516e+001	-3.315348e+001	1.524775e+002
1.095104e+007	-3.620228e+001	-1.792558e+002	-3.063035e+001	-2.396716e+001	-9.483382e+001	7.239042e+001	-3.315842e+001	1.525192e+002
1.095105e+007	-3.621943e+001	-1.791882e+002	-3.060254e+001	-2.408769e+001	-9.648729e+001	6.518434e+001	-3.316478e+001	1.525031e+002
1.095105e+007	-3.620971e+001	-1.791337e+002	-3.061598e+001	-2.393884e+001	-9.557671e+001	9.124103e+001	-3.315828e+001	1.524613e+002
1.095106e+007	-3.622449e+001	-1.793178e+002	-3.061859e+001	-2.413211e+001	-9.616434e+001	1.079087e+002	-3.315795e+001	1.525679e+002
1.095107e+007	-3.620493e+001	-1.792491e+002	-3.060665e+001	-2.400403e+001	-9.652876e+001	8.666516e+001	-3.317113e+001	1.525176e+002
1.095108e+007	-3.622337e+001	-1.792585e+002	-3.062492e+001	-2.399159e+001	-9.756223e+001	9.204210e+001	-3.316197e+001	1.525463e+002
1.095109e+007	-3.620841e+001	-1.792639e+002	-3.060331e+001	-2.405878e+001	-9.571123e+001	1.113645e+002	-3.317504e+001	1.525372e+002
1.095109e+007	-3.621832e+001	-1.792466e+002	-3.060141e+001	-2.391957e+001	-9.377507e+001	7.332114e+001	-3.316706e+001	1.525051e+002
1.095110e+007	-3.622920e+001	-1.792250e+002	-3.061839e+001	-2.400788e+001	-9.479900e+001	8.961065e+001	-3.315840e+001	1.524808e+002
1.095111e+007	-3.619527e+001	-1.791981e+002	-3.061593e+001	-2.405773e+001	-9.400446e+001	1.074702e+002	-3.316933e+001	1.525322e+002
1.095112e+007	-3.620329e+001	-1.791598e+002	-3.062417e+001	-2.394225e+001	-9.445849e+001	9.396525e+001	-3.316434e+001	1.524871e+002
1.095113e+007	-3.621476e+001	-1.793630e+002	-3.062135e+001	-2.399169e+001	-9.460135e+001	1.233300e+002	-3.316019e+001	1.525448e+002
1.095113e+007	-3.621168e+001	-1.792562e+002	-3.060852e+001	-2.399802e+001	-9.535387e+001	1.096191e+002	-3.316823e+001	1.525077e+002
1.095114e+007	-3.622461e+001	-1.792600e+002	-3.061145e+001	-2.395031e+001	-9.502533e+001	1.107789e+002	-3.317091e+001	1.524702e+002
1.095115e+007	-3.621992e+001	-1.792549e+002	-3.061564e+001	-2.398875e+001	-9.467426e+001	9.688102e+001	-3.316910e+001	1.525320e+002
1.095116e+007	-3.620891e+001	-1.792949e+002	-3.061230e+001	-2.402025e+001	-9.510839e+001	6.910448e+001	-3.317625e+001	1.525349e+002
