!CETC41,AV3656A,ZGL00048,1.3.2
!Calibration ON (Full Solt 2-Port(Omit Isolation))
!Measurements: S11 S21 S12 S22
!2025-04-18 21:58
# Hz  S  dB  R 50.000
1.095000e+007	-3.615629e+001	1.792388e+002	-3.071239e+001	-2.300903e+001	-9.623826e+001	9.891994e+001	-3.345251e+001	1.520375e+002
1.095001e+007	-3.616431e+001	1.791438e+002	-3.071390e+001	-2.300906e+001	-9.823921e+001	8.917300e+001	-3.345345e+001	1.520699e+002
1.095002e+007	-3.615546e+001	1.791751e+002	-3.070376e+001	-2.291647e+001	-9.633659e+001	8.921675e+001	-3.344621e+001	1.521178e+002
1.095002e+007	-3.617593e+001	1.791971e+002	-3.069536e+001	-2.295284e+001	-9.917980e+001	1.035418e+002	-3.345093e+001	1.520317e+002
1.095003e+007	-3.615866e+001	1.791968e+002	-3.070248e+001	-2.293748e+001	-9.642515e+001	8.713782e+001	-3.345483e+001	1.520576e+002
1.095004e+007	-3.615636e+001	1.792948e+002	-3.070184e+001	-2.293102e+001	-9.546393e+001	6.739601e+001	-3.345315e+001	1.521156e+002
1.095005e+007	-3.615228e+001	1.792935e+002	-3.070751e+001	-2.292634e+001	-9.409906e+001	9.732666e+001	-3.345244e+001	1.520844e+002
1.095005e+007	-3.615563e+001	1.792579e+002	-3.070941e+001	-2.296532e+001	-9.674343e+001	7.735882e+001	-3.345025e+001	1.519884e+002
1.095006e+007	-3.617236e+001	1.792054e+002	-3.070481e+001	-2.302935e+001	-9.679059e+001	9.054108e+001	-3.344776e+001	1.520590e+002
1.095007e+007	-3.618189e+001	1.792485e+002	-3.070175e+001	-2.303009e+001	-9.509829e+001	9.474491e+001	-3.345197e+001	1.519562e+002
1.095008e+007	-3.617856e+001	1.793033e+002	-3.069314e+001	-2.290045e+001	-9.662176e+001	5.939679e+001	-3.344954e+001	1.520386e+002
1.095009e+007	-3.615481e+001	1.791678e+002	-3.071415e+001	-2.296923e+001	-9.817846e+001	9.144060e+001	-3.345190e+001	1.520827e+002
1.095009e+007	-3.616713e+001	1.791722e+002	-3.070573e+001	-2.290332e+001	-9.632977e+001	7.914354e+001	-3.345019e+001	1.520846e+002
1.095010e+007	-3.615907e+001	1.792140e+002	-3.070161e+001	-2.296771e+001	-9.730287e+001	7.399194e+001	-3.346105e+001	1.520182e+002
1.095011e+007	-3.614824e+001	1.792495e+002	-3.070922e+001	-2.302816e+001	-9.494582e+001	1.024832e+002	-3.346072e+001	1.519696e+002
1.095012e+007	-3.617053e+001	1.792826e+002	-3.071438e+001	-2.292998e+001	-9.740164e+001	6.065046e+001	-3.345802e+001	1.520135e+002
1.095013e+007	-3.616161e+001	1.792504e+002	-3.071748e+001	-2.295640e+001	-9.288758e+001	7.757025e+001	-3.344880e+001	1.520134e+002
1.095013e+007	-3.615304e+001	1.792022e+002	-3.071625e+001	-2.302418e+001	-9.535451e+001	8.645228e+001	-3.344391e+001	1.520362e+002
1.095014e+007	-3.616272e+001	1.792695e+002	-3.070479e+001	-2.294195e+001	-9.674766e+001	9.092528e+001	-3.346419e+001	1.519950e+002
1.095015e+007	-3.614918e+001	1.792413e+002	-3.071445e+001	-2.295110e+001	-9.803373e+001	8.957551e+001	-3.344841e+001	1.520092e+002
1.095016e+007	-3.616119e+001	1.793037e+002	-3.070723e+001	-2.300682e+001	-9.472301e+001	9.575128e+001	-3.343644e+001	1.520902e+002
1.095016e+007	-3.615840e+001	1.792302e+002	-3.070478e+001	-2.304248e+001	-9.605353e+001	1.050975e+002	-3.344768e+001	1.519451e+002
1.095017e+007	-3.615539e+001	1.792215e+002	-3.071457e+001	-2.295926e+001	-9.610264e+001	1.016089e+002	-3.345736e+001	1.519503e+002
1.095018e+007	-3.615686e+001	1.792976e+002	-3.069911e+001	-2.295226e+001	-9.791470e+001	9.899858e+001	-3.344557e+001	1.519967e+002
1.095019e+007	-3.616476e+001	1.792360e+002	-3.071080e+001	-2.297231e+001	-9.500460e+001	8.475198e+001	-3.344998e+001	1.520452e+002
1.095020e+007	-3.615696e+001	1.793759e+002	-3.070334e+001	-2.299290e+001	-9.383153e+001	1.018674e+002	-3.344221e+001	1.520345e+002
1.095020e+007	-3.615944e+001	1.791232e+002	-3.070166e+001	-2.304055e+001	-9.522641e+001	6.895483e+001	-3.344180e+001	1.520815e+002
1.095021e+007	-3.616041e+001	1.792665e+002	-3.070918e+001	-2.301982e+001	-9.873242e+001	8.781982e+001	-3.344813e+001	1.520049e+002
1.095022e+007	-3.616123e+001	1.793093e+002	-3.071116e+001	-2.300981e+001	-9.530837e+001	1.057007e+002	-3.344349e+001	1.520111e+002
1.095023e+007	-3.615830e+001	1.792238e+002	-3.070553e+001	-2.295660e+001	-9.572660e+001	1.220773e+002	-3.343584e+001	1.520364e+002
1.095023e+007	-3.616766e+001	1.792868e+002	-3.070595e+001	-2.290065e+001	-9.839660e+001	9.607034e+001	-3.344590e+001	1.520625e+002
1.095024e+007	-3.615487e+001	1.791445e+002	-3.069607e+001	-2.297170e+001	-9.339634e+001	7.602726e+001	-3.344086e+001	1.520250e+002
1.095025e+007	-3.615233e+001	1.791984e+002	-3.070094e+001	-2.301598e+001	-9.583262e+001	8.351498e+001	-3.344759e+001	1.520165e+002
1.095026e+007	-3.616350e+001	1.792291e+002	-3.069950e+001	-2.298233e+001	-9.673660e+001	7.828405e+001	-3.345759e+001	1.521044e+002
1.095027e+007	-3.615261e+001	1.792322e+002	-3.071843e+001	-2.302469e+001	-9.837441e+001	9.390341e+001	-3.344670e+001	1.520143e+002
1.095027e+007	-3.616444e+001	1.791938e+002	-3.070174e+001	-2.284794e+001	-9.733643e+001	7.323396e+001	-3.345957e+001	1.520674e+002
1.095028e+007	-3.615378e+001	1.792742e+002	-3.070390e+001	-2.295295e+001	-9.849726e+001	7.380839e+001	-3.345338e+001	1.519740e+002
1.095029e+007	-3.615489e+001	1.792268e+002	-3.069203e+001	-2.300692e+001	-9.484210e+001	8.284745e+001	-3.344229e+001	1.520012e+002
1.095030e+007	-3.615976e+001	1.791990e+002	-3.070731e+001	-2.292939e+001	-9.528997e+001	8.803812e+001	-3.344997e+001	1.520233e+002
1.095030e+007	-3.616968e+001	1.792827e+002	-3.070728e+001	-2.291317e+001	-1.013685e+002	9.901962e+001	-3.345319e+001	1.520482e+002
1.095031e+007	-3.616172e+001	1.792313e+002	-3.069934e+001	-2.293015e+001	-9.636897e+001	8.664774e+001	-3.344843e+001	1.520432e+002
1.095032e+007	-3.617101e+001	1.792399e+002	-3.069996e+001	-2.296419e+001	-9.676796e+001	9.310131e+001	-3.344493e+001	1.520925e+002
1.095033e+007	-3.616725e+001	1.792540e+002	-3.071256e+001	-2.292958e+001	-9.607442e+001	7.016307e+001	-3.344740e+001	1.520556e+002
1.095034e+007	-3.616126e+001	1.791809e+002	-3.070850e+001	-2.289299e+001	-9.956446e+001	7.951907e+001	-3.344867e+001	1.520715e+002
1.095034e+007	-3.616223e+001	1.792538e+002	-3.069758e+001	-2.304227e+001	-9.760447e+001	9.011925e+001	-3.344693e+001	1.519720e+002
1.095035e+007	-3.615674e+001	1.792239e+002	-3.070334e+001	-2.305754e+001	-9.606986e+001	9.224457e+001	-3.345322e+001	1.520230e+002
1.095036e+007	-3.616086e+001	1.791786e+002	-3.070669e+001	-2.289045e+001	-9.457511e+001	1.079800e+002	-3.344533e+001	1.520149e+002
1.095037e+007	-3.616749e+001	1.793153e+002	-3.069127e+001	-2.290082e+001	-9.471482e+001	8.250296e+001	-3.346025e+001	1.520503e+002
1.095038e+007	-3.616866e+001	1.793388e+002	-3.071014e+001	-2.304956e+001	-9.753148e+001	8.234055e+001	-3.344254e+001	1.520569e+002
1.095038e+007	-3.616868e+001	1.793411e+002	-3.070757e+001	-2.296622e+001	-9.670388e+001	1.001465e+002	-3.344335e+001	1.520170e+002
1.095039e+007	-3.618134e+001	1.792575e+002	-3.069885e+001	-2.286213e+001	-9.663231e+001	9.462080e+001	-3.345028e+001	1.519818e+002
1.095040e+007	-3.616336e+001	1.792885e+002	-3.069017e+001	-2.304849e+001	-9.792633e+001	1.079976e+002	-3.345621e+001	1.520119e+002
1.095041e+007	-3.618000e+001	1.791964e+002	-3.071569e+001	-2.295270e+001	-9.745560e+001	9.809543e+001	-3.345207e+001	1.519999e+002
1.095041e+007	-3.617754e+001	1.791553e+002	-3.070037e+001	-2.294240e+001	-9.697286e+001	1.079453e+002	-3.344056e+001	1.519777e+002
1.095042e+007	-3.616730e+001	1.792936e+002	-3.071122e+001	-2.303783e+001	-9.835591e+001	1.080907e+002	-3.345459e+001	1.520970e+002
1.095043e+007	-3.615594e+001	1.792818e+002	-3.071072e+001	-2.291545e+001	-9.539974e+001	9.791101e+001	-3.344767e+001	1.520292e+002
1.095044e+007	-3.616579e+001	1.793040e+002	-3.069985e+001	-2.301722e+001	-9.597222e+001	9.142656e+001	-3.345876e+001	1.519790e+002
1.095045e+007	-3.616079e+001	1.792666e+002	-3.071576e+001	-2.308238e+001	-9.542816e+001	8.197152e+001	-3.345330e+001	1.520256e+002
1.095045e+007	-3.617025e+001	1.792061e+002	-3.071258e+001	-2.290720e+001	-9.417865e+001	9.086674e+001	-3.345319e+001	1.520853e+002
1.095046e+007	-3.616296e+001	1.792093e+002	-3.068881e+001	-2.307478e+001	-9.413332e+001	8.751262e+001	-3.344422e+001	1.519915e+002
1.095047e+007	-3.616027e+001	1.792956e+002	-3.071699e+001	-2.299039e+001	-9.958278e+001	1.260145e+002	-3.344806e+001	1.520221e+002
1.095048e+007	-3.615106e+001	1.793283e+002	-3.069606e+001	-2.291336e+001	-9.644802e+001	8.631456e+001	-3.346276e+001	1.520552e+002
1.095048e+007	-3.615747e+001	1.793197e+002	-3.070891e+001	-2.310601e+001	-9.502807e+001	7.192171e+001	-3.345762e+001	1.519834e+002
1.095049e+007	-3.616464e+001	1.792523e+002	-3.069225e+001	-2.287611e+001	-9.710915e+001	1.164941e+002	-3.345298e+001	1.520526e+002
1.095050e+007	-3.616078e+001	1.792684e+002	-3.070202e+001	-2.299551e+001	-9.415580e+001	1.082606e+002	-3.345988e+001	1.520497e+002
1.095051e+007	-3.617843e+001	1.791917e+002	-3.070936e+001	-2.292270e+001	-9.620487e+001	8.248068e+001	-3.345300e+001	1.519718e+002
1.095052e+007	-3.616213e+001	1.792523e+002	-3.069387e+001	-2.290254e+001	-9.637988e+001	8.518041e+001	-3.345282e+001	1.520963e+002
1.095052e+007	-3.616446e+001	1.792391e+002	-3.071503e+001	-2.299945e+001	-9.495817e+001	1.054647e+002	-3.344311e+001	1.520620e+002
1.095053e+007	-3.616432e+001	1.792335e+002	-3.069169e+001	-2.290212e+001	-9.551156e+001	8.520343e+001	-3.344100e+001	1.519738e+002
1.095054e+007	-3.614030e+001	1.791638e+002	-3.071320e+001	-2.300633e+001	-9.455158e+001	8.402872e+001	-3.344325e+001	1.520968e+002
1.095055e+007	-3.616364e+001	1.792348e+002	-3.070123e+001	-2.286606e+001	-9.838843e+001	9.930055e+001	-3.345521e+001	1.520224e+002
1.095055e+007	-3.617619e+001	1.793582e+002	-3.072131e+001	-2.302469e+001	-9.818837e+001	6.033678e+001	-3.345222e+001	1.519896e+002
1.095056e+007	-3.615235e+001	1.791790e+002	-3.070316e+001	-2.290512e+001	-9.498675e+001	8.003525e+001	-3.346645e+001	1.520781e+002
1.095057e+007	-3.615907e+001	1.792117e+002	-3.071024e+001	-2.296857e+001	-9.596713e+001	9.056147e+001	-3.344053e+001	1.520010e+002
1.095058e+007	-3.615664e+001	1.793032e+002	-3.069816e+001	-2.290160e+001	-9.734875e+001	6.313739e+001	-3.345361e+001	1.520123e+002
1.095059e+007	-3.614587e+001	1.792472e+002	-3.070546e+001	-2.303541e+001	-9.378524e+001	9.686156e+001	-3.344231e+001	1.520635e+002
1.095059e+007	-3.616954e+001	1.793130e+002	-3.069725e+001	-2.291054e+001	-1.019708e+002	1.017958e+002	-3.345829e+001	1.521046e+002
1.095060e+007	-3.615777e+001	1.790955e+002	-3.070437e+001	-2.300666e+001	-9.733869e+001	7.130591e+001	-3.344811e+001	1.519952e+002
1.095061e+007	-3.615985e+001	1.791622e+002	-3.068834e+001	-2.290590e+001	-9.479130e+001	9.417956e+001	-3.344734e+001	1.520233e+002
1.095062e+007	-3.615951e+001	1.791843e+002	-3.071060e+001	-2.301436e+001	-9.428580e+001	7.082039e+001	-3.344089e+001	1.520499e+002
1.095063e+007	-3.615458e+001	1.793541e+002	-3.068832e+001	-2.295994e+001	-9.854166e+001	1.057480e+002	-3.344232e+001	1.520142e+002
1.095063e+007	-3.615865e+001	1.791752e+002	-3.070705e+001	-2.301925e+001	-9.461938e+001	7.725271e+001	-3.345716e+001	1.520826e+002
1.095064e+007	-3.615702e+001	1.792810e+002	-3.070107e+001	-2.295065e+001	-9.471946e+001	9.340839e+001	-3.344066e+001	1.519776e+002
1.095065e+007	-3.615216e+001	1.792261e+002	-3.070857e+001	-2.286810e+001	-9.604988e+001	9.666217e+001	-3.345505e+001	1.520511e+002
1.095066e+007	-3.617787e+001	1.792769e+002	-3.070471e+001	-2.306857e+001	-9.735117e+001	7.466587e+001	-3.345768e+001	1.520069e+002
1.095066e+007	-3.616708e+001	1.792809e+002	-3.068903e+001	-2.288370e+001	-9.347554e+001	9.430952e+001	-3.345036e+001	1.519499e+002
1.095067e+007	-3.617537e+001	1.793143e+002	-3.070618e+001	-2.301469e+001	-9.500977e+001	8.175265e+001	-3.344590e+001	1.519568e+002
1.095068e+007	-3.616395e+001	1.793015e+002	-3.068598e+001	-2.291638e+001	-9.413666e+001	6.574490e+001	-3.343947e+001	1.519782e+002
1.095069e+007	-3.616434e+001	1.793448e+002	-3.070650e+001	-2.288267e+001	-9.430653e+001	8.299434e+001	-3.345129e+001	1.519584e+002
1.095070e+007	-3.616437e+001	1.793346e+002	-3.068884e+001	-2.299204e+001	-9.690952e+001	9.112984e+001	-3.345385e+001	1.520402e+002
1.095070e+007	-3.616452e+001	1.792647e+002	-3.069615e+001	-2.283301e+001	-9.596574e+001	8.730712e+001	-3.345083e+001	1.519780e+002
1.095071e+007	-3.617311e+001	1.791816e+002	-3.071158e+001	-2.302618e+001	-9.433345e+001	8.424203e+001	-3.343970e+001	1.520030e+002
1.095072e+007	-3.615979e+001	1.792139e+002	-3.069107e+001	-2.299679e+001	-9.339698e+001	8.910557e+001	-3.344741e+001	1.520561e+002
1.095073e+007	-3.615753e+001	1.792890e+002	-3.070250e+001	-2.284332e+001	-9.700313e+001	8.802437e+001	-3.344861e+001	1.520571e+002
1.095073e+007	-3.617024e+001	1.792284e+002	-3.070364e+001	-2.297682e+001	-9.521149e+001	8.893190e+001	-3.344876e+001	1.519136e+002
1.095074e+007	-3.616868e+001	1.793201e+002	-3.069818e+001	-2.297163e+001	-9.847213e+001	8.527233e+001	-3.343645e+001	1.520210e+002
1.095075e+007	-3.615797e+001	1.792697e+002	-3.071038e+001	-2.294419e+001	-9.668472e+001	9.705483e+001	-3.344450e+001	1.520262e+002
1.095076e+007	-3.615300e+001	1.793639e+002	-3.071471e+001	-2.300707e+001	-9.505077e+001	9.630343e+001	-3.345386e+001	1.519455e+002
1.095077e+007	-3.614963e+001	1.793498e+002	-3.068998e+001	-2.297558e+001	-9.404332e+001	9.090261e+001	-3.345657e+001	1.520410e+002
1.095077e+007	-3.616265e+001	1.792898e+002	-3.069789e+001	-2.289586e+001	-9.599102e+001	8.418657e+001	-3.345028e+001	1.520395e+002
1.095078e+007	-3.615659e+001	1.792599e+002	-3.071972e+001	-2.296023e+001	-9.561620e+001	7.501277e+001	-3.345389e+001	1.520055e+002
1.095079e+007	-3.615887e+001	1.793003e+002	-3.069703e+001	-2.298140e+001	-9.625369e+001	8.757786e+001	-3.345457e+001	1.520246e+002
1.095080e+007	-3.616491e+001	1.791720e+002	-3.069293e+001	-2.290902e+001	-1.006415e+002	9.710453e+001	-3.344071e+001	1.519628e+002
1.095080e+007	-3.615492e+001	1.792614e+002	-3.072012e+001	-2.290635e+001	-9.405217e+001	1.017819e+002	-3.344843e+001	1.520747e+002
1.095081e+007	-3.614849e+001	1.792664e+002	-3.070881e+001	-2.304835e+001	-9.816937e+001	8.441938e+001	-3.344096e+001	1.520940e+002
1.095082e+007	-3.613907e+001	1.792403e+002	-3.068483e+001	-2.294934e+001	-9.484221e+001	8.786703e+001	-3.345964e+001	1.520703e+002
1.095083e+007	-3.617059e+001	1.792806e+002	-3.070154e+001	-2.291301e+001	-9.690069e+001	1.043689e+002	-3.344682e+001	1.520012e+002
1.095084e+007	-3.616255e+001	1.792850e+002	-3.071089e+001	-2.298658e+001	-9.619115e+001	8.549981e+001	-3.345603e+001	1.520207e+002
1.095084e+007	-3.616436e+001	1.792684e+002	-3.069532e+001	-2.305093e+001	-9.601468e+001	9.046188e+001	-3.346172e+001	1.520375e+002
1.095085e+007	-3.615453e+001	1.791517e+002	-3.069407e+001	-2.296122e+001	-9.507911e+001	1.028997e+002	-3.344625e+001	1.520697e+002
1.095086e+007	-3.617566e+001	1.792839e+002	-3.070503e+001	-2.287149e+001	-9.691203e+001	9.719710e+001	-3.345156e+001	1.520221e+002
1.095087e+007	-3.617721e+001	1.791815e+002	-3.072174e+001	-2.297352e+001	-9.733800e+001	8.761221e+001	-3.345212e+001	1.520191e+002
1.095088e+007	-3.614397e+001	1.792261e+002	-3.070453e+001	-2.304914e+001	-9.311095e+001	1.189976e+002	-3.344385e+001	1.520318e+002
1.095088e+007	-3.616332e+001	1.792866e+002	-3.069046e+001	-2.299670e+001	-9.732214e+001	1.219955e+002	-3.345104e+001	1.520894e+002
1.095089e+007	-3.616007e+001	1.792458e+002	-3.070706e+001	-2.296542e+001	-9.722891e+001	8.893042e+001	-3.344762e+001	1.520626e+002
1.095090e+007	-3.615325e+001	1.792922e+002	-3.070592e+001	-2.289537e+001	-9.389971e+001	1.052059e+002	-3.344486e+001	1.520207e+002
1.095091e+007	-3.616692e+001	1.792799e+002	-3.070280e+001	-2.293110e+001	-9.919962e+001	1.033322e+002	-3.343775e+001	1.520340e+002
1.095091e+007	-3.616019e+001	1.793064e+002	-3.070263e+001	-2.301378e+001	-9.399292e+001	8.690067e+001	-3.343726e+001	1.520881e+002
1.095092e+007	-3.615858e+001	1.792973e+002	-3.068325e+001	-2.300424e+001	-9.821664e+001	1.046603e+002	-3.344197e+001	1.521001e+002
1.095093e+007	-3.613926e+001	1.792628e+002	-3.069092e+001	-2.300761e+001	-9.706995e+001	9.011046e+001	-3.344775e+001	1.520544e+002
1.095094e+007	-3.617648e+001	1.792417e+002	-3.069499e+001	-2.292514e+001	-9.993458e+001	1.010940e+002	-3.345252e+001	1.519916e+002
1.095095e+007	-3.615897e+001	1.792559e+002	-3.070402e+001	-2.288372e+001	-9.593706e+001	7.355181e+001	-3.344654e+001	1.520064e+002
1.095095e+007	-3.615816e+001	1.792192e+002	-3.070961e+001	-2.294770e+001	-9.723515e+001	8.191284e+001	-3.345101e+001	1.519886e+002
1.095096e+007	-3.616953e+001	1.793043e+002	-3.070448e+001	-2.296282e+001	-9.576188e+001	1.116300e+002	-3.344704e+001	1.519762e+002
1.095097e+007	-3.617415e+001	1.792084e+002	-3.069776e+001	-2.299338e+001	-9.557329e+001	7.978575e+001	-3.344571e+001	1.520360e+002
1.095098e+007	-3.617688e+001	1.793356e+002	-3.069677e+001	-2.302101e+001	-9.500909e+001	1.022774e+002	-3.345403e+001	1.520692e+002
1.095098e+007	-3.617634e+001	1.793655e+002	-3.068596e+001	-2.298098e+001	-9.502054e+001	1.050732e+002	-3.345551e+001	1.520359e+002
1.095099e+007	-3.615025e+001	1.792658e+002	-3.069157e+001	-2.287815e+001	-9.887334e+001	8.167411e+001	-3.344202e+001	1.519176e+002
1.095100e+007	-3.617785e+001	1.792227e+002	-3.069718e+001	-2.293477e+001	-9.678428e+001	9.672359e+001	-3.345277e+001	1.520389e+002
1.095101e+007	-3.616490e+001	1.793209e+002	-3.070721e+001	-2.288103e+001	-9.759403e+001	1.053499e+002	-3.346213e+001	1.520139e+002
1.095102e+007	-3.616661e+001	1.791943e+002	-3.070703e+001	-2.294371e+001	-1.000294e+002	8.995684e+001	-3.344909e+001	1.520379e+002
1.095102e+007	-3.615746e+001	1.793234e+002	-3.070129e+001	-2.293450e+001	-9.278229e+001	9.491221e+001	-3.343536e+001	1.519340e+002
1.095103e+007	-3.615850e+001	1.793238e+002	-3.070460e+001	-2.304588e+001	-9.579968e+001	1.026531e+002	-3.345846e+001	1.520292e+002
1.095104e+007	-3.617666e+001	1.791443e+002	-3.070358e+001	-2.306211e+001	-9.492015e+001	9.924508e+001	-3.347087e+001	1.520340e+002
1.095105e+007	-3.618072e+001	1.791956e+002	-3.069960e+001	-2.300244e+001	-9.609945e+001	8.577469e+001	-3.345074e+001	1.520373e+002
1.095105e+007	-3.616483e+001	1.792880e+002	-3.070733e+001	-2.299673e+001	-9.758021e+001	8.794297e+001	-3.344577e+001	1.519975e+002
1.095106e+007	-3.618637e+001	1.792252e+002	-3.070184e+001	-2.296204e+001	-9.362124e+001	8.155158e+001	-3.344678e+001	1.520017e+002
1.095107e+007	-3.616847e+001	1.793187e+002	-3.069760e+001	-2.298884e+001	-9.475891e+001	6.222328e+001	-3.344229e+001	1.520136e+002
1.095108e+007	-3.616358e+001	1.792621e+002	-3.069848e+001	-2.305093e+001	-9.481119e+001	8.037541e+001	-3.343731e+001	1.520215e+002
1.095109e+007	-3.616821e+001	1.792287e+002	-3.068336e+001	-2.300637e+001	-9.809490e+001	9.781165e+001	-3.344523e+001	1.519873e+002
1.095109e+007	-3.617628e+001	1.793047e+002	-3.068858e+001	-2.297405e+001	-9.624490e+001	7.027420e+001	-3.345603e+001	1.520624e+002
1.095110e+007	-3.617056e+001	1.792963e+002	-3.068908e+001	-2.302118e+001	-9.970006e+001	8.320356e+001	-3.344752e+001	1.520490e+002
1.095111e+007	-3.616988e+001	1.792454e+002	-3.069337e+001	-2.293843e+001	-9.502298e+001	9.721302e+001	-3.345371e+001	1.519867e+002
1.095112e+007	-3.615951e+001	1.792077e+002	-3.069321e+001	-2.297219e+001	-9.657680e+001	8.579833e+001	-3.345998e+001	1.520831e+002
1.095113e+007	-3.615703e+001	1.792469e+002	-3.068962e+001	-2.301837e+001	-9.655307e+001	8.671579e+001	-3.345077e+001	1.520008e+002
1.095113e+007	-3.616235e+001	1.792445e+002	-3.069041e+001	-2.300510e+001	-9.445633e+001	8.286989e+001	-3.344704e+001	1.521328e+002
1.095114e+007	-3.616268e+001	1.791994e+002	-3.068277e+001	-2.301323e+001	-9.579092e+001	8.481418e+001	-3.344135e+001	1.520115e+002
1.095115e+007	-3.616953e+001	1.792633e+002	-3.070094e+001	-2.301183e+001	-9.459001e+001	1.069286e+002	-3.343937e+001	1.520575e+002
1.095116e+007	-3.615331e+001	1.793720e+002	-3.070824e+001	-2.304053e+001	-9.633347e+001	8.184461e+001	-3.345504e+001	1.520593e+002
1.095116e+007	-3.617737e+001	1.793767e+002	-3.069556e+001	-2.297454e+001	-9.665997e+001	8.332272e+001	-3.345065e+001	1.520742e+002
