!CETC41,AV3656A,ZGL00048,1.3.2
!Calibration ON (Full Solt 2-Port(Omit Isolation))
!Measurements: S11 S21 S12 S22
!2025-04-18 23:18
# Hz  S  dB  R 50.000
1.095000e+007	-3.632068e+001	-1.783102e+002	-3.047898e+001	-2.505999e+001	-9.597774e+001	1.006206e+002	-3.291423e+001	1.529800e+002
1.095001e+007	-3.631598e+001	-1.783391e+002	-3.046404e+001	-2.511171e+001	-9.900443e+001	9.251589e+001	-3.290710e+001	1.529844e+002
1.095002e+007	-3.631450e+001	-1.782797e+002	-3.045914e+001	-2.512533e+001	-9.714953e+001	1.035603e+002	-3.290626e+001	1.529389e+002
1.095002e+007	-3.633073e+001	-1.782709e+002	-3.045617e+001	-2.514662e+001	-9.788574e+001	1.132473e+002	-3.291056e+001	1.529486e+002
1.095003e+007	-3.631921e+001	-1.782867e+002	-3.045088e+001	-2.521536e+001	-9.798037e+001	8.199676e+001	-3.291424e+001	1.529743e+002
1.095004e+007	-3.634008e+001	-1.783540e+002	-3.045351e+001	-2.524260e+001	-9.503247e+001	9.675991e+001	-3.290801e+001	1.529691e+002
1.095005e+007	-3.632507e+001	-1.782691e+002	-3.045631e+001	-2.530989e+001	-9.675849e+001	8.259803e+001	-3.290629e+001	1.529744e+002
1.095005e+007	-3.631610e+001	-1.783671e+002	-3.044723e+001	-2.530642e+001	-9.603771e+001	6.800267e+001	-3.291132e+001	1.529941e+002
1.095006e+007	-3.631859e+001	-1.783370e+002	-3.045067e+001	-2.539270e+001	-9.886252e+001	9.472716e+001	-3.291999e+001	1.530588e+002
1.095007e+007	-3.631324e+001	-1.782796e+002	-3.045515e+001	-2.545338e+001	-9.768705e+001	1.110909e+002	-3.290316e+001	1.530430e+002
1.095008e+007	-3.631036e+001	-1.782320e+002	-3.046650e+001	-2.547558e+001	-9.682148e+001	9.079600e+001	-3.290518e+001	1.529966e+002
1.095009e+007	-3.632616e+001	-1.783875e+002	-3.048512e+001	-2.547051e+001	-9.906147e+001	1.058168e+002	-3.290152e+001	1.529661e+002
1.095009e+007	-3.631761e+001	-1.782317e+002	-3.048815e+001	-2.553430e+001	-9.732007e+001	9.647332e+001	-3.290745e+001	1.530412e+002
1.095010e+007	-3.631809e+001	-1.783020e+002	-3.050769e+001	-2.549692e+001	-9.746602e+001	1.200849e+002	-3.291250e+001	1.529793e+002
1.095011e+007	-3.632464e+001	-1.783351e+002	-3.053490e+001	-2.532870e+001	-9.810152e+001	9.491369e+001	-3.290957e+001	1.530033e+002
1.095012e+007	-3.632647e+001	-1.782345e+002	-3.055251e+001	-2.530779e+001	-9.518725e+001	1.007386e+002	-3.290087e+001	1.529596e+002
1.095013e+007	-3.631967e+001	-1.784297e+002	-3.054050e+001	-2.505623e+001	-9.428140e+001	1.137099e+002	-3.291219e+001	1.529914e+002
1.095013e+007	-3.630392e+001	-1.782944e+002	-3.054012e+001	-2.485678e+001	-9.853639e+001	1.012406e+002	-3.291264e+001	1.529403e+002
1.095014e+007	-3.631810e+001	-1.783944e+002	-3.052289e+001	-2.466684e+001	-9.645650e+001	8.904077e+001	-3.291212e+001	1.530300e+002
1.095015e+007	-3.632565e+001	-1.783822e+002	-3.048162e+001	-2.457951e+001	-9.795176e+001	8.957615e+001	-3.290858e+001	1.529647e+002
1.095016e+007	-3.630641e+001	-1.783681e+002	-3.042439e+001	-2.467044e+001	-9.605286e+001	7.807436e+001	-3.291396e+001	1.529408e+002
1.095016e+007	-3.631794e+001	-1.783224e+002	-3.040020e+001	-2.490972e+001	-9.678322e+001	9.806853e+001	-3.291806e+001	1.529622e+002
1.095017e+007	-3.633500e+001	-1.782890e+002	-3.039083e+001	-2.526077e+001	-9.414131e+001	1.040338e+002	-3.291155e+001	1.529581e+002
1.095018e+007	-3.631951e+001	-1.784417e+002	-3.044666e+001	-2.546278e+001	-9.667930e+001	1.058032e+002	-3.289832e+001	1.529827e+002
1.095019e+007	-3.632052e+001	-1.782999e+002	-3.049074e+001	-2.540808e+001	-9.428309e+001	9.659410e+001	-3.290564e+001	1.529514e+002
1.095020e+007	-3.632572e+001	-1.783337e+002	-3.053706e+001	-2.511710e+001	-9.662253e+001	9.762509e+001	-3.290480e+001	1.529690e+002
1.095020e+007	-3.631172e+001	-1.784399e+002	-3.051496e+001	-2.472716e+001	-9.687032e+001	8.909239e+001	-3.289663e+001	1.529872e+002
1.095021e+007	-3.631524e+001	-1.783410e+002	-3.046221e+001	-2.464143e+001	-9.425011e+001	1.006609e+002	-3.290026e+001	1.530142e+002
1.095022e+007	-3.631292e+001	-1.782771e+002	-3.039902e+001	-2.482894e+001	-9.645891e+001	9.074288e+001	-3.290741e+001	1.529648e+002
1.095023e+007	-3.630661e+001	-1.783882e+002	-3.041584e+001	-2.525003e+001	-9.673217e+001	1.064992e+002	-3.291490e+001	1.529855e+002
1.095023e+007	-3.632319e+001	-1.783267e+002	-3.046775e+001	-2.545271e+001	-9.828379e+001	9.996760e+001	-3.290089e+001	1.529995e+002
1.095024e+007	-3.632060e+001	-1.782595e+002	-3.052629e+001	-2.509982e+001	-9.703056e+001	8.165874e+001	-3.291768e+001	1.529413e+002
1.095025e+007	-3.633170e+001	-1.783174e+002	-3.050238e+001	-2.467879e+001	-9.569429e+001	1.035389e+002	-3.290050e+001	1.529415e+002
1.095026e+007	-3.632146e+001	-1.782412e+002	-3.042611e+001	-2.463886e+001	-9.745536e+001	1.003313e+002	-3.291017e+001	1.529866e+002
1.095027e+007	-3.631981e+001	-1.783308e+002	-3.039658e+001	-2.517234e+001	-9.368920e+001	1.080969e+002	-3.291026e+001	1.529752e+002
1.095027e+007	-3.632596e+001	-1.782920e+002	-3.046343e+001	-2.544555e+001	-9.617542e+001	1.038687e+002	-3.290693e+001	1.529894e+002
1.095028e+007	-3.632773e+001	-1.782367e+002	-3.051320e+001	-2.514822e+001	-9.611156e+001	1.057702e+002	-3.291257e+001	1.529958e+002
1.095029e+007	-3.634492e+001	-1.783408e+002	-3.047939e+001	-2.473527e+001	-9.725180e+001	1.057140e+002	-3.289698e+001	1.529700e+002
1.095030e+007	-3.633521e+001	-1.782479e+002	-3.040049e+001	-2.486216e+001	-9.488137e+001	1.073098e+002	-3.291120e+001	1.529796e+002
1.095030e+007	-3.632650e+001	-1.781690e+002	-3.042238e+001	-2.529778e+001	-9.730065e+001	8.324950e+001	-3.290460e+001	1.530062e+002
1.095031e+007	-3.632157e+001	-1.782335e+002	-3.049685e+001	-2.517763e+001	-9.473244e+001	1.052327e+002	-3.290128e+001	1.529567e+002
1.095032e+007	-3.632804e+001	-1.783175e+002	-3.048673e+001	-2.468150e+001	-1.001486e+002	8.674338e+001	-3.289576e+001	1.529168e+002
1.095033e+007	-3.632433e+001	-1.783107e+002	-3.040019e+001	-2.486796e+001	-9.903618e+001	1.062861e+002	-3.291335e+001	1.529967e+002
1.095034e+007	-3.634412e+001	-1.782346e+002	-3.043185e+001	-2.544970e+001	-9.479957e+001	9.855451e+001	-3.289898e+001	1.529874e+002
1.095034e+007	-3.632520e+001	-1.782768e+002	-3.051633e+001	-2.505332e+001	-9.899598e+001	1.178094e+002	-3.290449e+001	1.530238e+002
1.095035e+007	-3.632767e+001	-1.783007e+002	-3.045660e+001	-2.461499e+001	-1.002681e+002	1.136888e+002	-3.290792e+001	1.529863e+002
1.095036e+007	-3.632986e+001	-1.782836e+002	-3.039031e+001	-2.513750e+001	-9.710141e+001	1.152801e+002	-3.291289e+001	1.529542e+002
1.095037e+007	-3.632583e+001	-1.783160e+002	-3.047721e+001	-2.531123e+001	-9.590151e+001	1.035800e+002	-3.290337e+001	1.529905e+002
1.095038e+007	-3.631295e+001	-1.782837e+002	-3.047963e+001	-2.473133e+001	-9.710276e+001	9.657145e+001	-3.290467e+001	1.529802e+002
1.095038e+007	-3.633382e+001	-1.781172e+002	-3.039780e+001	-2.492660e+001	-1.001345e+002	8.814669e+001	-3.290998e+001	1.529833e+002
1.095039e+007	-3.632841e+001	-1.783433e+002	-3.046212e+001	-2.535995e+001	-9.596569e+001	1.041255e+002	-3.290672e+001	1.529844e+002
1.095040e+007	-3.631379e+001	-1.783158e+002	-3.048853e+001	-2.484320e+001	-9.891379e+001	8.839528e+001	-3.291072e+001	1.529497e+002
1.095041e+007	-3.632629e+001	-1.782264e+002	-3.039794e+001	-2.494142e+001	-9.491025e+001	9.886636e+001	-3.291595e+001	1.530234e+002
1.095041e+007	-3.630718e+001	-1.782732e+002	-3.045691e+001	-2.542348e+001	-9.470150e+001	1.040932e+002	-3.291057e+001	1.530136e+002
1.095042e+007	-3.633046e+001	-1.781963e+002	-3.047318e+001	-2.479378e+001	-9.830252e+001	9.203173e+001	-3.290204e+001	1.529734e+002
1.095043e+007	-3.632849e+001	-1.783073e+002	-3.039914e+001	-2.503525e+001	-9.560321e+001	9.284866e+001	-3.290105e+001	1.529837e+002
1.095044e+007	-3.632323e+001	-1.783737e+002	-3.047841e+001	-2.517260e+001	-9.754685e+001	1.264868e+002	-3.290883e+001	1.529226e+002
1.095045e+007	-3.632827e+001	-1.783424e+002	-3.044842e+001	-2.470140e+001	-9.498624e+001	1.118525e+002	-3.290830e+001	1.529627e+002
1.095045e+007	-3.632270e+001	-1.783424e+002	-3.040850e+001	-2.521111e+001	-9.651345e+001	1.079536e+002	-3.290729e+001	1.529886e+002
1.095046e+007	-3.630599e+001	-1.783032e+002	-3.048126e+001	-2.510392e+001	-9.384980e+001	1.092554e+002	-3.290132e+001	1.529306e+002
1.095047e+007	-3.632637e+001	-1.783230e+002	-3.040540e+001	-2.485784e+001	-9.698538e+001	1.070784e+002	-3.290976e+001	1.529807e+002
1.095048e+007	-3.634646e+001	-1.783424e+002	-3.045431e+001	-2.531472e+001	-9.564178e+001	9.084383e+001	-3.290528e+001	1.529317e+002
1.095048e+007	-3.631576e+001	-1.782480e+002	-3.045145e+001	-2.479979e+001	-9.633080e+001	8.350839e+001	-3.290650e+001	1.530302e+002
1.095049e+007	-3.630620e+001	-1.783058e+002	-3.040907e+001	-2.521389e+001	-9.584423e+001	9.608765e+001	-3.290690e+001	1.529849e+002
1.095050e+007	-3.630759e+001	-1.782846e+002	-3.046607e+001	-2.491593e+001	-9.720246e+001	9.899014e+001	-3.290936e+001	1.530413e+002
1.095051e+007	-3.631129e+001	-1.783069e+002	-3.039453e+001	-2.494107e+001	-9.683886e+001	1.061687e+002	-3.290971e+001	1.529527e+002
1.095052e+007	-3.632322e+001	-1.782307e+002	-3.047283e+001	-2.513507e+001	-9.673757e+001	1.070267e+002	-3.291343e+001	1.530510e+002
1.095052e+007	-3.633160e+001	-1.783596e+002	-3.041553e+001	-2.488929e+001	-9.602893e+001	1.001923e+002	-3.291840e+001	1.529688e+002
1.095053e+007	-3.632060e+001	-1.783100e+002	-3.045240e+001	-2.530987e+001	-9.875860e+001	1.029960e+002	-3.290349e+001	1.530206e+002
1.095054e+007	-3.632590e+001	-1.783531e+002	-3.042601e+001	-2.480128e+001	-9.663907e+001	7.948217e+001	-3.290836e+001	1.529696e+002
1.095055e+007	-3.632151e+001	-1.782529e+002	-3.044465e+001	-2.524912e+001	-9.748042e+001	8.861225e+001	-3.291058e+001	1.530444e+002
1.095055e+007	-3.632897e+001	-1.783169e+002	-3.043144e+001	-2.488191e+001	-9.869574e+001	1.038573e+002	-3.290923e+001	1.530380e+002
1.095056e+007	-3.633070e+001	-1.783729e+002	-3.042457e+001	-2.519848e+001	-9.932281e+001	1.126537e+002	-3.290508e+001	1.529968e+002
1.095057e+007	-3.632379e+001	-1.782953e+002	-3.043469e+001	-2.480419e+001	-9.576368e+001	1.114941e+002	-3.291289e+001	1.529859e+002
1.095058e+007	-3.633485e+001	-1.782671e+002	-3.041959e+001	-2.518962e+001	-9.551213e+001	1.090116e+002	-3.289971e+001	1.530163e+002
1.095059e+007	-3.630462e+001	-1.782774e+002	-3.043160e+001	-2.485440e+001	-9.619425e+001	8.576815e+001	-3.290233e+001	1.529693e+002
1.095059e+007	-3.631815e+001	-1.783565e+002	-3.042460e+001	-2.516986e+001	-9.614016e+001	9.744833e+001	-3.289971e+001	1.529762e+002
1.095060e+007	-3.632398e+001	-1.782466e+002	-3.043913e+001	-2.490810e+001	-9.439191e+001	1.036610e+002	-3.290731e+001	1.529874e+002
1.095061e+007	-3.631468e+001	-1.783218e+002	-3.043137e+001	-2.518035e+001	-9.618024e+001	9.654747e+001	-3.291042e+001	1.529558e+002
1.095062e+007	-3.632627e+001	-1.783511e+002	-3.041687e+001	-2.489331e+001	-9.829385e+001	8.155129e+001	-3.290994e+001	1.530330e+002
1.095063e+007	-3.632277e+001	-1.782620e+002	-3.043929e+001	-2.511149e+001	-1.001832e+002	1.388440e+002	-3.289721e+001	1.530077e+002
1.095063e+007	-3.630768e+001	-1.784194e+002	-3.041581e+001	-2.493025e+001	-9.596735e+001	1.015538e+002	-3.290869e+001	1.528910e+002
1.095064e+007	-3.633701e+001	-1.781738e+002	-3.044711e+001	-2.506886e+001	-9.689964e+001	9.379086e+001	-3.289936e+001	1.529287e+002
1.095065e+007	-3.632151e+001	-1.783538e+002	-3.040458e+001	-2.498757e+001	-9.520087e+001	1.126857e+002	-3.292161e+001	1.530758e+002
1.095066e+007	-3.633429e+001	-1.782637e+002	-3.043633e+001	-2.499975e+001	-9.399355e+001	1.119538e+002	-3.291141e+001	1.530681e+002
1.095066e+007	-3.631350e+001	-1.783377e+002	-3.041694e+001	-2.509031e+001	-9.564579e+001	9.733100e+001	-3.291071e+001	1.528861e+002
1.095067e+007	-3.631592e+001	-1.783821e+002	-3.041561e+001	-2.487326e+001	-9.855441e+001	1.288736e+002	-3.291002e+001	1.529874e+002
1.095068e+007	-3.631785e+001	-1.783449e+002	-3.043500e+001	-2.509138e+001	-9.709382e+001	9.054140e+001	-3.290799e+001	1.529879e+002
1.095069e+007	-3.632151e+001	-1.783432e+002	-3.041839e+001	-2.503293e+001	-9.718214e+001	9.476179e+001	-3.290883e+001	1.529534e+002
1.095070e+007	-3.631784e+001	-1.782636e+002	-3.043350e+001	-2.500116e+001	-9.537426e+001	1.076407e+002	-3.290800e+001	1.529221e+002
1.095070e+007	-3.633798e+001	-1.782554e+002	-3.041467e+001	-2.509112e+001	-9.728507e+001	1.205314e+002	-3.291257e+001	1.530104e+002
1.095071e+007	-3.632126e+001	-1.783261e+002	-3.040971e+001	-2.492229e+001	-9.453244e+001	1.052339e+002	-3.291416e+001	1.529361e+002
1.095072e+007	-3.631469e+001	-1.782705e+002	-3.042869e+001	-2.505134e+001	-9.690768e+001	9.112726e+001	-3.290713e+001	1.529354e+002
1.095073e+007	-3.632964e+001	-1.783421e+002	-3.040784e+001	-2.498058e+001	-1.007137e+002	1.252576e+002	-3.291442e+001	1.529876e+002
1.095073e+007	-3.631944e+001	-1.782523e+002	-3.041120e+001	-2.498547e+001	-9.700671e+001	1.152098e+002	-3.292199e+001	1.529579e+002
1.095074e+007	-3.631967e+001	-1.781914e+002	-3.042095e+001	-2.502126e+001	-9.386974e+001	1.212026e+002	-3.290864e+001	1.529602e+002
1.095075e+007	-3.631716e+001	-1.782778e+002	-3.040566e+001	-2.507966e+001	-9.600388e+001	7.363716e+001	-3.290001e+001	1.530252e+002
1.095076e+007	-3.633207e+001	-1.783088e+002	-3.040844e+001	-2.501805e+001	-9.761370e+001	8.802704e+001	-3.290759e+001	1.530291e+002
1.095077e+007	-3.632076e+001	-1.783981e+002	-3.042684e+001	-2.505140e+001	-9.928445e+001	1.145227e+002	-3.291589e+001	1.530314e+002
1.095077e+007	-3.632092e+001	-1.783742e+002	-3.040447e+001	-2.503477e+001	-9.912332e+001	9.048595e+001	-3.291310e+001	1.530061e+002
1.095078e+007	-3.631471e+001	-1.782653e+002	-3.040840e+001	-2.498095e+001	-9.731835e+001	1.264134e+002	-3.289800e+001	1.529378e+002
1.095079e+007	-3.632266e+001	-1.783364e+002	-3.041073e+001	-2.501629e+001	-9.657563e+001	1.137752e+002	-3.290056e+001	1.529412e+002
1.095080e+007	-3.631895e+001	-1.782410e+002	-3.041933e+001	-2.497372e+001	-9.676104e+001	9.406815e+001	-3.292085e+001	1.529873e+002
1.095080e+007	-3.632919e+001	-1.783928e+002	-3.040521e+001	-2.500653e+001	-9.792475e+001	9.912335e+001	-3.290526e+001	1.529755e+002
1.095081e+007	-3.632042e+001	-1.782821e+002	-3.039958e+001	-2.494819e+001	-9.780849e+001	9.568922e+001	-3.290438e+001	1.529656e+002
1.095082e+007	-3.631960e+001	-1.782888e+002	-3.040992e+001	-2.499748e+001	-9.537837e+001	8.237847e+001	-3.289734e+001	1.529813e+002
1.095083e+007	-3.632350e+001	-1.782979e+002	-3.040898e+001	-2.493668e+001	-9.813421e+001	1.053946e+002	-3.290878e+001	1.529777e+002
1.095084e+007	-3.632338e+001	-1.783100e+002	-3.041232e+001	-2.505905e+001	-9.779962e+001	8.152107e+001	-3.290185e+001	1.529939e+002
1.095084e+007	-3.631795e+001	-1.783388e+002	-3.040719e+001	-2.502537e+001	-9.953474e+001	1.415385e+002	-3.290867e+001	1.530933e+002
1.095085e+007	-3.633201e+001	-1.783679e+002	-3.040017e+001	-2.495363e+001	-1.000962e+002	8.514342e+001	-3.291719e+001	1.529694e+002
1.095086e+007	-3.632329e+001	-1.782185e+002	-3.040812e+001	-2.490590e+001	-1.026003e+002	1.051512e+002	-3.290683e+001	1.529954e+002
1.095087e+007	-3.631198e+001	-1.782890e+002	-3.040547e+001	-2.506851e+001	-9.786885e+001	9.270794e+001	-3.291121e+001	1.530301e+002
1.095088e+007	-3.631791e+001	-1.783570e+002	-3.040732e+001	-2.508279e+001	-9.601625e+001	1.066621e+002	-3.290076e+001	1.529653e+002
1.095088e+007	-3.631236e+001	-1.783237e+002	-3.039324e+001	-2.503744e+001	-9.762324e+001	1.263535e+002	-3.291044e+001	1.530216e+002
1.095089e+007	-3.633826e+001	-1.782712e+002	-3.039262e+001	-2.500701e+001	-9.603955e+001	8.995653e+001	-3.290923e+001	1.529835e+002
1.095090e+007	-3.631303e+001	-1.782148e+002	-3.040758e+001	-2.496684e+001	-9.707888e+001	9.490745e+001	-3.291305e+001	1.530006e+002
1.095091e+007	-3.633711e+001	-1.782577e+002	-3.040301e+001	-2.503956e+001	-9.844854e+001	1.090967e+002	-3.290786e+001	1.530105e+002
1.095091e+007	-3.633105e+001	-1.782258e+002	-3.038775e+001	-2.506657e+001	-9.733692e+001	1.025512e+002	-3.290702e+001	1.530003e+002
1.095092e+007	-3.632099e+001	-1.783358e+002	-3.037960e+001	-2.505043e+001	-9.894600e+001	1.009364e+002	-3.291537e+001	1.529316e+002
1.095093e+007	-3.632947e+001	-1.782842e+002	-3.038797e+001	-2.487895e+001	-9.505979e+001	8.414747e+001	-3.290445e+001	1.529927e+002
1.095094e+007	-3.633073e+001	-1.782579e+002	-3.039396e+001	-2.496313e+001	-9.898675e+001	8.848984e+001	-3.290376e+001	1.529858e+002
1.095095e+007	-3.633608e+001	-1.781449e+002	-3.040842e+001	-2.491835e+001	-9.737493e+001	8.616237e+001	-3.290200e+001	1.529818e+002
1.095095e+007	-3.634505e+001	-1.783407e+002	-3.040816e+001	-2.506511e+001	-9.801284e+001	1.050538e+002	-3.290989e+001	1.529758e+002
1.095096e+007	-3.633357e+001	-1.782690e+002	-3.039200e+001	-2.510542e+001	-9.579871e+001	1.010669e+002	-3.291081e+001	1.529089e+002
1.095097e+007	-3.632622e+001	-1.783418e+002	-3.039420e+001	-2.502764e+001	-9.513551e+001	9.462909e+001	-3.290026e+001	1.530300e+002
1.095098e+007	-3.633801e+001	-1.782965e+002	-3.038255e+001	-2.500905e+001	-9.724919e+001	9.029947e+001	-3.290748e+001	1.530367e+002
1.095098e+007	-3.633538e+001	-1.782832e+002	-3.037560e+001	-2.494942e+001	-9.578394e+001	8.848311e+001	-3.290580e+001	1.529852e+002
1.095099e+007	-3.633523e+001	-1.783043e+002	-3.039083e+001	-2.495299e+001	-9.606316e+001	9.931758e+001	-3.290767e+001	1.529640e+002
1.095100e+007	-3.631715e+001	-1.783138e+002	-3.040071e+001	-2.494948e+001	-9.583233e+001	9.223049e+001	-3.290480e+001	1.529977e+002
1.095101e+007	-3.632880e+001	-1.782913e+002	-3.039976e+001	-2.494645e+001	-9.587076e+001	9.698939e+001	-3.291021e+001	1.529142e+002
1.095102e+007	-3.632646e+001	-1.782548e+002	-3.040736e+001	-2.498734e+001	-9.667443e+001	9.321900e+001	-3.290306e+001	1.529411e+002
1.095102e+007	-3.631217e+001	-1.782287e+002	-3.039436e+001	-2.510411e+001	-9.538859e+001	1.105688e+002	-3.290806e+001	1.529998e+002
1.095103e+007	-3.631692e+001	-1.783544e+002	-3.039072e+001	-2.512512e+001	-9.593003e+001	1.004752e+002	-3.290634e+001	1.529947e+002
1.095104e+007	-3.632535e+001	-1.782766e+002	-3.037734e+001	-2.516177e+001	-9.541640e+001	1.132868e+002	-3.290052e+001	1.529778e+002
1.095105e+007	-3.632317e+001	-1.784175e+002	-3.036702e+001	-2.511273e+001	-9.380487e+001	1.002981e+002	-3.290679e+001	1.529491e+002
1.095105e+007	-3.631620e+001	-1.782796e+002	-3.036557e+001	-2.503148e+001	-9.700621e+001	9.853516e+001	-3.291120e+001	1.530193e+002
1.095106e+007	-3.633034e+001	-1.783867e+002	-3.037407e+001	-2.511715e+001	-9.641088e+001	9.996414e+001	-3.290887e+001	1.530272e+002
1.095107e+007	-3.630631e+001	-1.783539e+002	-3.035886e+001	-2.508052e+001	-1.000049e+002	1.074586e+002	-3.290568e+001	1.529851e+002
1.095108e+007	-3.632370e+001	-1.783076e+002	-3.035515e+001	-2.508075e+001	-9.446212e+001	8.248171e+001	-3.289977e+001	1.530156e+002
1.095109e+007	-3.632752e+001	-1.783218e+002	-3.035079e+001	-2.500133e+001	-9.802292e+001	9.602182e+001	-3.290319e+001	1.529840e+002
1.095109e+007	-3.631458e+001	-1.782872e+002	-3.035374e+001	-2.500422e+001	-9.510522e+001	1.169040e+002	-3.289987e+001	1.529767e+002
1.095110e+007	-3.630929e+001	-1.783739e+002	-3.035611e+001	-2.507003e+001	-9.665175e+001	9.546659e+001	-3.289537e+001	1.529970e+002
1.095111e+007	-3.632685e+001	-1.784331e+002	-3.035024e+001	-2.507141e+001	-9.718590e+001	1.184152e+002	-3.291306e+001	1.529179e+002
1.095112e+007	-3.632209e+001	-1.782882e+002	-3.034706e+001	-2.515182e+001	-9.626670e+001	1.007324e+002	-3.290573e+001	1.530008e+002
1.095113e+007	-3.633460e+001	-1.783075e+002	-3.035797e+001	-2.517838e+001	-9.853877e+001	7.426551e+001	-3.291697e+001	1.530188e+002
1.095113e+007	-3.633348e+001	-1.782587e+002	-3.035841e+001	-2.518288e+001	-9.686697e+001	1.026185e+002	-3.290326e+001	1.529216e+002
1.095114e+007	-3.632143e+001	-1.782293e+002	-3.035390e+001	-2.521176e+001	-1.006287e+002	1.040159e+002	-3.289950e+001	1.530045e+002
1.095115e+007	-3.629829e+001	-1.782525e+002	-3.037016e+001	-2.526626e+001	-9.961730e+001	6.441726e+001	-3.289538e+001	1.529563e+002
1.095116e+007	-3.633186e+001	-1.783666e+002	-3.037312e+001	-2.532340e+001	-9.644028e+001	1.111725e+002	-3.290743e+001	1.529783e+002
