!CETC41,AV3656A,ZGL00048,1.3.2
!Calibration ON (Full Solt 2-Port(Omit Isolation))
!Measurements: S11 S21 S12 S22
!2025-04-18 22:11
# Hz  S  dB  R 50.000
1.095000e+007	-3.618346e+001	1.799336e+002	-3.068952e+001	-2.334131e+001	-9.436525e+001	1.038076e+002	-3.337674e+001	1.528818e+002
1.095001e+007	-3.617329e+001	1.799351e+002	-3.067666e+001	-2.320061e+001	-9.371902e+001	7.310313e+001	-3.336220e+001	1.529128e+002
1.095002e+007	-3.617762e+001	1.799517e+002	-3.068542e+001	-2.334811e+001	-9.527864e+001	9.062389e+001	-3.336160e+001	1.527957e+002
1.095002e+007	-3.619549e+001	1.798534e+002	-3.068489e+001	-2.322059e+001	-9.666950e+001	7.214623e+001	-3.335937e+001	1.529237e+002
1.095003e+007	-3.619090e+001	1.799598e+002	-3.069146e+001	-2.336277e+001	-9.953208e+001	9.232227e+001	-3.336681e+001	1.528617e+002
1.095004e+007	-3.619262e+001	-1.799411e+002	-3.069522e+001	-2.318609e+001	-9.761915e+001	9.012379e+001	-3.337796e+001	1.529673e+002
1.095005e+007	-3.618698e+001	1.799061e+002	-3.068029e+001	-2.332626e+001	-9.584342e+001	1.103252e+002	-3.337263e+001	1.528112e+002
1.095005e+007	-3.619978e+001	1.799590e+002	-3.069172e+001	-2.320905e+001	-9.680042e+001	1.011809e+002	-3.336641e+001	1.529317e+002
1.095006e+007	-3.618781e+001	1.799551e+002	-3.067538e+001	-2.333511e+001	-9.136623e+001	7.758804e+001	-3.335982e+001	1.528032e+002
1.095007e+007	-3.618368e+001	-1.799954e+002	-3.069239e+001	-2.320423e+001	-9.532708e+001	1.079058e+002	-3.335439e+001	1.529834e+002
1.095008e+007	-3.619327e+001	1.799892e+002	-3.068038e+001	-2.331988e+001	-9.722067e+001	8.910006e+001	-3.336270e+001	1.528576e+002
1.095009e+007	-3.618029e+001	1.799596e+002	-3.067856e+001	-2.323065e+001	-9.710054e+001	9.350489e+001	-3.336343e+001	1.529327e+002
1.095009e+007	-3.618365e+001	1.798819e+002	-3.069950e+001	-2.335261e+001	-9.470430e+001	8.357572e+001	-3.337273e+001	1.528512e+002
1.095010e+007	-3.618247e+001	1.799772e+002	-3.067672e+001	-2.323945e+001	-9.782660e+001	1.097482e+002	-3.336376e+001	1.529383e+002
1.095011e+007	-3.617757e+001	1.799716e+002	-3.068763e+001	-2.334234e+001	-9.655621e+001	9.382109e+001	-3.336727e+001	1.528849e+002
1.095012e+007	-3.618615e+001	1.799477e+002	-3.068371e+001	-2.327816e+001	-9.394687e+001	8.344578e+001	-3.335795e+001	1.528830e+002
1.095013e+007	-3.619270e+001	1.799220e+002	-3.070046e+001	-2.329955e+001	-9.498995e+001	9.233328e+001	-3.337839e+001	1.529444e+002
1.095013e+007	-3.617634e+001	1.799145e+002	-3.068139e+001	-2.337241e+001	-9.576091e+001	8.967778e+001	-3.335785e+001	1.528184e+002
1.095014e+007	-3.619175e+001	1.799687e+002	-3.069585e+001	-2.318057e+001	-9.826563e+001	1.111970e+002	-3.334930e+001	1.528720e+002
1.095015e+007	-3.619476e+001	1.799853e+002	-3.069362e+001	-2.332878e+001	-9.613880e+001	9.459603e+001	-3.338207e+001	1.528103e+002
1.095016e+007	-3.617883e+001	1.799558e+002	-3.067783e+001	-2.325596e+001	-9.700398e+001	8.015987e+001	-3.335443e+001	1.527878e+002
1.095016e+007	-3.619523e+001	1.799221e+002	-3.069941e+001	-2.326707e+001	-9.844954e+001	9.916734e+001	-3.337987e+001	1.529246e+002
1.095017e+007	-3.617797e+001	-1.799793e+002	-3.067602e+001	-2.332320e+001	-9.675693e+001	1.017385e+002	-3.336492e+001	1.528507e+002
1.095018e+007	-3.619287e+001	1.799478e+002	-3.068161e+001	-2.324963e+001	-9.736169e+001	1.100583e+002	-3.335569e+001	1.529431e+002
1.095019e+007	-3.619369e+001	1.799763e+002	-3.069079e+001	-2.335355e+001	-9.644485e+001	1.181755e+002	-3.337802e+001	1.529111e+002
1.095020e+007	-3.617431e+001	1.799157e+002	-3.067638e+001	-2.327946e+001	-9.796139e+001	8.544117e+001	-3.335751e+001	1.527881e+002
1.095020e+007	-3.618190e+001	1.799619e+002	-3.068799e+001	-2.324200e+001	-9.420330e+001	8.112506e+001	-3.336698e+001	1.529363e+002
1.095021e+007	-3.617762e+001	1.798920e+002	-3.067802e+001	-2.335489e+001	-9.538516e+001	9.967383e+001	-3.336865e+001	1.528488e+002
1.095022e+007	-3.620104e+001	-1.799893e+002	-3.067943e+001	-2.336120e+001	-9.678109e+001	8.730541e+001	-3.336254e+001	1.527723e+002
1.095023e+007	-3.618883e+001	1.799905e+002	-3.069623e+001	-2.321810e+001	-9.643541e+001	8.380338e+001	-3.335353e+001	1.529235e+002
1.095023e+007	-3.618892e+001	1.799343e+002	-3.069007e+001	-2.332375e+001	-9.420758e+001	1.177594e+002	-3.338190e+001	1.528756e+002
1.095024e+007	-3.618646e+001	1.799355e+002	-3.067491e+001	-2.328329e+001	-9.642253e+001	8.276078e+001	-3.337453e+001	1.528120e+002
1.095025e+007	-3.618583e+001	-1.799916e+002	-3.067938e+001	-2.321096e+001	-9.271381e+001	8.904964e+001	-3.335793e+001	1.529358e+002
1.095026e+007	-3.620242e+001	1.799521e+002	-3.068324e+001	-2.330495e+001	-9.612634e+001	8.609222e+001	-3.337017e+001	1.529280e+002
1.095027e+007	-3.619138e+001	1.799506e+002	-3.068230e+001	-2.329342e+001	-9.783157e+001	8.339930e+001	-3.335264e+001	1.528107e+002
1.095027e+007	-3.617580e+001	-1.799729e+002	-3.068680e+001	-2.324305e+001	-9.595853e+001	9.448718e+001	-3.337579e+001	1.528081e+002
1.095028e+007	-3.618253e+001	-1.799668e+002	-3.068270e+001	-2.325134e+001	-9.541162e+001	9.216701e+001	-3.336558e+001	1.528917e+002
1.095029e+007	-3.618731e+001	-1.799545e+002	-3.068141e+001	-2.323488e+001	-9.576968e+001	8.250062e+001	-3.336953e+001	1.528882e+002
1.095030e+007	-3.618822e+001	1.798872e+002	-3.067345e+001	-2.324999e+001	-9.330724e+001	1.018947e+002	-3.336657e+001	1.527953e+002
1.095030e+007	-3.618278e+001	1.799845e+002	-3.067691e+001	-2.328970e+001	-9.523992e+001	7.783288e+001	-3.335233e+001	1.528973e+002
1.095031e+007	-3.618640e+001	1.799422e+002	-3.068855e+001	-2.328722e+001	-9.501541e+001	8.981198e+001	-3.337427e+001	1.529237e+002
1.095032e+007	-3.618960e+001	1.799455e+002	-3.069067e+001	-2.332784e+001	-9.432012e+001	8.844357e+001	-3.337021e+001	1.527961e+002
1.095033e+007	-3.619847e+001	-1.799746e+002	-3.068247e+001	-2.325158e+001	-9.715580e+001	1.008466e+002	-3.335861e+001	1.528227e+002
1.095034e+007	-3.618012e+001	1.799395e+002	-3.068544e+001	-2.322373e+001	-9.426359e+001	8.710426e+001	-3.335685e+001	1.529622e+002
1.095034e+007	-3.619840e+001	1.799478e+002	-3.067546e+001	-2.328669e+001	-9.662120e+001	7.439704e+001	-3.337091e+001	1.528592e+002
1.095035e+007	-3.619251e+001	1.798589e+002	-3.068122e+001	-2.328214e+001	-9.802783e+001	9.769870e+001	-3.337387e+001	1.528691e+002
1.095036e+007	-3.617605e+001	-1.799202e+002	-3.068968e+001	-2.323541e+001	-9.900671e+001	8.375352e+001	-3.337165e+001	1.528277e+002
1.095037e+007	-3.619483e+001	1.799873e+002	-3.068010e+001	-2.334970e+001	-9.646746e+001	8.099529e+001	-3.336593e+001	1.528501e+002
1.095038e+007	-3.620803e+001	-1.799409e+002	-3.068238e+001	-2.334841e+001	-9.500993e+001	8.905414e+001	-3.336462e+001	1.528954e+002
1.095038e+007	-3.619730e+001	1.799570e+002	-3.067506e+001	-2.330715e+001	-9.457277e+001	1.111339e+002	-3.337406e+001	1.528751e+002
1.095039e+007	-3.620442e+001	1.799530e+002	-3.068403e+001	-2.327456e+001	-9.435651e+001	8.470757e+001	-3.337483e+001	1.529112e+002
1.095040e+007	-3.620601e+001	1.798204e+002	-3.068337e+001	-2.328230e+001	-9.533806e+001	1.110873e+002	-3.336197e+001	1.528749e+002
1.095041e+007	-3.620275e+001	-1.799679e+002	-3.067429e+001	-2.324723e+001	-9.386738e+001	8.710544e+001	-3.337249e+001	1.528334e+002
1.095041e+007	-3.619384e+001	1.799999e+002	-3.067884e+001	-2.327022e+001	-9.480825e+001	8.754392e+001	-3.336406e+001	1.529031e+002
1.095042e+007	-3.620741e+001	1.799554e+002	-3.069270e+001	-2.333042e+001	-9.516077e+001	1.226407e+002	-3.337166e+001	1.528868e+002
1.095043e+007	-3.619943e+001	1.799332e+002	-3.068711e+001	-2.330645e+001	-9.681885e+001	8.639359e+001	-3.336502e+001	1.529435e+002
1.095044e+007	-3.619679e+001	-1.799064e+002	-3.067450e+001	-2.328055e+001	-9.764756e+001	1.094861e+002	-3.336048e+001	1.528968e+002
1.095045e+007	-3.618006e+001	1.799545e+002	-3.066590e+001	-2.327086e+001	-9.427343e+001	1.088218e+002	-3.335661e+001	1.529738e+002
1.095045e+007	-3.618245e+001	1.799298e+002	-3.068005e+001	-2.319299e+001	-9.484205e+001	9.890885e+001	-3.336308e+001	1.528868e+002
1.095046e+007	-3.618317e+001	1.798532e+002	-3.066829e+001	-2.329925e+001	-1.007356e+002	9.489488e+001	-3.337379e+001	1.528214e+002
1.095047e+007	-3.619700e+001	1.799708e+002	-3.067827e+001	-2.319514e+001	-9.671911e+001	7.277861e+001	-3.336239e+001	1.528424e+002
1.095048e+007	-3.619674e+001	1.799600e+002	-3.067616e+001	-2.320077e+001	-9.578375e+001	1.039237e+002	-3.336466e+001	1.528906e+002
1.095048e+007	-3.619926e+001	1.799480e+002	-3.069169e+001	-2.328166e+001	-9.354500e+001	9.167903e+001	-3.336331e+001	1.528678e+002
1.095049e+007	-3.620662e+001	-1.799831e+002	-3.068620e+001	-2.322812e+001	-9.802936e+001	9.436147e+001	-3.335969e+001	1.528637e+002
1.095050e+007	-3.618249e+001	1.799784e+002	-3.067165e+001	-2.341429e+001	-9.584567e+001	9.326095e+001	-3.336180e+001	1.528726e+002
1.095051e+007	-3.618200e+001	1.799133e+002	-3.068048e+001	-2.327401e+001	-9.492605e+001	9.961507e+001	-3.335870e+001	1.528820e+002
1.095052e+007	-3.618614e+001	1.799787e+002	-3.066833e+001	-2.330542e+001	-1.008536e+002	7.720866e+001	-3.337157e+001	1.528743e+002
1.095052e+007	-3.617886e+001	1.799368e+002	-3.068648e+001	-2.326460e+001	-9.762180e+001	8.758129e+001	-3.336351e+001	1.528276e+002
1.095053e+007	-3.618301e+001	1.799837e+002	-3.068008e+001	-2.335143e+001	-9.558042e+001	1.119166e+002	-3.335818e+001	1.528886e+002
1.095054e+007	-3.618986e+001	-1.799795e+002	-3.067505e+001	-2.325514e+001	-9.696694e+001	8.783016e+001	-3.336744e+001	1.527898e+002
1.095055e+007	-3.619180e+001	-1.799144e+002	-3.067273e+001	-2.323758e+001	-9.606167e+001	1.032961e+002	-3.337295e+001	1.528794e+002
1.095055e+007	-3.618381e+001	1.798927e+002	-3.067347e+001	-2.334382e+001	-9.689878e+001	9.112715e+001	-3.336569e+001	1.528555e+002
1.095056e+007	-3.619692e+001	1.799492e+002	-3.067997e+001	-2.322876e+001	-1.002026e+002	1.028825e+002	-3.336825e+001	1.528743e+002
1.095057e+007	-3.619820e+001	-1.799918e+002	-3.066674e+001	-2.331469e+001	-9.771746e+001	1.015195e+002	-3.336324e+001	1.528364e+002
1.095058e+007	-3.617368e+001	1.798996e+002	-3.067575e+001	-2.326953e+001	-9.716153e+001	1.014265e+002	-3.337511e+001	1.529092e+002
1.095059e+007	-3.618793e+001	1.799849e+002	-3.067507e+001	-2.331272e+001	-9.507367e+001	9.429424e+001	-3.336604e+001	1.528763e+002
1.095059e+007	-3.618829e+001	-1.799824e+002	-3.066538e+001	-2.333118e+001	-9.506628e+001	9.239737e+001	-3.336279e+001	1.527642e+002
1.095060e+007	-3.618236e+001	1.798909e+002	-3.066899e+001	-2.335666e+001	-9.466595e+001	9.633352e+001	-3.337844e+001	1.528671e+002
1.095061e+007	-3.618478e+001	1.799152e+002	-3.067731e+001	-2.334335e+001	-9.598092e+001	9.495544e+001	-3.336106e+001	1.529029e+002
1.095062e+007	-3.616799e+001	1.799887e+002	-3.067480e+001	-2.332194e+001	-9.730465e+001	1.057823e+002	-3.336944e+001	1.528993e+002
1.095063e+007	-3.618686e+001	1.799186e+002	-3.067821e+001	-2.332395e+001	-9.656545e+001	1.011107e+002	-3.337099e+001	1.528554e+002
1.095063e+007	-3.618266e+001	1.799669e+002	-3.067828e+001	-2.332945e+001	-9.641570e+001	8.663561e+001	-3.336979e+001	1.528856e+002
1.095064e+007	-3.618356e+001	1.799557e+002	-3.068195e+001	-2.329928e+001	-9.705202e+001	9.321083e+001	-3.336108e+001	1.529151e+002
1.095065e+007	-3.618035e+001	1.799436e+002	-3.069121e+001	-2.328782e+001	-9.796091e+001	9.574233e+001	-3.337211e+001	1.528256e+002
1.095066e+007	-3.618782e+001	1.799294e+002	-3.068890e+001	-2.334593e+001	-9.587879e+001	8.562977e+001	-3.336183e+001	1.528346e+002
1.095066e+007	-3.620611e+001	1.798947e+002	-3.070061e+001	-2.324710e+001	-9.590340e+001	9.830759e+001	-3.336622e+001	1.528495e+002
1.095067e+007	-3.619513e+001	1.799741e+002	-3.068053e+001	-2.328322e+001	-9.971297e+001	7.847407e+001	-3.336763e+001	1.529047e+002
1.095068e+007	-3.620560e+001	-1.799959e+002	-3.067263e+001	-2.322872e+001	-9.978223e+001	9.068473e+001	-3.336125e+001	1.528546e+002
1.095069e+007	-3.619924e+001	1.799001e+002	-3.069055e+001	-2.321609e+001	-9.289036e+001	9.462806e+001	-3.336759e+001	1.528595e+002
1.095070e+007	-3.619366e+001	-1.799841e+002	-3.066196e+001	-2.328678e+001	-9.415649e+001	8.641430e+001	-3.337416e+001	1.528879e+002
1.095070e+007	-3.619938e+001	1.799438e+002	-3.067787e+001	-2.331814e+001	-9.516527e+001	1.008099e+002	-3.336184e+001	1.528874e+002
1.095071e+007	-3.618146e+001	-1.799955e+002	-3.066783e+001	-2.331748e+001	-9.559879e+001	9.182053e+001	-3.336364e+001	1.528886e+002
1.095072e+007	-3.618005e+001	1.798873e+002	-3.067531e+001	-2.332636e+001	-9.559844e+001	9.755615e+001	-3.336605e+001	1.528742e+002
1.095073e+007	-3.618400e+001	-1.798338e+002	-3.068836e+001	-2.330818e+001	-9.566788e+001	1.108943e+002	-3.335202e+001	1.528848e+002
1.095073e+007	-3.618071e+001	1.799998e+002	-3.068423e+001	-2.330258e+001	-9.546165e+001	9.139858e+001	-3.336306e+001	1.528460e+002
1.095074e+007	-3.620049e+001	1.799733e+002	-3.067579e+001	-2.329225e+001	-9.790831e+001	7.745529e+001	-3.335664e+001	1.529262e+002
1.095075e+007	-3.618422e+001	1.799734e+002	-3.067090e+001	-2.332517e+001	-9.726439e+001	9.073517e+001	-3.336056e+001	1.528719e+002
1.095076e+007	-3.620287e+001	1.799551e+002	-3.067455e+001	-2.323545e+001	-9.531742e+001	8.565004e+001	-3.334752e+001	1.528958e+002
1.095077e+007	-3.618012e+001	1.799199e+002	-3.068109e+001	-2.331957e+001	-9.776789e+001	1.045260e+002	-3.336886e+001	1.529415e+002
1.095077e+007	-3.619643e+001	-1.799947e+002	-3.067795e+001	-2.325644e+001	-9.602467e+001	1.032812e+002	-3.336814e+001	1.529047e+002
1.095078e+007	-3.618667e+001	1.799761e+002	-3.067957e+001	-2.330573e+001	-9.470062e+001	8.617959e+001	-3.336168e+001	1.529323e+002
1.095079e+007	-3.618354e+001	1.799643e+002	-3.068584e+001	-2.329859e+001	-9.604004e+001	8.895241e+001	-3.337777e+001	1.528291e+002
1.095080e+007	-3.619834e+001	1.799882e+002	-3.068712e+001	-2.327460e+001	-9.748322e+001	1.299161e+002	-3.336175e+001	1.528257e+002
1.095080e+007	-3.617405e+001	-1.799842e+002	-3.067195e+001	-2.334741e+001	-9.329583e+001	7.741694e+001	-3.336711e+001	1.528851e+002
1.095081e+007	-3.618743e+001	1.798563e+002	-3.068158e+001	-2.329816e+001	-9.590684e+001	8.620252e+001	-3.336683e+001	1.528800e+002
1.095082e+007	-3.618756e+001	-1.799557e+002	-3.067769e+001	-2.326542e+001	-9.611954e+001	1.004085e+002	-3.336347e+001	1.528923e+002
1.095083e+007	-3.618074e+001	1.799349e+002	-3.067680e+001	-2.322942e+001	-9.820885e+001	9.203175e+001	-3.336782e+001	1.528106e+002
1.095084e+007	-3.618583e+001	1.799391e+002	-3.068252e+001	-2.323260e+001	-9.532306e+001	9.371398e+001	-3.337049e+001	1.528998e+002
1.095084e+007	-3.617285e+001	1.799272e+002	-3.068479e+001	-2.326373e+001	-9.596252e+001	9.901110e+001	-3.336465e+001	1.529015e+002
1.095085e+007	-3.617778e+001	-1.799980e+002	-3.068239e+001	-2.328901e+001	-9.873914e+001	1.076295e+002	-3.336899e+001	1.528236e+002
1.095086e+007	-3.621241e+001	1.799358e+002	-3.067421e+001	-2.328990e+001	-9.700620e+001	9.672981e+001	-3.336794e+001	1.528319e+002
1.095087e+007	-3.619184e+001	1.799433e+002	-3.068669e+001	-2.332110e+001	-9.664348e+001	8.702127e+001	-3.337509e+001	1.528851e+002
1.095088e+007	-3.617504e+001	-1.799483e+002	-3.067070e+001	-2.325252e+001	-9.731823e+001	9.185912e+001	-3.336613e+001	1.528656e+002
1.095088e+007	-3.621325e+001	-1.799072e+002	-3.067804e+001	-2.329678e+001	-9.728438e+001	9.475567e+001	-3.336900e+001	1.528326e+002
1.095089e+007	-3.619063e+001	1.799455e+002	-3.068373e+001	-2.329290e+001	-9.458594e+001	8.405421e+001	-3.336600e+001	1.528465e+002
1.095090e+007	-3.618345e+001	1.799080e+002	-3.067450e+001	-2.325187e+001	-9.657341e+001	1.107422e+002	-3.337624e+001	1.528906e+002
1.095091e+007	-3.618741e+001	1.798927e+002	-3.066965e+001	-2.324504e+001	-9.827071e+001	1.060237e+002	-3.336631e+001	1.528249e+002
1.095091e+007	-3.617886e+001	-1.799378e+002	-3.067404e+001	-2.328299e+001	-9.689119e+001	7.508064e+001	-3.336592e+001	1.528799e+002
1.095092e+007	-3.618896e+001	-1.799189e+002	-3.066759e+001	-2.325621e+001	-9.803359e+001	9.799071e+001	-3.336186e+001	1.529085e+002
1.095093e+007	-3.618938e+001	1.799384e+002	-3.066590e+001	-2.325273e+001	-9.618629e+001	8.748451e+001	-3.334985e+001	1.528619e+002
1.095094e+007	-3.619480e+001	1.799706e+002	-3.067933e+001	-2.330000e+001	-1.006604e+002	8.814624e+001	-3.336590e+001	1.529106e+002
1.095095e+007	-3.620825e+001	1.798627e+002	-3.067725e+001	-2.325157e+001	-9.601861e+001	1.054669e+002	-3.337302e+001	1.529345e+002
1.095095e+007	-3.618074e+001	1.798767e+002	-3.066550e+001	-2.326013e+001	-1.030973e+002	1.001895e+002	-3.335898e+001	1.528939e+002
1.095096e+007	-3.618514e+001	1.799923e+002	-3.068219e+001	-2.332987e+001	-9.510045e+001	9.961314e+001	-3.336426e+001	1.528449e+002
1.095097e+007	-3.619996e+001	-1.799792e+002	-3.067670e+001	-2.321410e+001	-9.479842e+001	9.902938e+001	-3.336682e+001	1.529042e+002
1.095098e+007	-3.620069e+001	-1.799641e+002	-3.068421e+001	-2.337949e+001	-9.649858e+001	9.316948e+001	-3.335585e+001	1.528226e+002
1.095098e+007	-3.620952e+001	-1.799854e+002	-3.068742e+001	-2.326272e+001	-9.583639e+001	1.039644e+002	-3.335448e+001	1.528868e+002
1.095099e+007	-3.619919e+001	1.799032e+002	-3.066125e+001	-2.329683e+001	-9.641817e+001	9.582142e+001	-3.336744e+001	1.528688e+002
1.095100e+007	-3.618040e+001	1.799818e+002	-3.067369e+001	-2.332777e+001	-9.984966e+001	8.689681e+001	-3.336152e+001	1.529353e+002
1.095101e+007	-3.618345e+001	1.798608e+002	-3.067781e+001	-2.328499e+001	-9.787022e+001	9.099244e+001	-3.335222e+001	1.529398e+002
1.095102e+007	-3.619593e+001	1.799060e+002	-3.066936e+001	-2.338452e+001	-9.443580e+001	1.040203e+002	-3.335621e+001	1.528940e+002
1.095102e+007	-3.619819e+001	1.799755e+002	-3.069346e+001	-2.329029e+001	-9.465628e+001	1.139431e+002	-3.336623e+001	1.529393e+002
1.095103e+007	-3.619580e+001	-1.799913e+002	-3.066646e+001	-2.319280e+001	-9.472171e+001	1.029614e+002	-3.336322e+001	1.528562e+002
1.095104e+007	-3.619483e+001	-1.799677e+002	-3.067951e+001	-2.333539e+001	-9.547134e+001	8.417228e+001	-3.336264e+001	1.528978e+002
1.095105e+007	-3.619225e+001	1.798977e+002	-3.066836e+001	-2.322962e+001	-9.663866e+001	8.951818e+001	-3.335795e+001	1.528992e+002
1.095105e+007	-3.620149e+001	1.798379e+002	-3.067712e+001	-2.333849e+001	-9.677070e+001	9.893789e+001	-3.336216e+001	1.529223e+002
1.095106e+007	-3.620773e+001	1.798721e+002	-3.068119e+001	-2.325476e+001	-9.720477e+001	1.123456e+002	-3.336687e+001	1.529734e+002
1.095107e+007	-3.619162e+001	1.798719e+002	-3.066867e+001	-2.338682e+001	-9.588044e+001	9.157027e+001	-3.336092e+001	1.528891e+002
1.095108e+007	-3.619804e+001	-1.799978e+002	-3.066805e+001	-2.324698e+001	-9.611008e+001	1.013265e+002	-3.335542e+001	1.529149e+002
1.095109e+007	-3.617714e+001	-1.798914e+002	-3.067046e+001	-2.337256e+001	-9.536915e+001	1.168401e+002	-3.335950e+001	1.528939e+002
1.095109e+007	-3.618285e+001	-1.799984e+002	-3.066453e+001	-2.324868e+001	-9.777876e+001	8.850270e+001	-3.335086e+001	1.528727e+002
1.095110e+007	-3.617442e+001	1.799788e+002	-3.067002e+001	-2.333384e+001	-9.400579e+001	1.099264e+002	-3.335025e+001	1.528702e+002
1.095111e+007	-3.619698e+001	1.799803e+002	-3.066933e+001	-2.325388e+001	-9.790855e+001	1.028711e+002	-3.336234e+001	1.529397e+002
1.095112e+007	-3.619137e+001	1.799773e+002	-3.066761e+001	-2.332242e+001	-9.729873e+001	1.047051e+002	-3.335362e+001	1.528964e+002
1.095113e+007	-3.618927e+001	-1.799814e+002	-3.068123e+001	-2.320048e+001	-9.491124e+001	9.857561e+001	-3.337636e+001	1.528965e+002
1.095113e+007	-3.618604e+001	1.799328e+002	-3.066784e+001	-2.337064e+001	-9.707117e+001	9.803983e+001	-3.336436e+001	1.527969e+002
1.095114e+007	-3.617822e+001	1.799973e+002	-3.067194e+001	-2.319205e+001	-9.484538e+001	6.795634e+001	-3.336805e+001	1.529538e+002
1.095115e+007	-3.618757e+001	1.799949e+002	-3.067631e+001	-2.334041e+001	-9.677177e+001	1.038062e+002	-3.335120e+001	1.528652e+002
1.095116e+007	-3.617346e+001	1.799662e+002	-3.067067e+001	-2.320870e+001	-9.381894e+001	8.856775e+001	-3.336045e+001	1.527885e+002
1.095116e+007	-3.620139e+001	1.798975e+002	-3.068196e+001	-2.328349e+001	-9.653936e+001	1.083355e+002	-3.336976e+001	1.528191e+002
