# Hz S dB R 50.000
3.623125e+06	-4.326253e+01	-9.397221e+01	-3.095446e+01	-7.756916e+00	-9.211109e+01	1.410808e+02	-4.944267e+01	2.482956e+01
3.623156e+06	-4.325688e+01	-9.399018e+01	-3.095955e+01	-7.734958e+00	-9.400200e+01	1.269510e+02	-4.945142e+01	2.482904e+01
3.623188e+06	-4.325123e+01	-9.400812e+01	-3.096465e+01	-7.712975e+00	-9.540954e+01	1.060421e+02	-4.946019e+01	2.482852e+01
3.623219e+06	-4.324559e+01	-9.402604e+01	-3.096975e+01	-7.690966e+00	-9.545822e+01	8.107968e+01	-4.946896e+01	2.482800e+01
3.623250e+06	-4.323994e+01	-9.404393e+01	-3.097485e+01	-7.668930e+00	-9.410833e+01	5.977613e+01	-4.947774e+01	2.482748e+01
3.623281e+06	-4.323435e+01	-9.406162e+01	-3.097988e+01	-7.647109e+00	-9.223460e+01	4.539717e+01	-4.948646e+01	2.482661e+01
3.623312e+06	-4.323418e+01	-9.405648e+01	-3.097664e+01	-7.655029e+00	-9.143319e+01	4.886674e+01	-4.948616e+01	2.478232e+01
3.623344e+06	-4.323402e+01	-9.405133e+01	-3.097339e+01	-7.662942e+00	-9.067506e+01	5.176554e+01	-4.948585e+01	2.473803e+01
3.623375e+06	-4.323385e+01	-9.404619e+01	-3.097014e+01	-7.670850e+00	-8.996051e+01	5.421196e+01	-4.948554e+01	2.469375e+01
3.623406e+06	-4.323369e+01	-9.404105e+01	-3.096690e+01	-7.678751e+00	-8.928779e+01	5.629708e+01	-4.948523e+01	2.464947e+01
3.623438e+06	-4.323352e+01	-9.403590e+01	-3.096365e+01	-7.686647e+00	-8.865423e+01	5.809095e+01	-4.948491e+01	2.460519e+01
3.623469e+06	-4.323791e+01	-9.403586e+01	-3.096454e+01	-7.680710e+00	-9.013603e+01	7.000692e+01	-4.947186e+01	2.454960e+01
3.623500e+06	-4.324237e+01	-9.403590e+01	-3.096550e+01	-7.674548e+00	-9.132886e+01	8.657739e+01	-4.945863e+01	2.449399e+01
3.623531e+06	-4.324684e+01	-9.403593e+01	-3.096646e+01	-7.668384e+00	-9.170122e+01	1.065462e+02	-4.944540e+01	2.443856e+01
3.623562e+06	-4.325130e+01	-9.403597e+01	-3.096742e+01	-7.662218e+00	-9.103672e+01	1.258278e+02	-4.943219e+01	2.438329e+01
3.623594e+06	-4.325577e+01	-9.403601e+01	-3.096838e+01	-7.656051e+00	-8.969951e+01	1.410312e+02	-4.941899e+01	2.432819e+01
3.623625e+06	-4.325354e+01	-9.405761e+01	-3.096900e+01	-7.635470e+00	-9.284413e+01	1.520468e+02	-4.942548e+01	2.430532e+01
3.623656e+06	-4.325124e+01	-9.407936e+01	-3.096961e+01	-7.614770e+00	-9.664371e+01	1.772031e+02	-4.943214e+01	2.428267e+01
3.623688e+06	-4.324895e+01	-9.410111e+01	-3.097022e+01	-7.594068e+00	-9.766076e+01	-1.350540e+02	-4.943880e+01	2.425999e+01
3.623719e+06	-4.324665e+01	-9.412285e+01	-3.097082e+01	-7.573362e+00	-9.415846e+01	-1.012767e+02	-4.944547e+01	2.423728e+01
3.623750e+06	-4.324436e+01	-9.414457e+01	-3.097143e+01	-7.552653e+00	-9.068533e+01	-8.685570e+01	-4.945214e+01	2.421453e+01
3.623781e+06	-4.325265e+01	-9.414169e+01	-3.096862e+01	-7.547939e+00	-9.040551e+01	-8.503720e+01	-4.945048e+01	2.426062e+01
3.623812e+06	-4.326094e+01	-9.413881e+01	-3.096581e+01	-7.543228e+00	-9.012648e+01	-8.333206e+01	-4.944881e+01	2.430669e+01
3.623844e+06	-4.326925e+01	-9.413593e+01	-3.096300e+01	-7.538521e+00	-8.984913e+01	-8.173275e+01	-4.944714e+01	2.435274e+01
3.623875e+06	-4.327756e+01	-9.413303e+01	-3.096019e+01	-7.533816e+00	-8.957422e+01	-8.023197e+01	-4.944546e+01	2.439877e+01
3.623906e+06	-4.328577e+01	-9.412941e+01	-3.095740e+01	-7.528972e+00	-8.932929e+01	-7.879926e+01	-4.944392e+01	2.444531e+01
3.623938e+06	-4.328111e+01	-9.403522e+01	-3.095704e+01	-7.506517e+00	-9.311444e+01	-7.210495e+01	-4.946071e+01	2.455645e+01
3.623969e+06	-4.327642e+01	-9.394113e+01	-3.095668e+01	-7.484063e+00	-9.916770e+01	-5.089180e+01	-4.947751e+01	2.466803e+01
3.624000e+06	-4.327171e+01	-9.384714e+01	-3.095632e+01	-7.461611e+00	-1.018103e+02	2.907688e+01	-4.949429e+01	2.478004e+01
3.624031e+06	-4.326698e+01	-9.375326e+01	-3.095596e+01	-7.439160e+00	-9.491445e+01	6.619485e+01	-4.951108e+01	2.489248e+01
3.624062e+06	-4.326223e+01	-9.365948e+01	-3.095560e+01	-7.416712e+00	-9.050150e+01	7.564193e+01	-4.952787e+01	2.500536e+01
3.624094e+06	-4.325642e+01	-9.370764e+01	-3.095250e+01	-7.414083e+00	-9.376662e+01	6.766576e+01	-4.951918e+01	2.490443e+01
3.624125e+06	-4.325060e+01	-9.375803e+01	-3.094935e+01	-7.411778e+00	-9.849326e+01	4.655470e+01	-4.951005e+01	2.480024e+01
3.624156e+06	-4.324477e+01	-9.380836e+01	-3.094621e+01	-7.409475e+00	-1.011754e+02	-1.113810e+01	-4.950090e+01	2.469627e+01
3.624188e+06	-4.323894e+01	-9.385862e+01	-3.094307e+01	-7.407173e+00	-9.648726e+01	-5.327456e+01	-4.949174e+01	2.459252e+01
3.624219e+06	-4.323311e+01	-9.390882e+01	-3.093994e+01	-7.404873e+00	-9.231955e+01	-6.728072e+01	-4.948255e+01	2.448899e+01
3.624250e+06	-4.324424e+01	-9.391168e+01	-3.093942e+01	-7.388110e+00	-9.433498e+01	-6.518694e+01	-4.946694e+01	2.441998e+01
3.624281e+06	-4.325552e+01	-9.391417e+01	-3.093893e+01	-7.371232e+00	-9.700745e+01	-6.143395e+01	-4.945129e+01	2.435151e+01
3.624312e+06	-4.326682e+01	-9.391667e+01	-3.093843e+01	-7.354356e+00	-1.007654e+02	-5.354610e+01	-4.943566e+01	2.428327e+01
3.624344e+06	-4.327813e+01	-9.391917e+01	-3.093794e+01	-7.337482e+00	-1.064725e+02	-2.946359e+01	-4.942004e+01	2.421528e+01
3.624375e+06	-4.328946e+01	-9.392168e+01	-3.093744e+01	-7.320610e+00	-1.081687e+02	4.366040e+01	-4.940444e+01	2.414754e+01
3.624406e+06	-4.328250e+01	-9.397817e+01	-3.093639e+01	-7.310920e+00	-1.112455e+02	1.116888e+00	-4.943408e+01	2.417141e+01
3.624438e+06	-4.327555e+01	-9.403457e+01	-3.093533e+01	-7.301232e+00	-1.086184e+02	-4.428774e+01	-4.946382e+01	2.419544e+01
3.624469e+06	-4.326858e+01	-9.409087e+01	-3.093428e+01	-7.291547e+00	-1.046902e+02	-6.384727e+01	-4.949366e+01	2.421964e+01
3.624500e+06	-4.326162e+01	-9.414709e+01	-3.093323e+01	-7.281864e+00	-1.016651e+02	-7.249444e+01	-4.952361e+01	2.424400e+01
3.624531e+06	-4.325472e+01	-9.420254e+01	-3.093216e+01	-7.272105e+00	-9.942006e+01	-7.706657e+01	-4.955317e+01	2.426932e+01
3.624562e+06	-4.325576e+01	-9.417322e+01	-3.093026e+01	-7.252565e+00	-1.141225e+02	-3.225552e+01	-4.952275e+01	2.439177e+01
3.624594e+06	-4.325680e+01	-9.414389e+01	-3.092834e+01	-7.233034e+00	-1.015437e+02	8.358962e+01	-4.949240e+01	2.451336e+01
3.624625e+06	-4.325784e+01	-9.411456e+01	-3.092643e+01	-7.213512e+00	-9.504550e+01	8.933382e+01	-4.946212e+01	2.463411e+01
3.624656e+06	-4.325888e+01	-9.408522e+01	-3.092452e+01	-7.193998e+00	-9.135246e+01	9.110805e+01	-4.943190e+01	2.475401e+01
3.624688e+06	-4.325991e+01	-9.405588e+01	-3.092261e+01	-7.174493e+00	-8.876632e+01	9.196903e+01	-4.940175e+01	2.487309e+01
3.624719e+06	-4.325708e+01	-9.410914e+01	-3.091905e+01	-7.180973e+00	-8.944215e+01	9.570061e+01	-4.940043e+01	2.482522e+01
3.624750e+06	-4.325417e+01	-9.416371e+01	-3.091546e+01	-7.187871e+00	-9.018186e+01	1.001716e+02	-4.939957e+01	2.477465e+01
3.624781e+06	-4.325126e+01	-9.421824e+01	-3.091188e+01	-7.194762e+00	-9.092168e+01	1.054752e+02	-4.939871e+01	2.472409e+01
3.624812e+06	-4.324834e+01	-9.427274e+01	-3.090829e+01	-7.201648e+00	-9.163395e+01	1.117473e+02	-4.939784e+01	2.467354e+01
3.624844e+06	-4.324541e+01	-9.432719e+01	-3.090471e+01	-7.208528e+00	-9.227700e+01	1.190840e+02	-4.939696e+01	2.462300e+01
3.624875e+06	-4.325133e+01	-9.422129e+01	-3.090078e+01	-7.220953e+00	-9.485544e+01	1.260415e+02	-4.941755e+01	2.468954e+01
3.624906e+06	-4.325728e+01	-9.411394e+01	-3.089686e+01	-7.233412e+00	-9.818176e+01	1.398502e+02	-4.943835e+01	2.475733e+01
3.624938e+06	-4.326322e+01	-9.400644e+01	-3.089293e+01	-7.245860e+00	-1.016107e+02	1.711487e+02	-4.945918e+01	2.482546e+01
3.624969e+06	-4.326912e+01	-9.389880e+01	-3.088901e+01	-7.258296e+00	-1.010796e+02	-1.423635e+02	-4.948006e+01	2.489391e+01
3.625000e+06	-4.327500e+01	-9.379101e+01	-3.088509e+01	-7.270721e+00	-9.747329e+01	-1.155938e+02	-4.950097e+01	2.496269e+01
3.625031e+06	-4.327219e+01	-9.379840e+01	-3.088002e+01	-7.269279e+00	-9.868090e+01	-1.393853e+02	-4.948936e+01	2.481698e+01
3.625062e+06	-4.326938e+01	-9.380578e+01	-3.087496e+01	-7.267839e+00	-9.820989e+01	-1.654327e+02	-4.947771e+01	2.467166e+01
3.625094e+06	-4.326657e+01	-9.381316e+01	-3.086990e+01	-7.266400e+00	-9.646877e+01	1.746670e+02	-4.946602e+01	2.452673e+01
3.625125e+06	-4.326376e+01	-9.382054e+01	-3.086484e+01	-7.264963e+00	-9.445003e+01	1.619116e+02	-4.945429e+01	2.438220e+01
3.625156e+06	-4.326098e+01	-9.382782e+01	-3.085980e+01	-7.263623e+00	-9.261905e+01	1.538723e+02	-4.944270e+01	2.424059e+01
3.625188e+06	-4.326060e+01	-9.382386e+01	-3.085621e+01	-7.274056e+00	-9.536934e+01	1.583159e+02	-4.945393e+01	2.441438e+01
3.625219e+06	-4.326022e+01	-9.381990e+01	-3.085262e+01	-7.284481e+00	-9.923884e+01	1.678724e+02	-4.946509e+01	2.458862e+01
3.625250e+06	-4.325985e+01	-9.381594e+01	-3.084903e+01	-7.294897e+00	-1.047803e+02	-1.627489e+02	-4.947618e+01	2.476331e+01
3.625281e+06	-4.325947e+01	-9.381198e+01	-3.084544e+01	-7.305305e+00	-1.048453e+02	-9.344274e+01	-4.948721e+01	2.493844e+01
3.625312e+06	-4.325910e+01	-9.380802e+01	-3.084186e+01	-7.315704e+00	-9.929323e+01	-6.361648e+01	-4.949817e+01	2.511402e+01
3.625344e+06	-4.326323e+01	-9.379298e+01	-3.083990e+01	-7.341598e+00	-1.014824e+02	-2.294961e+01	-4.948982e+01	2.497964e+01
3.625375e+06	-4.326745e+01	-9.377774e+01	-3.083797e+01	-7.367732e+00	-9.903654e+01	1.724648e+01	-4.948113e+01	2.484049e+01
3.625406e+06	-4.327166e+01	-9.376248e+01	-3.083604e+01	-7.393855e+00	-9.548801e+01	3.613191e+01	-4.947239e+01	2.470163e+01
3.625438e+06	-4.327588e+01	-9.374721e+01	-3.083410e+01	-7.419967e+00	-9.264065e+01	4.504841e+01	-4.946360e+01	2.456304e+01
3.625469e+06	-4.328010e+01	-9.373192e+01	-3.083217e+01	-7.446066e+00	-9.040841e+01	5.000293e+01	-4.945478e+01	2.442474e+01
3.625500e+06	-4.327776e+01	-9.375491e+01	-3.083290e+01	-7.461597e+00	-9.268535e+01	5.623389e+01	-4.944514e+01	2.446597e+01
3.625531e+06	-4.327537e+01	-9.377819e+01	-3.083365e+01	-7.477044e+00	-9.557143e+01	6.763315e+01	-4.943549e+01	2.450855e+01
3.625562e+06	-4.327298e+01	-9.380146e+01	-3.083441e+01	-7.492495e+00	-9.878552e+01	9.114428e+01	-4.942586e+01	2.455104e+01
3.625594e+06	-4.327059e+01	-9.382472e+01	-3.083516e+01	-7.507948e+00	-9.983292e+01	1.318051e+02	-4.941623e+01	2.459344e+01
3.625625e+06	-4.326820e+01	-9.384796e+01	-3.083591e+01	-7.523404e+00	-9.716226e+01	1.645236e+02	-4.940660e+01	2.463574e+01
3.625656e+06	-4.325687e+01	-9.384978e+01	-3.083441e+01	-7.553766e+00	-9.827657e+01	1.374867e+02	-4.941936e+01	2.465504e+01
3.625688e+06	-4.324556e+01	-9.385160e+01	-3.083292e+01	-7.584118e+00	-9.733551e+01	1.098591e+02	-4.943214e+01	2.467440e+01
3.625719e+06	-4.323427e+01	-9.385342e+01	-3.083142e+01	-7.614459e+00	-9.522657e+01	9.080829e+01	-4.944494e+01	2.469381e+01
3.625750e+06	-4.322299e+01	-9.385523e+01	-3.082991e+01	-7.644790e+00	-9.305313e+01	7.930873e+01	-4.945776e+01	2.471329e+01
3.625781e+06	-4.321193e+01	-9.385713e+01	-3.082843e+01	-7.675011e+00	-9.114847e+01	7.227714e+01	-4.947036e+01	2.473230e+01
3.625812e+06	-4.322736e+01	-9.387039e+01	-3.082963e+01	-7.692830e+00	-9.060940e+01	8.111880e+01	-4.945415e+01	2.468725e+01
3.625844e+06	-4.324281e+01	-9.388370e+01	-3.083082e+01	-7.710655e+00	-8.993257e+01	8.879798e+01	-4.943796e+01	2.464237e+01
3.625875e+06	-4.325829e+01	-9.389706e+01	-3.083201e+01	-7.728485e+00	-8.918173e+01	9.530774e+01	-4.942180e+01	2.459766e+01
3.625906e+06	-4.327380e+01	-9.391047e+01	-3.083321e+01	-7.746319e+00	-8.840392e+01	1.007635e+02	-4.940566e+01	2.455311e+01
3.625938e+06	-4.328933e+01	-9.392392e+01	-3.083440e+01	-7.764159e+00	-8.762945e+01	1.053243e+02	-4.938955e+01	2.450873e+01
3.625969e+06	-4.328030e+01	-9.397385e+01	-3.083503e+01	-7.767410e+00	-8.892003e+01	1.038379e+02	-4.939908e+01	2.458454e+01
3.626000e+06	-4.327088e+01	-9.402427e+01	-3.083565e+01	-7.770425e+00	-9.046979e+01	1.016458e+02	-4.940902e+01	2.466249e+01
3.626031e+06	-4.326146e+01	-9.407457e+01	-3.083627e+01	-7.773441e+00	-9.233405e+01	9.839721e+01	-4.941896e+01	2.474061e+01
3.626062e+06	-4.325204e+01	-9.412476e+01	-3.083689e+01	-7.776457e+00	-9.465156e+01	9.313514e+01	-4.942889e+01	2.481891e+01
3.626094e+06	-4.324263e+01	-9.417485e+01	-3.083752e+01	-7.779473e+00	-9.762786e+01	8.342291e+01	-4.943882e+01	2.489739e+01
3.626125e+06	-4.324736e+01	-9.408047e+01	-3.083835e+01	-7.795812e+00	-9.945091e+01	5.561944e+01	-4.942589e+01	2.491739e+01
3.626156e+06	-4.325218e+01	-9.398482e+01	-3.083919e+01	-7.812263e+00	-9.880321e+01	2.329450e+01	-4.941280e+01	2.493686e+01
3.626188e+06	-4.325699e+01	-9.388906e+01	-3.084003e+01	-7.828716e+00	-9.643729e+01	1.087130e+00	-4.939972e+01	2.495627e+01
3.626219e+06	-4.326177e+01	-9.379320e+01	-3.084087e+01	-7.845172e+00	-9.398291e+01	-1.144491e+01	-4.938667e+01	2.497562e+01
3.626250e+06	-4.326653e+01	-9.369723e+01	-3.084171e+01	-7.861632e+00	-9.187505e+01	-1.881784e+01	-4.937363e+01	2.499491e+01
3.626281e+06	-4.326696e+01	-9.376370e+01	-3.084127e+01	-7.849437e+00	-9.356691e+01	-1.870982e+01	-4.936800e+01	2.487470e+01
3.626312e+06	-4.326739e+01	-9.383017e+01	-3.084083e+01	-7.837242e+00	-9.566998e+01	-1.854261e+01	-4.936233e+01	2.475466e+01
3.626344e+06	-4.326780e+01	-9.389665e+01	-3.084039e+01	-7.825050e+00	-9.845050e+01	-1.824923e+01	-4.935662e+01	2.463476e+01
3.626375e+06	-4.326820e+01	-9.396314e+01	-3.083995e+01	-7.812858e+00	-1.025640e+02	-1.760039e+01	-4.935089e+01	2.451503e+01
3.626406e+06	-4.326857e+01	-9.402917e+01	-3.083953e+01	-7.800879e+00	-1.105674e+02	-1.511270e+01	-4.934544e+01	2.439689e+01
3.626438e+06	-4.326674e+01	-9.403848e+01	-3.084247e+01	-7.815182e+00	-1.161640e+02	-3.963969e+01	-4.938030e+01	2.445741e+01
3.626469e+06	-4.326492e+01	-9.404778e+01	-3.084541e+01	-7.829495e+00	-1.177344e+02	-1.109699e+02	-4.941529e+01	2.451842e+01
3.626500e+06	-4.326310e+01	-9.405708e+01	-3.084835e+01	-7.843818e+00	-1.118222e+02	-1.460479e+02	-4.945042e+01	2.457993e+01
3.626531e+06	-4.326127e+01	-9.406637e+01	-3.085128e+01	-7.858150e+00	-1.076741e+02	-1.564453e+02	-4.948567e+01	2.464193e+01
3.626562e+06	-4.325945e+01	-9.407566e+01	-3.085422e+01	-7.872491e+00	-1.047863e+02	-1.610502e+02	-4.952106e+01	2.470445e+01
3.626594e+06	-4.325963e+01	-9.407763e+01	-3.085360e+01	-7.857390e+00	-1.084138e+02	-1.271422e+02	-4.951893e+01	2.476725e+01
3.626625e+06	-4.325985e+01	-9.407948e+01	-3.085291e+01	-7.841812e+00	-1.073296e+02	-7.729737e+01	-4.951618e+01	2.483002e+01
3.626656e+06	-4.326006e+01	-9.408133e+01	-3.085223e+01	-7.826237e+00	-1.033462e+02	-5.205382e+01	-4.951342e+01	2.489274e+01
3.626688e+06	-4.326027e+01	-9.408318e+01	-3.085154e+01	-7.810664e+00	-1.000983e+02	-4.136415e+01	-4.951065e+01	2.495543e+01
3.626719e+06	-4.326049e+01	-9.408503e+01	-3.085086e+01	-7.795094e+00	-9.762097e+01	-3.585798e+01	-4.950787e+01	2.501808e+01
3.626750e+06	-4.325827e+01	-9.402079e+01	-3.084920e+01	-7.808678e+00	-9.667809e+01	-1.299931e+01	-4.948945e+01	2.492738e+01
3.626781e+06	-4.325602e+01	-9.395605e+01	-3.084753e+01	-7.822493e+00	-9.491968e+01	3.685751e+00	-4.947092e+01	2.483584e+01
3.626812e+06	-4.325377e+01	-9.389135e+01	-3.084586e+01	-7.836302e+00	-9.305106e+01	1.458617e+01	-4.945241e+01	2.474469e+01
3.626844e+06	-4.325150e+01	-9.382668e+01	-3.084419e+01	-7.850105e+00	-9.134023e+01	2.178048e+01	-4.943392e+01	2.465392e+01
3.626875e+06	-4.324922e+01	-9.376205e+01	-3.084252e+01	-7.863904e+00	-8.983147e+01	2.673967e+01	-4.941544e+01	2.456354e+01
3.626906e+06	-4.325473e+01	-9.375379e+01	-3.084592e+01	-7.871408e+00	-9.109435e+01	2.760384e+01	-4.943128e+01	2.450817e+01
3.626938e+06	-4.326024e+01	-9.374551e+01	-3.084931e+01	-7.878917e+00	-9.256939e+01	2.878826e+01	-4.944714e+01	2.445259e+01
3.626969e+06	-4.326576e+01	-9.373723e+01	-3.085271e+01	-7.886433e+00	-9.434059e+01	3.050956e+01	-4.946302e+01	2.439681e+01
3.627000e+06	-4.327128e+01	-9.372894e+01	-3.085611e+01	-7.893954e+00	-9.655196e+01	3.323277e+01	-4.947892e+01	2.434083e+01
3.627031e+06	-4.327669e+01	-9.372141e+01	-3.085946e+01	-7.901309e+00	-9.945084e+01	3.808440e+01	-4.949475e+01	2.428586e+01
3.627062e+06	-4.326785e+01	-9.380968e+01	-3.085713e+01	-7.887289e+00	-9.971499e+01	3.596220e+01	-4.949825e+01	2.438210e+01
3.627094e+06	-4.325899e+01	-9.389778e+01	-3.085480e+01	-7.873276e+00	-9.997437e+01	3.370809e+01	-4.950173e+01	2.447843e+01
3.627125e+06	-4.325013e+01	-9.398570e+01	-3.085246e+01	-7.859271e+00	-1.002270e+02	3.131702e+01	-4.950519e+01	2.457483e+01
3.627156e+06	-4.324125e+01	-9.407343e+01	-3.085013e+01	-7.845274e+00	-1.004708e+02	2.878523e+01	-4.950862e+01	2.467130e+01
3.627188e+06	-4.323236e+01	-9.416099e+01	-3.084780e+01	-7.831284e+00	-1.007031e+02	2.611071e+01	-4.951204e+01	2.476785e+01
3.627219e+06	-4.324190e+01	-9.414922e+01	-3.084944e+01	-7.845019e+00	-1.019651e+02	3.419120e+01	-4.950012e+01	2.479835e+01
3.627250e+06	-4.325174e+01	-9.413581e+01	-3.085115e+01	-7.859211e+00	-1.031811e+02	4.519995e+01	-4.948798e+01	2.482770e+01
3.627281e+06	-4.326159e+01	-9.412237e+01	-3.085286e+01	-7.873409e+00	-1.041140e+02	5.935576e+01	-4.947585e+01	2.485696e+01
3.627312e+06	-4.327146e+01	-9.410890e+01	-3.085457e+01	-7.887612e+00	-1.044698e+02	7.583542e+01	-4.946373e+01	2.488614e+01
3.627344e+06	-4.328133e+01	-9.409540e+01	-3.085628e+01	-7.901820e+00	-1.040984e+02	9.228462e+01	-4.945163e+01	2.491524e+01
3.627375e+06	-4.327807e+01	-9.405993e+01	-3.085757e+01	-7.899504e+00	-1.114922e+02	1.548021e+01	-4.943962e+01	2.492615e+01
3.627406e+06	-4.327471e+01	-9.402432e+01	-3.085885e+01	-7.897054e+00	-1.027591e+02	-4.189177e+01	-4.942763e+01	2.493688e+01
3.627438e+06	-4.327134e+01	-9.398874e+01	-3.086014e+01	-7.894604e+00	-9.751550e+01	-5.159177e+01	-4.941566e+01	2.494759e+01
3.627469e+06	-4.326797e+01	-9.395318e+01	-3.086142e+01	-7.892152e+00	-9.420508e+01	-5.519988e+01	-4.940370e+01	2.495826e+01
3.627500e+06	-4.326460e+01	-9.391765e+01	-3.086271e+01	-7.889700e+00	-9.180043e+01	-5.706761e+01	-4.939176e+01	2.496891e+01
3.627531e+06	-4.326993e+01	-9.387421e+01	-3.086179e+01	-7.877307e+00	-9.473684e+01	-5.449483e+01	-4.938352e+01	2.500894e+01
3.627562e+06	-4.327527e+01	-9.383071e+01	-3.086087e+01	-7.864916e+00	-9.913802e+01	-4.849788e+01	-4.937527e+01	2.504890e+01
3.627594e+06	-4.328060e+01	-9.378717e+01	-3.085995e+01	-7.852527e+00	-1.073179e+02	-2.209383e+01	-4.936704e+01	2.508879e+01
3.627625e+06	-4.328593e+01	-9.374357e+01	-3.085902e+01	-7.840142e+00	-1.058919e+02	8.249976e+01	-4.935880e+01	2.512860e+01
3.627656e+06	-4.329117e+01	-9.370103e+01	-3.085811e+01	-7.827896e+00	-9.853271e+01	1.028510e+02	-4.935082e+01	2.516678e+01
3.627688e+06	-4.328663e+01	-9.379759e+01	-3.085847e+01	-7.832589e+00	-1.132579e+02	1.558098e+02	-4.937275e+01	2.501227e+01
3.627719e+06	-4.328207e+01	-9.389405e+01	-3.085883e+01	-7.837282e+00	-1.001285e+02	-9.776528e+01	-4.939468e+01	2.485699e+01
3.627750e+06	-4.327749e+01	-9.399041e+01	-3.085919e+01	-7.841976e+00	-9.379577e+01	-9.190825e+01	-4.941661e+01	2.470092e+01
3.627781e+06	-4.327288e+01	-9.408667e+01	-3.085955e+01	-7.846670e+00	-9.015338e+01	-9.005370e+01	-4.943852e+01	2.454405e+01
3.627812e+06	-4.326825e+01	-9.418282e+01	-3.085990e+01	-7.851365e+00	-8.759163e+01	-8.914594e+01	-4.946042e+01	2.438640e+01
3.627844e+06	-4.326595e+01	-9.408782e+01	-3.085922e+01	-7.851742e+00	-9.061109e+01	-9.636591e+01	-4.947012e+01	2.453490e+01
3.627875e+06	-4.326366e+01	-9.398975e+01	-3.085852e+01	-7.852049e+00	-9.489267e+01	-1.136836e+02	-4.947957e+01	2.468872e+01
3.627906e+06	-4.326135e+01	-9.389175e+01	-3.085782e+01	-7.852356e+00	-9.857279e+01	-1.617933e+02	-4.948896e+01	2.484287e+01
3.627938e+06	-4.325901e+01	-9.379379e+01	-3.085712e+01	-7.852663e+00	-9.504402e+01	1.489615e+02	-4.949831e+01	2.499736e+01
3.627969e+06	-4.325665e+01	-9.369588e+01	-3.085643e+01	-7.852970e+00	-9.072353e+01	1.310920e+02	-4.950760e+01	2.515218e+01
3.628000e+06	-4.325745e+01	-9.374099e+01	-3.085518e+01	-7.846911e+00	-9.114346e+01	1.306764e+02	-4.951365e+01	2.510246e+01
3.628031e+06	-4.325827e+01	-9.378725e+01	-3.085393e+01	-7.840803e+00	-9.162071e+01	1.303058e+02	-4.951968e+01	2.505102e+01
3.628062e+06	-4.325909e+01	-9.383353e+01	-3.085268e+01	-7.834697e+00	-9.212527e+01	1.298908e+02	-4.952570e+01	2.499950e+01
3.628094e+06	-4.325990e+01	-9.387981e+01	-3.085143e+01	-7.828593e+00	-9.266042e+01	1.294231e+02	-4.953172e+01	2.494792e+01
3.628125e+06	-4.326071e+01	-9.392610e+01	-3.085018e+01	-7.822490e+00	-9.323002e+01	1.288920e+02	-4.953774e+01	2.489626e+01
