# Hz S dB R 50.000
3.626094e+06	-4.311636e+01	-9.225333e+01	-3.082667e+01	-7.143388e+00	-1.124315e+02	-1.001696e+02	-5.634155e+01	5.038549e+01
3.626125e+06	-4.311854e+01	-9.225412e+01	-3.082597e+01	-7.166282e+00	-1.042333e+02	-1.731984e+02	-5.643735e+01	5.036545e+01
3.626156e+06	-4.312073e+01	-9.225492e+01	-3.082526e+01	-7.189173e+00	-9.855475e+01	1.756407e+02	-5.653422e+01	5.034496e+01
3.626188e+06	-4.312291e+01	-9.225571e+01	-3.082456e+01	-7.212060e+00	-9.507266e+01	1.717749e+02	-5.663218e+01	5.032401e+01
3.626219e+06	-4.312510e+01	-9.225650e+01	-3.082385e+01	-7.234943e+00	-9.257889e+01	1.698331e+02	-5.673126e+01	5.030257e+01
3.626250e+06	-4.312726e+01	-9.225727e+01	-3.082316e+01	-7.257541e+00	-9.068085e+01	1.686839e+02	-5.683029e+01	5.028259e+01
3.626282e+06	-4.312555e+01	-9.225432e+01	-3.082428e+01	-7.245222e+00	-9.516964e+01	1.705147e+02	-5.678252e+01	5.050272e+01
3.626313e+06	-4.312384e+01	-9.225138e+01	-3.082540e+01	-7.232900e+00	-1.048360e+02	1.798961e+02	-5.673489e+01	5.072045e+01
3.626344e+06	-4.312213e+01	-9.224844e+01	-3.082653e+01	-7.220574e+00	-1.038639e+02	-2.643249e+01	-5.668740e+01	5.093581e+01
3.626375e+06	-4.312042e+01	-9.224550e+01	-3.082765e+01	-7.208246e+00	-9.483029e+01	-1.837534e+01	-5.664004e+01	5.114883e+01
3.626406e+06	-4.311887e+01	-9.224306e+01	-3.082877e+01	-7.196235e+00	-9.056758e+01	-1.646111e+01	-5.659386e+01	5.135719e+01
3.626438e+06	-4.312684e+01	-9.227136e+01	-3.083007e+01	-7.203970e+00	-9.277722e+01	9.089605e-01	-5.661153e+01	5.141954e+01
3.626469e+06	-4.313482e+01	-9.229971e+01	-3.083137e+01	-7.211707e+00	-9.408600e+01	2.750119e+01	-5.662922e+01	5.148214e+01
3.626500e+06	-4.314280e+01	-9.232812e+01	-3.083268e+01	-7.219446e+00	-9.331905e+01	5.595507e+01	-5.664693e+01	5.154500e+01
3.626532e+06	-4.315078e+01	-9.235657e+01	-3.083398e+01	-7.227188e+00	-9.122784e+01	7.600598e+01	-5.666467e+01	5.160812e+01
3.626563e+06	-4.315878e+01	-9.238508e+01	-3.083528e+01	-7.234932e+00	-8.901555e+01	8.806380e+01	-5.668244e+01	5.167149e+01
3.626594e+06	-4.315082e+01	-9.239431e+01	-3.083644e+01	-7.233658e+00	-9.117830e+01	8.453049e+01	-5.667387e+01	5.146505e+01
3.626625e+06	-4.314274e+01	-9.240336e+01	-3.083760e+01	-7.232311e+00	-9.403554e+01	7.802668e+01	-5.666498e+01	5.125686e+01
3.626656e+06	-4.313467e+01	-9.241239e+01	-3.083877e+01	-7.230963e+00	-9.792397e+01	6.377033e+01	-5.665598e+01	5.104909e+01
3.626688e+06	-4.312661e+01	-9.242141e+01	-3.083993e+01	-7.229615e+00	-1.021004e+02	2.521911e+01	-5.664688e+01	5.084176e+01
3.626719e+06	-4.311855e+01	-9.243041e+01	-3.084109e+01	-7.228267e+00	-1.001791e+02	-2.867865e+01	-5.663768e+01	5.063486e+01
3.626750e+06	-4.311462e+01	-9.241827e+01	-3.084100e+01	-7.237118e+00	-1.049412e+02	-1.159037e+00	-5.663639e+01	5.056298e+01
3.626782e+06	-4.311069e+01	-9.240614e+01	-3.084091e+01	-7.245969e+00	-1.056172e+02	5.862855e+01	-5.663508e+01	5.049113e+01
3.626813e+06	-4.310676e+01	-9.239402e+01	-3.084083e+01	-7.254820e+00	-1.008566e+02	9.130982e+01	-5.663377e+01	5.041929e+01
3.626844e+06	-4.310283e+01	-9.238191e+01	-3.084074e+01	-7.263671e+00	-9.707631e+01	1.029629e+02	-5.663243e+01	5.034748e+01
3.626875e+06	-4.309900e+01	-9.236943e+01	-3.084066e+01	-7.272501e+00	-9.436481e+01	1.083216e+02	-5.663105e+01	5.027718e+01
3.626906e+06	-4.310597e+01	-9.230973e+01	-3.084232e+01	-7.278773e+00	-9.699049e+01	9.560477e+01	-5.662532e+01	5.039236e+01
3.626938e+06	-4.311294e+01	-9.224992e+01	-3.084397e+01	-7.285047e+00	-9.957569e+01	7.195925e+01	-5.661956e+01	5.050739e+01
3.626969e+06	-4.311991e+01	-9.219002e+01	-3.084563e+01	-7.291323e+00	-1.001354e+02	3.678497e+01	-5.661377e+01	5.062226e+01
3.627000e+06	-4.312687e+01	-9.213003e+01	-3.084728e+01	-7.297602e+00	-9.795971e+01	8.212527e+00	-5.660795e+01	5.073698e+01
3.627032e+06	-4.313360e+01	-9.207237e+01	-3.084890e+01	-7.303729e+00	-9.531783e+01	-7.401142e+00	-5.660255e+01	5.084716e+01
3.627063e+06	-4.312585e+01	-9.216446e+01	-3.084840e+01	-7.300338e+00	-9.815453e+01	-7.833942e+00	-5.662514e+01	5.068692e+01
3.627094e+06	-4.311808e+01	-9.225639e+01	-3.084790e+01	-7.296949e+00	-1.023926e+02	-8.811275e+00	-5.664772e+01	5.052585e+01
3.627125e+06	-4.311030e+01	-9.234814e+01	-3.084740e+01	-7.293559e+00	-1.109737e+02	-1.309068e+01	-5.667029e+01	5.036393e+01
3.627156e+06	-4.310250e+01	-9.243974e+01	-3.084690e+01	-7.290170e+00	-1.139829e+02	-1.766284e+02	-5.669285e+01	5.020117e+01
3.627188e+06	-4.309469e+01	-9.253117e+01	-3.084640e+01	-7.286781e+00	-1.034048e+02	1.765627e+02	-5.671540e+01	5.003756e+01
3.627219e+06	-4.310388e+01	-9.253348e+01	-3.084630e+01	-7.287950e+00	-1.034553e+02	1.295888e+02	-5.671692e+01	5.013241e+01
3.627250e+06	-4.311322e+01	-9.253507e+01	-3.084620e+01	-7.289155e+00	-9.988169e+01	9.999386e+01	-5.671825e+01	5.022938e+01
3.627282e+06	-4.312257e+01	-9.253667e+01	-3.084609e+01	-7.290360e+00	-9.658936e+01	8.704785e+01	-5.671956e+01	5.032638e+01
3.627313e+06	-4.313193e+01	-9.253827e+01	-3.084599e+01	-7.291565e+00	-9.403641e+01	8.048458e+01	-5.672084e+01	5.042341e+01
3.627344e+06	-4.314130e+01	-9.253987e+01	-3.084589e+01	-7.292770e+00	-9.201229e+01	7.661516e+01	-5.672209e+01	5.052046e+01
3.627375e+06	-4.313716e+01	-9.247322e+01	-3.084763e+01	-7.267640e+00	-9.259190e+01	7.412050e+01	-5.671730e+01	5.060460e+01
3.627406e+06	-4.313301e+01	-9.240663e+01	-3.084937e+01	-7.242500e+00	-9.319271e+01	7.126241e+01	-5.671250e+01	5.068864e+01
3.627438e+06	-4.312885e+01	-9.234011e+01	-3.085110e+01	-7.217350e+00	-9.381140e+01	6.797307e+01	-5.670768e+01	5.077260e+01
3.627469e+06	-4.312468e+01	-9.227365e+01	-3.085284e+01	-7.192190e+00	-9.444189e+01	6.417425e+01	-5.670285e+01	5.085645e+01
3.627500e+06	-4.312057e+01	-9.220789e+01	-3.085455e+01	-7.167346e+00	-9.507450e+01	5.971742e+01	-5.669774e+01	5.093865e+01
3.627532e+06	-4.312535e+01	-9.222056e+01	-3.085329e+01	-7.182965e+00	-9.555175e+01	4.633888e+01	-5.665986e+01	5.082693e+01
3.627563e+06	-4.313014e+01	-9.223324e+01	-3.085203e+01	-7.198579e+00	-9.553050e+01	3.222469e+01	-5.662211e+01	5.071617e+01
3.627594e+06	-4.313492e+01	-9.224594e+01	-3.085077e+01	-7.214188e+00	-9.501762e+01	1.896816e+01	-5.658449e+01	5.060637e+01
3.627625e+06	-4.313971e+01	-9.225865e+01	-3.084951e+01	-7.229793e+00	-9.415958e+01	7.674951e+00	-5.654700e+01	5.049752e+01
3.627656e+06	-4.314444e+01	-9.227073e+01	-3.084831e+01	-7.245253e+00	-9.316812e+01	-9.978461e-01	-5.651143e+01	5.039437e+01
3.627688e+06	-4.314523e+01	-9.224326e+01	-3.085092e+01	-7.252046e+00	-9.401949e+01	1.774141e+01	-5.658631e+01	5.058685e+01
3.627719e+06	-4.314601e+01	-9.221579e+01	-3.085352e+01	-7.258843e+00	-9.385535e+01	3.808892e+01	-5.666174e+01	5.078269e+01
3.627750e+06	-4.314680e+01	-9.218831e+01	-3.085613e+01	-7.265645e+00	-9.277406e+01	5.562257e+01	-5.673773e+01	5.098198e+01
3.627782e+06	-4.314758e+01	-9.216082e+01	-3.085873e+01	-7.272450e+00	-9.127605e+01	6.855868e+01	-5.681428e+01	5.118479e+01
3.627813e+06	-4.314835e+01	-9.213333e+01	-3.086134e+01	-7.279260e+00	-8.973073e+01	7.763181e+01	-5.689140e+01	5.139122e+01
3.627844e+06	-4.314584e+01	-9.218015e+01	-3.085738e+01	-7.264812e+00	-9.226662e+01	7.945169e+01	-5.688311e+01	5.121220e+01
3.627875e+06	-4.314330e+01	-9.222755e+01	-3.085337e+01	-7.250207e+00	-9.589818e+01	8.306633e+01	-5.687406e+01	5.103043e+01
3.627906e+06	-4.314075e+01	-9.227491e+01	-3.084936e+01	-7.235615e+00	-1.020353e+02	9.426016e+01	-5.686493e+01	5.084903e+01
3.627938e+06	-4.313820e+01	-9.232225e+01	-3.084536e+01	-7.221036e+00	-1.101327e+02	-1.774198e+02	-5.685572e+01	5.066802e+01
3.627969e+06	-4.313564e+01	-9.236956e+01	-3.084135e+01	-7.206471e+00	-1.000660e+02	-1.245948e+02	-5.684643e+01	5.048740e+01
3.628000e+06	-4.313829e+01	-9.238125e+01	-3.084331e+01	-7.223668e+00	-9.814752e+01	-1.473602e+02	-5.684669e+01	5.064666e+01
3.628032e+06	-4.314093e+01	-9.239296e+01	-3.084527e+01	-7.240872e+00	-9.588025e+01	-1.611870e+02	-5.684688e+01	5.080593e+01
3.628063e+06	-4.314358e+01	-9.240466e+01	-3.084723e+01	-7.258085e+00	-9.383486e+01	-1.695509e+02	-5.684701e+01	5.096520e+01
3.628094e+06	-4.314622e+01	-9.241638e+01	-3.084920e+01	-7.275305e+00	-9.208188e+01	-1.749409e+02	-5.684707e+01	5.112448e+01
3.628125e+06	-4.314881e+01	-9.242809e+01	-3.085114e+01	-7.292390e+00	-9.061453e+01	-1.786634e+02	-5.684688e+01	5.128302e+01
3.628156e+06	-4.314336e+01	-9.243773e+01	-3.085114e+01	-7.291809e+00	-9.421030e+01	1.727456e+02	-5.682477e+01	5.134979e+01
3.628188e+06	-4.313792e+01	-9.244737e+01	-3.085114e+01	-7.291227e+00	-9.936397e+01	1.486014e+02	-5.680269e+01	5.141623e+01
3.628219e+06	-4.313249e+01	-9.245699e+01	-3.085113e+01	-7.290645e+00	-1.011067e+02	8.379739e+01	-5.678066e+01	5.148233e+01
3.628250e+06	-4.312705e+01	-9.246660e+01	-3.085113e+01	-7.290063e+00	-9.577594e+01	4.702356e+01	-5.675868e+01	5.154809e+01
3.628282e+06	-4.312177e+01	-9.247557e+01	-3.085111e+01	-7.289347e+00	-9.177690e+01	3.544156e+01	-5.673644e+01	5.161098e+01
3.628313e+06	-4.312524e+01	-9.244547e+01	-3.085006e+01	-7.280350e+00	-9.365189e+01	3.467896e+01	-5.669583e+01	5.151789e+01
3.628344e+06	-4.312872e+01	-9.241535e+01	-3.084901e+01	-7.271354e+00	-9.604300e+01	3.343267e+01	-5.665540e+01	5.142565e+01
3.628375e+06	-4.313219e+01	-9.238520e+01	-3.084796e+01	-7.262361e+00	-9.934185e+01	3.103266e+01	-5.661512e+01	5.133427e+01
3.628406e+06	-4.313567e+01	-9.235504e+01	-3.084691e+01	-7.253371e+00	-1.046496e+02	2.455614e+01	-5.657501e+01	5.124373e+01
3.628438e+06	-4.313914e+01	-9.232484e+01	-3.084586e+01	-7.244382e+00	-1.160846e+02	-2.626999e+01	-5.653507e+01	5.115402e+01
3.628469e+06	-4.313704e+01	-9.233374e+01	-3.084529e+01	-7.247661e+00	-1.126196e+02	7.147724e+01	-5.654092e+01	5.090108e+01
3.628500e+06	-4.313490e+01	-9.234295e+01	-3.084473e+01	-7.251039e+00	-1.057134e+02	8.883971e+01	-5.654698e+01	5.064647e+01
3.628532e+06	-4.313275e+01	-9.235215e+01	-3.084417e+01	-7.254416e+00	-1.017688e+02	9.374806e+01	-5.655286e+01	5.039150e+01
3.628563e+06	-4.313060e+01	-9.236135e+01	-3.084361e+01	-7.257793e+00	-9.904443e+01	9.602353e+01	-5.655858e+01	5.013619e+01
3.628594e+06	-4.312846e+01	-9.237055e+01	-3.084305e+01	-7.261170e+00	-9.696744e+01	9.733249e+01	-5.656413e+01	4.988055e+01
3.628625e+06	-4.312267e+01	-9.234283e+01	-3.084594e+01	-7.267831e+00	-9.754697e+01	1.042562e+02	-5.660390e+01	5.011317e+01
3.628656e+06	-4.311687e+01	-9.231516e+01	-3.084884e+01	-7.274496e+00	-9.801445e+01	1.120721e+02	-5.664371e+01	5.034793e+01
3.628688e+06	-4.311108e+01	-9.228751e+01	-3.085173e+01	-7.281166e+00	-9.832178e+01	1.206225e+02	-5.668355e+01	5.058485e+01
3.628719e+06	-4.310529e+01	-9.225991e+01	-3.085463e+01	-7.287840e+00	-9.843029e+01	1.295955e+02	-5.672343e+01	5.082396e+01
3.628750e+06	-4.309959e+01	-9.223282e+01	-3.085749e+01	-7.294340e+00	-9.835898e+01	1.383272e+02	-5.676282e+01	5.106133e+01
3.628782e+06	-4.310471e+01	-9.226533e+01	-3.085684e+01	-7.278726e+00	-1.020418e+02	1.027341e+02	-5.673803e+01	5.081203e+01
3.628813e+06	-4.310983e+01	-9.229787e+01	-3.085619e+01	-7.263115e+00	-1.006915e+02	5.315352e+01	-5.671314e+01	5.056415e+01
3.628844e+06	-4.311495e+01	-9.233046e+01	-3.085554e+01	-7.247506e+00	-9.669012e+01	2.887736e+01	-5.668816e+01	5.031770e+01
3.628875e+06	-4.312007e+01	-9.236308e+01	-3.085489e+01	-7.231899e+00	-9.347272e+01	1.856118e+01	-5.666310e+01	5.007265e+01
3.628906e+06	-4.312512e+01	-9.239419e+01	-3.085423e+01	-7.216566e+00	-9.108879e+01	1.314431e+01	-5.663968e+01	4.983599e+01
3.628938e+06	-4.312561e+01	-9.232965e+01	-3.085322e+01	-7.217969e+00	-9.348526e+01	2.068032e+00	-5.672301e+01	5.003029e+01
3.628969e+06	-4.312609e+01	-9.226510e+01	-3.085222e+01	-7.219372e+00	-9.597485e+01	-1.763729e+01	-5.680705e+01	5.022838e+01
3.629000e+06	-4.312656e+01	-9.220055e+01	-3.085121e+01	-7.220774e+00	-9.717632e+01	-4.868327e+01	-5.689181e+01	5.043035e+01
3.629032e+06	-4.312702e+01	-9.213598e+01	-3.085020e+01	-7.222176e+00	-9.576717e+01	-7.891785e+01	-5.697729e+01	5.063632e+01
3.629063e+06	-4.312747e+01	-9.207142e+01	-3.084919e+01	-7.223578e+00	-9.325183e+01	-9.761022e+01	-5.706350e+01	5.084640e+01
3.629094e+06	-4.313069e+01	-9.212976e+01	-3.084851e+01	-7.245648e+00	-9.781260e+01	-9.445503e+01	-5.698335e+01	5.091225e+01
3.629125e+06	-4.313393e+01	-9.218915e+01	-3.084783e+01	-7.267882e+00	-1.077669e+02	-7.663480e+01	-5.690261e+01	5.097572e+01
3.629156e+06	-4.313716e+01	-9.224857e+01	-3.084715e+01	-7.290113e+00	-1.049423e+02	5.930432e+01	-5.682260e+01	5.103803e+01
3.629188e+06	-4.314038e+01	-9.230804e+01	-3.084647e+01	-7.312340e+00	-9.674796e+01	7.058229e+01	-5.674330e+01	5.109921e+01
3.629219e+06	-4.314359e+01	-9.236756e+01	-3.084579e+01	-7.334563e+00	-9.255763e+01	7.327601e+01	-5.666472e+01	5.115928e+01
3.629250e+06	-4.314013e+01	-9.238319e+01	-3.084642e+01	-7.326393e+00	-9.333796e+01	5.788788e+01	-5.664687e+01	5.100479e+01
3.629282e+06	-4.313666e+01	-9.239881e+01	-3.084704e+01	-7.318222e+00	-9.343583e+01	4.081496e+01	-5.662900e+01	5.085094e+01
3.629313e+06	-4.313320e+01	-9.241442e+01	-3.084767e+01	-7.310050e+00	-9.280724e+01	2.478219e+01	-5.661110e+01	5.069772e+01
3.629344e+06	-4.312974e+01	-9.243001e+01	-3.084830e+01	-7.301876e+00	-9.170397e+01	1.170513e+01	-5.659317e+01	5.054513e+01
3.629375e+06	-4.312630e+01	-9.244459e+01	-3.084892e+01	-7.293658e+00	-9.043163e+01	1.898237e+00	-5.657558e+01	5.039309e+01
3.629406e+06	-4.312483e+01	-9.233434e+01	-3.084859e+01	-7.280047e+00	-9.063756e+01	4.734114e+00	-5.660238e+01	5.023088e+01
3.629438e+06	-4.312334e+01	-9.222413e+01	-3.084826e+01	-7.266437e+00	-9.082568e+01	7.701723e+00	-5.662919e+01	5.006766e+01
3.629469e+06	-4.312181e+01	-9.211396e+01	-3.084793e+01	-7.252829e+00	-9.099315e+01	1.079346e+01	-5.665601e+01	4.990343e+01
3.629500e+06	-4.312025e+01	-9.200382e+01	-3.084760e+01	-7.239221e+00	-9.113719e+01	1.399821e+01	-5.668284e+01	4.973819e+01
3.629532e+06	-4.311874e+01	-9.189740e+01	-3.084729e+01	-7.225782e+00	-9.125319e+01	1.724496e+01	-5.670924e+01	4.957935e+01
3.629563e+06	-4.312263e+01	-9.201693e+01	-3.084779e+01	-7.222667e+00	-9.123345e+01	1.707495e+01	-5.670868e+01	4.987694e+01
3.629594e+06	-4.312649e+01	-9.213656e+01	-3.084829e+01	-7.219552e+00	-9.121367e+01	1.690572e+01	-5.670788e+01	5.017447e+01
3.629625e+06	-4.313030e+01	-9.225629e+01	-3.084879e+01	-7.216436e+00	-9.119386e+01	1.673725e+01	-5.670684e+01	5.047195e+01
3.629656e+06	-4.313409e+01	-9.237613e+01	-3.084929e+01	-7.213320e+00	-9.117403e+01	1.656955e+01	-5.670557e+01	5.076934e+01
3.629688e+06	-4.313783e+01	-9.249608e+01	-3.084979e+01	-7.210204e+00	-9.115416e+01	1.640261e+01	-5.670407e+01	5.106664e+01
3.629719e+06	-4.313123e+01	-9.251154e+01	-3.085057e+01	-7.229993e+00	-9.031284e+01	2.767302e+01	-5.670416e+01	5.117998e+01
3.629750e+06	-4.312454e+01	-9.252613e+01	-3.085135e+01	-7.249971e+00	-8.928977e+01	3.682067e+01	-5.670423e+01	5.129184e+01
3.629782e+06	-4.311786e+01	-9.254069e+01	-3.085214e+01	-7.269952e+00	-8.821837e+01	4.399655e+01	-5.670426e+01	5.140371e+01
3.629813e+06	-4.311119e+01	-9.255524e+01	-3.085292e+01	-7.289937e+00	-8.716923e+01	4.961231e+01	-5.670426e+01	5.151557e+01
3.629844e+06	-4.310452e+01	-9.256976e+01	-3.085370e+01	-7.309925e+00	-8.617411e+01	5.404772e+01	-5.670423e+01	5.162743e+01
3.629875e+06	-4.311272e+01	-9.252977e+01	-3.085319e+01	-7.314496e+00	-8.872031e+01	5.934827e+01	-5.668369e+01	5.147395e+01
3.629906e+06	-4.312093e+01	-9.248970e+01	-3.085267e+01	-7.319067e+00	-9.211454e+01	6.989647e+01	-5.666314e+01	5.132120e+01
3.629938e+06	-4.312914e+01	-9.244955e+01	-3.085216e+01	-7.323637e+00	-9.640599e+01	9.622326e+01	-5.664258e+01	5.116917e+01
3.629969e+06	-4.313736e+01	-9.240933e+01	-3.085164e+01	-7.328207e+00	-9.731942e+01	1.500731e+02	-5.662200e+01	5.101786e+01
3.630000e+06	-4.314552e+01	-9.236903e+01	-3.085111e+01	-7.332560e+00	-9.320317e+01	-1.765615e+02	-5.660181e+01	5.086606e+01
3.630032e+06	-4.314663e+01	-9.232745e+01	-3.084879e+01	-7.310247e+00	-9.509754e+01	1.535538e+02	-5.663074e+01	5.056449e+01
3.630063e+06	-4.314773e+01	-9.228587e+01	-3.084647e+01	-7.287945e+00	-9.418621e+01	1.196388e+02	-5.665953e+01	5.026092e+01
3.630094e+06	-4.314883e+01	-9.224427e+01	-3.084415e+01	-7.265656e+00	-9.158102e+01	9.778734e+01	-5.668816e+01	4.995533e+01
3.630125e+06	-4.314992e+01	-9.220267e+01	-3.084183e+01	-7.243378e+00	-8.903231e+01	8.592105e+01	-5.671664e+01	4.964773e+01
3.630156e+06	-4.315089e+01	-9.216038e+01	-3.083957e+01	-7.221657e+00	-8.692712e+01	7.911291e+01	-5.674452e+01	4.934758e+01
3.630188e+06	-4.314471e+01	-9.207642e+01	-3.084171e+01	-7.233468e+00	-8.718897e+01	7.839653e+01	-5.674509e+01	4.962888e+01
3.630219e+06	-4.313851e+01	-9.199259e+01	-3.084384e+01	-7.245286e+00	-8.745747e+01	7.763504e+01	-5.674545e+01	4.991020e+01
3.630250e+06	-4.313230e+01	-9.190888e+01	-3.084597e+01	-7.257109e+00	-8.773285e+01	7.682434e+01	-5.674559e+01	5.019154e+01
3.630282e+06	-4.312607e+01	-9.182529e+01	-3.084810e+01	-7.268938e+00	-8.801534e+01	7.595985e+01	-5.674553e+01	5.047289e+01
3.630313e+06	-4.311983e+01	-9.174182e+01	-3.085023e+01	-7.280772e+00	-8.830513e+01	7.503649e+01	-5.674526e+01	5.075422e+01
3.630344e+06	-4.312746e+01	-9.182653e+01	-3.084799e+01	-7.275881e+00	-8.850196e+01	8.355069e+01	-5.674576e+01	5.056983e+01
3.630375e+06	-4.313519e+01	-9.191276e+01	-3.084572e+01	-7.270856e+00	-8.849945e+01	9.233527e+01	-5.674617e+01	5.038167e+01
3.630406e+06	-4.314290e+01	-9.199913e+01	-3.084345e+01	-7.265835e+00	-8.829796e+01	1.009144e+02	-5.674648e+01	5.019349e+01
3.630438e+06	-4.315060e+01	-9.208567e+01	-3.084117e+01	-7.260816e+00	-8.792323e+01	1.089391e+02	-5.674670e+01	5.000530e+01
3.630469e+06	-4.315829e+01	-9.217235e+01	-3.083890e+01	-7.255800e+00	-8.741655e+01	1.161850e+02	-5.674683e+01	4.981710e+01
3.630500e+06	-4.315454e+01	-9.218369e+01	-3.083860e+01	-7.260605e+00	-8.840236e+01	1.116197e+02	-5.674815e+01	5.024154e+01
3.630532e+06	-4.315079e+01	-9.219501e+01	-3.083830e+01	-7.265409e+00	-8.943552e+01	1.058561e+02	-5.674899e+01	5.066608e+01
3.630563e+06	-4.314704e+01	-9.220633e+01	-3.083799e+01	-7.270213e+00	-9.048069e+01	9.852677e+01	-5.674935e+01	5.109068e+01
3.630594e+06	-4.314329e+01	-9.221763e+01	-3.083769e+01	-7.275016e+00	-9.146352e+01	8.925475e+01	-5.674923e+01	5.151530e+01
3.630625e+06	-4.313955e+01	-9.222887e+01	-3.083740e+01	-7.279634e+00	-9.224020e+01	7.808477e+01	-5.674847e+01	5.193420e+01
3.630656e+06	-4.313670e+01	-9.223277e+01	-3.083869e+01	-7.261229e+00	-9.077865e+01	9.199689e+01	-5.672588e+01	5.165044e+01
3.630688e+06	-4.313386e+01	-9.223667e+01	-3.083998e+01	-7.242819e+00	-8.921651e+01	1.017702e+02	-5.670314e+01	5.136816e+01
3.630719e+06	-4.313102e+01	-9.224056e+01	-3.084127e+01	-7.224403e+00	-8.774037e+01	1.086418e+02	-5.668024e+01	5.108736e+01
3.630750e+06	-4.312818e+01	-9.224445e+01	-3.084255e+01	-7.205982e+00	-8.640100e+01	1.136053e+02	-5.665720e+01	5.080804e+01
3.630782e+06	-4.312548e+01	-9.224756e+01	-3.084382e+01	-7.188070e+00	-8.524861e+01	1.172938e+02	-5.663449e+01	5.053710e+01
3.630813e+06	-4.313139e+01	-9.220223e+01	-3.084379e+01	-7.201828e+00	-8.751984e+01	1.204016e+02	-5.664049e+01	5.069179e+01
3.630844e+06	-4.313728e+01	-9.215685e+01	-3.084377e+01	-7.215587e+00	-9.053674e+01	1.261213e+02	-5.664644e+01	5.084668e+01
3.630875e+06	-4.314318e+01	-9.211140e+01	-3.084374e+01	-7.229345e+00	-9.485388e+01	1.395279e+02	-5.665232e+01	5.100179e+01
3.630906e+06	-4.314908e+01	-9.206589e+01	-3.084371e+01	-7.243103e+00	-9.999610e+01	-1.769243e+02	-5.665815e+01	5.115710e+01
3.630938e+06	-4.315497e+01	-9.202032e+01	-3.084368e+01	-7.256861e+00	-9.692787e+01	-1.159066e+02	-5.666391e+01	5.131262e+01
3.630969e+06	-4.315434e+01	-9.205094e+01	-3.084395e+01	-7.269404e+00	-9.530676e+01	-1.031031e+02	-5.666801e+01	5.111647e+01
3.631000e+06	-4.315365e+01	-9.208216e+01	-3.084423e+01	-7.281938e+00	-9.371497e+01	-9.437194e+01	-5.667198e+01	5.091729e+01
3.631032e+06	-4.315296e+01	-9.211338e+01	-3.084450e+01	-7.294472e+00	-9.224894e+01	-8.824383e+01	-5.667586e+01	5.071793e+01
3.631063e+06	-4.315227e+01	-9.214460e+01	-3.084478e+01	-7.307008e+00	-9.093261e+01	-8.379940e+01	-5.667962e+01	5.051840e+01
3.631094e+06	-4.315157e+01	-9.217581e+01	-3.084505e+01	-7.319544e+00	-8.975540e+01	-8.046553e+01	-5.668329e+01	5.031869e+01
3.631125e+06	-4.314349e+01	-9.219345e+01	-3.084408e+01	-7.322296e+00	-9.310004e+01	-6.738087e+01	-5.670119e+01	5.069695e+01
