# Hz S dB R 50.000
3.625469e+06	-4.343347e+01	-9.357554e+01	-3.090509e+01	-7.052499e+00	-9.422510e+01	-1.711721e+02	-3.880579e+01	6.227534e+00
3.625500e+06	-4.344020e+01	-9.365979e+01	-3.090674e+01	-7.080108e+00	-9.741024e+01	-1.718810e+02	-3.880407e+01	6.250702e+00
3.625532e+06	-4.344691e+01	-9.374418e+01	-3.090838e+01	-7.107727e+00	-1.024865e+02	-1.737164e+02	-3.880236e+01	6.273860e+00
3.625563e+06	-4.345361e+01	-9.382870e+01	-3.091002e+01	-7.135357e+00	-1.158462e+02	1.707680e+02	-3.880064e+01	6.297010e+00
3.625594e+06	-4.346029e+01	-9.391334e+01	-3.091166e+01	-7.162998e+00	-1.069636e+02	1.737703e+01	-3.879892e+01	6.320150e+00
3.625625e+06	-4.346695e+01	-9.399813e+01	-3.091329e+01	-7.190419e+00	-9.969712e+01	1.324243e+01	-3.879717e+01	6.343180e+00
3.625656e+06	-4.347176e+01	-9.408417e+01	-3.091299e+01	-7.189451e+00	-1.029389e+02	-2.147534e+01	-3.879245e+01	6.353729e+00
3.625688e+06	-4.347655e+01	-9.417031e+01	-3.091270e+01	-7.188482e+00	-1.016868e+02	-6.721319e+01	-3.878774e+01	6.364265e+00
3.625719e+06	-4.348133e+01	-9.425654e+01	-3.091240e+01	-7.187513e+00	-9.800855e+01	-9.116476e+01	-3.878302e+01	6.374791e+00
3.625750e+06	-4.348609e+01	-9.434286e+01	-3.091211e+01	-7.186545e+00	-9.492251e+01	-1.019032e+02	-3.877831e+01	6.385304e+00
3.625782e+06	-4.349066e+01	-9.442615e+01	-3.091183e+01	-7.185927e+00	-9.261507e+01	-1.074346e+02	-3.877371e+01	6.395546e+00
3.625813e+06	-4.348437e+01	-9.431655e+01	-3.091224e+01	-7.206849e+00	-9.694363e+01	-9.835948e+01	-3.877568e+01	6.389719e+00
3.625844e+06	-4.347805e+01	-9.420712e+01	-3.091266e+01	-7.227773e+00	-1.037685e+02	-6.363583e+01	-3.877765e+01	6.383889e+00
3.625875e+06	-4.347170e+01	-9.409785e+01	-3.091307e+01	-7.248699e+00	-1.017257e+02	1.741966e+01	-3.877962e+01	6.378057e+00
3.625906e+06	-4.346533e+01	-9.398873e+01	-3.091348e+01	-7.269627e+00	-9.556282e+01	4.000521e+01	-3.878159e+01	6.372222e+00
3.625938e+06	-4.345893e+01	-9.387978e+01	-3.091390e+01	-7.290557e+00	-9.171511e+01	4.697255e+01	-3.878356e+01	6.366385e+00
3.625969e+06	-4.346102e+01	-9.396298e+01	-3.091744e+01	-7.309901e+00	-9.346117e+01	3.734449e+01	-3.878489e+01	6.374213e+00
3.626000e+06	-4.346316e+01	-9.404777e+01	-3.092101e+01	-7.329249e+00	-9.522389e+01	2.261943e+01	-3.878622e+01	6.382154e+00
3.626032e+06	-4.346528e+01	-9.413261e+01	-3.092459e+01	-7.348613e+00	-9.640686e+01	1.715501e+00	-3.878754e+01	6.390097e+00
3.626063e+06	-4.346738e+01	-9.421748e+01	-3.092816e+01	-7.367992e+00	-9.627354e+01	-2.202741e+01	-3.878887e+01	6.398043e+00
3.626094e+06	-4.346946e+01	-9.430240e+01	-3.093173e+01	-7.387388e+00	-9.492510e+01	-4.187298e+01	-3.879019e+01	6.405991e+00
3.626125e+06	-4.346279e+01	-9.421953e+01	-3.093091e+01	-7.366744e+00	-9.750069e+01	-2.744501e+01	-3.879104e+01	6.403147e+00
3.626156e+06	-4.345611e+01	-9.413679e+01	-3.093010e+01	-7.346104e+00	-9.973012e+01	-1.771313e+00	-3.879190e+01	6.400302e+00
3.626188e+06	-4.344942e+01	-9.405418e+01	-3.092928e+01	-7.325468e+00	-9.968331e+01	3.207813e+01	-3.879275e+01	6.397457e+00
3.626219e+06	-4.344271e+01	-9.397169e+01	-3.092846e+01	-7.304836e+00	-9.741701e+01	5.734186e+01	-3.879360e+01	6.394612e+00
3.626250e+06	-4.343609e+01	-9.388988e+01	-3.092765e+01	-7.284595e+00	-9.484038e+01	7.133900e+01	-3.879450e+01	6.391712e+00
3.626282e+06	-4.344090e+01	-9.387664e+01	-3.092826e+01	-7.312318e+00	-9.193321e+01	6.445714e+01	-3.880132e+01	6.382207e+00
3.626313e+06	-4.344571e+01	-9.386339e+01	-3.092885e+01	-7.340044e+00	-8.970494e+01	6.065343e+01	-3.880814e+01	6.372686e+00
3.626344e+06	-4.345052e+01	-9.385012e+01	-3.092945e+01	-7.367775e+00	-8.791353e+01	5.825995e+01	-3.881497e+01	6.363151e+00
3.626375e+06	-4.345534e+01	-9.383684e+01	-3.093005e+01	-7.395509e+00	-8.642042e+01	5.662035e+01	-3.882180e+01	6.353600e+00
3.626406e+06	-4.346016e+01	-9.382471e+01	-3.093064e+01	-7.422788e+00	-8.517851e+01	5.538417e+01	-3.882835e+01	6.343880e+00
3.626438e+06	-4.346543e+01	-9.388493e+01	-3.093154e+01	-7.421878e+00	-8.630180e+01	5.103066e+01	-3.881709e+01	6.324645e+00
3.626469e+06	-4.347069e+01	-9.394521e+01	-3.093243e+01	-7.420967e+00	-8.751613e+01	4.532875e+01	-3.880584e+01	6.305459e+00
3.626500e+06	-4.347594e+01	-9.400557e+01	-3.093333e+01	-7.420056e+00	-8.879355e+01	3.772256e+01	-3.879461e+01	6.286324e+00
3.626532e+06	-4.348119e+01	-9.406600e+01	-3.093422e+01	-7.419145e+00	-9.004869e+01	2.751746e+01	-3.878339e+01	6.267237e+00
3.626563e+06	-4.348643e+01	-9.412651e+01	-3.093511e+01	-7.418233e+00	-9.109249e+01	1.416993e+01	-3.877219e+01	6.248200e+00
3.626594e+06	-4.347871e+01	-9.410310e+01	-3.093333e+01	-7.421002e+00	-9.393964e+01	2.099694e+01	-3.877352e+01	6.275849e+00
3.626625e+06	-4.347090e+01	-9.407906e+01	-3.093153e+01	-7.423799e+00	-9.777609e+01	3.624329e+01	-3.877495e+01	6.303884e+00
3.626656e+06	-4.346309e+01	-9.405506e+01	-3.092973e+01	-7.426595e+00	-1.015779e+02	7.555984e+01	-3.877638e+01	6.331928e+00
3.626688e+06	-4.345529e+01	-9.403111e+01	-3.092793e+01	-7.429389e+00	-9.952091e+01	1.263257e+02	-3.877781e+01	6.359982e+00
3.626719e+06	-4.344749e+01	-9.400720e+01	-3.092613e+01	-7.432183e+00	-9.532755e+01	1.484845e+02	-3.877923e+01	6.388044e+00
3.626750e+06	-4.345257e+01	-9.399922e+01	-3.092676e+01	-7.427836e+00	-9.952200e+01	9.442176e+01	-3.878344e+01	6.409514e+00
3.626782e+06	-4.345765e+01	-9.399123e+01	-3.092739e+01	-7.423487e+00	-9.501645e+01	4.305355e+01	-3.878765e+01	6.431005e+00
3.626813e+06	-4.346273e+01	-9.398324e+01	-3.092802e+01	-7.419139e+00	-9.044098e+01	2.711552e+01	-3.879186e+01	6.452517e+00
3.626844e+06	-4.346782e+01	-9.397523e+01	-3.092865e+01	-7.414789e+00	-8.726564e+01	2.065602e+01	-3.879607e+01	6.474050e+00
3.626875e+06	-4.347286e+01	-9.396750e+01	-3.092929e+01	-7.410586e+00	-8.492555e+01	1.727342e+01	-3.880029e+01	6.495352e+00
3.626906e+06	-4.347186e+01	-9.399492e+01	-3.093007e+01	-7.424576e+00	-8.599697e+01	1.795599e+01	-3.880477e+01	6.485505e+00
3.626938e+06	-4.347085e+01	-9.402234e+01	-3.093085e+01	-7.438568e+00	-8.721755e+01	1.884468e+01	-3.880925e+01	6.475647e+00
3.626969e+06	-4.346984e+01	-9.404975e+01	-3.093164e+01	-7.452563e+00	-8.863480e+01	2.004876e+01	-3.881374e+01	6.465779e+00
3.627000e+06	-4.346884e+01	-9.407716e+01	-3.093242e+01	-7.466561e+00	-9.032261e+01	2.177041e+01	-3.881823e+01	6.455900e+00
3.627032e+06	-4.346786e+01	-9.410382e+01	-3.093318e+01	-7.480138e+00	-9.235588e+01	2.438064e+01	-3.882251e+01	6.445990e+00
3.627063e+06	-4.346932e+01	-9.408535e+01	-3.093241e+01	-7.467699e+00	-9.170578e+01	2.474999e+01	-3.881354e+01	6.434763e+00
3.627094e+06	-4.347078e+01	-9.406687e+01	-3.093165e+01	-7.455262e+00	-9.110068e+01	2.506964e+01	-3.880458e+01	6.423559e+00
3.627125e+06	-4.347224e+01	-9.404839e+01	-3.093088e+01	-7.442827e+00	-9.053479e+01	2.534898e+01	-3.879563e+01	6.412379e+00
3.627156e+06	-4.347369e+01	-9.402990e+01	-3.093011e+01	-7.430395e+00	-9.000334e+01	2.559516e+01	-3.878668e+01	6.401221e+00
3.627188e+06	-4.347515e+01	-9.401140e+01	-3.092935e+01	-7.417964e+00	-8.950241e+01	2.581376e+01	-3.877775e+01	6.390086e+00
3.627219e+06	-4.347224e+01	-9.398304e+01	-3.093145e+01	-7.410766e+00	-9.258592e+01	1.633001e+01	-3.878410e+01	6.360377e+00
3.627250e+06	-4.346929e+01	-9.395462e+01	-3.093358e+01	-7.403607e+00	-9.652667e+01	-5.577881e+00	-3.879058e+01	6.330473e+00
3.627282e+06	-4.346633e+01	-9.392623e+01	-3.093571e+01	-7.396444e+00	-9.849158e+01	-5.300529e+01	-3.879706e+01	6.300525e+00
3.627313e+06	-4.346338e+01	-9.389785e+01	-3.093784e+01	-7.389277e+00	-9.510880e+01	-9.172476e+01	-3.880354e+01	6.270533e+00
3.627344e+06	-4.346043e+01	-9.386949e+01	-3.093997e+01	-7.382107e+00	-9.140784e+01	-1.077895e+02	-3.881003e+01	6.240495e+00
3.627375e+06	-4.346479e+01	-9.390923e+01	-3.094149e+01	-7.380220e+00	-9.487854e+01	-1.047756e+02	-3.880500e+01	6.239403e+00
3.627406e+06	-4.346915e+01	-9.394901e+01	-3.094302e+01	-7.378333e+00	-1.006113e+02	-9.605010e+01	-3.879997e+01	6.238313e+00
3.627438e+06	-4.347351e+01	-9.398882e+01	-3.094454e+01	-7.376444e+00	-1.108884e+02	-2.266507e+01	-3.879494e+01	6.237224e+00
3.627469e+06	-4.347787e+01	-9.402868e+01	-3.094607e+01	-7.374555e+00	-1.005043e+02	4.851106e+01	-3.878991e+01	6.236136e+00
3.627500e+06	-4.348218e+01	-9.406841e+01	-3.094759e+01	-7.372694e+00	-9.485836e+01	5.701334e+01	-3.878500e+01	6.235314e+00
3.627532e+06	-4.348145e+01	-9.408741e+01	-3.094881e+01	-7.374307e+00	-9.529236e+01	5.403755e+01	-3.879369e+01	6.267297e+00
3.627563e+06	-4.348072e+01	-9.410641e+01	-3.095002e+01	-7.375921e+00	-9.572192e+01	5.075036e+01	-3.880239e+01	6.299345e+00
3.627594e+06	-4.347998e+01	-9.412541e+01	-3.095124e+01	-7.377535e+00	-9.614064e+01	4.712551e+01	-3.881110e+01	6.331457e+00
3.627625e+06	-4.347925e+01	-9.414440e+01	-3.095245e+01	-7.379149e+00	-9.654039e+01	4.314193e+01	-3.881981e+01	6.363633e+00
3.627656e+06	-4.347863e+01	-9.416331e+01	-3.095362e+01	-7.380715e+00	-9.691115e+01	3.905772e+01	-3.882831e+01	6.394980e+00
3.627688e+06	-4.348519e+01	-9.417732e+01	-3.095180e+01	-7.379281e+00	-9.704557e+01	5.167729e+01	-3.882356e+01	6.371343e+00
3.627719e+06	-4.349176e+01	-9.419134e+01	-3.094999e+01	-7.377848e+00	-9.676315e+01	6.408023e+01	-3.881881e+01	6.347733e+00
3.627750e+06	-4.349834e+01	-9.420538e+01	-3.094817e+01	-7.376416e+00	-9.613592e+01	7.523322e+01	-3.881406e+01	6.324148e+00
3.627782e+06	-4.350491e+01	-9.421945e+01	-3.094636e+01	-7.374984e+00	-9.529206e+01	8.463132e+01	-3.880931e+01	6.300589e+00
3.627813e+06	-4.351150e+01	-9.423354e+01	-3.094454e+01	-7.373552e+00	-9.434925e+01	9.227046e+01	-3.880457e+01	6.277056e+00
3.627844e+06	-4.350954e+01	-9.417554e+01	-3.094400e+01	-7.368510e+00	-9.276057e+01	8.702594e+01	-3.880620e+01	6.307608e+00
3.627875e+06	-4.350751e+01	-9.411698e+01	-3.094346e+01	-7.363440e+00	-9.136785e+01	8.323536e+01	-3.880787e+01	6.338608e+00
3.627906e+06	-4.350546e+01	-9.405845e+01	-3.094293e+01	-7.358370e+00	-9.014339e+01	8.043184e+01	-3.880955e+01	6.369620e+00
3.627938e+06	-4.350341e+01	-9.399995e+01	-3.094239e+01	-7.353301e+00	-8.905633e+01	7.828374e+01	-3.881122e+01	6.400643e+00
3.627969e+06	-4.350135e+01	-9.394148e+01	-3.094186e+01	-7.348232e+00	-8.808170e+01	7.658966e+01	-3.881289e+01	6.431679e+00
3.628000e+06	-4.349315e+01	-9.392207e+01	-3.094021e+01	-7.367089e+00	-8.973186e+01	7.075474e+01	-3.880154e+01	6.436203e+00
3.628032e+06	-4.348495e+01	-9.390270e+01	-3.093855e+01	-7.385939e+00	-9.160018e+01	6.198667e+01	-3.879021e+01	6.440716e+00
3.628063e+06	-4.347676e+01	-9.388337e+01	-3.093690e+01	-7.404781e+00	-9.356841e+01	4.827183e+01	-3.877889e+01	6.445216e+00
3.628094e+06	-4.346857e+01	-9.386407e+01	-3.093524e+01	-7.423616e+00	-9.512315e+01	2.743661e+01	-3.876758e+01	6.449705e+00
3.628125e+06	-4.346050e+01	-9.384541e+01	-3.093360e+01	-7.442166e+00	-9.532499e+01	1.879531e+00	-3.875643e+01	6.453915e+00
3.628156e+06	-4.346528e+01	-9.390193e+01	-3.093366e+01	-7.426127e+00	-9.751965e+01	-8.298749e-01	-3.876315e+01	6.424893e+00
3.628188e+06	-4.347005e+01	-9.395852e+01	-3.093372e+01	-7.410088e+00	-1.004145e+02	-5.701898e+00	-3.876988e+01	6.395827e+00
3.628219e+06	-4.347482e+01	-9.401516e+01	-3.093378e+01	-7.394049e+00	-1.045537e+02	-1.670618e+01	-3.877661e+01	6.366715e+00
3.628250e+06	-4.347958e+01	-9.407187e+01	-3.093384e+01	-7.378010e+00	-1.102375e+02	-5.296622e+01	-3.878334e+01	6.337558e+00
3.628282e+06	-4.348422e+01	-9.412746e+01	-3.093389e+01	-7.362200e+00	-1.086923e+02	-1.197536e+02	-3.878998e+01	6.308910e+00
3.628313e+06	-4.348177e+01	-9.411087e+01	-3.093306e+01	-7.360494e+00	-1.077290e+02	-4.177161e+01	-3.879092e+01	6.314266e+00
3.628344e+06	-4.347932e+01	-9.409429e+01	-3.093223e+01	-7.358788e+00	-1.016484e+02	-1.600594e+01	-3.879187e+01	6.319624e+00
3.628375e+06	-4.347687e+01	-9.407771e+01	-3.093140e+01	-7.357083e+00	-9.774293e+01	-8.092187e+00	-3.879281e+01	6.324983e+00
3.628406e+06	-4.347442e+01	-9.406115e+01	-3.093057e+01	-7.355378e+00	-9.500199e+01	-4.419551e+00	-3.879376e+01	6.330344e+00
3.628438e+06	-4.347197e+01	-9.404459e+01	-3.092975e+01	-7.353674e+00	-9.290558e+01	-2.316205e+00	-3.879470e+01	6.335705e+00
3.628469e+06	-4.346978e+01	-9.400641e+01	-3.093070e+01	-7.364389e+00	-9.270324e+01	-3.230369e+01	-3.878993e+01	6.342676e+00
3.628500e+06	-4.346759e+01	-9.396808e+01	-3.093167e+01	-7.375207e+00	-9.073224e+01	-5.545366e+01	-3.878511e+01	6.349652e+00
3.628532e+06	-4.346539e+01	-9.392976e+01	-3.093264e+01	-7.386027e+00	-8.841770e+01	-6.934209e+01	-3.878029e+01	6.356621e+00
3.628563e+06	-4.346319e+01	-9.389147e+01	-3.093361e+01	-7.396850e+00	-8.634364e+01	-7.766915e+01	-3.877547e+01	6.363582e+00
3.628594e+06	-4.346099e+01	-9.385319e+01	-3.093458e+01	-7.407675e+00	-8.457358e+01	-8.300722e+01	-3.877066e+01	6.370535e+00
3.628625e+06	-4.346544e+01	-9.390461e+01	-3.093437e+01	-7.412359e+00	-8.618975e+01	-7.980659e+01	-3.877756e+01	6.394672e+00
3.628656e+06	-4.346989e+01	-9.395608e+01	-3.093417e+01	-7.417043e+00	-8.812573e+01	-7.498568e+01	-3.878446e+01	6.418848e+00
3.628688e+06	-4.347433e+01	-9.400760e+01	-3.093396e+01	-7.421726e+00	-9.048647e+01	-6.706363e+01	-3.879136e+01	6.443062e+00
3.628719e+06	-4.347876e+01	-9.405918e+01	-3.093375e+01	-7.426409e+00	-9.330137e+01	-5.258023e+01	-3.879827e+01	6.467314e+00
3.628750e+06	-4.348316e+01	-9.411013e+01	-3.093354e+01	-7.431007e+00	-9.584467e+01	-2.519397e+01	-3.880513e+01	6.491189e+00
3.628782e+06	-4.348259e+01	-9.407738e+01	-3.093277e+01	-7.424985e+00	-9.755924e+01	-1.610555e+01	-3.880468e+01	6.463499e+00
3.628813e+06	-4.348203e+01	-9.404463e+01	-3.093200e+01	-7.418964e+00	-9.928332e+01	-2.532810e+00	-3.880423e+01	6.435811e+00
3.628844e+06	-4.348146e+01	-9.401189e+01	-3.093123e+01	-7.412945e+00	-1.005599e+02	1.682822e+01	-3.880377e+01	6.408126e+00
3.628875e+06	-4.348089e+01	-9.397916e+01	-3.093046e+01	-7.406926e+00	-1.006902e+02	3.977093e+01	-3.880332e+01	6.380443e+00
3.628906e+06	-4.348016e+01	-9.394791e+01	-3.092971e+01	-7.400947e+00	-9.957194e+01	5.983417e+01	-3.880286e+01	6.353409e+00
3.628938e+06	-4.346994e+01	-9.400793e+01	-3.093005e+01	-7.397290e+00	-9.774119e+01	5.809925e+01	-3.880207e+01	6.366054e+00
3.628969e+06	-4.345972e+01	-9.406781e+01	-3.093039e+01	-7.393634e+00	-9.622539e+01	5.691915e+01	-3.880127e+01	6.378696e+00
3.629000e+06	-4.344951e+01	-9.412755e+01	-3.093073e+01	-7.389977e+00	-9.493292e+01	5.606509e+01	-3.880048e+01	6.391337e+00
3.629032e+06	-4.343930e+01	-9.418715e+01	-3.093107e+01	-7.386320e+00	-9.380682e+01	5.541861e+01	-3.879969e+01	6.403974e+00
3.629063e+06	-4.342909e+01	-9.424660e+01	-3.093142e+01	-7.382663e+00	-9.280933e+01	5.491236e+01	-3.879890e+01	6.416610e+00
3.629094e+06	-4.344293e+01	-9.421667e+01	-3.093252e+01	-7.390357e+00	-9.533564e+01	5.717224e+01	-3.879545e+01	6.391989e+00
3.629125e+06	-4.345699e+01	-9.418592e+01	-3.093364e+01	-7.398145e+00	-9.892185e+01	6.179209e+01	-3.879198e+01	6.367088e+00
3.629156e+06	-4.347107e+01	-9.415507e+01	-3.093475e+01	-7.405934e+00	-1.047955e+02	7.564009e+01	-3.878852e+01	6.342206e+00
3.629188e+06	-4.348516e+01	-9.412411e+01	-3.093587e+01	-7.413726e+00	-1.111829e+02	1.547318e+02	-3.878505e+01	6.317345e+00
3.629219e+06	-4.349928e+01	-9.409306e+01	-3.093698e+01	-7.421519e+00	-1.028749e+02	-1.533494e+02	-3.878158e+01	6.292503e+00
3.629250e+06	-4.349385e+01	-9.410142e+01	-3.093709e+01	-7.416376e+00	-1.092188e+02	-1.385224e+02	-3.878615e+01	6.317870e+00
3.629282e+06	-4.348842e+01	-9.410976e+01	-3.093720e+01	-7.411233e+00	-1.147128e+02	-4.779811e+01	-3.879072e+01	6.343264e+00
3.629313e+06	-4.348300e+01	-9.411810e+01	-3.093730e+01	-7.406090e+00	-1.058827e+02	-4.874193e+00	-3.879529e+01	6.368684e+00
3.629344e+06	-4.347757e+01	-9.412642e+01	-3.093741e+01	-7.400947e+00	-1.010098e+02	3.208901e+00	-3.879986e+01	6.394131e+00
3.629375e+06	-4.347223e+01	-9.413422e+01	-3.093752e+01	-7.395812e+00	-9.793831e+01	6.166017e+00	-3.880438e+01	6.419340e+00
3.629406e+06	-4.347554e+01	-9.407801e+01	-3.093702e+01	-7.391667e+00	-1.036150e+02	-6.578164e+01	-3.880290e+01	6.411728e+00
3.629438e+06	-4.347885e+01	-9.402176e+01	-3.093652e+01	-7.387522e+00	-9.636189e+01	-1.182455e+02	-3.880143e+01	6.404119e+00
3.629469e+06	-4.348215e+01	-9.396547e+01	-3.093602e+01	-7.383378e+00	-9.140520e+01	-1.294571e+02	-3.879995e+01	6.396512e+00
3.629500e+06	-4.348544e+01	-9.390914e+01	-3.093552e+01	-7.379235e+00	-8.817901e+01	-1.338038e+02	-3.879847e+01	6.388908e+00
3.629532e+06	-4.348865e+01	-9.385464e+01	-3.093504e+01	-7.375319e+00	-8.588029e+01	-1.360663e+02	-3.879703e+01	6.381188e+00
3.629563e+06	-4.348768e+01	-9.391603e+01	-3.093594e+01	-7.385363e+00	-8.841419e+01	-1.368265e+02	-3.879765e+01	6.366206e+00
3.629594e+06	-4.348669e+01	-9.397740e+01	-3.093683e+01	-7.395409e+00	-9.200201e+01	-1.383647e+02	-3.879827e+01	6.351221e+00
3.629625e+06	-4.348569e+01	-9.403876e+01	-3.093773e+01	-7.405457e+00	-9.818420e+01	-1.431067e+02	-3.879888e+01	6.336235e+00
3.629656e+06	-4.348469e+01	-9.410010e+01	-3.093862e+01	-7.415507e+00	-1.135143e+02	1.166032e+02	-3.879950e+01	6.321246e+00
3.629688e+06	-4.348367e+01	-9.416143e+01	-3.093951e+01	-7.425560e+00	-9.725153e+01	5.450631e+01	-3.880012e+01	6.306255e+00
3.629719e+06	-4.347763e+01	-9.411624e+01	-3.093667e+01	-7.420170e+00	-9.621185e+01	2.828920e+01	-3.879973e+01	6.290746e+00
3.629750e+06	-4.347155e+01	-9.407025e+01	-3.093379e+01	-7.414659e+00	-9.418112e+01	9.967020e+00	-3.879934e+01	6.275233e+00
3.629782e+06	-4.346547e+01	-9.402433e+01	-3.093092e+01	-7.409152e+00	-9.208349e+01	-1.303291e+00	-3.879895e+01	6.259722e+00
3.629813e+06	-4.345938e+01	-9.397847e+01	-3.092804e+01	-7.403648e+00	-9.022037e+01	-8.418883e+00	-3.879856e+01	6.244213e+00
3.629844e+06	-4.345330e+01	-9.393268e+01	-3.092517e+01	-7.398148e+00	-8.861197e+01	-1.318340e+01	-3.879817e+01	6.228705e+00
3.629875e+06	-4.345558e+01	-9.391503e+01	-3.092920e+01	-7.408218e+00	-9.071077e+01	-8.762327e+00	-3.879359e+01	6.261554e+00
3.629906e+06	-4.345787e+01	-9.389736e+01	-3.093323e+01	-7.418298e+00	-9.336110e+01	-1.109086e+00	-3.878901e+01	6.294368e+00
3.629938e+06	-4.346015e+01	-9.387969e+01	-3.093726e+01	-7.428387e+00	-9.671424e+01	1.430719e+01	-3.878443e+01	6.327147e+00
3.629969e+06	-4.346244e+01	-9.386201e+01	-3.094129e+01	-7.438485e+00	-9.979978e+01	4.821624e+01	-3.877985e+01	6.359892e+00
3.630000e+06	-4.346468e+01	-9.384465e+01	-3.094526e+01	-7.448372e+00	-9.866713e+01	9.222197e+01	-3.877537e+01	6.392261e+00
3.630032e+06	-4.346193e+01	-9.386833e+01	-3.094174e+01	-7.430881e+00	-9.635814e+01	9.298873e+01	-3.878323e+01	6.382208e+00
3.630063e+06	-4.345919e+01	-9.389200e+01	-3.093822e+01	-7.413403e+00	-9.453504e+01	9.346521e+01	-3.879110e+01	6.372138e+00
3.630094e+06	-4.345645e+01	-9.391565e+01	-3.093470e+01	-7.395940e+00	-9.302867e+01	9.378997e+01	-3.879898e+01	6.362049e+00
3.630125e+06	-4.345370e+01	-9.393929e+01	-3.093117e+01	-7.378491e+00	-9.174516e+01	9.402551e+01	-3.880686e+01	6.351942e+00
3.630156e+06	-4.345106e+01	-9.396290e+01	-3.092774e+01	-7.361367e+00	-9.066460e+01	9.424771e+01	-3.881451e+01	6.342228e+00
3.630188e+06	-4.345512e+01	-9.398604e+01	-3.092965e+01	-7.363355e+00	-9.205674e+01	9.763787e+01	-3.880771e+01	6.357789e+00
3.630219e+06	-4.345918e+01	-9.400919e+01	-3.093155e+01	-7.365343e+00	-9.366343e+01	1.024287e+02	-3.880091e+01	6.373326e+00
3.630250e+06	-4.346323e+01	-9.403237e+01	-3.093346e+01	-7.367333e+00	-9.552283e+01	1.095793e+02	-3.879412e+01	6.388839e+00
3.630282e+06	-4.346729e+01	-9.405557e+01	-3.093537e+01	-7.369324e+00	-9.761225e+01	1.208897e+02	-3.878733e+01	6.404327e+00
3.630313e+06	-4.347135e+01	-9.407879e+01	-3.093727e+01	-7.371315e+00	-9.962670e+01	1.392249e+02	-3.878054e+01	6.419791e+00
3.630344e+06	-4.347542e+01	-9.410136e+01	-3.093594e+01	-7.379045e+00	-1.036061e+02	1.739762e+02	-3.878170e+01	6.394354e+00
3.630375e+06	-4.347949e+01	-9.412394e+01	-3.093458e+01	-7.386819e+00	-1.024599e+02	-1.337143e+02	-3.878292e+01	6.368579e+00
3.630406e+06	-4.348357e+01	-9.414654e+01	-3.093322e+01	-7.394590e+00	-9.826895e+01	-1.083703e+02	-3.878413e+01	6.342797e+00
3.630438e+06	-4.348764e+01	-9.416917e+01	-3.093186e+01	-7.402359e+00	-9.494526e+01	-9.798870e+01	-3.878535e+01	6.317008e+00
3.630469e+06	-4.349172e+01	-9.419181e+01	-3.093050e+01	-7.410126e+00	-9.243702e+01	-9.270540e+01	-3.878656e+01	6.291212e+00
