# Hz S dB R 50.000
3.627656e+06	-4.342958e+01	-9.872588e+01	-3.083961e+01	-7.230203e+00	-8.549469e+01	-4.450478e+01	-4.818769e+01	2.119547e+01
3.627687e+06	-4.342809e+01	-9.875175e+01	-3.084234e+01	-7.239991e+00	-8.771633e+01	-3.940706e+01	-4.817541e+01	2.115493e+01
3.627718e+06	-4.342660e+01	-9.877761e+01	-3.084507e+01	-7.249785e+00	-9.053583e+01	-3.027220e+01	-4.816315e+01	2.111450e+01
3.627750e+06	-4.342511e+01	-9.880347e+01	-3.084780e+01	-7.259586e+00	-9.400106e+01	-1.116595e+01	-4.815090e+01	2.107419e+01
3.627781e+06	-4.342362e+01	-9.882931e+01	-3.085053e+01	-7.269393e+00	-9.630573e+01	2.832950e+01	-4.813866e+01	2.103400e+01
3.627812e+06	-4.342213e+01	-9.885515e+01	-3.085326e+01	-7.279205e+00	-9.406448e+01	6.817192e+01	-4.812643e+01	2.099391e+01
3.627844e+06	-4.342748e+01	-9.877050e+01	-3.085204e+01	-7.266110e+00	-9.397351e+01	6.351994e+01	-4.813089e+01	2.104789e+01
3.627875e+06	-4.343298e+01	-9.868303e+01	-3.085073e+01	-7.252455e+00	-9.389045e+01	5.811840e+01	-4.813574e+01	2.110424e+01
3.627906e+06	-4.343847e+01	-9.859545e+01	-3.084941e+01	-7.238805e+00	-9.373384e+01	5.286429e+01	-4.814060e+01	2.116066e+01
3.627937e+06	-4.344394e+01	-9.850776e+01	-3.084809e+01	-7.225158e+00	-9.351136e+01	4.783515e+01	-4.814544e+01	2.121713e+01
3.627968e+06	-4.344939e+01	-9.841996e+01	-3.084677e+01	-7.211516e+00	-9.323286e+01	4.308853e+01	-4.815028e+01	2.127367e+01
3.628000e+06	-4.344170e+01	-9.844840e+01	-3.084818e+01	-7.210494e+00	-9.384920e+01	4.463604e+01	-4.814162e+01	2.137536e+01
3.628031e+06	-4.343379e+01	-9.847869e+01	-3.084963e+01	-7.209676e+00	-9.452063e+01	4.654775e+01	-4.813273e+01	2.147756e+01
3.628062e+06	-4.342590e+01	-9.850892e+01	-3.085109e+01	-7.208858e+00	-9.523602e+01	4.879057e+01	-4.812381e+01	2.157956e+01
3.628094e+06	-4.341800e+01	-9.853909e+01	-3.085254e+01	-7.208039e+00	-9.599840e+01	5.144963e+01	-4.811488e+01	2.168135e+01
3.628125e+06	-4.341011e+01	-9.856921e+01	-3.085400e+01	-7.207221e+00	-9.680951e+01	5.463729e+01	-4.810593e+01	2.178293e+01
3.628156e+06	-4.340970e+01	-9.858811e+01	-3.085401e+01	-7.213811e+00	-1.017702e+02	2.566155e+01	-4.811292e+01	2.168026e+01
3.628187e+06	-4.340934e+01	-9.860691e+01	-3.085401e+01	-7.220460e+00	-1.019989e+02	-3.691869e+01	-4.812002e+01	2.157578e+01
3.628218e+06	-4.340898e+01	-9.862572e+01	-3.085400e+01	-7.227110e+00	-9.699803e+01	-6.774463e+01	-4.812710e+01	2.147112e+01
3.628250e+06	-4.340862e+01	-9.864452e+01	-3.085400e+01	-7.233760e+00	-9.322357e+01	-7.849804e+01	-4.813415e+01	2.136630e+01
3.628281e+06	-4.340826e+01	-9.866332e+01	-3.085400e+01	-7.240410e+00	-9.049451e+01	-8.356074e+01	-4.814118e+01	2.126130e+01
3.628312e+06	-4.341555e+01	-9.868313e+01	-3.085430e+01	-7.227898e+00	-9.272273e+01	-7.610070e+01	-4.811785e+01	2.125123e+01
3.628344e+06	-4.342285e+01	-9.870297e+01	-3.085460e+01	-7.215386e+00	-9.536358e+01	-6.295499e+01	-4.809458e+01	2.124122e+01
3.628375e+06	-4.343015e+01	-9.872285e+01	-3.085490e+01	-7.202873e+00	-9.789976e+01	-3.857676e+01	-4.807137e+01	2.123126e+01
3.628406e+06	-4.343746e+01	-9.874276e+01	-3.085520e+01	-7.190358e+00	-9.828853e+01	-3.265337e+00	-4.804822e+01	2.122135e+01
3.628437e+06	-4.344477e+01	-9.876270e+01	-3.085550e+01	-7.177843e+00	-9.603506e+01	2.453201e+01	-4.802513e+01	2.121150e+01
3.628468e+06	-4.343885e+01	-9.874606e+01	-3.085483e+01	-7.187465e+00	-9.844527e+01	2.049703e+01	-4.804513e+01	2.125860e+01
3.628500e+06	-4.343260e+01	-9.872854e+01	-3.085414e+01	-7.197629e+00	-1.018612e+02	1.132882e+01	-4.806623e+01	2.130735e+01
3.628531e+06	-4.342636e+01	-9.871104e+01	-3.085344e+01	-7.207791e+00	-1.064927e+02	-1.240078e+01	-4.808737e+01	2.135633e+01
3.628562e+06	-4.342012e+01	-9.869357e+01	-3.085275e+01	-7.217952e+00	-1.082726e+02	-6.973960e+01	-4.810856e+01	2.140555e+01
3.628594e+06	-4.341388e+01	-9.867613e+01	-3.085205e+01	-7.228111e+00	-1.037135e+02	-1.074266e+02	-4.812979e+01	2.145501e+01
3.628625e+06	-4.341508e+01	-9.868497e+01	-3.085317e+01	-7.219129e+00	-1.184062e+02	1.333285e+01	-4.814098e+01	2.142127e+01
3.628656e+06	-4.341640e+01	-9.869424e+01	-3.085431e+01	-7.209834e+00	-1.017225e+02	5.759283e+01	-4.815202e+01	2.138610e+01
3.628687e+06	-4.341771e+01	-9.870352e+01	-3.085545e+01	-7.200535e+00	-9.615730e+01	6.068092e+01	-4.816308e+01	2.135083e+01
3.628718e+06	-4.341903e+01	-9.871280e+01	-3.085660e+01	-7.191235e+00	-9.278662e+01	6.178427e+01	-4.817414e+01	2.131548e+01
3.628750e+06	-4.342035e+01	-9.872208e+01	-3.085774e+01	-7.181931e+00	-9.036316e+01	6.235049e+01	-4.818521e+01	2.128003e+01
3.628781e+06	-4.341728e+01	-9.874320e+01	-3.085774e+01	-7.199698e+00	-9.353824e+01	6.592140e+01	-4.817382e+01	2.133506e+01
3.628812e+06	-4.341417e+01	-9.876441e+01	-3.085773e+01	-7.217684e+00	-9.853615e+01	7.518885e+01	-4.816225e+01	2.139068e+01
3.628844e+06	-4.341106e+01	-9.878560e+01	-3.085772e+01	-7.235669e+00	-1.070080e+02	1.245941e+02	-4.815069e+01	2.144614e+01
3.628875e+06	-4.340796e+01	-9.880678e+01	-3.085771e+01	-7.253654e+00	-1.008477e+02	-1.531610e+02	-4.813914e+01	2.150146e+01
3.628906e+06	-4.340485e+01	-9.882794e+01	-3.085770e+01	-7.271639e+00	-9.485270e+01	-1.390099e+02	-4.812759e+01	2.155663e+01
3.628937e+06	-4.341204e+01	-9.877857e+01	-3.085698e+01	-7.269260e+00	-9.653129e+01	-1.334739e+02	-4.812436e+01	2.143625e+01
3.628968e+06	-4.341924e+01	-9.872911e+01	-3.085626e+01	-7.266882e+00	-9.845797e+01	-1.250726e+02	-4.812109e+01	2.131595e+01
3.629000e+06	-4.342643e+01	-9.867957e+01	-3.085554e+01	-7.264504e+00	-1.005441e+02	-1.116636e+02	-4.811778e+01	2.119575e+01
3.629031e+06	-4.343363e+01	-9.862996e+01	-3.085482e+01	-7.262126e+00	-1.022872e+02	-9.054001e+01	-4.811443e+01	2.107564e+01
3.629062e+06	-4.344082e+01	-9.858025e+01	-3.085410e+01	-7.259749e+00	-1.025864e+02	-6.341664e+01	-4.811105e+01	2.095562e+01
3.629094e+06	-4.343257e+01	-9.861278e+01	-3.085561e+01	-7.246566e+00	-1.062346e+02	-8.943474e+01	-4.809399e+01	2.098584e+01
3.629125e+06	-4.342394e+01	-9.864726e+01	-3.085718e+01	-7.233112e+00	-1.067579e+02	-1.375728e+02	-4.807663e+01	2.101962e+01
3.629156e+06	-4.341532e+01	-9.868168e+01	-3.085875e+01	-7.219653e+00	-1.031540e+02	-1.690647e+02	-4.805930e+01	2.105326e+01
3.629187e+06	-4.340671e+01	-9.871602e+01	-3.086032e+01	-7.206190e+00	-9.976224e+01	1.774347e+02	-4.804200e+01	2.108677e+01
3.629218e+06	-4.339810e+01	-9.875030e+01	-3.086188e+01	-7.192722e+00	-9.714758e+01	1.707205e+02	-4.802473e+01	2.112015e+01
3.629250e+06	-4.340235e+01	-9.873783e+01	-3.086080e+01	-7.196529e+00	-1.013932e+02	-1.746367e+02	-4.805047e+01	2.110158e+01
3.629281e+06	-4.340682e+01	-9.872458e+01	-3.085966e+01	-7.200617e+00	-1.060221e+02	-1.285433e+02	-4.807699e+01	2.108205e+01
3.629312e+06	-4.341129e+01	-9.871132e+01	-3.085853e+01	-7.204704e+00	-1.026440e+02	-7.223221e+01	-4.810358e+01	2.106240e+01
3.629344e+06	-4.341576e+01	-9.869804e+01	-3.085740e+01	-7.208790e+00	-9.793756e+01	-5.308220e+01	-4.813026e+01	2.104262e+01
3.629375e+06	-4.342023e+01	-9.868476e+01	-3.085627e+01	-7.212874e+00	-9.463261e+01	-4.558803e+01	-4.815703e+01	2.102273e+01
3.629406e+06	-4.342234e+01	-9.868863e+01	-3.085553e+01	-7.219443e+00	-9.542993e+01	-4.860056e+01	-4.814784e+01	2.110270e+01
3.629437e+06	-4.342442e+01	-9.869265e+01	-3.085480e+01	-7.226030e+00	-9.630909e+01	-5.234427e+01	-4.813837e+01	2.118330e+01
3.629468e+06	-4.342650e+01	-9.869667e+01	-3.085406e+01	-7.232617e+00	-9.723629e+01	-5.695511e+01	-4.812888e+01	2.126373e+01
3.629500e+06	-4.342859e+01	-9.870070e+01	-3.085333e+01	-7.239202e+00	-9.819569e+01	-6.268790e+01	-4.811939e+01	2.134398e+01
3.629531e+06	-4.343067e+01	-9.870472e+01	-3.085259e+01	-7.245786e+00	-9.915174e+01	-6.984180e+01	-4.810989e+01	2.142405e+01
3.629562e+06	-4.342598e+01	-9.872190e+01	-3.085085e+01	-7.238939e+00	-9.525835e+01	-4.115002e+01	-4.811975e+01	2.145291e+01
3.629594e+06	-4.342129e+01	-9.873907e+01	-3.084911e+01	-7.232095e+00	-9.190033e+01	-2.912531e+01	-4.812962e+01	2.148184e+01
3.629625e+06	-4.341661e+01	-9.875622e+01	-3.084738e+01	-7.225254e+00	-8.933864e+01	-2.307603e+01	-4.813949e+01	2.151083e+01
3.629656e+06	-4.341192e+01	-9.877335e+01	-3.084564e+01	-7.218416e+00	-8.731744e+01	-1.951126e+01	-4.814938e+01	2.153989e+01
3.629687e+06	-4.340724e+01	-9.879046e+01	-3.084390e+01	-7.211580e+00	-8.566070e+01	-1.717794e+01	-4.815927e+01	2.156902e+01
3.629718e+06	-4.341079e+01	-9.873356e+01	-3.084553e+01	-7.217338e+00	-8.799534e+01	-1.905142e+01	-4.816338e+01	2.148493e+01
3.629750e+06	-4.341454e+01	-9.867479e+01	-3.084724e+01	-7.223408e+00	-9.133642e+01	-2.284969e+01	-4.816733e+01	2.139799e+01
3.629781e+06	-4.341828e+01	-9.861597e+01	-3.084896e+01	-7.229481e+00	-9.664184e+01	-3.317604e+01	-4.817127e+01	2.131096e+01
3.629812e+06	-4.342202e+01	-9.855710e+01	-3.085067e+01	-7.235555e+00	-1.050484e+02	-9.353043e+01	-4.817518e+01	2.122385e+01
3.629844e+06	-4.342574e+01	-9.849818e+01	-3.085238e+01	-7.241633e+00	-9.747387e+01	-1.665631e+02	-4.817908e+01	2.113667e+01
3.629875e+06	-4.342935e+01	-9.852129e+01	-3.085469e+01	-7.232923e+00	-9.766904e+01	-1.483405e+02	-4.816324e+01	2.117919e+01
3.629906e+06	-4.343295e+01	-9.854574e+01	-3.085702e+01	-7.223969e+00	-9.707110e+01	-1.300671e+02	-4.814710e+01	2.122366e+01
3.629937e+06	-4.343656e+01	-9.857022e+01	-3.085934e+01	-7.215010e+00	-9.584641e+01	-1.153408e+02	-4.813098e+01	2.126797e+01
3.629968e+06	-4.344017e+01	-9.859472e+01	-3.086166e+01	-7.206046e+00	-9.440246e+01	-1.045655e+02	-4.811489e+01	2.131211e+01
3.630000e+06	-4.344377e+01	-9.861923e+01	-3.086398e+01	-7.197077e+00	-9.297387e+01	-9.684654e+01	-4.809883e+01	2.135609e+01
3.630031e+06	-4.344338e+01	-9.863481e+01	-3.086360e+01	-7.200518e+00	-9.552558e+01	-9.458503e+01	-4.811217e+01	2.136558e+01
3.630062e+06	-4.344295e+01	-9.865032e+01	-3.086319e+01	-7.204059e+00	-9.917268e+01	-9.002891e+01	-4.812577e+01	2.137481e+01
3.630094e+06	-4.344253e+01	-9.866582e+01	-3.086278e+01	-7.207599e+00	-1.052296e+02	-7.597815e+01	-4.813939e+01	2.138408e+01
3.630125e+06	-4.344210e+01	-9.868132e+01	-3.086238e+01	-7.211139e+00	-1.114198e+02	7.967703e+00	-4.815304e+01	2.139338e+01
3.630156e+06	-4.344167e+01	-9.869682e+01	-3.086197e+01	-7.214679e+00	-1.027872e+02	5.661666e+01	-4.816670e+01	2.140270e+01
3.630187e+06	-4.343636e+01	-9.869389e+01	-3.085952e+01	-7.205788e+00	-1.039166e+02	3.351664e+01	-4.816924e+01	2.139031e+01
3.630218e+06	-4.343105e+01	-9.869096e+01	-3.085707e+01	-7.196903e+00	-1.034759e+02	8.384340e+00	-4.817178e+01	2.137791e+01
3.630250e+06	-4.342574e+01	-9.868803e+01	-3.085462e+01	-7.188022e+00	-1.018283e+02	-1.112423e+01	-4.817432e+01	2.136550e+01
3.630281e+06	-4.342044e+01	-9.868511e+01	-3.085217e+01	-7.179146e+00	-9.988217e+01	-2.388012e+01	-4.817686e+01	2.135308e+01
3.630312e+06	-4.341514e+01	-9.868219e+01	-3.084972e+01	-7.170276e+00	-9.806185e+01	-3.210799e+01	-4.817940e+01	2.134066e+01
3.630344e+06	-4.341597e+01	-9.867331e+01	-3.085010e+01	-7.167226e+00	-9.803929e+01	-5.385705e+01	-4.817030e+01	2.144341e+01
3.630375e+06	-4.341695e+01	-9.866427e+01	-3.085055e+01	-7.164319e+00	-9.694240e+01	-7.330782e+01	-4.816090e+01	2.154877e+01
3.630406e+06	-4.341794e+01	-9.865524e+01	-3.085101e+01	-7.161411e+00	-9.532108e+01	-8.740203e+01	-4.815148e+01	2.165391e+01
3.630437e+06	-4.341892e+01	-9.864620e+01	-3.085146e+01	-7.158504e+00	-9.364953e+01	-9.699693e+01	-4.814204e+01	2.175881e+01
3.630468e+06	-4.341990e+01	-9.863716e+01	-3.085191e+01	-7.155596e+00	-9.210551e+01	-1.036068e+02	-4.813258e+01	2.186349e+01
3.630500e+06	-4.342424e+01	-9.864021e+01	-3.085087e+01	-7.157155e+00	-9.470088e+01	-9.160998e+01	-4.813003e+01	2.186171e+01
3.630531e+06	-4.342863e+01	-9.864345e+01	-3.084980e+01	-7.158786e+00	-9.741365e+01	-6.846387e+01	-4.812760e+01	2.185820e+01
3.630562e+06	-4.343302e+01	-9.864669e+01	-3.084873e+01	-7.160417e+00	-9.816456e+01	-3.261266e+01	-4.812516e+01	2.185470e+01
3.630594e+06	-4.343742e+01	-9.864994e+01	-3.084767e+01	-7.162047e+00	-9.597967e+01	-2.840668e+00	-4.812272e+01	2.185120e+01
3.630625e+06	-4.344181e+01	-9.865319e+01	-3.084660e+01	-7.163677e+00	-9.318115e+01	1.340545e+01	-4.812029e+01	2.184770e+01
3.630656e+06	-4.344328e+01	-9.867021e+01	-3.084886e+01	-7.174493e+00	-9.396587e+01	2.367245e+01	-4.813218e+01	2.171957e+01
3.630687e+06	-4.344472e+01	-9.868734e+01	-3.085115e+01	-7.185389e+00	-9.450405e+01	3.566989e+01	-4.814415e+01	2.159009e+01
3.630718e+06	-4.344616e+01	-9.870448e+01	-3.085345e+01	-7.196291e+00	-9.463989e+01	4.865164e+01	-4.815609e+01	2.146025e+01
3.630750e+06	-4.344759e+01	-9.872163e+01	-3.085574e+01	-7.207199e+00	-9.433565e+01	6.137991e+01	-4.816801e+01	2.133005e+01
3.630781e+06	-4.344903e+01	-9.873878e+01	-3.085803e+01	-7.218112e+00	-9.367261e+01	7.274780e+01	-4.817990e+01	2.119949e+01
3.630812e+06	-4.344750e+01	-9.876441e+01	-3.085547e+01	-7.212165e+00	-9.597005e+01	7.286666e+01	-4.816360e+01	2.130323e+01
3.630844e+06	-4.344597e+01	-9.879003e+01	-3.085291e+01	-7.206221e+00	-9.910258e+01	7.308875e+01	-4.814731e+01	2.140658e+01
3.630875e+06	-4.344443e+01	-9.881565e+01	-3.085035e+01	-7.200281e+00	-1.040496e+02	7.365175e+01	-4.813102e+01	2.150954e+01
3.630906e+06	-4.344289e+01	-9.884125e+01	-3.084779e+01	-7.194344e+00	-1.166925e+02	7.792154e+01	-4.811473e+01	2.161212e+01
3.630937e+06	-4.344136e+01	-9.886685e+01	-3.084523e+01	-7.188410e+00	-1.094681e+02	-1.100646e+02	-4.809844e+01	2.171431e+01
3.630968e+06	-4.343818e+01	-9.880867e+01	-3.084612e+01	-7.178569e+00	-1.045922e+02	-1.470217e+02	-4.810493e+01	2.174881e+01
3.631000e+06	-4.343495e+01	-9.874847e+01	-3.084710e+01	-7.168630e+00	-1.005947e+02	-1.603080e+02	-4.811198e+01	2.178170e+01
3.631031e+06	-4.343172e+01	-9.868832e+01	-3.084808e+01	-7.158688e+00	-9.771363e+01	-1.662834e+02	-4.811903e+01	2.181464e+01
3.631062e+06	-4.342847e+01	-9.862822e+01	-3.084906e+01	-7.148744e+00	-9.551289e+01	-1.696080e+02	-4.812609e+01	2.184763e+01
3.631094e+06	-4.342522e+01	-9.856816e+01	-3.085003e+01	-7.138798e+00	-9.374341e+01	-1.717121e+02	-4.813315e+01	2.188068e+01
3.631125e+06	-4.342648e+01	-9.859856e+01	-3.085022e+01	-7.147021e+00	-9.728609e+01	1.767500e+02	-4.812021e+01	2.179862e+01
3.631156e+06	-4.342781e+01	-9.863044e+01	-3.085040e+01	-7.155539e+00	-1.017443e+02	1.460229e+02	-4.810696e+01	2.171494e+01
3.631187e+06	-4.342914e+01	-9.866233e+01	-3.085057e+01	-7.164058e+00	-1.015463e+02	8.946635e+01	-4.809370e+01	2.163151e+01
3.631218e+06	-4.343047e+01	-9.869423e+01	-3.085074e+01	-7.172577e+00	-9.707374e+01	6.029807e+01	-4.808045e+01	2.154834e+01
3.631250e+06	-4.343179e+01	-9.872613e+01	-3.085092e+01	-7.181096e+00	-9.351353e+01	4.915285e+01	-4.806720e+01	2.146542e+01
3.631281e+06	-4.342468e+01	-9.867240e+01	-3.085011e+01	-7.174006e+00	-9.837019e+01	4.267182e+01	-4.808322e+01	2.155284e+01
3.631312e+06	-4.341749e+01	-9.861806e+01	-3.084929e+01	-7.166793e+00	-1.082799e+02	4.429576e+00	-4.809949e+01	2.164195e+01
3.631344e+06	-4.341031e+01	-9.856382e+01	-3.084847e+01	-7.159580e+00	-1.023004e+02	-9.887174e+01	-4.811577e+01	2.173141e+01
3.631375e+06	-4.340312e+01	-9.850966e+01	-3.084765e+01	-7.152369e+00	-9.556581e+01	-1.118839e+02	-4.813206e+01	2.182119e+01
3.631406e+06	-4.339593e+01	-9.845559e+01	-3.084683e+01	-7.145159e+00	-9.173265e+01	-1.157081e+02	-4.814836e+01	2.191132e+01
3.631437e+06	-4.339424e+01	-9.847752e+01	-3.084567e+01	-7.157252e+00	-9.226135e+01	-1.093729e+02	-4.815111e+01	2.181785e+01
3.631468e+06	-4.339255e+01	-9.849943e+01	-3.084451e+01	-7.169342e+00	-9.269785e+01	-1.022895e+02	-4.815384e+01	2.172432e+01
3.631500e+06	-4.339085e+01	-9.852134e+01	-3.084335e+01	-7.181429e+00	-9.300517e+01	-9.456911e+01	-4.815655e+01	2.163072e+01
3.631531e+06	-4.338916e+01	-9.854324e+01	-3.084219e+01	-7.193512e+00	-9.315166e+01	-8.643188e+01	-4.815923e+01	2.153708e+01
3.631562e+06	-4.338746e+01	-9.856513e+01	-3.084103e+01	-7.205592e+00	-9.312038e+01	-7.818525e+01	-4.816190e+01	2.144337e+01
3.631594e+06	-4.339113e+01	-9.855242e+01	-3.084375e+01	-7.203016e+00	-9.447056e+01	-6.671330e+01	-4.816372e+01	2.146446e+01
3.631625e+06	-4.339494e+01	-9.853885e+01	-3.084657e+01	-7.200077e+00	-9.556095e+01	-5.132144e+01	-4.816551e+01	2.148838e+01
3.631656e+06	-4.339875e+01	-9.852526e+01	-3.084940e+01	-7.197137e+00	-9.595606e+01	-3.296517e+01	-4.816731e+01	2.151232e+01
3.631687e+06	-4.340256e+01	-9.851167e+01	-3.085222e+01	-7.194194e+00	-9.545577e+01	-1.483755e+01	-4.816911e+01	2.153626e+01
3.631718e+06	-4.340637e+01	-9.849806e+01	-3.085504e+01	-7.191250e+00	-9.430800e+01	7.607717e-02	-4.817090e+01	2.156022e+01
3.631750e+06	-4.340234e+01	-9.853897e+01	-3.085064e+01	-7.197181e+00	-9.744142e+01	-3.578913e+00	-4.816441e+01	2.155751e+01
3.631781e+06	-4.339818e+01	-9.858073e+01	-3.084612e+01	-7.203251e+00	-1.023717e+02	-1.357562e+01	-4.815779e+01	2.155438e+01
3.631812e+06	-4.339402e+01	-9.862244e+01	-3.084160e+01	-7.209314e+00	-1.102552e+02	-6.294838e+01	-4.815118e+01	2.155125e+01
3.631844e+06	-4.338986e+01	-9.866412e+01	-3.083708e+01	-7.215370e+00	-1.045880e+02	-1.413460e+02	-4.814457e+01	2.154813e+01
3.631875e+06	-4.338569e+01	-9.870576e+01	-3.083257e+01	-7.221421e+00	-9.873083e+01	-1.564103e+02	-4.813796e+01	2.154501e+01
3.631906e+06	-4.339517e+01	-9.866662e+01	-3.083459e+01	-7.215391e+00	-1.049599e+02	-1.260463e+02	-4.814292e+01	2.154310e+01
3.631937e+06	-4.340477e+01	-9.862675e+01	-3.083667e+01	-7.209261e+00	-1.043492e+02	-4.788501e+01	-4.814797e+01	2.154120e+01
3.631968e+06	-4.341437e+01	-9.858679e+01	-3.083875e+01	-7.203128e+00	-9.821718e+01	-2.112033e+01	-4.815302e+01	2.153929e+01
3.632000e+06	-4.342398e+01	-9.854675e+01	-3.084083e+01	-7.196993e+00	-9.427145e+01	-1.300664e+01	-4.815807e+01	2.153738e+01
3.632031e+06	-4.343359e+01	-9.850661e+01	-3.084291e+01	-7.190854e+00	-9.150939e+01	-9.268252e+00	-4.816313e+01	2.153547e+01
3.632062e+06	-4.343213e+01	-9.850071e+01	-3.084408e+01	-7.212416e+00	-9.244534e+01	-2.419900e+00	-4.815778e+01	2.148139e+01
3.632094e+06	-4.343067e+01	-9.849481e+01	-3.084524e+01	-7.233983e+00	-9.332216e+01	6.028310e+00	-4.815242e+01	2.142737e+01
3.632125e+06	-4.342921e+01	-9.848891e+01	-3.084641e+01	-7.255557e+00	-9.404405e+01	1.620037e+01	-4.814706e+01	2.137342e+01
3.632156e+06	-4.342775e+01	-9.848302e+01	-3.084757e+01	-7.277136e+00	-9.448953e+01	2.785485e+01	-4.814170e+01	2.131954e+01
3.632187e+06	-4.342629e+01	-9.847712e+01	-3.084873e+01	-7.298721e+00	-9.455817e+01	4.023091e+01	-4.813633e+01	2.126572e+01
3.632218e+06	-4.342745e+01	-9.849127e+01	-3.084712e+01	-7.280468e+00	-9.572717e+01	6.818945e+01	-4.814371e+01	2.135378e+01
3.632250e+06	-4.342867e+01	-9.850592e+01	-3.084543e+01	-7.261243e+00	-9.469423e+01	9.709456e+01	-4.815140e+01	2.144549e+01
3.632281e+06	-4.342990e+01	-9.852057e+01	-3.084375e+01	-7.242025e+00	-9.244306e+01	1.164350e+02	-4.815907e+01	2.153736e+01
3.632312e+06	-4.343113e+01	-9.853523e+01	-3.084206e+01	-7.222815e+00	-9.018235e+01	1.277968e+02	-4.816672e+01	2.162939e+01
3.632344e+06	-4.343235e+01	-9.854989e+01	-3.084038e+01	-7.203612e+00	-8.821988e+01	1.347551e+02	-4.817436e+01	2.172158e+01
3.632375e+06	-4.343297e+01	-9.851817e+01	-3.084113e+01	-7.207408e+00	-9.087915e+01	1.335963e+02	-4.815906e+01	2.168433e+01
3.632406e+06	-4.343357e+01	-9.848569e+01	-3.084193e+01	-7.211578e+00	-9.485897e+01	1.308645e+02	-4.814341e+01	2.164511e+01
3.632437e+06	-4.343417e+01	-9.845321e+01	-3.084273e+01	-7.215749e+00	-1.022447e+02	1.207059e+02	-4.812779e+01	2.160603e+01
3.632468e+06	-4.343477e+01	-9.842072e+01	-3.084353e+01	-7.219920e+00	-1.080515e+02	-5.636534e+00	-4.811219e+01	2.156709e+01
3.632500e+06	-4.343537e+01	-9.838823e+01	-3.084432e+01	-7.224093e+00	-9.710557e+01	-3.210870e+01	-4.809661e+01	2.152829e+01
3.632531e+06	-4.343296e+01	-9.845445e+01	-3.084143e+01	-7.219266e+00	-9.804405e+01	-2.835714e+01	-4.810898e+01	2.159545e+01
3.632562e+06	-4.343052e+01	-9.852144e+01	-3.083852e+01	-7.214370e+00	-9.911537e+01	-2.348639e+01	-4.812158e+01	2.166365e+01
3.632594e+06	-4.342806e+01	-9.858838e+01	-3.083560e+01	-7.209477e+00	-1.002446e+02	-1.720623e+01	-4.813418e+01	2.173205e+01
3.632625e+06	-4.342560e+01	-9.865529e+01	-3.083268e+01	-7.204588e+00	-1.013857e+02	-9.038694e+00	-4.814679e+01	2.180066e+01
3.632656e+06	-4.342312e+01	-9.872216e+01	-3.082977e+01	-7.199702e+00	-1.024360e+02	1.496394e+00	-4.815940e+01	2.186946e+01
