# Hz S dB R 50.000
3.626563e+06	-4.302145e+01	-9.274902e+01	-3.086769e+01	-7.133024e+00	-8.951564e+01	1.432025e+02	-4.571119e+01	1.285539e+01
3.626594e+06	-4.302189e+01	-9.274785e+01	-3.086841e+01	-7.137935e+00	-9.155000e+01	1.310732e+02	-4.570195e+01	1.287401e+01
3.626626e+06	-4.302233e+01	-9.274668e+01	-3.086912e+01	-7.142847e+00	-9.338968e+01	1.119122e+02	-4.569272e+01	1.289260e+01
3.626657e+06	-4.302277e+01	-9.274552e+01	-3.086984e+01	-7.147760e+00	-9.405623e+01	8.593555e+01	-4.568350e+01	1.291114e+01
3.626688e+06	-4.302321e+01	-9.274435e+01	-3.087055e+01	-7.152674e+00	-9.297334e+01	6.125832e+01	-4.567428e+01	1.292964e+01
3.626719e+06	-4.302370e+01	-9.274362e+01	-3.087126e+01	-7.157634e+00	-9.103848e+01	4.426726e+01	-4.566516e+01	1.294797e+01
3.626750e+06	-4.302967e+01	-9.279733e+01	-3.087127e+01	-7.168313e+00	-9.230728e+01	4.485747e+01	-4.566645e+01	1.294884e+01
3.626782e+06	-4.303565e+01	-9.285111e+01	-3.087129e+01	-7.178993e+00	-9.379215e+01	4.566787e+01	-4.566774e+01	1.294972e+01
3.626813e+06	-4.304162e+01	-9.290497e+01	-3.087130e+01	-7.189672e+00	-9.558117e+01	4.684930e+01	-4.566902e+01	1.295059e+01
3.626844e+06	-4.304758e+01	-9.295890e+01	-3.087132e+01	-7.200351e+00	-9.782926e+01	4.872997e+01	-4.567031e+01	1.295147e+01
3.626876e+06	-4.305335e+01	-9.301101e+01	-3.087132e+01	-7.210667e+00	-1.007570e+02	5.182069e+01	-4.567143e+01	1.295189e+01
3.626907e+06	-4.304693e+01	-9.294672e+01	-3.087092e+01	-7.198648e+00	-9.870194e+01	3.786602e+01	-4.566184e+01	1.292411e+01
3.626938e+06	-4.304051e+01	-9.288253e+01	-3.087051e+01	-7.186631e+00	-9.677359e+01	2.909720e+01	-4.565226e+01	1.289639e+01
3.626969e+06	-4.303408e+01	-9.281844e+01	-3.087010e+01	-7.174614e+00	-9.508487e+01	2.332787e+01	-4.564269e+01	1.286873e+01
3.627000e+06	-4.302765e+01	-9.275443e+01	-3.086970e+01	-7.162599e+00	-9.361964e+01	1.931875e+01	-4.563312e+01	1.284114e+01
3.627032e+06	-4.302134e+01	-9.269196e+01	-3.086934e+01	-7.150845e+00	-9.243215e+01	1.589759e+01	-4.562395e+01	1.281414e+01
3.627063e+06	-4.302052e+01	-9.268788e+01	-3.087081e+01	-7.149659e+00	-9.429780e+01	-1.468811e+01	-4.563007e+01	1.280935e+01
3.627094e+06	-4.301970e+01	-9.268380e+01	-3.087229e+01	-7.148472e+00	-9.326636e+01	-4.875213e+01	-4.563620e+01	1.280454e+01
3.627126e+06	-4.301887e+01	-9.267972e+01	-3.087377e+01	-7.147286e+00	-9.060410e+01	-7.022717e+01	-4.564233e+01	1.279973e+01
3.627157e+06	-4.301805e+01	-9.267564e+01	-3.087525e+01	-7.146099e+00	-8.804645e+01	-8.180647e+01	-4.564847e+01	1.279491e+01
3.627188e+06	-4.301723e+01	-9.267156e+01	-3.087673e+01	-7.144911e+00	-8.590905e+01	-8.852020e+01	-4.565461e+01	1.279009e+01
3.627219e+06	-4.301832e+01	-9.270209e+01	-3.087756e+01	-7.149809e+00	-8.679602e+01	-8.512586e+01	-4.566259e+01	1.282289e+01
3.627250e+06	-4.301941e+01	-9.273263e+01	-3.087838e+01	-7.154707e+00	-8.774180e+01	-8.093285e+01	-4.567057e+01	1.285576e+01
3.627282e+06	-4.302050e+01	-9.276318e+01	-3.087921e+01	-7.159607e+00	-8.873760e+01	-7.568690e+01	-4.567855e+01	1.288868e+01
3.627313e+06	-4.302159e+01	-9.279373e+01	-3.088004e+01	-7.164508e+00	-8.975806e+01	-6.906477e+01	-4.568654e+01	1.292167e+01
3.627344e+06	-4.302260e+01	-9.282365e+01	-3.088085e+01	-7.169504e+00	-9.074784e+01	-6.078463e+01	-4.569440e+01	1.295431e+01
3.627376e+06	-4.301536e+01	-9.277339e+01	-3.087928e+01	-7.186307e+00	-9.177013e+01	-6.117228e+01	-4.568514e+01	1.293635e+01
3.627407e+06	-4.300811e+01	-9.272321e+01	-3.087772e+01	-7.203104e+00	-9.292841e+01	-6.167056e+01	-4.567590e+01	1.291842e+01
3.627438e+06	-4.300086e+01	-9.267311e+01	-3.087616e+01	-7.219895e+00	-9.426425e+01	-6.233457e+01	-4.566667e+01	1.290054e+01
3.627469e+06	-4.299361e+01	-9.262310e+01	-3.087459e+01	-7.236680e+00	-9.584158e+01	-6.326321e+01	-4.565744e+01	1.288269e+01
3.627500e+06	-4.298665e+01	-9.257390e+01	-3.087306e+01	-7.252908e+00	-9.776988e+01	-6.433909e+01	-4.564846e+01	1.286617e+01
3.627532e+06	-4.299702e+01	-9.256984e+01	-3.087383e+01	-7.235262e+00	-9.981112e+01	-4.096157e+01	-4.565401e+01	1.292840e+01
3.627563e+06	-4.300741e+01	-9.256576e+01	-3.087460e+01	-7.217614e+00	-1.000079e+02	-1.007057e+01	-4.565955e+01	1.299072e+01
3.627594e+06	-4.301781e+01	-9.256167e+01	-3.087537e+01	-7.199963e+00	-9.814655e+01	1.500857e+01	-4.566508e+01	1.305312e+01
3.627626e+06	-4.302822e+01	-9.255757e+01	-3.087614e+01	-7.182308e+00	-9.577271e+01	3.009631e+01	-4.567061e+01	1.311560e+01
3.627657e+06	-4.303829e+01	-9.255381e+01	-3.087690e+01	-7.165046e+00	-9.373773e+01	3.855495e+01	-4.567596e+01	1.317550e+01
3.627688e+06	-4.303420e+01	-9.256439e+01	-3.087747e+01	-7.163880e+00	-9.674162e+01	2.231440e+01	-4.567436e+01	1.312777e+01
3.627719e+06	-4.303011e+01	-9.257496e+01	-3.087803e+01	-7.162714e+00	-9.918337e+01	-9.253944e+00	-4.567276e+01	1.308005e+01
3.627750e+06	-4.302602e+01	-9.258552e+01	-3.087860e+01	-7.161548e+00	-9.824833e+01	-4.776607e+01	-4.567115e+01	1.303235e+01
3.627782e+06	-4.302193e+01	-9.259607e+01	-3.087916e+01	-7.160382e+00	-9.524710e+01	-7.108058e+01	-4.566954e+01	1.298467e+01
3.627813e+06	-4.301784e+01	-9.260661e+01	-3.087973e+01	-7.159215e+00	-9.245761e+01	-8.280451e+01	-4.566792e+01	1.293701e+01
3.627844e+06	-4.302490e+01	-9.265396e+01	-3.087964e+01	-7.164736e+00	-9.330534e+01	-8.533849e+01	-4.566666e+01	1.299655e+01
3.627876e+06	-4.303197e+01	-9.270138e+01	-3.087955e+01	-7.170256e+00	-9.422165e+01	-8.844360e+01	-4.566540e+01	1.305608e+01
3.627907e+06	-4.303903e+01	-9.274889e+01	-3.087947e+01	-7.175777e+00	-9.521043e+01	-9.231126e+01	-4.566413e+01	1.311559e+01
3.627938e+06	-4.304609e+01	-9.279646e+01	-3.087938e+01	-7.181297e+00	-9.626944e+01	-9.720947e+01	-4.566284e+01	1.317508e+01
3.627969e+06	-4.305307e+01	-9.284308e+01	-3.087930e+01	-7.186699e+00	-9.740522e+01	-1.033314e+02	-4.566154e+01	1.323369e+01
3.628000e+06	-4.304870e+01	-9.276088e+01	-3.087998e+01	-7.177487e+00	-1.019285e+02	-7.811219e+01	-4.565858e+01	1.318492e+01
3.628032e+06	-4.304432e+01	-9.267875e+01	-3.088066e+01	-7.168274e+00	-1.032240e+02	-2.174651e+01	-4.565561e+01	1.313617e+01
3.628063e+06	-4.303993e+01	-9.259671e+01	-3.088134e+01	-7.159059e+00	-9.879033e+01	1.371311e+01	-4.565265e+01	1.308747e+01
3.628094e+06	-4.303552e+01	-9.251475e+01	-3.088202e+01	-7.149842e+00	-9.497979e+01	2.668961e+01	-4.564967e+01	1.303879e+01
3.628126e+06	-4.303120e+01	-9.243488e+01	-3.088272e+01	-7.140838e+00	-9.223308e+01	3.232048e+01	-4.564672e+01	1.299193e+01
3.628157e+06	-4.303353e+01	-9.247780e+01	-3.088460e+01	-7.144979e+00	-9.211092e+01	1.179475e+01	-4.564552e+01	1.305444e+01
3.628188e+06	-4.303585e+01	-9.252075e+01	-3.088649e+01	-7.149121e+00	-9.104384e+01	-6.009305e+00	-4.564431e+01	1.311693e+01
3.628219e+06	-4.303818e+01	-9.256372e+01	-3.088837e+01	-7.153266e+00	-8.953935e+01	-1.915384e+01	-4.564309e+01	1.317941e+01
3.628250e+06	-4.304049e+01	-9.260672e+01	-3.089026e+01	-7.157412e+00	-8.798142e+01	-2.835145e+01	-4.564186e+01	1.324187e+01
3.628282e+06	-4.304278e+01	-9.264837e+01	-3.089207e+01	-7.161481e+00	-8.660087e+01	-3.473314e+01	-4.564079e+01	1.330261e+01
3.628313e+06	-4.304410e+01	-9.263480e+01	-3.089082e+01	-7.162365e+00	-8.857048e+01	-3.613781e+01	-4.564649e+01	1.329410e+01
3.628344e+06	-4.304541e+01	-9.262121e+01	-3.088957e+01	-7.163248e+00	-9.111009e+01	-3.849890e+01	-4.565220e+01	1.328559e+01
3.628376e+06	-4.304672e+01	-9.260763e+01	-3.088833e+01	-7.164131e+00	-9.466910e+01	-4.326786e+01	-4.565791e+01	1.327706e+01
3.628407e+06	-4.304804e+01	-9.259404e+01	-3.088708e+01	-7.165014e+00	-1.004454e+02	-5.736321e+01	-4.566362e+01	1.326852e+01
3.628438e+06	-4.304935e+01	-9.258044e+01	-3.088583e+01	-7.165896e+00	-1.066931e+02	-1.338260e+02	-4.566934e+01	1.325997e+01
3.628469e+06	-4.304658e+01	-9.260422e+01	-3.088612e+01	-7.165823e+00	-1.116936e+02	-7.408781e+01	-4.565921e+01	1.322581e+01
3.628500e+06	-4.304381e+01	-9.262799e+01	-3.088641e+01	-7.165750e+00	-1.061575e+02	-1.978850e+01	-4.564909e+01	1.319173e+01
3.628532e+06	-4.304105e+01	-9.265174e+01	-3.088671e+01	-7.165677e+00	-1.013209e+02	-5.546535e+00	-4.563898e+01	1.315773e+01
3.628563e+06	-4.303828e+01	-9.267548e+01	-3.088700e+01	-7.165604e+00	-9.808491e+01	2.719540e-02	-4.562888e+01	1.312380e+01
3.628594e+06	-4.303549e+01	-9.269928e+01	-3.088729e+01	-7.165511e+00	-9.572099e+01	2.969703e+00	-4.561895e+01	1.308998e+01
3.628626e+06	-4.303084e+01	-9.273329e+01	-3.088709e+01	-7.162945e+00	-9.623699e+01	9.027436e+00	-4.562868e+01	1.305910e+01
3.628657e+06	-4.302619e+01	-9.276725e+01	-3.088689e+01	-7.160379e+00	-9.667033e+01	1.578790e+01	-4.563842e+01	1.302814e+01
3.628688e+06	-4.302154e+01	-9.280119e+01	-3.088669e+01	-7.157813e+00	-9.698766e+01	2.316186e+01	-4.564817e+01	1.299711e+01
3.628719e+06	-4.301689e+01	-9.283508e+01	-3.088650e+01	-7.155248e+00	-9.715916e+01	3.096531e+01	-4.565793e+01	1.296602e+01
3.628750e+06	-4.301236e+01	-9.286830e+01	-3.088627e+01	-7.152795e+00	-9.721711e+01	3.874082e+01	-4.566770e+01	1.293575e+01
3.628782e+06	-4.301537e+01	-9.286225e+01	-3.088460e+01	-7.157296e+00	-1.009882e+02	3.250044e+01	-4.567780e+01	1.296054e+01
3.628813e+06	-4.301837e+01	-9.285618e+01	-3.088294e+01	-7.161796e+00	-1.070996e+02	1.267705e+01	-4.568792e+01	1.298539e+01
3.628844e+06	-4.302138e+01	-9.285012e+01	-3.088127e+01	-7.166294e+00	-1.102919e+02	-6.912528e+01	-4.569804e+01	1.301031e+01
3.628876e+06	-4.302439e+01	-9.284405e+01	-3.087960e+01	-7.170790e+00	-1.030805e+02	-1.076706e+02	-4.570817e+01	1.303527e+01
3.628907e+06	-4.302737e+01	-9.283868e+01	-3.087801e+01	-7.174915e+00	-9.872240e+01	-1.162472e+02	-4.571775e+01	1.305946e+01
3.628938e+06	-4.302895e+01	-9.286219e+01	-3.087965e+01	-7.163979e+00	-1.006281e+02	-8.373412e+01	-4.570441e+01	1.304961e+01
3.628969e+06	-4.303052e+01	-9.288570e+01	-3.088129e+01	-7.153040e+00	-9.932399e+01	-4.856176e+01	-4.569109e+01	1.303979e+01
3.629000e+06	-4.303210e+01	-9.290922e+01	-3.088293e+01	-7.142096e+00	-9.647571e+01	-2.763753e+01	-4.567779e+01	1.303000e+01
3.629032e+06	-4.303368e+01	-9.293275e+01	-3.088457e+01	-7.131148e+00	-9.385746e+01	-1.666557e+01	-4.566451e+01	1.302023e+01
3.629063e+06	-4.303525e+01	-9.295629e+01	-3.088621e+01	-7.120196e+00	-9.170292e+01	-1.035796e+01	-4.565125e+01	1.301050e+01
3.629094e+06	-4.302947e+01	-9.291125e+01	-3.088834e+01	-7.142920e+00	-9.203108e+01	-9.681701e+00	-4.565377e+01	1.305608e+01
3.629126e+06	-4.302369e+01	-9.286626e+01	-3.089048e+01	-7.165654e+00	-9.237076e+01	-8.951392e+00	-4.565628e+01	1.310170e+01
3.629157e+06	-4.301790e+01	-9.282134e+01	-3.089261e+01	-7.188400e+00	-9.272268e+01	-8.160551e+00	-4.565879e+01	1.314733e+01
3.629188e+06	-4.301212e+01	-9.277648e+01	-3.089474e+01	-7.211157e+00	-9.308759e+01	-7.301671e+00	-4.566129e+01	1.319300e+01
3.629219e+06	-4.300643e+01	-9.273239e+01	-3.089682e+01	-7.233672e+00	-9.345595e+01	-6.297217e+00	-4.566385e+01	1.323835e+01
3.629250e+06	-4.301239e+01	-9.277689e+01	-3.089339e+01	-7.224745e+00	-9.249639e+01	2.303096e+00	-4.567365e+01	1.324226e+01
3.629282e+06	-4.301834e+01	-9.282146e+01	-3.088996e+01	-7.215826e+00	-9.149133e+01	9.153031e+00	-4.568347e+01	1.324618e+01
3.629313e+06	-4.302430e+01	-9.286609e+01	-3.088652e+01	-7.206913e+00	-9.050176e+01	1.459270e+01	-4.569329e+01	1.325010e+01
3.629344e+06	-4.303025e+01	-9.291078e+01	-3.088309e+01	-7.198008e+00	-8.955695e+01	1.894399e+01	-4.570313e+01	1.325404e+01
3.629376e+06	-4.303618e+01	-9.295434e+01	-3.087972e+01	-7.189237e+00	-8.869456e+01	2.246228e+01	-4.571256e+01	1.325767e+01
3.629407e+06	-4.304056e+01	-9.292440e+01	-3.087994e+01	-7.188309e+00	-8.950950e+01	2.570707e+01	-4.569620e+01	1.324188e+01
3.629438e+06	-4.304494e+01	-9.289443e+01	-3.088016e+01	-7.187381e+00	-9.037142e+01	2.964384e+01	-4.567988e+01	1.322616e+01
3.629469e+06	-4.304932e+01	-9.286443e+01	-3.088038e+01	-7.186452e+00	-9.127233e+01	3.446834e+01	-4.566358e+01	1.321049e+01
3.629500e+06	-4.305370e+01	-9.283440e+01	-3.088060e+01	-7.185524e+00	-9.219240e+01	4.042180e+01	-4.564732e+01	1.319489e+01
3.629532e+06	-4.305771e+01	-9.280458e+01	-3.088080e+01	-7.184563e+00	-9.303824e+01	4.756358e+01	-4.563171e+01	1.317885e+01
3.629563e+06	-4.304709e+01	-9.278475e+01	-3.088058e+01	-7.182270e+00	-9.178387e+01	4.716286e+01	-4.564171e+01	1.314285e+01
3.629594e+06	-4.303648e+01	-9.276496e+01	-3.088036e+01	-7.179976e+00	-9.068772e+01	4.685716e+01	-4.565171e+01	1.310677e+01
3.629626e+06	-4.302588e+01	-9.274522e+01	-3.088014e+01	-7.177683e+00	-8.971435e+01	4.661626e+01	-4.566172e+01	1.307061e+01
3.629657e+06	-4.301529e+01	-9.272552e+01	-3.087991e+01	-7.175390e+00	-8.883905e+01	4.642155e+01	-4.567174e+01	1.303437e+01
3.629688e+06	-4.300471e+01	-9.270588e+01	-3.087969e+01	-7.173097e+00	-8.804385e+01	4.626090e+01	-4.568177e+01	1.299804e+01
3.629719e+06	-4.300612e+01	-9.274449e+01	-3.088040e+01	-7.180374e+00	-8.965581e+01	5.484353e+01	-4.567431e+01	1.297467e+01
3.629750e+06	-4.300752e+01	-9.278312e+01	-3.088111e+01	-7.187653e+00	-9.128202e+01	6.735652e+01	-4.566686e+01	1.295134e+01
3.629782e+06	-4.300892e+01	-9.282176e+01	-3.088182e+01	-7.194933e+00	-9.255944e+01	8.497427e+01	-4.565941e+01	1.292805e+01
3.629813e+06	-4.301031e+01	-9.286041e+01	-3.088253e+01	-7.202214e+00	-9.289535e+01	1.063475e+02	-4.565197e+01	1.290480e+01
3.629844e+06	-4.301177e+01	-9.289850e+01	-3.088324e+01	-7.209332e+00	-9.209749e+01	1.262291e+02	-4.564468e+01	1.288172e+01
3.629876e+06	-4.302148e+01	-9.286560e+01	-3.088353e+01	-7.196063e+00	-9.366730e+01	1.063161e+02	-4.565544e+01	1.287490e+01
3.629907e+06	-4.303120e+01	-9.283264e+01	-3.088382e+01	-7.182793e+00	-9.398442e+01	8.127716e+01	-4.566622e+01	1.286808e+01
3.629938e+06	-4.304093e+01	-9.279959e+01	-3.088411e+01	-7.169523e+00	-9.278884e+01	5.878706e+01	-4.567700e+01	1.286123e+01
3.629969e+06	-4.305067e+01	-9.276648e+01	-3.088440e+01	-7.156251e+00	-9.091697e+01	4.319946e+01	-4.568781e+01	1.285437e+01
3.630000e+06	-4.306025e+01	-9.273334e+01	-3.088468e+01	-7.143254e+00	-8.907917e+01	3.328713e+01	-4.569832e+01	1.284739e+01
3.630032e+06	-4.305953e+01	-9.270360e+01	-3.088498e+01	-7.147185e+00	-9.039912e+01	3.317695e+01	-4.569026e+01	1.283453e+01
3.630063e+06	-4.305882e+01	-9.267385e+01	-3.088527e+01	-7.151116e+00	-9.195617e+01	3.302351e+01	-4.568221e+01	1.282169e+01
3.630094e+06	-4.305810e+01	-9.264412e+01	-3.088556e+01	-7.155048e+00	-9.385455e+01	3.279510e+01	-4.567417e+01	1.280888e+01
3.630126e+06	-4.305738e+01	-9.261438e+01	-3.088585e+01	-7.158979e+00	-9.628706e+01	3.241904e+01	-4.566614e+01	1.279609e+01
3.630157e+06	-4.305666e+01	-9.258616e+01	-3.088608e+01	-7.162918e+00	-9.966448e+01	3.109411e+01	-4.565826e+01	1.278285e+01
3.630188e+06	-4.305634e+01	-9.261908e+01	-3.088406e+01	-7.167141e+00	-1.022893e+02	-6.613501e+00	-4.565652e+01	1.275040e+01
3.630219e+06	-4.305601e+01	-9.265200e+01	-3.088204e+01	-7.171361e+00	-1.003887e+02	-4.828158e+01	-4.565477e+01	1.271797e+01
3.630250e+06	-4.305569e+01	-9.268491e+01	-3.088003e+01	-7.175580e+00	-9.687697e+01	-6.916825e+01	-4.565303e+01	1.268555e+01
3.630282e+06	-4.305535e+01	-9.271782e+01	-3.087801e+01	-7.179796e+00	-9.397408e+01	-7.897671e+01	-4.565128e+01	1.265314e+01
3.630313e+06	-4.305502e+01	-9.275073e+01	-3.087599e+01	-7.184011e+00	-9.169326e+01	-8.435854e+01	-4.564953e+01	1.262074e+01
3.630344e+06	-4.305912e+01	-9.276397e+01	-3.087949e+01	-7.166918e+00	-9.303517e+01	-7.307369e+01	-4.565738e+01	1.267059e+01
3.630376e+06	-4.306322e+01	-9.277721e+01	-3.088299e+01	-7.149812e+00	-9.409182e+01	-5.812684e+01	-4.566524e+01	1.272053e+01
3.630407e+06	-4.306732e+01	-9.279048e+01	-3.088649e+01	-7.132692e+00	-9.449731e+01	-4.035612e+01	-4.567309e+01	1.277057e+01
3.630438e+06	-4.307142e+01	-9.280375e+01	-3.088999e+01	-7.115558e+00	-9.405709e+01	-2.265866e+01	-4.568095e+01	1.282069e+01
3.630469e+06	-4.307549e+01	-9.281709e+01	-3.089343e+01	-7.098601e+00	-9.300443e+01	-7.906254e+00	-4.568872e+01	1.287062e+01
3.630500e+06	-4.307602e+01	-9.283710e+01	-3.088997e+01	-7.105359e+00	-9.474508e+01	2.096556e+00	-4.568610e+01	1.288579e+01
3.630532e+06	-4.307655e+01	-9.285711e+01	-3.088651e+01	-7.112112e+00	-9.642160e+01	1.701383e+01	-4.568348e+01	1.290095e+01
3.630563e+06	-4.307707e+01	-9.287712e+01	-3.088305e+01	-7.118859e+00	-9.748382e+01	3.767538e+01	-4.568086e+01	1.291611e+01
3.630594e+06	-4.307760e+01	-9.289713e+01	-3.087959e+01	-7.125601e+00	-9.728229e+01	6.060512e+01	-4.567825e+01	1.293125e+01
3.630626e+06	-4.307804e+01	-9.291648e+01	-3.087616e+01	-7.132202e+00	-9.601288e+01	7.919088e+01	-4.567571e+01	1.294646e+01
3.630657e+06	-4.307380e+01	-9.289469e+01	-3.087437e+01	-7.130461e+00	-9.726951e+01	6.134068e+01	-4.567851e+01	1.296632e+01
3.630688e+06	-4.306955e+01	-9.287293e+01	-3.087258e+01	-7.128721e+00	-9.755938e+01	3.985515e+01	-4.568131e+01	1.298620e+01
3.630719e+06	-4.306531e+01	-9.285118e+01	-3.087079e+01	-7.126982e+00	-9.669339e+01	1.981000e+01	-4.568411e+01	1.300609e+01
3.630750e+06	-4.306106e+01	-9.282946e+01	-3.086900e+01	-7.125243e+00	-9.517631e+01	4.709219e+00	-4.568691e+01	1.302599e+01
3.630782e+06	-4.305675e+01	-9.280875e+01	-3.086729e+01	-7.123757e+00	-9.357581e+01	-5.566467e+00	-4.568962e+01	1.304546e+01
3.630813e+06	-4.304958e+01	-9.282821e+01	-3.086905e+01	-7.132524e+00	-9.401987e+01	-8.162780e+00	-4.568873e+01	1.304679e+01
3.630844e+06	-4.304241e+01	-9.284764e+01	-3.087080e+01	-7.141293e+00	-9.446701e+01	-1.103985e+01	-4.568785e+01	1.304812e+01
3.630876e+06	-4.303525e+01	-9.286704e+01	-3.087255e+01	-7.150067e+00	-9.491280e+01	-1.422874e+01	-4.568697e+01	1.304945e+01
3.630907e+06	-4.302809e+01	-9.288641e+01	-3.087431e+01	-7.158844e+00	-9.535127e+01	-1.775978e+01	-4.568608e+01	1.305078e+01
3.630938e+06	-4.302094e+01	-9.290574e+01	-3.087606e+01	-7.167624e+00	-9.577466e+01	-2.165971e+01	-4.568520e+01	1.305211e+01
3.630969e+06	-4.302021e+01	-9.284035e+01	-3.087623e+01	-7.165123e+00	-9.559021e+01	-2.127245e+01	-4.567523e+01	1.303985e+01
3.631000e+06	-4.301946e+01	-9.277497e+01	-3.087640e+01	-7.162622e+00	-9.540922e+01	-2.090114e+01	-4.566527e+01	1.302762e+01
3.631032e+06	-4.301871e+01	-9.270960e+01	-3.087657e+01	-7.160121e+00	-9.523158e+01	-2.054485e+01	-4.565532e+01	1.301542e+01
3.631063e+06	-4.301794e+01	-9.264424e+01	-3.087674e+01	-7.157620e+00	-9.505719e+01	-2.020271e+01	-4.564539e+01	1.300324e+01
3.631094e+06	-4.301716e+01	-9.257938e+01	-3.087691e+01	-7.155157e+00	-9.490531e+01	-1.976972e+01	-4.563554e+01	1.299104e+01
3.631126e+06	-4.301636e+01	-9.257402e+01	-3.087648e+01	-7.157346e+00	-9.710233e+01	-2.274803e+00	-4.563550e+01	1.297228e+01
3.631157e+06	-4.301555e+01	-9.256866e+01	-3.087606e+01	-7.159536e+00	-9.837788e+01	2.436510e+01	-4.563545e+01	1.295351e+01
3.631188e+06	-4.301475e+01	-9.256330e+01	-3.087563e+01	-7.161725e+00	-9.758442e+01	5.265751e+01	-4.563540e+01	1.293475e+01
3.631219e+06	-4.301394e+01	-9.255795e+01	-3.087521e+01	-7.163914e+00	-9.549369e+01	7.253744e+01	-4.563536e+01	1.291598e+01
3.631250e+06	-4.301325e+01	-9.255363e+01	-3.087477e+01	-7.166173e+00	-9.332441e+01	8.426798e+01	-4.563552e+01	1.289797e+01
3.631282e+06	-4.301957e+01	-9.261307e+01	-3.087375e+01	-7.172704e+00	-9.333442e+01	7.851398e+01	-4.564872e+01	1.292610e+01
3.631313e+06	-4.302588e+01	-9.267260e+01	-3.087272e+01	-7.179233e+00	-9.325748e+01	7.280431e+01	-4.566194e+01	1.295431e+01
3.631344e+06	-4.303218e+01	-9.273222e+01	-3.087170e+01	-7.185761e+00	-9.309809e+01	6.724837e+01	-4.567518e+01	1.298261e+01
3.631376e+06	-4.303848e+01	-9.279193e+01	-3.087067e+01	-7.192288e+00	-9.286495e+01	6.193866e+01	-4.568844e+01	1.301100e+01
3.631407e+06	-4.304461e+01	-9.284894e+01	-3.086967e+01	-7.198603e+00	-9.259635e+01	5.716071e+01	-4.570146e+01	1.304002e+01
3.631438e+06	-4.304365e+01	-9.279332e+01	-3.086988e+01	-7.196406e+00	-9.340031e+01	6.182259e+01	-4.570437e+01	1.309133e+01
3.631469e+06	-4.304269e+01	-9.273770e+01	-3.087008e+01	-7.194208e+00	-9.420971e+01	6.743882e+01	-4.570728e+01	1.314267e+01
3.631500e+06	-4.304172e+01	-9.268209e+01	-3.087028e+01	-7.192011e+00	-9.499137e+01	7.418889e+01	-4.571018e+01	1.319405e+01
3.631532e+06	-4.304074e+01	-9.262650e+01	-3.087048e+01	-7.189813e+00	-9.569272e+01	8.220328e+01	-4.571308e+01	1.324546e+01
3.631563e+06	-4.303975e+01	-9.257092e+01	-3.087068e+01	-7.187615e+00	-9.624181e+01	9.146880e+01	-4.571597e+01	1.329691e+01
